#  HZ   S   RI   R     50.00 
! Rohde & Schwarz Vector Network Analyzer 
! Rohde-Schwarz,ZNB20-2Port,1311601062102128,3.60
! Created: UTC 4/29/2024, 2:51:34 PM
! freq[Hz]                re:S11                  im:S11                  re:S21                  im:S21                  re:S12                  im:S12                  re:S22                  im:S22
 1.000000000000000E5     9.962412290041774E-1    3.769151144211359E-3    8.863701575377547E-5    3.225942837412656E-5    3.141796622045982E-5   -6.647964158979255E-5    1.010384026890404      -1.137294724334960E-2
 1.007003988035892E7     9.975059271370742E-1   -1.394178206463245E-2   -2.037115366559367E-6   -2.043190237445152E-5   -1.197862508844284E-5   -7.339126396027287E-6    9.959174647232035E-1   -1.461836626965211E-2
 2.004007976071785E7     9.998635471569508E-1   -2.703849215416550E-2    1.259330844375655E-5   -6.461413009934545E-6    2.020876105136287E-5   -5.203574233296667E-6    9.988982839979984E-1   -2.770616079193797E-2
 3.001011964107677E7     9.979941002423361E-1   -4.105467640674907E-2   -1.059185181666401E-5   -1.657399964596804E-6    5.368252757009928E-6   -1.459441240544585E-5    9.975693368147739E-1   -4.186926420540946E-2
 3.998015952143569E7     9.976573219888879E-1   -5.313122515775805E-2   -1.732065874771478E-5    7.930119465936516E-6    1.431403834882066E-7    9.671485615643466E-6    9.976332924196355E-1   -5.667141928039107E-2
 4.995019940179461E7     9.960163040068961E-1   -6.605043307452460E-2   -1.244423100763537E-5   -1.639102573799561E-6    7.598213045186175E-6    8.552775742604729E-6    9.965715423878296E-1   -6.909983879979190E-2
 5.992023928215354E7     9.941705342492335E-1   -7.886868201156257E-2   -1.062290881526000E-5    7.640634835602290E-7    1.111430981750171E-6    7.932489911978535E-6    9.946692104917176E-1   -8.198184204622763E-2
 6.989027916251247E7     9.932066553277525E-1   -9.192090738475689E-2    1.238100418491420E-5    1.321440197310629E-6   -7.044758413437120E-6   -3.148719898416988E-6    9.934567233642322E-1   -9.471514431905367E-2
 7.986031904287139E7     9.924634674970030E-1   -1.052602004675297E-1   -7.808603743526495E-6    5.468529358952148E-6    1.535562095056282E-7   -4.531705528928970E-6    9.924393023080388E-1   -1.079146433987020E-1
 8.983035892323031E7     9.914650445028000E-1   -1.188866852272712E-1   -1.914639982969977E-6   -1.933573866577459E-5    2.328053434393539E-6   -8.524037370377639E-6    9.908476792110129E-1   -1.211807799205231E-1
 9.980039880358922E7     9.894745627608024E-1   -1.323689077881283E-1    5.162651461186266E-6    2.228202217610682E-6    6.531667423721047E-6   -7.934295868744927E-6    9.885600940421829E-1   -1.343828929090759E-1
 1.097704386839482E8     9.865816954640156E-1   -1.454880131364736E-1    1.048768643616461E-6   -4.459081828374838E-6   -9.156471906227438E-6    7.596830906084107E-6    9.860822990177319E-1   -1.476774725147647E-1
 1.197404785643071E8     9.848459498917143E-1   -1.589930297817323E-1    6.476291927838619E-7   -1.075656407199201E-5   -4.987531839921558E-6    6.097727017951512E-6    9.843550792009964E-1   -1.610947104933113E-1
 1.297105184446660E8     9.831956605979063E-1   -1.718531531746021E-1    2.335353615188876E-5   -7.676575267895368E-6    1.866454718590128E-5    7.147945747740633E-7    9.828962779447746E-1   -1.744317237605207E-1
 1.396805583250249E8     9.815218772637232E-1   -1.847569378840322E-1   -8.859864789111763E-6    1.513308990612479E-5    2.209382004950046E-6    3.544055685366759E-6    9.808854251092157E-1   -1.875070784201014E-1
 1.496505982053838E8     9.789918694415179E-1   -1.971833682155667E-1    3.757555265999624E-6    1.347642927248613E-5    3.111520644504699E-6   -6.482820071700270E-6    9.785145986289254E-1   -2.003973260966142E-1
 1.596206380857428E8     9.762859757997153E-1   -2.095946386240966E-1    9.008043917182065E-6   -6.189777524399727E-6   -4.026481176679904E-6    8.414764016512419E-6    9.757473682618493E-1   -2.132688264951355E-1
 1.695906779661017E8     9.732387298419751E-1   -2.223824871341592E-1   -4.793980982922061E-6   -1.452361106039014E-6    2.418186214149955E-6   -1.788425168473257E-8    9.729019315946938E-1   -2.260711619354136E-1
 1.795607178464606E8     9.706102319961828E-1   -2.348501154418383E-1    3.564709153879315E-6    1.509424617844067E-6    1.536990991099889E-5    9.728208964076930E-6    9.701669199355116E-1   -2.380351287464798E-1
 1.895307577268195E8     9.676774645492338E-1   -2.471047404439633E-1    1.864324963777862E-6    2.202958455768562E-6    1.287256054350075E-5    8.434641393532074E-6    9.667718452731648E-1   -2.504549630488638E-1
 1.995007976071784E8     9.638651967085419E-1   -2.596060463918121E-1    6.443378737744317E-6   -1.055215394922884E-6    2.768472862084864E-6    1.298235023217812E-5    9.627791675834056E-1   -2.632814445068832E-1
 2.094708374875374E8     9.604083425351444E-1   -2.724047532396836E-1    4.810428924809907E-8   -4.254850539246803E-6    6.432085914671992E-6    4.038796594719605E-6    9.588932453095526E-1   -2.761479235801612E-1
 2.194408773678963E8     9.571945360815497E-1   -2.851551439785885E-1    4.197773656051424E-6    2.334964929449487E-6    6.318107310681768E-7   -1.922666245657049E-5    9.551279402348002E-1   -2.891298082280219E-1
 2.294109172482552E8     9.536465373989018E-1   -2.974809426171806E-1   -7.504508724682480E-6    1.406044435017572E-6   -3.525505059377606E-6   -3.691936455841836E-6    9.509839922260018E-1   -3.018279735691166E-1
 2.393809571286142E8     9.505826887336850E-1   -3.094966506286966E-1   -6.309457856898331E-7   -2.098899989652360E-6    4.252760739142838E-6    1.465786252250651E-5    9.470804642829399E-1   -3.140552015128614E-1
 2.493509970089731E8     9.469559495015274E-1   -3.233798750803600E-1   -1.162385888521584E-5    1.496092777178740E-5    1.745322911545034E-5    4.684350134408271E-6    9.440969943838293E-1   -3.276687795293544E-1
 2.593210368893320E8     9.425824838787488E-1   -3.354394689160139E-1    8.926207207003812E-6   -7.026506454601495E-6    1.092163294689493E-6    7.992593921609166E-7    9.397788038241534E-1   -3.409034264578240E-1
 2.692910767696909E8     9.384686707127254E-1   -3.468917442230813E-1    1.445999602494657E-5    4.293487561237787E-7   -7.554725657750253E-6    1.142167364642454E-5    9.354032290652521E-1   -3.528815790350439E-1
 2.792611166500499E8     9.339151346032365E-1   -3.585475621436673E-1    1.646232722272487E-6    8.849622521900104E-6    2.106266172101041E-5   -7.363400170295435E-7    9.309140644997435E-1   -3.646547443416528E-1
 2.892311565304088E8     9.290368398720363E-1   -3.706416139147291E-1   -1.292954607451739E-5    1.212176180398809E-5    3.479214642751651E-6   -3.386251561168788E-6    9.260952938389257E-1   -3.768665814167764E-1
 2.992011964107677E8     9.240542159325994E-1   -3.827231419987359E-1    1.904620752526470E-6    1.303669528933133E-5    1.162109384938262E-5    1.671622423049220E-5    9.211565097265491E-1   -3.886492715568732E-1
 3.091712362911266E8     9.187846535110772E-1   -3.950302590361396E-1    1.496665313338384E-6    1.134187561633819E-5   -3.902654088286042E-6   -2.872268413581070E-6    9.156779423055051E-1   -4.001639888713198E-1
 3.191412761714855E8     9.132520812405527E-1   -4.073852753148797E-1   -1.355651262644160E-5   -5.667144920962511E-6    1.925189195454226E-6    6.084761457895467E-6    9.097770468098360E-1   -4.120530384280210E-1
 3.291113160518445E8     9.076437329084591E-1   -4.200942868683713E-1    2.179107929646568E-5   -3.982676232805905E-8   -2.360938721587589E-6    1.455614274938687E-5    9.033930212304855E-1   -4.244172330433007E-1
 3.390813559322034E8     9.019783046918332E-1   -4.328898066842958E-1    4.670167788556487E-7    3.234962070031738E-6    7.411957522540167E-6   -9.384598601870890E-6    8.967544876534430E-1   -4.369318857315947E-1
 3.490513958125623E8     8.966397380370886E-1   -4.453460589834966E-1   -1.140804524609461E-5    4.911750687338974E-6    1.209755808967971E-5   -2.307754576765103E-6    8.905225943404058E-1   -4.493638978741953E-1
 3.590214356929212E8     8.911876695126860E-1   -4.578723632183769E-1    1.322536831887978E-5   -7.535961945774944E-6    6.106731060505979E-6   -8.470477537623563E-7    8.846000087940687E-1   -4.621463543478500E-1
 3.689914755732802E8     8.859448992468720E-1   -4.701352998894452E-1    3.096132595672296E-6   -9.294339404382386E-6   -9.396693039864310E-6   -1.011565758618370E-5    8.791774452979445E-1   -4.748210137222246E-1
 3.789615154536391E8     8.798033151274405E-1   -4.813879036958164E-1    2.183240471843123E-5    1.477565274887868E-6    2.127911957149198E-6   -4.907372591926068E-6    8.737108384987774E-1   -4.867405662897969E-1
 3.889315553339980E8     8.741935040692470E-1   -4.921120701078209E-1    8.631962542477459E-6   -1.885668830691033E-6    2.480715150325604E-6    1.834901244879166E-5    8.678552403768054E-1   -4.988074459212148E-1
 3.989015952143569E8     8.673922140396727E-1   -5.027897020196129E-1   -7.957468000448916E-6    7.131220748042625E-6   -2.923981321367548E-6    5.911758841060105E-6    8.612046932771951E-1   -5.096737183805641E-1
 4.088716350947158E8     8.601214281640114E-1   -5.135775752237256E-1    8.088712867075751E-7    4.638644511202988E-6    3.838887222990675E-6   -1.169410287615950E-5    8.543228076978507E-1   -5.207070445619307E-1
 4.188416749750748E8     8.532519177520251E-1   -5.251957901135331E-1    4.601616423330282E-6    6.453285325460358E-6   -1.168742557896972E-5   -6.167343053487203E-6    8.475549868533223E-1   -5.314012188315368E-1
 4.288117148554337E8     8.460511103097840E-1   -5.368640314793217E-1    1.272665030972861E-5    1.272256630914481E-5   -2.982423943794933E-6   -1.314256773702443E-5    8.406073081142106E-1   -5.418514154219719E-1
 4.387817547357926E8     8.382257549218460E-1   -5.482301515544841E-1   -3.051626145116714E-6    5.984366983236394E-6   -8.258713183486339E-6    9.514195917004535E-7    8.326697250640007E-1   -5.523273605380624E-1
 4.487517946161516E8     8.304490422371669E-1   -5.600455266973203E-1    1.069798336789212E-5    1.313175585759496E-5   -9.281465789840229E-6   -2.722035037641413E-5    8.242231011181639E-1   -5.634432416653885E-1
 4.587218344965104E8     8.235291917819045E-1   -5.719818682855777E-1    4.703174039106027E-7    1.066227941419404E-5    1.159975340070435E-5    4.956677650901617E-6    8.160048261631553E-1   -5.752603298030360E-1
 4.686918743768694E8     8.171004843174098E-1   -5.834156456299816E-1   -3.959432115411484E-6   -5.217244183996834E-6    2.783946559204171E-6   -2.278002887656919E-5    8.079012202022727E-1   -5.868454308668625E-1
 4.786619142572283E8     8.099370062465097E-1   -5.942419723613134E-1    1.831964584755217E-6    6.475246842702009E-6    8.577235628730746E-6   -4.848766302188003E-6    7.993860390537293E-1   -5.980454621376466E-1
 4.886319541375872E8     8.022480073185361E-1   -6.047353700402025E-1    1.470981707294975E-6   -4.857782601358730E-6   -4.200980766252960E-6    1.775061190481904E-5    7.905430264503285E-1   -6.089095717023933E-1
 4.986019940179462E8     7.939074543741355E-1   -6.153383259338603E-1   -8.358543912496465E-6   -4.812045878775923E-7    3.361882351813888E-5   -3.047111198360424E-6    7.823929497323313E-1   -6.197545701898688E-1
 5.085720338983051E8     7.855322011048061E-1   -6.245240533337378E-1   -1.239593589151171E-5    1.193988638002265E-5    8.158440985172199E-6    1.141483806282184E-5    7.746946986452014E-1   -6.303817157024377E-1
 5.185420737786640E8     7.782746991170284E-1   -6.335932100874299E-1   -1.903511057350923E-6   -4.698551060461561E-6    3.844028145838634E-6    1.486560579055279E-7    7.669001703729686E-1   -6.401547994028011E-1
 5.285121136590229E8     7.699890836025743E-1   -6.431766267055201E-1   -1.210770227616592E-5    3.975318573308676E-6   -2.502314080974356E-6    3.946466338809210E-6    7.589770476928582E-1   -6.497320149114969E-1
 5.384821535393819E8     7.615055843542546E-1   -6.532318646540717E-1   -2.696655820592617E-6   -1.206026018574615E-6   -5.631704521787082E-6   -1.382090088184973E-5    7.508647616695127E-1   -6.593992228202663E-1
 5.484521934197408E8     7.532437759437258E-1   -6.636895613458815E-1    1.341252229183506E-5    6.631219582264734E-6   -5.229355114801731E-7    1.362561070547497E-5    7.424325031909227E-1   -6.693051929949642E-1
 5.584222333000997E8     7.446794330728356E-1   -6.746043853956516E-1   -6.095186785335355E-6   -3.480413841843824E-6   -3.644048303662097E-6    2.435693608295892E-6    7.333467333127901E-1   -6.792635921467547E-1
 5.683922731804587E8     7.356233579127752E-1   -6.852228800122132E-1   -4.123572016303840E-6    2.176452949111238E-6    9.888518492106435E-6    4.047250143341871E-6    7.231683264254543E-1   -6.892323173043364E-1
 5.783623130608176E8     7.263476069793000E-1   -6.951578857326022E-1   -5.347606213762339E-6    6.302260060305500E-6   -1.424209344653560E-5   -3.840633802670757E-6    7.126687687283776E-1   -6.989421649902794E-1
 5.883323529411764E8     7.171075117786045E-1   -7.051893328899157E-1    7.407146705670355E-6   -2.061864374664109E-6   -1.620216474800002E-5   -1.561181402041538E-5    7.021076827621542E-1   -7.087026968040286E-1
 5.983023928215353E8     7.079158218831462E-1   -7.152718699616714E-1   -8.708466607447024E-6   -8.666483377218333E-6   -9.434683919630774E-6   -1.334125237196481E-6    6.919605207817268E-1   -7.184896885935308E-1
 6.082724327018943E8     6.983244248810683E-1   -7.249779304706723E-1   -1.279669015328820E-5    2.222466280282131E-6    1.455084155357583E-5    6.845079390163510E-6    6.817611974702341E-1   -7.277724709387750E-1
 6.182424725822532E8     6.885463776345923E-1   -7.347213891918947E-1    1.089311837861078E-5    5.719196878485181E-6   -1.697244118405170E-5    2.466231567312934E-5    6.717536321973848E-1   -7.372897171088912E-1
 6.282125124626122E8     6.780095229446544E-1   -7.440649573871038E-1    1.116301716178298E-5   -1.448132708988443E-5   -1.378776927685292E-5    1.516069232556590E-5    6.626599045072855E-1   -7.467831260887289E-1
 6.381825523429711E8     6.683312000297837E-1   -7.512552531224400E-1    9.850781689356172E-6    3.305337788361947E-6   -2.013307446498801E-5    1.194900980229430E-5    6.537645460479360E-1   -7.556839149532176E-1
 6.481525922233300E8     6.593132425131121E-1   -7.596254778883450E-1    4.492703180756296E-6    1.542763763408641E-5    8.478487842210522E-6   -3.635678665108064E-6    6.447167028004913E-1   -7.641184781776149E-1
 6.581226321036890E8     6.495871480942155E-1   -7.685087721577891E-1   -2.149737415906112E-6   -4.593215850737785E-6   -8.521169888647055E-6   -5.421788309034845E-6    6.345313616497269E-1   -7.725704914732477E-1
 6.680926719840479E8     6.396335257329947E-1   -7.773389993676664E-1   -3.939683553351292E-6   -3.361459395873084E-6   -1.602553133031040E-5    3.257304159422422E-6    6.238447050990822E-1   -7.804538512235610E-1
 6.780627118644068E8     6.300076827085668E-1   -7.854397671152357E-1   -2.716369521519919E-6    1.130611499601679E-6    1.119581830135814E-5   -1.723277064140980E-6    6.129214148938166E-1   -7.883780191928939E-1
 6.880327517447658E8     6.196031085679606E-1   -7.939222594207921E-1    6.616609216376706E-6   -5.377959998434446E-6   -7.329975689893317E-6   -4.143755803343161E-6    6.015959700044922E-1   -7.960793378642071E-1
 6.980027916251246E8     6.085922580382849E-1   -8.018570898412828E-1    5.081347118409706E-6    1.977292147807885E-6    1.138415045126193E-5    1.025419426060503E-5    5.900239668494661E-1   -8.037819888865571E-1
 7.079728315054835E8     5.972526221219245E-1   -8.103277906205393E-1    9.403826741667022E-9   -3.023582254296412E-6    7.714173953200661E-6   -1.752276434533610E-6    5.784077361170028E-1   -8.116787580356698E-1
 7.179428713858424E8     5.861196046973959E-1   -8.188043764205453E-1    1.256186918592011E-5   -5.977947508422997E-6   -1.024527803007592E-5   -3.909756768215618E-6    5.673831543087540E-1   -8.202606954663634E-1
 7.279129112662014E8     5.750525430008002E-1   -8.272586443756352E-1   -5.103668018607084E-6   -6.676318305268037E-6   -2.068514262171780E-5   -5.234490425447185E-6    5.558415381756071E-1   -8.288945673618543E-1
 7.378829511465603E8     5.637719834917233E-1   -8.359784350046455E-1    1.861510813357295E-6   -1.245955520979726E-5   -8.934649442774525E-6    6.961226044665347E-6    5.446497949962590E-1   -8.373622236656282E-1
 7.478529910269192E8     5.517694493093550E-1   -8.445010967165604E-1   -8.575256589073709E-6    5.492864619744709E-6   -1.215640018724872E-5    2.595173434629956E-6    5.335168537490674E-1   -8.450055719588946E-1
 7.578230309072782E8     5.391206979190262E-1   -8.517223457407226E-1    4.328035280618995E-6   -1.097482287770880E-5   -5.768677789466363E-6    1.431574498863454E-6    5.222851477854106E-1   -8.518925999583098E-1
 7.677930707876371E8     5.287316168338456E-1   -8.571486821391453E-1   -5.856065889968132E-6    7.486570320155968E-7    4.446030852896102E-6    2.442956115781703E-6    5.109485782199926E-1   -8.582942906205284E-1
 7.777631106679960E8     5.191322142565391E-1   -8.639963558564662E-1    6.096146978254916E-6    1.140045428643174E-5   -8.517828161005142E-6    6.076501863524562E-7    4.994474346328264E-1   -8.648893045155912E-1
 7.877331505483550E8     5.087403834150637E-1   -8.708545151165157E-1   -1.282150105788818E-5    5.459952278579425E-6    1.246523803502560E-5   -3.391329855756256E-7    4.877640251776973E-1   -8.715347644486231E-1
 7.977031904287138E8     4.974915215365807E-1   -8.772241389570328E-1    8.692103380015054E-6    5.857775232094997E-6    6.219224282402556E-6   -1.639781569637219E-5    4.749093369977173E-1   -8.780001236465692E-1
 8.076732303090727E8     4.858234165136093E-1   -8.832557334222584E-1   -5.002367115973752E-6   -4.067708967919812E-6   -2.765664159072514E-6    9.571163521013028E-6    4.621251308055588E-1   -8.840361990533419E-1
 8.176432701894317E8     4.738502600534460E-1   -8.892767185993307E-1   -7.492815072626054E-6    1.196446456334930E-6   -7.304638784397809E-7    4.903692654848469E-6    4.491444717861031E-1   -8.903947793798083E-1
 8.276133100697906E8     4.615275458140003E-1   -8.956263439956085E-1    5.151308295752743E-6   -1.014838479087200E-5    1.646714727703873E-5    1.190143288538827E-5    4.366293496993425E-1   -8.971428475589015E-1
 8.375833499501495E8     4.487997282208438E-1   -9.019847335321337E-1   -2.030032102904476E-5    1.257162767318181E-6    1.950203968743520E-6    1.636719682538444E-6    4.244702255655858E-1   -9.039127205086255E-1
 8.475533898305085E8     4.360838674625044E-1   -9.083989449165160E-1    2.557881923251172E-6    4.025235807634442E-6   -2.548759696563573E-6   -1.718109672855342E-6    4.125485430267103E-1   -9.097897525134155E-1
 8.575234297108674E8     4.233336207228596E-1   -9.149061222117152E-1    5.131204564923574E-6   -1.797510609335417E-6   -8.609698956919907E-6    1.128952544257910E-5    4.007826838998794E-1   -9.152397790745940E-1
 8.674934695912263E8     4.105717039761279E-1   -9.214879604239953E-1    5.801783314386384E-6   -1.164368094516097E-6   -9.788764962886106E-6   -1.461910395835026E-5    3.887005472590576E-1   -9.199945390608429E-1
 8.774635094715853E8     3.974224242290430E-1   -9.281569575272136E-1   -4.994532061482270E-6   -1.909912500975770E-6   -2.971744087477800E-6    1.145393300690016E-5    3.761315362855414E-1   -9.247502135694954E-1
 8.874335493519442E8     3.843143317524242E-1   -9.326286165973826E-1    1.680231011984222E-6    3.532467681697033E-6   -5.712689755747158E-7    3.842152880717636E-6    3.630391115167867E-1   -9.291858775049480E-1
 8.974035892323031E8     3.730458005828684E-1   -9.363302394640692E-1    1.164641733221872E-6   -3.991890049353166E-6    1.137247083242196E-5    3.767675825608891E-7    3.494797543993945E-1   -9.333781349597490E-1
