#  HZ   S   RI   R     50.00 
! Rohde & Schwarz Vector Network Analyzer 
! Rohde-Schwarz,ZNB20-2Port,1311601062102128,3.60
! Created: UTC 4/29/2024, 2:51:22 PM
! freq[Hz]                re:S11                  im:S11                  re:S21                  im:S21                  re:S12                  im:S12                  re:S22                  im:S22
 1.000000000000000E5     9.957343317457024E-1    3.751710868056983E-3    4.338962166217888E-5   -2.248428347195264E-5   -7.177415889877070E-5    2.079069314251456E-5    1.010274801657768      -1.140407210908684E-2
 1.007003988035892E7     9.981758878105902E-1   -1.394177410922320E-2    1.727541259760261E-5   -4.903399476229508E-6    6.733119727028642E-6   -1.797827277867682E-5    9.959891218067483E-1   -1.449087773428967E-2
 2.004007976071785E7     1.000027517274372      -2.721033077675899E-2   -9.318082690853049E-6    2.924603653550512E-6   -1.155884501516731E-5    8.520599834702999E-6    9.987140115755536E-1   -2.770609484977413E-2
 3.001011964107677E7     9.983363966463528E-1   -4.100169490359540E-2    2.639160040828579E-6    1.742464565347427E-5   -1.766442885723538E-6   -4.582860266238439E-7    9.974721551413175E-1   -4.200057656107478E-2
 3.998015952143569E7     9.977027427297327E-1   -5.309782660028903E-2    1.009420536967158E-5   -7.547323452458450E-6   -9.024711385602325E-6   -3.559291553843143E-6    9.976577418683641E-1   -5.662546544333519E-2
 4.995019940179461E7     9.957726863961766E-1   -6.596575207057259E-2   -1.103932834680383E-5   -1.300711563701673E-5    7.226773599971114E-6   -1.079937521116286E-5    9.965624829892480E-1   -6.912283805021673E-2
 5.992023928215354E7     9.940770796542816E-1   -7.884868921598920E-2   -1.021473265279876E-6    1.284419288080410E-5    2.804204138236918E-6    1.054721143910826E-5    9.947213696938446E-1   -8.183264784578535E-2
 6.989027916251247E7     9.932182995772516E-1   -9.195033792600529E-2   -1.838284053819619E-5    1.695177864034943E-7    1.918722064133923E-5   -2.385193324570732E-5    9.936338485188209E-1   -9.477594560758434E-2
 7.986031904287139E7     9.928446108800675E-1   -1.052897908501965E-1   -1.433686238232347E-5    2.766738030055545E-6   -1.703294828749406E-6    1.419511335039306E-5    9.923160592029913E-1   -1.079251299213853E-1
 8.983035892323031E7     9.916579100029825E-1   -1.188771341366738E-1    5.533721081889112E-7   -3.271096649213897E-6   -1.617099575581113E-5    1.095442358450864E-5    9.908357895876725E-1   -1.210577148311420E-1
 9.980039880358922E7     9.893819554225796E-1   -1.323395859850017E-1   -3.753212876305511E-6    5.233697460177519E-6   -6.213790644827207E-6    1.524378711014553E-6    9.886445468515115E-1   -1.344356226949058E-1
 1.097704386839482E8     9.863115845330951E-1   -1.456027754281058E-1    1.284438998305840E-5    4.499639825458329E-6   -4.263039431052145E-6    1.335186480181186E-5    9.861250848245473E-1   -1.476456361728364E-1
 1.197404785643071E8     9.849327990448026E-1   -1.589771400073216E-1   -2.607751821321209E-7    3.281885116987789E-6   -1.520172424619781E-5   -1.167678385825619E-5    9.842777965695506E-1   -1.611176045670942E-1
 1.297105184446660E8     9.831016977084501E-1   -1.718814461074727E-1    1.379982628996572E-5    9.363710078441767E-7   -3.271167224852564E-6   -5.982970181239197E-6    9.828539799744673E-1   -1.743926131264632E-1
 1.396805583250249E8     9.818196714304677E-1   -1.847181446857536E-1   -9.723370803364132E-6    9.141888340640844E-6   -1.059422838534770E-6   -1.125670302154609E-5    9.809684010537024E-1   -1.874976753522742E-1
 1.496505982053838E8     9.789454805897406E-1   -1.971456210767867E-1    4.697856827639239E-6    9.563896437879539E-6    4.143398528709147E-6   -9.979708995395878E-6    9.785358073869691E-1   -2.003829253859815E-1
 1.596206380857428E8     9.761531133225109E-1   -2.095495988677569E-1    1.424920496861038E-5   -5.071882326344274E-6    1.173820373956585E-6    8.177268636498141E-6    9.757252916328906E-1   -2.132416707285062E-1
 1.695906779661017E8     9.732617134877357E-1   -2.224227224252921E-1    9.537647100548266E-6    8.270457105520036E-6   -2.574313826840683E-6    7.842476334901187E-6    9.728488103331299E-1   -2.260564926348712E-1
 1.795607178464606E8     9.707964314600089E-1   -2.349353296471504E-1    6.401820169748240E-6    5.162596231876817E-6   -3.342168227774404E-6    7.138109084482362E-6    9.702452465642990E-1   -2.380216249925128E-1
 1.895307577268195E8     9.677383271642008E-1   -2.471526527531037E-1   -5.576328208743625E-6    9.623620232633286E-6   -5.456846460328233E-6    1.740086626059073E-5    9.668759791432724E-1   -2.505814994522789E-1
 1.995007976071784E8     9.637795925483913E-1   -2.595969659954925E-1    8.517447245230846E-7   -3.981698550705760E-6   -1.171620769312311E-5    1.122832992380121E-5    9.626280965329457E-1   -2.631664113300561E-1
 2.094708374875374E8     9.604722739127665E-1   -2.724184409729742E-1   -1.126428437591509E-5    6.990697039630387E-6   -9.308459554526040E-6    8.491917990213752E-6    9.588943700159103E-1   -2.761490990651233E-1
 2.194408773678963E8     9.573614031374953E-1   -2.853155280144254E-1    9.300809716415670E-6   -1.222539592908619E-5    4.516836435468895E-6    1.228729481058785E-5    9.552330635965818E-1   -2.891448551266303E-1
 2.294109172482552E8     9.536985123059096E-1   -2.974568577190117E-1   -3.975729366704440E-6    2.919790131661605E-6   -9.833280161526256E-6   -1.611664745604602E-5    9.509283178344140E-1   -3.016819396449404E-1
 2.393809571286142E8     9.504161489247257E-1   -3.094272239064528E-1   -6.899263001263894E-6   -3.701992637657516E-6   -2.445471386958927E-5   -3.128485853124939E-6    9.469566323808587E-1   -3.140689487352949E-1
 2.493509970089731E8     9.468765959233716E-1   -3.233566873833664E-1   -1.013224163076558E-6   -6.042253680292337E-6   -1.401651198708519E-5   -9.773893317176573E-6    9.440039211409573E-1   -3.275278291434282E-1
 2.593210368893320E8     9.429184336221570E-1   -3.354812771783103E-1   -6.446097893317347E-6    2.607840177886078E-6   -1.921608799203029E-6    1.463425423618944E-5    9.398154888178051E-1   -3.408925967184830E-1
 2.692910767696909E8     9.386120325449264E-1   -3.468281167261411E-1   -8.571694064067683E-6    7.623874710138009E-6    6.845578805796881E-6   -1.341472751443036E-5    9.354976508414514E-1   -3.528138223219057E-1
 2.792611166500499E8     9.337362721435196E-1   -3.584497284937267E-1   -1.686951650700164E-5   -2.919537761637860E-6    7.342830387876737E-7    1.727923291259364E-5    9.308957592116365E-1   -3.646588675309829E-1
 2.892311565304088E8     9.290735010846984E-1   -3.705216544759840E-1   -9.019967227282397E-8    1.758617036847784E-5    1.591649920037833E-6    5.564384919604231E-6    9.261165578250452E-1   -3.767256293074666E-1
 2.992011964107677E8     9.241990049506907E-1   -3.828593349425177E-1   -1.154970786975347E-5    6.767703603129701E-6    4.977202385909540E-7    1.799427935702391E-5    9.211513029352280E-1   -3.885918923103733E-1
 3.091712362911266E8     9.188220811368468E-1   -3.949287091664054E-1   -3.834378758880550E-6    1.442391183016395E-5   -6.795394081886578E-6   -9.925097225816805E-6    9.157282079577543E-1   -4.001436177107441E-1
 3.191412761714855E8     9.132064126376470E-1   -4.072540278521153E-1    3.084492062760002E-6   -2.890110310654017E-6   -9.779655413387080E-6    1.171578544413747E-5    9.098120255839367E-1   -4.119354397938588E-1
 3.291113160518445E8     9.075754028444094E-1   -4.200641894946520E-1   -6.605813016104532E-6   -1.264917341761975E-5   -2.821583305470748E-6   -5.176611570855834E-6    9.033089001793745E-1   -4.243712230193007E-1
 3.390813559322034E8     9.020021778149236E-1   -4.328767990339076E-1   -1.887438792282867E-5   -9.838002561864325E-6   -3.358254602125816E-7   -1.023766730182534E-5    8.967843331543742E-1   -4.369946978083777E-1
 3.490513958125623E8     8.966305262278739E-1   -4.453282695501853E-1   -6.317670321755387E-6    3.724835362239519E-7   -1.878117472195159E-5   -2.619366192776910E-5    8.906448357489880E-1   -4.494852174033776E-1
 3.590214356929212E8     8.912126232731290E-1   -4.578896922362535E-1    2.928461113747238E-6   -4.290369302985753E-6   -1.492334633910387E-5    3.671967320826698E-6    8.845746165309227E-1   -4.621376497395151E-1
 3.689914755732802E8     8.858885325042681E-1   -4.700633679669466E-1   -7.178751342695419E-6    6.833383942300200E-6   -3.856050359096548E-6   -1.517654151363138E-5    8.790677628766620E-1   -4.747202503787248E-1
 3.789615154536391E8     8.798793358513457E-1   -4.813736241804360E-1   -9.064492831316418E-6    3.870110314566699E-6   -7.241666656970310E-6   -1.899593601504599E-6    8.736972149412514E-1   -4.868150941832022E-1
 3.889315553339980E8     8.742006462724751E-1   -4.920631374391715E-1    1.810790121446545E-5    5.224682829259811E-7    1.019055662563722E-6   -1.845252930939654E-5    8.679140609177470E-1   -4.986871234038759E-1
 3.989015952143569E8     8.672865360571766E-1   -5.027705920897122E-1    7.858093434626626E-6    8.883835345815020E-7   -1.576487391364272E-5    4.919260771705128E-6    8.611361955249219E-1   -5.097192577660823E-1
 4.088716350947158E8     8.600724355386057E-1   -5.135935033371538E-1    8.165886414799147E-6   -1.197387501687406E-5   -1.873907553549642E-5   -9.360901608037448E-6    8.542529780540012E-1   -5.205471430541297E-1
 4.188416749750748E8     8.531856643957090E-1   -5.251016310660447E-1   -1.184308131002410E-6   -2.149059032056871E-6   -6.942534480616609E-6    2.116150578540148E-5    8.476330297220400E-1   -5.313406795844611E-1
 4.288117148554337E8     8.459630890571386E-1   -5.368279023881534E-1   -1.148150464546549E-5    4.573264569028564E-6   -9.985379911332201E-6   -1.961548400248502E-5    8.406254863034518E-1   -5.418018278638491E-1
 4.387817547357926E8     8.382593126819716E-1   -5.482575086088572E-1    7.382988438509100E-6    7.471819778111111E-6   -9.788668351665842E-6   -5.331476767438527E-8    8.326949334934206E-1   -5.524274777674691E-1
 4.487517946161516E8     8.304257535063323E-1   -5.600507974329102E-1    2.118338260592425E-6   -8.252375430673300E-6   -7.866908170662608E-6    7.537969816340820E-6    8.242560411163774E-1   -5.635539646713342E-1
 4.587218344965104E8     8.234938996057618E-1   -5.719377590250789E-1   -1.386883875271884E-5    4.586376626635733E-6    4.483687400648352E-6   -1.214426712603134E-5    8.159729475183253E-1   -5.753052112126298E-1
 4.686918743768694E8     8.170100835049748E-1   -5.834029009778846E-1    4.764459174729078E-6    5.256422671064654E-7   -1.605871748476013E-5   -1.587498067263323E-5    8.077699659071841E-1   -5.867823705147696E-1
 4.786619142572283E8     8.098841001243191E-1   -5.942229542315943E-1    1.476835598883843E-5    4.691554244540664E-6   -2.289744018521261E-6   -1.030271217425173E-6    7.993242899462726E-1   -5.980964447060356E-1
 4.886319541375872E8     8.022565634885916E-1   -6.046357673778660E-1   -8.794388947859981E-6   -1.195026568261474E-5    1.986572139205506E-5   -5.263671557535774E-6    7.905326647837452E-1   -6.088333830458932E-1
 4.986019940179462E8     7.939306824665093E-1   -6.154032124181243E-1   -2.146506131323233E-6    1.529322172213178E-6   -2.721885167394591E-6   -6.445227752195249E-6    7.824379156415465E-1   -6.197266109905820E-1
 5.085720338983051E8     7.855985218044158E-1   -6.245948378715160E-1   -1.196712018189183E-5    5.230564242428079E-6   -9.108422845631883E-6    1.576148838106692E-5    7.746219975274464E-1   -6.302042734570070E-1
 5.185420737786640E8     7.782583171806398E-1   -6.336095861107629E-1   -1.376147752869548E-7    5.052809239948932E-6    8.052355040408230E-6   -5.815667014050767E-6    7.670709416077692E-1   -6.401093486113272E-1
 5.285121136590229E8     7.699465548099437E-1   -6.430635210167224E-1   -6.673348029187651E-6    5.131865246364367E-7   -1.054985250697483E-5   -6.995032643786918E-6    7.590504659161943E-1   -6.498929290178614E-1
 5.384821535393819E8     7.614353094924536E-1   -6.531621085219881E-1   -7.111471716260522E-6    2.518043722121157E-5    3.634904587795040E-8   -1.800552442620538E-5    7.508629708924716E-1   -6.593296833270522E-1
 5.484521934197408E8     7.532435525511364E-1   -6.637857803022847E-1    5.228168565205558E-6   -9.163474878599519E-7   -8.175716984148092E-6   -7.042950432238293E-6    7.424116485688474E-1   -6.691467506180244E-1
 5.584222333000997E8     7.447359044862900E-1   -6.746761685251951E-1   -5.545394350263732E-6   -7.543611576014806E-6    1.915284269197989E-5    1.077552972050574E-5    7.334542045134620E-1   -6.791999806627851E-1
 5.683922731804587E8     7.355074014730801E-1   -6.850736916607942E-1   -2.623292630508984E-6    7.324988127511444E-6   -6.817676726654726E-6    6.711607269788987E-6    7.231475035196645E-1   -6.892624529321296E-1
 5.783623130608176E8     7.262684021516973E-1   -6.951078086070218E-1    1.095892081639415E-5    5.426628371869618E-6    1.618782691446152E-6   -1.248004457567985E-5    7.126747562757596E-1   -6.988523520200747E-1
 5.883323529411764E8     7.170543661170437E-1   -7.052123291241474E-1   -9.838432533242244E-7    1.533353010722156E-5   -4.421353326647037E-6   -2.756511407937031E-6    7.023025282523395E-1   -7.088147134144610E-1
 5.983023928215353E8     7.078558727663042E-1   -7.153340666121328E-1   -1.521274741996413E-5   -2.065155743254393E-5    1.473291268452072E-5    2.801286726887080E-7    6.919827701669633E-1   -7.182720595824380E-1
 6.082724327018943E8     6.984488299060300E-1   -7.249604690511247E-1   -1.748861157800573E-5   -4.714300800045616E-6   -8.312437981854727E-6    1.368829131965421E-5    6.816469930461090E-1   -7.278521769785330E-1
 6.182424725822532E8     6.885276230345677E-1   -7.346554767934005E-1   -8.170337443366599E-6    4.078773425037393E-6    1.159794546877253E-5   -5.089715850134450E-6    6.718018560199397E-1   -7.372994257041044E-1
 6.282125124626122E8     6.780250004855646E-1   -7.439986790358619E-1   -1.077198847355498E-5   -4.987741717505991E-6    1.941786878622336E-5   -5.005400366746695E-7    6.626710637965176E-1   -7.468256629287084E-1
 6.381825523429711E8     6.682336976874260E-1   -7.511437419075702E-1   -6.522957703751843E-6   -1.258466955759613E-6    9.311439352141742E-6   -5.287410316454269E-6    6.537708931791614E-1   -7.556120593060200E-1
 6.481525922233300E8     6.593662101673492E-1   -7.596260995545647E-1    3.212292653657599E-6    6.849489749963627E-6   -3.405844159850425E-6    2.767778288926301E-6    6.446299249030188E-1   -7.640943911340244E-1
 6.581226321036890E8     6.496263224229094E-1   -7.685441886524981E-1   -9.610059168132758E-6    7.956783836307709E-6    7.049200483657335E-6   -3.332543730782853E-6    6.345679809573627E-1   -7.724151206794729E-1
 6.680926719840479E8     6.398079357653652E-1   -7.773062019546781E-1    8.977567626093999E-7    1.984201133755885E-6    5.919750890980001E-6    3.621008553502481E-6    6.239856356108606E-1   -7.804483081933122E-1
 6.780627118644068E8     6.299991869864719E-1   -7.855127381533749E-1   -6.342905364697173E-6    1.071778343882983E-5   -1.965970677230035E-6    9.705746717759880E-6    6.129619655930534E-1   -7.883007859763874E-1
 6.880327517447658E8     6.195274949282897E-1   -7.936768046147361E-1    4.162801891902696E-7    1.119942294403844E-5    1.227503755322369E-6   -1.196184308602202E-5    6.015281661348812E-1   -7.958807817007516E-1
 6.980027916251246E8     6.086396569998022E-1   -8.018530871297862E-1   -1.057650129437683E-5    1.683830695826909E-6    2.328890822009555E-6    9.348012230521364E-6    5.899580735039266E-1   -8.037034177232770E-1
 7.079728315054835E8     5.973000061401526E-1   -8.102405751713846E-1    1.533672646034817E-5    1.086444845267385E-6   -5.606131063240175E-6    2.628514061687306E-6    5.785210547652870E-1   -8.115585967652975E-1
 7.179428713858424E8     5.860649564092310E-1   -8.187716709995766E-1    7.510075617094322E-6    2.025208205577657E-6    1.230709226866821E-5    8.165243200289611E-6    5.672658268587973E-1   -8.201994843427634E-1
 7.279129112662014E8     5.750820759770890E-1   -8.273585247023141E-1   -6.780344906460417E-6   -1.381721477617648E-6    1.010751292113388E-5   -5.065655683823482E-8    5.559871736896375E-1   -8.289000463115083E-1
 7.378829511465603E8     5.638564914150290E-1   -8.360474308923335E-1   -7.309827878862665E-6   -9.391802101537767E-6    1.316088873822565E-5    1.761531635797069E-6    5.446869452618707E-1   -8.374278713463097E-1
 7.478529910269192E8     5.517865477441142E-1   -8.444969756074872E-1   -3.563570124798457E-6   -4.917075801965340E-6    4.644798623979427E-6   -1.627583281760190E-5    5.334785643378442E-1   -8.450364856689747E-1
 7.578230309072782E8     5.391762388562986E-1   -8.517151451494168E-1    8.815340113046455E-7   -1.261073220646648E-5    2.283379118963538E-6   -1.636020836602555E-5    5.223475191984225E-1   -8.519190667737353E-1
 7.677930707876371E8     5.288113622869691E-1   -8.570234894830426E-1    1.421450557781520E-6    1.233314643884349E-5   -5.221132164464093E-6   -1.277831895748438E-5    5.109520163640010E-1   -8.582922798808235E-1
 7.777631106679960E8     5.191775371943305E-1   -8.640697992187526E-1   -4.702083067062988E-6    9.082576801235388E-6    1.644039775516140E-5    3.800752232890296E-6    4.995553855857158E-1   -8.648843618934025E-1
 7.877331505483550E8     5.088971234089251E-1   -8.710335714001819E-1   -1.509165242037691E-6   -9.299761417917439E-6   -5.150591865713521E-6    9.308034346836910E-6    4.877141457583092E-1   -8.716125083565431E-1
 7.977031904287138E8     4.975497389571666E-1   -8.772559890185767E-1   -1.760892133445887E-5   -6.000222535771332E-6    6.631037219142221E-6    3.807749093079027E-6    4.748974435916454E-1   -8.779021564815954E-1
 8.076732303090727E8     4.858420107982710E-1   -8.831064280935185E-1   -9.969687447379109E-6   -1.544433354078999E-6    4.818773342237815E-6    1.018227576359797E-5    4.620764876443996E-1   -8.839835179603719E-1
 8.176432701894317E8     4.738234258033439E-1   -8.892161411472436E-1   -6.185016765904688E-6   -4.483296838147221E-7    1.707832226413284E-6    1.786383660169719E-6    4.491655316423729E-1   -8.904516367445726E-1
 8.276133100697906E8     4.615846397857589E-1   -8.958197948542530E-1    3.768367561417537E-6    4.834961711298487E-6    1.442181020765297E-5    5.924972686562964E-6    4.366682201589809E-1   -8.971345139781016E-1
 8.375833499501495E8     4.489437778202824E-1   -9.021046221996367E-1   -2.838183650813868E-6    8.590651856962494E-6    3.724015378298596E-7   -1.025563090737167E-5    4.244200579765562E-1   -9.038419853062640E-1
 8.475533898305085E8     4.360626508399886E-1   -9.084086026694810E-1   -1.578661369062047E-5   -3.552294101571624E-6    1.937820118563732E-6   -1.522587182660047E-6    4.125246621880571E-1   -9.098504546014237E-1
 8.575234297108674E8     4.232928285471373E-1   -9.147735673895155E-1   -4.593327501919189E-6    6.806715771684768E-6    1.891826321334897E-6    8.145718965350959E-6    4.008299378940797E-1   -9.150720016336675E-1
 8.674934695912263E8     4.105293676383527E-1   -9.215617423289606E-1    5.799180844880817E-6    3.906719012983864E-6    8.430191584735769E-6   -2.978603903189534E-6    3.886837826063564E-1   -9.199175725350935E-1
 8.774635094715853E8     3.974282903655452E-1   -9.281390986251370E-1    1.452065174947239E-5    2.418720612442938E-6   -9.899127909281450E-6   -5.181994799037687E-6    3.762800582962401E-1   -9.246678138711373E-1
 8.874335493519442E8     3.843682959435607E-1   -9.327319154102403E-1   -1.738608421424142E-5   -1.714854073259831E-6    5.529758820174016E-6   -1.065510879611378E-5    3.631384692703373E-1   -9.291962663545978E-1
 8.974035892323031E8     3.730382254911773E-1   -9.362942272658158E-1    1.156275094604067E-5   -4.757607774287644E-6    9.326165398988851E-6    3.149117488687667E-6    3.495632798594380E-1   -9.334570923825738E-1
