#  HZ   S   RI   R     50.00 
! Rohde & Schwarz Vector Network Analyzer 
! Rohde-Schwarz,ZNB20-2Port,1311601062102128,3.60
! Created: UTC 4/29/2024, 2:51:38 PM
! freq[Hz]                re:S11                  im:S11                  re:S21                  im:S21                  re:S12                  im:S12                  re:S22                  im:S22
 1.000000000000000E5     9.962701392944440E-1    3.670292642603195E-3    3.679567073950424E-5    7.508306126748424E-5   -1.254002851718808E-4    5.619753443409904E-5    1.010457661654563      -1.119549725527627E-2
 1.007003988035892E7     9.976378211970631E-1   -1.392853765418097E-2   -6.638799089972198E-6   -6.591929769021918E-6   -1.005689181020604E-5    1.880779529406499E-6    9.960074455742371E-1   -1.451112492624779E-2
 2.004007976071785E7     1.000043410622419      -2.725022190808658E-2   -6.989897479352198E-7    9.997767449335903E-7   -5.312079243268191E-6   -1.449422503818695E-6    9.988272131848587E-1   -2.766021524786820E-2
 3.001011964107677E7     9.978194141564017E-1   -4.105992897647108E-2    2.249849034630448E-6    3.671039509259119E-6    3.647328047952924E-6    1.556985127654619E-5    9.977212347927142E-1   -4.203911583914825E-2
 3.998015952143569E7     9.977989783097969E-1   -5.315815779229463E-2    1.283539306229862E-5   -1.133166307003457E-7   -1.268909402295402E-5    1.686565284925277E-5    9.976530821355427E-1   -5.664194696090678E-2
 4.995019940179461E7     9.961128185974737E-1   -6.598439565849278E-2    1.756032134973151E-5   -8.175275951025306E-6   -1.800138342441235E-5    1.783332762283076E-5    9.964402774873887E-1   -6.910977727822430E-2
 5.992023928215354E7     9.941553397165634E-1   -7.882868209502399E-2    2.179010193873796E-5   -1.314878374418590E-5    7.645598441883744E-6    1.310679984495968E-5    9.946509164316069E-1   -8.180001651397655E-2
 6.989027916251247E7     9.930296841156483E-1   -9.181483307556586E-2   -4.764611870033090E-6    4.542480919028417E-7    1.510631296642491E-6    8.331040575704975E-6    9.935887405668062E-1   -9.477864783442057E-2
 7.986031904287139E7     9.925243486931301E-1   -1.052623748070191E-1    9.691257289596471E-6    2.671528500431200E-6    5.275864066618573E-6    8.057582422648734E-6    9.924431213251516E-1   -1.079695259415080E-1
 8.983035892323031E7     9.915584128632667E-1   -1.188209094065192E-1    3.863331202721682E-7   -5.293004794003206E-6   -1.360057234828821E-5    6.259695139607140E-6    9.908574240964606E-1   -1.210808950016344E-1
 9.980039880358922E7     9.895515646409311E-1   -1.323641180528274E-1   -2.506042605568918E-5    1.075111485209385E-5    1.199304936232244E-5   -2.493443871833894E-5    9.885515626241624E-1   -1.344920378563161E-1
 1.097704386839482E8     9.865827492364473E-1   -1.455527166217780E-1    7.003454808609530E-7    6.310330682461621E-6    1.671255811512815E-6   -2.846318788392856E-6    9.859511450610662E-1   -1.477816252725232E-1
 1.197404785643071E8     9.848454385719480E-1   -1.589336740802522E-1    5.090769385820462E-6   -5.644802821229017E-7    2.631275700354053E-6   -6.152281431525622E-6    9.843671231518288E-1   -1.611151595569876E-1
 1.297105184446660E8     9.832486684178678E-1   -1.718761060423079E-1   -1.307701828451343E-5   -1.227042283436885E-5    2.953688788866506E-6   -8.663709355073765E-6    9.829155736829878E-1   -1.744462596129116E-1
 1.396805583250249E8     9.816552845982640E-1   -1.846705226168063E-1    3.682486179311044E-6   -4.812117039603110E-6    4.962094991060786E-6   -3.166617876150533E-6    9.810326063221253E-1   -1.875681876168180E-1
 1.496505982053838E8     9.791089102581663E-1   -1.971591312265288E-1    5.403102402479774E-6   -1.897328326253175E-6   -1.344763828964135E-5   -5.381173471089526E-6    9.784550025267290E-1   -2.003860140394687E-1
 1.596206380857428E8     9.764275776385387E-1   -2.095396281430728E-1   -6.427172097230300E-6   -7.288683605711923E-6   -1.493263787873611E-5    1.003233416274111E-5    9.756927221750981E-1   -2.131609952183607E-1
 1.695906779661017E8     9.733098785842523E-1   -2.223820997376173E-1    9.582066168276230E-6   -1.265530830721487E-5   -7.736917955405834E-6   -3.426079695458759E-5    9.728991187107643E-1   -2.261307257291142E-1
 1.795607178464606E8     9.707736338279990E-1   -2.348888451266884E-1    4.427062925417351E-6    8.497202210448632E-6    1.784554104116668E-6   -6.360967364045672E-6    9.701960757947294E-1   -2.380891560308195E-1
 1.895307577268195E8     9.678378860347816E-1   -2.470928425837546E-1   -1.974559807166883E-6   -1.181303136234711E-5   -1.093403477284190E-5    4.445693975649057E-6    9.666049380117296E-1   -2.504825685119800E-1
 1.995007976071784E8     9.639557136029087E-1   -2.596637349271217E-1    1.403025274986527E-5    3.691731506464579E-6    9.372190313209784E-6    1.814503408609972E-5    9.628312132489356E-1   -2.632535713443835E-1
 2.094708374875374E8     9.605457127800332E-1   -2.724965617912014E-1   -8.639245809849039E-6   -2.502251574473319E-6    5.038944348588698E-7   -3.300038736538667E-6    9.589725253122885E-1   -2.762371050212679E-1
 2.194408773678963E8     9.573448986516686E-1   -2.852918432569988E-1   -2.093137738293645E-6   -1.416385714099395E-6    1.318725515734940E-5    3.671816991145582E-6    9.551219290545229E-1   -2.891309542476697E-1
 2.294109172482552E8     9.537163779058229E-1   -2.975582930131340E-1   -1.756744046966066E-5   -1.744986748916750E-6   -2.426894934106652E-5    5.919475543530386E-7    9.510360073868883E-1   -3.016818636197929E-1
 2.393809571286142E8     9.506564969864115E-1   -3.094999075585168E-1    3.829974506805469E-6   -4.245483780030376E-6   -8.319337664014530E-6   -8.419981421985379E-6    9.468703400125971E-1   -3.139843854988313E-1
 2.493509970089731E8     9.469908696050510E-1   -3.234333230203512E-1   -9.073761064058352E-6    6.137316899639322E-6   -7.413861342924336E-6   -8.223050551499881E-7    9.441372713998621E-1   -3.276231022490612E-1
 2.593210368893320E8     9.427648455569029E-1   -3.354572440430080E-1   -6.750587318439000E-6   -7.242661994953957E-6   -3.298855492738981E-6   -8.404525516634399E-6    9.397934214859561E-1   -3.408745240703097E-1
 2.692910767696909E8     9.385944694467079E-1   -3.468996633882912E-1   -1.179980996045059E-5   -3.455719042103895E-6    7.147305692394214E-6    2.454521600859303E-6    9.355702820161585E-1   -3.528873536964383E-1
 2.792611166500499E8     9.338672890612948E-1   -3.584966796656286E-1   -4.726076480163419E-7    3.622518190784776E-6   -1.895656445616637E-6   -1.295391003308607E-6    9.309352375555644E-1   -3.646232315623563E-1
 2.892311565304088E8     9.290226853615613E-1   -3.706401690600771E-1   -9.897376207937245E-6   -7.924895159042786E-6   -1.342455734783774E-5    1.318873472427183E-5    9.262863392588219E-1   -3.768336364062141E-1
 2.992011964107677E8     9.241664244647080E-1   -3.827814498503375E-1    8.228509108023966E-6    2.870004839421594E-6    2.882682032658952E-7    8.993492010463140E-6    9.211696812963583E-1   -3.886796809974888E-1
 3.091712362911266E8     9.188790588285077E-1   -3.950364449304392E-1   -8.955255268150385E-7   -3.920640615667921E-6   -1.570410050721694E-5    3.229968402925270E-6    9.157037492937680E-1   -4.001895695221208E-1
 3.191412761714855E8     9.132853977071568E-1   -4.073688817944726E-1   -6.073889566373511E-7   -9.489901671967307E-6   -2.175961035808131E-6   -1.388712195868027E-5    9.097449129104334E-1   -4.119915842965235E-1
 3.291113160518445E8     9.076039794847942E-1   -4.200831024595423E-1   -2.363942473088233E-6   -7.447448849158837E-6    1.369457349030798E-5   -3.514546756457485E-6    9.034550193324756E-1   -4.244229986051348E-1
 3.390813559322034E8     9.020917176823654E-1   -4.329320419707782E-1   -6.840912624233668E-6   -1.441855467205546E-5    2.041816454365133E-6   -2.278244207520515E-5    8.968299165385903E-1   -4.370263336404245E-1
 3.490513958125623E8     8.968234747285307E-1   -4.454812007615239E-1   -1.539621232357871E-6    9.692172939971455E-7    9.887703526367727E-6    4.154305670199477E-6    8.905042543009656E-1   -4.493855030941393E-1
 3.590214356929212E8     8.914205992948951E-1   -4.579624363393177E-1    2.064778796958850E-6    1.019309490026440E-5   -3.803301098046985E-6   -1.200526933737743E-5    8.845277605319458E-1   -4.621384922367465E-1
 3.689914755732802E8     8.860053498287556E-1   -4.701055178664567E-1   -2.003354055386140E-6    4.678635988979359E-6    4.400517894984730E-7    1.585670073943095E-5    8.791367644716479E-1   -4.747174935135338E-1
 3.789615154536391E8     8.798794310308224E-1   -4.813887251908576E-1    1.249811530331655E-5   -2.669202269890181E-6    1.299035653613763E-5    5.148135754635626E-7    8.738566634805759E-1   -4.867405699405126E-1
 3.889315553339980E8     8.742233863541939E-1   -4.921476251287817E-1    4.257482877811145E-6    3.032684246550016E-6    6.985320496722198E-6    1.152526520482321E-5    8.680056916102588E-1   -4.987848835451862E-1
 3.989015952143569E8     8.675232217924207E-1   -5.028218506209341E-1   -5.930996843124434E-6   -5.554949388720260E-6    6.239677972810822E-6   -2.385296432746992E-5    8.612356333630937E-1   -5.097603221059940E-1
 4.088716350947158E8     8.602866141623365E-1   -5.136640265640651E-1    1.864870208174162E-6   -5.961739472630858E-6    5.762000921931383E-8   -6.142826570846389E-7    8.542769699177698E-1   -5.206357483652966E-1
 4.188416749750748E8     8.532613407519842E-1   -5.251444653424356E-1   -4.083151188425282E-6    5.964487040363075E-6   -1.174095047334296E-5    1.454289514736820E-5    8.476347790322499E-1   -5.314700939244682E-1
 4.288117148554337E8     8.460900557883124E-1   -5.368399178839333E-1   -9.149135810859878E-6    4.696651240074679E-6   -7.638691204729670E-6    4.897436757147350E-7    8.406102550656649E-1   -5.418607558565449E-1
 4.387817547357926E8     8.382826530234491E-1   -5.482322337677302E-1   -6.709717009630805E-7    8.069620588322689E-6    1.552861669828364E-6    4.649776708932513E-6    8.326176768319414E-1   -5.523039872969409E-1
 4.487517946161516E8     8.306286693287153E-1   -5.601363679281224E-1   -1.238985302320172E-5   -8.422252542289910E-6    9.447480448780989E-6    4.133377495737069E-6    8.242905478976471E-1   -5.635948273902684E-1
 4.587218344965104E8     8.236452910554871E-1   -5.720906481346404E-1    2.467569816955459E-6    4.559298091943416E-6    4.455293995042861E-6    5.256797410079060E-8    8.161142844418671E-1   -5.753161493230028E-1
 4.686918743768694E8     8.170463780531133E-1   -5.835284471991836E-1    1.208610836520679E-5   -4.594477945694124E-6    7.445661542878900E-6   -1.324529071671764E-5    8.078812086741541E-1   -5.868305957412624E-1
 4.786619142572283E8     8.098238349100133E-1   -5.942884045514414E-1    9.569935434108102E-7    1.614010575985094E-5   -9.434901593898113E-6    1.228545923543092E-5    7.993378537766750E-1   -5.979885283762607E-1
 4.886319541375872E8     8.022869120443840E-1   -6.047234683148284E-1    9.138372574812971E-6   -1.661743817385454E-5   -3.869819904832592E-6   -1.201714707676993E-6    7.905740833325711E-1   -6.089241629378337E-1
 4.986019940179462E8     7.939356893630634E-1   -6.154779007639712E-1   -3.622907180457645E-6   -1.069143454068941E-5   -7.726618764355444E-6   -7.062777796012439E-6    7.823620237802139E-1   -6.198267896555603E-1
 5.085720338983051E8     7.857218530465269E-1   -6.246872022422907E-1    6.561744620206923E-6   -4.227821727162364E-8   -1.430503896895608E-5    3.029415481718006E-6    7.747376599961228E-1   -6.303609651207019E-1
 5.185420737786640E8     7.783098852903373E-1   -6.336452322189119E-1   -1.691136000813761E-5   -6.680321643457820E-6   -5.785452026659221E-6   -1.268131599746346E-5    7.669656044197641E-1   -6.400756131619821E-1
 5.285121136590229E8     7.699762610157550E-1   -6.430617500634986E-1    3.716301001305095E-6    1.153082243999205E-5   -4.063265427570184E-6    1.896900773080859E-7    7.590552559013310E-1   -6.497118400647018E-1
 5.384821535393819E8     7.614478411379760E-1   -6.531535426742001E-1   -1.063783920018566E-5   -3.690402734511441E-6   -9.249993728808043E-6    1.314624552356595E-5    7.508543909425850E-1   -6.593895164245833E-1
 5.484521934197408E8     7.533078895043168E-1   -6.638173122322605E-1    4.952650590609705E-6    2.083666809599556E-6   -1.421529280971802E-5   -6.518522341586486E-6    7.424716035775023E-1   -6.692389964492369E-1
 5.584222333000997E8     7.447626512559713E-1   -6.747029574356692E-1    8.593423313671573E-6    3.101218714809664E-6    1.108670313068357E-5    2.886807438245090E-6    7.333897654308015E-1   -6.792224916566015E-1
 5.683922731804587E8     7.355521018944493E-1   -6.851573711994760E-1    8.331462651703806E-7   -3.492555374327902E-6    7.816619492064437E-6    1.467370483810940E-5    7.231752104171871E-1   -6.891644282889484E-1
 5.783623130608176E8     7.262242470387551E-1   -6.950978465715729E-1   -1.571174813236619E-5    6.147112653125152E-6   -1.850235495109504E-5   -2.309215423661627E-6    7.126343872953139E-1   -6.991465004927669E-1
 5.883323529411764E8     7.170668789474091E-1   -7.051686423059680E-1   -6.231073340201365E-6    5.509913281004645E-6    1.786372768674185E-5    7.388925029043565E-7    7.023626583474618E-1   -7.088475126321335E-1
 5.983023928215353E8     7.079749535386292E-1   -7.154017275816488E-1    1.457756990592637E-5   -4.074496826508595E-6   -1.051263994614781E-5    7.469037069032832E-6    6.919083606793414E-1   -7.184495369819799E-1
 6.082724327018943E8     6.984110042841463E-1   -7.250192590157307E-1    4.817023204976122E-6    3.742081481742912E-6   -1.603605178962977E-6    7.943934813219710E-6    6.818007749937631E-1   -7.278689478330512E-1
 6.182424725822532E8     6.885168625554532E-1   -7.346464715325509E-1   -1.501260131666325E-5    3.232692765593650E-6   -8.079703134256763E-6   -6.274209533609194E-6    6.717790925488862E-1   -7.373016638504459E-1
 6.282125124626122E8     6.779999800615824E-1   -7.440129905140476E-1    1.043292398228416E-6    6.129546154867173E-6   -5.285344931507733E-6    1.051207913475178E-5    6.627915398668983E-1   -7.468622172596046E-1
 6.381825523429711E8     6.683028886073671E-1   -7.511877865873672E-1   -7.240649190263193E-7    3.689580521555145E-6    3.606886654995939E-6    1.583380882692155E-5    6.537343444845785E-1   -7.556615943802711E-1
 6.481525922233300E8     6.593719607897324E-1   -7.597003627705236E-1    6.644494403436927E-9   -2.040450897631111E-6   -2.443919461896289E-6   -5.784771069819733E-6    6.446052026157566E-1   -7.641173318291509E-1
 6.581226321036890E8     6.497059522818488E-1   -7.685958016591021E-1   -1.540367939870046E-5    7.023297560792579E-7   -7.340792978075827E-6   -5.982085096229161E-6    6.346101777962219E-1   -7.725287448196546E-1
 6.680926719840479E8     6.396919559116342E-1   -7.772686039461454E-1   -2.064529517882916E-6    2.557600381232500E-6   -4.949007223445318E-6    1.844642446019642E-5    6.240196537294574E-1   -7.805154011153455E-1
 6.780627118644068E8     6.299091025386688E-1   -7.854363958859016E-1   -6.433423094325679E-6   -2.780896868297209E-6    1.069040157039535E-5    1.078567236509069E-5    6.128891978438412E-1   -7.883475948788318E-1
 6.880327517447658E8     6.195821984778465E-1   -7.937242279688973E-1   -1.684582525463552E-5    1.154225962913110E-6   -3.911194324788077E-6   -1.133841648096559E-5    6.016439523589256E-1   -7.961062759199439E-1
 6.980027916251246E8     6.086407574963743E-1   -8.019128279014049E-1   -1.847483497159798E-5    1.143969924051474E-5   -1.635370304760617E-5   -1.512902820924297E-5    5.900469023447927E-1   -8.038157143769026E-1
 7.079728315054835E8     5.973005491246405E-1   -8.101835566522106E-1   -3.915826096162311E-6    1.072036788237217E-5    1.343191458654769E-5   -2.779986175849229E-6    5.786161144339708E-1   -8.116397249999455E-1
 7.179428713858424E8     5.861177610394926E-1   -8.187512536815401E-1    1.317428102903765E-6    2.432752840781860E-7   -5.632368462700480E-6    6.951315666074473E-6    5.672460595673584E-1   -8.202199714267436E-1
 7.279129112662014E8     5.751579354410519E-1   -8.272363304217033E-1   -1.316286495902901E-5   -1.187903978875611E-5   -4.676343077921150E-6    2.181262548898270E-9    5.559983556306479E-1   -8.288813521180114E-1
 7.378829511465603E8     5.638137899621107E-1   -8.360792067553201E-1   -3.424549052326111E-6    1.374155245996373E-5   -1.142946624615451E-5    7.976518074976190E-6    5.446274670694751E-1   -8.373252203464608E-1
 7.478529910269192E8     5.518103311626800E-1   -8.445380502847994E-1    1.689524582074536E-6   -2.422975876533362E-6    9.873359608091847E-6   -3.470857007067299E-6    5.335125791246715E-1   -8.450795068692956E-1
 7.578230309072782E8     5.391868223030760E-1   -8.517062284705005E-1    1.254888756090472E-6   -5.938832646914741E-6    1.584635552838977E-5    2.556889642085685E-5    5.223163820660530E-1   -8.518991597680359E-1
 7.677930707876371E8     5.288386981159181E-1   -8.570213659654802E-1   -1.504085091373139E-5    3.949050622619546E-6   -2.305606829467360E-5   -3.538031178399302E-6    5.110549605909375E-1   -8.583448170210140E-1
 7.777631106679960E8     5.192625704025151E-1   -8.640000496579887E-1   -1.137583325025917E-5    8.896322348183159E-6   -6.234052456067249E-7    5.447713978017795E-6    4.995655419791867E-1   -8.647910644004043E-1
 7.877331505483550E8     5.088849245939407E-1   -8.709454961651715E-1    5.581277426414177E-6    1.277171313404331E-6   -4.760238099936488E-6   -1.044919919090379E-5    4.877607053886415E-1   -8.715683105351643E-1
 7.977031904287138E8     4.976827174762297E-1   -8.773078472681829E-1    8.783563227139421E-6   -1.139145187295704E-6   -7.740133896173383E-6    5.551592484857032E-6    4.749076505414797E-1   -8.778913207853176E-1
 8.076732303090727E8     4.859073924761212E-1   -8.831573657036474E-1   -8.535982215026425E-7    1.090428773700138E-5    7.482560439012605E-6   -2.315527208301482E-6    4.621580236994828E-1   -8.840981319783550E-1
 8.176432701894317E8     4.738359897870941E-1   -8.892963677600577E-1    3.637652739932887E-6   -6.914812342214101E-6   -9.628452097369207E-6    8.539542606650872E-6    4.491722349927246E-1   -8.904095161716610E-1
 8.276133100697906E8     4.615607775581074E-1   -8.956852073414904E-1    2.103820172269975E-6    1.121487909523336E-5    3.757977492828555E-6   -3.165626082821522E-7    4.365099569027774E-1   -8.971914171064659E-1
 8.375833499501495E8     4.489356431704850E-1   -9.019341766196254E-1    7.644035723688430E-6   -2.321520551103684E-6    8.749878537085271E-6   -1.350531446420117E-5    4.244211562245372E-1   -9.039442981408092E-1
 8.475533898305085E8     4.360995731218469E-1   -9.084276373293856E-1   -1.864726700543284E-6    1.465346452716413E-5   -1.420580644013234E-5   -9.705511863144880E-6    4.126370187215663E-1   -9.098552769272336E-1
 8.575234297108674E8     4.233858475982507E-1   -9.148138787546584E-1    5.728807148340430E-6   -1.015685491952351E-5    1.650187173333719E-6    1.226739310578775E-5    4.007531678122839E-1   -9.152046480190510E-1
 8.674934695912263E8     4.106131839688002E-1   -9.214893331327413E-1   -1.077536153143160E-6    7.803586165235578E-6    5.871132039999921E-6    6.094271825569581E-6    3.886939531797491E-1   -9.199492600431652E-1
 8.774635094715853E8     3.974114797105769E-1   -9.280889917638611E-1   -9.133492872680483E-6   -6.822064431981058E-6    1.082340198260207E-5   -1.624220291530139E-7    3.761804174195150E-1   -9.246680602092648E-1
 8.874335493519442E8     3.844138937558098E-1   -9.326464401307448E-1   -7.772264815378482E-6   -3.325263101603051E-6    9.480207988410175E-6   -6.519439452042526E-6    3.631059284443471E-1   -9.291896722825581E-1
 8.974035892323031E8     3.730239326934092E-1   -9.363592361694978E-1   -8.284905866968962E-6   -6.851413113454117E-6   -4.331799938961671E-6    2.576098951635441E-6    3.495054401730062E-1   -9.334593555724192E-1
