#  HZ   S   RI   R     50.00 
! Rohde & Schwarz Vector Network Analyzer 
! Rohde-Schwarz,ZNB20-2Port,1311601062102128,3.60
! Created: UTC 4/29/2024, 2:55:37 PM
! freq[Hz]                re:S11                  im:S11                  re:S21                  im:S21                  re:S12                  im:S12                  re:S22                  im:S22
 1.000000000000000E5     9.959238996262951E-1    3.830207495715437E-3   -2.070624463651070E-5    9.613225678754280E-5    4.005961850413380E-5    2.600477399111620E-5    1.010380282255365      -1.143560872309896E-2
 1.007003988035892E7     9.978022384950345E-1   -1.389702527806421E-2    2.690033427604288E-6   -6.859975706128354E-6    2.667997683827115E-5   -1.355338179835717E-5    9.959157340697243E-1   -1.453635237269476E-2
 2.004007976071785E7     9.998851322887935E-1   -2.721860867631525E-2    6.259157612756766E-6   -4.968127191179991E-6   -1.992507673545512E-5    7.063847224240806E-6    9.989072509997589E-1   -2.769292252836690E-2
 3.001011964107677E7     9.980192252378157E-1   -4.092620818648574E-2   -1.027063748230120E-6   -1.930020320712299E-5   -9.941207588925967E-6   -6.766727879669343E-7    9.975119498668926E-1   -4.190060661892257E-2
 3.998015952143569E7     9.976156387899213E-1   -5.310145602139284E-2    3.120166328494464E-6    1.681975456440075E-6   -8.234993898095226E-6   -5.102508224094307E-6    9.975966894812649E-1   -5.671091983398870E-2
 4.995019940179461E7     9.958840712912542E-1   -6.596706851118989E-2    4.100863808765088E-6    3.491745824421930E-7    1.370457584334730E-6    8.639536038463561E-8    9.965517443949249E-1   -6.909097544526434E-2
 5.992023928215354E7     9.940393056339086E-1   -7.886847288054384E-2    6.781348592916283E-6   -7.103117833446320E-6    5.669411058074178E-7   -5.066237022772108E-7    9.947909204791923E-1   -8.190745151962664E-2
 6.989027916251247E7     9.929976948044197E-1   -9.186599014786181E-2    2.514353480774031E-6    6.972395563980488E-6    2.714996221462951E-7    6.872247716333081E-6    9.935037565330982E-1   -9.467300570547885E-2
 7.986031904287139E7     9.925331088683089E-1   -1.052229003373040E-1    8.803030204308234E-6    1.079828775106595E-6    9.568144634872590E-7   -1.659470399368915E-6    9.922718892611736E-1   -1.077975037071221E-1
 8.983035892323031E7     9.915588624433386E-1   -1.187506878785582E-1    3.048643034797677E-6   -1.197560349249264E-5   -7.639236812781464E-6   -1.389750071101013E-5    9.908035296821370E-1   -1.210990239834534E-1
 9.980039880358922E7     9.892697956104060E-1   -1.322632307978153E-1   -1.381571095221233E-5   -8.017342930520757E-6    1.343313384209237E-5   -9.318376032818220E-6    9.885751078117012E-1   -1.344099986693954E-1
 1.097704386839482E8     9.863141279244222E-1   -1.455913151193447E-1   -9.726318625660686E-6   -4.968426269578923E-6    2.605872657676299E-5    5.725130161553100E-6    9.863168949612601E-1   -1.478695701616193E-1
 1.197404785643071E8     9.848275794748270E-1   -1.589541514415187E-1    4.116489844441135E-6    5.500337463710726E-6    7.401258599250530E-6   -2.115101056020221E-5    9.843324906154880E-1   -1.611402306313668E-1
 1.297105184446660E8     9.830083507576731E-1   -1.717744807219303E-1   -6.581978841760728E-7    4.144258773103930E-6   -5.478609663005365E-6    8.758205602398393E-6    9.828091047360858E-1   -1.744135385371505E-1
 1.396805583250249E8     9.816669350385078E-1   -1.846960569956050E-1    6.818459203957348E-6   -8.376917097784378E-6    1.055903578062129E-6   -5.875990800546516E-7    9.807741427451749E-1   -1.874390510009532E-1
 1.496505982053838E8     9.788605575403416E-1   -1.971322518230536E-1    6.963209487162539E-6   -9.336077582429098E-6   -5.764723219399158E-6   -8.936202359777356E-6    9.785685722405422E-1   -2.004182823798797E-1
 1.596206380857428E8     9.761221818167288E-1   -2.094397492956454E-1    2.532628467656007E-6   -3.942738372945270E-6   -1.719499784837472E-5   -8.178912272728991E-6    9.757579565330616E-1   -2.132175310447376E-1
 1.695906779661017E8     9.731621825691450E-1   -2.222705233635189E-1    9.231121061392798E-6   -1.476294910605680E-5   -1.816619873326278E-5   -3.917183188494593E-6    9.728149533283031E-1   -2.261650246246167E-1
 1.795607178464606E8     9.707201431319422E-1   -2.347713077506466E-1    3.337675962455976E-6    3.550698548809774E-6   -1.727587174179958E-6    1.981647977795232E-5    9.700473327835476E-1   -2.380081175518920E-1
 1.895307577268195E8     9.676899208178158E-1   -2.470121046739606E-1   -7.635218063104975E-6    6.385567159813154E-7   -7.857040125879185E-6    1.643481515822206E-6    9.667467188395474E-1   -2.505046743700665E-1
 1.995007976071784E8     9.636515993757775E-1   -2.595282610159706E-1   -2.956855787761330E-6    2.930885164741032E-6    1.268742937669148E-5    2.904075743468763E-6    9.627594666067679E-1   -2.632148847032066E-1
 2.094708374875374E8     9.603812192430866E-1   -2.723851017115926E-1   -7.732275006101546E-6    7.832445025842372E-6   -4.742334580090595E-6   -2.689131452348078E-7    9.588689015037651E-1   -2.761160192724758E-1
 2.194408773678963E8     9.574482747831644E-1   -2.852516656105517E-1   -1.365113516226836E-5   -1.751490752407081E-6    3.518496397873821E-6    7.649854694520237E-6    9.551089100453134E-1   -2.891487855357265E-1
 2.294109172482552E8     9.536689835895673E-1   -2.974919194737365E-1    1.472783594942543E-5   -5.200389532575265E-6    1.909519017639458E-5    1.731502888871927E-5    9.509709386767912E-1   -3.017514001474181E-1
 2.393809571286142E8     9.504317236963903E-1   -3.093775651435547E-1   -9.002707828404653E-6    1.488102751824030E-5   -2.844505325226693E-6   -3.233653204760734E-6    9.470260444665282E-1   -3.139383637938515E-1
 2.493509970089731E8     9.467667673070962E-1   -3.233813553378161E-1   -3.519544848896838E-6   -1.945495742861986E-6    4.338734511846678E-7   -5.353675119327756E-6    9.440333671598140E-1   -3.276771168766174E-1
 2.593210368893320E8     9.426554701449497E-1   -3.353434567773704E-1    4.995307759534215E-6    1.474669158066365E-5    1.364335868439214E-5    1.038741920853676E-6    9.397024733109409E-1   -3.408586939061676E-1
 2.692910767696909E8     9.385379539192387E-1   -3.467885459436459E-1   -1.429781962317221E-6    8.173869944260818E-6   -1.104605203489524E-8    2.913934493604155E-6    9.356048811111732E-1   -3.528473529478017E-1
 2.792611166500499E8     9.337145893800290E-1   -3.583561185951848E-1   -1.685379540303725E-5    2.225051213283845E-7   -1.078913594829258E-6   -3.653071402217662E-6    9.310086391799811E-1   -3.646276719708046E-1
 2.892311565304088E8     9.289167976983740E-1   -3.704684305912589E-1   -5.479857019535846E-6   -1.366931631650851E-5    1.152496750953462E-5    1.644815219579819E-6    9.261467628748076E-1   -3.767978476446567E-1
 2.992011964107677E8     9.241715692346953E-1   -3.827069964982205E-1   -6.592134229561786E-6   -4.543452107191915E-6    2.028984758739076E-7   -1.695201350085300E-5    9.210035772291914E-1   -3.886242920118446E-1
 3.091712362911266E8     9.188806166143900E-1   -3.949225264802997E-1    4.058872594316785E-7   -2.714344420638649E-6   -1.024843178579300E-5    1.178229779208272E-5    9.157093104549837E-1   -4.001835197531728E-1
 3.191412761714855E8     9.131754145242406E-1   -4.073242091131197E-1   -1.457915176657070E-5    4.269509914472691E-6   -1.257551737168597E-5    5.913182796784867E-6    9.099294806194866E-1   -4.119910386991399E-1
 3.291113160518445E8     9.074486071044681E-1   -4.199263269963207E-1    6.159384852042579E-7    1.435399041000927E-5    1.204408459443299E-5    1.716557786473591E-5    9.034721261902856E-1   -4.244427262009535E-1
 3.390813559322034E8     9.019352462537412E-1   -4.328212458880465E-1   -4.956011529633938E-6   -1.554386554777735E-6   -6.987429589056752E-8    9.512364062190538E-6    8.966974106627271E-1   -4.369383400679559E-1
 3.490513958125623E8     8.965696322460124E-1   -4.453678188871328E-1   -3.846603569304816E-6   -1.007837964141009E-5    1.195686448842944E-5    7.191944021080213E-6    8.904985315174174E-1   -4.494420814221148E-1
 3.590214356929212E8     8.911479563079945E-1   -4.578186142617022E-1   -7.168509444056396E-6   -9.155705106633218E-6   -6.806977451687183E-6    9.657522057526233E-8    8.847330826056494E-1   -4.621316091782154E-1
 3.689914755732802E8     8.857954316440848E-1   -4.699841228973664E-1   -8.603012466920379E-8    1.161544408156432E-5    3.443793783721127E-6   -9.948570187234400E-6    8.791877606210936E-1   -4.747524125911349E-1
 3.789615154536391E8     8.797566892617983E-1   -4.812655721514053E-1   -1.536788175358484E-6    5.926849599434384E-6    3.178330431910383E-6    1.007000588496833E-5    8.738425576640640E-1   -4.867482404971933E-1
 3.889315553339980E8     8.741802268101452E-1   -4.920019487770865E-1    4.270695886743932E-6    1.262282487936913E-5   -2.067132724797136E-6    8.543327363224108E-6    8.678541322869936E-1   -4.987191998397231E-1
 3.989015952143569E8     8.672809007200757E-1   -5.027507665327561E-1    9.897707885022523E-6    8.110637272956321E-7    5.750474508194219E-6    1.589443067001557E-5    8.611072697820061E-1   -5.096271469972367E-1
 4.088716350947158E8     8.600049356036128E-1   -5.134123513011013E-1   -5.080902408892501E-6   -7.204191917645810E-6    1.066244385756119E-5   -1.550927313310835E-5    8.542972749954009E-1   -5.206846743061638E-1
 4.188416749750748E8     8.532492962648373E-1   -5.250529944933693E-1    1.659639012744690E-6    5.332949547173666E-6   -2.245266023942048E-5    1.048258229012745E-5    8.475324485101128E-1   -5.314196420480002E-1
 4.288117148554337E8     8.459735783799361E-1   -5.368295044620391E-1    5.081464613491486E-6    1.149194381798831E-5   -6.744084361053137E-6   -7.837738396136532E-6    8.406436287942322E-1   -5.418895573504341E-1
 4.387817547357926E8     8.381749422734840E-1   -5.481742381338616E-1   -6.456111830853464E-6   -1.070077151335741E-5    1.298384244798077E-5    2.148976651115476E-5    8.326452400310766E-1   -5.523563413697068E-1
 4.487517946161516E8     8.304482300532505E-1   -5.600118519534131E-1   -1.036718273739424E-5    1.777652198513255E-5    6.824540033814524E-6   -3.879906494512958E-6    8.241655163853581E-1   -5.634979255207382E-1
 4.587218344965104E8     8.235245459487206E-1   -5.719862858718592E-1    9.201180563922902E-7   -2.083971423834664E-6   -3.832615395175772E-6   -3.187417481600511E-6    8.159101210712989E-1   -5.752386736840043E-1
 4.686918743768694E8     8.169468243128836E-1   -5.834279811879257E-1   -8.556171565662077E-7   -2.396531557350135E-6   -8.336307846031118E-6   -1.528691960136478E-5    8.078728906548025E-1   -5.868043053041744E-1
 4.786619142572283E8     8.097372351956329E-1   -5.941907771453641E-1    5.670740358926582E-6   -2.289635738455239E-6   -7.282241496091760E-6   -8.753752149849557E-6    7.993633902070570E-1   -5.980297198964527E-1
 4.886319541375872E8     8.021653803680261E-1   -6.046457258072248E-1   -7.805603551926860E-6    1.139473582912932E-5    1.705071995710490E-6    9.894098942936122E-6    7.906348591195440E-1   -6.088473051967401E-1
 4.986019940179462E8     7.938562432306242E-1   -6.152818731303459E-1    1.229353072545177E-5   -1.171478302389075E-5    6.455813612692426E-6    1.370558445167057E-7    7.823495649796559E-1   -6.197553609982096E-1
 5.085720338983051E8     7.855339898790997E-1   -6.245094029586015E-1    6.358583892484662E-6    1.574295775458154E-5    4.049949593064395E-6   -1.157046218335580E-5    7.746335968942304E-1   -6.302620997936218E-1
 5.185420737786640E8     7.781993046246772E-1   -6.335107330339927E-1   -2.392955602092238E-6   -3.356710942823254E-6   -2.358265570736805E-6   -1.387550324175594E-5    7.669356060619492E-1   -6.401272267035720E-1
 5.285121136590229E8     7.699564513236278E-1   -6.430793327161679E-1   -9.282567479564781E-6    1.146277979152684E-5   -6.279667788272373E-6   -8.415642513810927E-6    7.590342849006142E-1   -6.497425772105117E-1
 5.384821535393819E8     7.612798750986016E-1   -6.531068431353950E-1    1.123245138162035E-5    4.323062676370564E-6    1.964778262201792E-6    3.322989345542432E-6    7.508725660533971E-1   -6.594129671199707E-1
 5.484521934197408E8     7.530931994329499E-1   -6.636505866965627E-1    5.028372354766325E-6    3.602460422581551E-6    8.947644893157246E-6   -3.561410401990929E-6    7.424376407889588E-1   -6.692410405517037E-1
 5.584222333000997E8     7.446519221470879E-1   -6.745887531173769E-1   -1.007226540451446E-5   -1.664687075775434E-6    1.006001773287546E-6    7.634999171446725E-6    7.333443916747920E-1   -6.791614357130457E-1
 5.683922731804587E8     7.355195237763548E-1   -6.851525744551460E-1    9.107702987966476E-6   -9.743786365951340E-6   -1.322799739920454E-5   -1.197989294511927E-5    7.231524713557042E-1   -6.891662245708139E-1
 5.783623130608176E8     7.262284362216636E-1   -6.951269574167130E-1   -1.132448043948758E-5    4.319943497493871E-6    1.030026723076156E-6    4.683394236100539E-6    7.126028076922103E-1   -6.989726107052194E-1
 5.883323529411764E8     7.169404503130672E-1   -7.050489727257396E-1    8.169919799497775E-7    2.426723453559200E-6    8.882140206335292E-6   -5.496460337840686E-6    7.023027695137741E-1   -7.087130398886942E-1
 5.983023928215353E8     7.077843515118682E-1   -7.151949505221435E-1   -8.180450939749281E-6    4.510205767164408E-6    9.274609527434184E-6   -1.004853166740254E-5    6.919200797542329E-1   -7.183579709703480E-1
 6.082724327018943E8     6.984402729547438E-1   -7.250435448297712E-1   -7.664919227135302E-6    1.086951131544495E-5    1.603623288880546E-5   -1.338452243627314E-6    6.816505646824265E-1   -7.276810098815326E-1
 6.182424725822532E8     6.885867501367295E-1   -7.346067023995263E-1    9.610033107806520E-6   -2.538443995771702E-5   -7.303827805000269E-7   -4.860483922191986E-6    6.716992236856134E-1   -7.372817457503938E-1
 6.282125124626122E8     6.778646785778881E-1   -7.438772932239008E-1    1.084872058014386E-5   -1.121429265425989E-5   -2.033240465015608E-6   -1.758016884133850E-5    6.627863446372537E-1   -7.468570466173317E-1
 6.381825523429711E8     6.682392517214987E-1   -7.509617858779757E-1    6.124803357068344E-7    8.687210574215579E-6   -7.091897012127904E-6    3.374969947427029E-6    6.537693899713645E-1   -7.556682510590514E-1
 6.481525922233300E8     6.593269091983199E-1   -7.595681070983837E-1    1.133634196170683E-5    9.935446889835523E-6    9.211153151348217E-6    7.196401328660989E-6    6.446790076066147E-1   -7.641683795232260E-1
 6.581226321036890E8     6.496075126679864E-1   -7.685507595790109E-1   -4.179536106675127E-6    8.833363921145207E-7   -6.206752268626122E-6    2.187086662115643E-6    6.344743135737398E-1   -7.725643686112006E-1
 6.680926719840479E8     6.397483071103581E-1   -7.772536360393900E-1    2.845011733227339E-6    8.316318603357850E-6   -6.732103118851323E-6   -6.205692452716868E-6    6.238888520009981E-1   -7.804957806922976E-1
 6.780627118644068E8     6.298297858807352E-1   -7.853300108994459E-1    8.518904937551138E-6    6.693508882341035E-6    1.943001291878306E-5    1.624223689790325E-5    6.130111434718971E-1   -7.883948211906241E-1
 6.880327517447658E8     6.195016970814552E-1   -7.936890730208604E-1   -1.600381643644678E-5    1.152544920329946E-5   -3.438179377627715E-6    9.426175700936784E-6    6.015117336546170E-1   -7.960378923427520E-1
 6.980027916251246E8     6.086388144394997E-1   -8.018755498549802E-1   -9.990706483902366E-6    1.972943896394855E-6   -3.402207900535853E-6    3.633872396655511E-6    5.900166884551784E-1   -8.036516172792235E-1
 7.079728315054835E8     5.972205159943725E-1   -8.101065714093459E-1    1.009140152503705E-5   -5.789138897058742E-6    1.330537350965149E-5    1.599489696597279E-5    5.784260818936706E-1   -8.116015608504042E-1
 7.179428713858424E8     5.859861166130307E-1   -8.186445576185999E-1    1.480567525163936E-5   -1.025641378072289E-5    7.255704045885448E-7    2.969252284788575E-6    5.672913602814865E-1   -8.201671654651710E-1
 7.279129112662014E8     5.751146708845236E-1   -8.270940982138664E-1   -3.878831899472167E-6    1.118260464658893E-7   -2.603678596723148E-5    8.764758665234807E-6    5.560126069266846E-1   -8.289703106112704E-1
 7.378829511465603E8     5.637470494511413E-1   -8.358935340035641E-1   -1.327015143786673E-5   -4.423923997286794E-6    2.212026821274423E-6    5.107508246082389E-6    5.446931120718774E-1   -8.372734630307979E-1
 7.478529910269192E8     5.517766126280746E-1   -8.444262350025943E-1    1.191418226625375E-5   -5.073796857620626E-6   -4.300308417491793E-6   -3.972524089006953E-6    5.333998739722738E-1   -8.449918338895890E-1
 7.578230309072782E8     5.390937478274564E-1   -8.515589732696026E-1   -8.692052514676730E-7   -1.145938816133801E-5   -9.729479054197520E-6    5.502867187002313E-6    5.223333901884656E-1   -8.519074098409497E-1
 7.677930707876371E8     5.287297430038308E-1   -8.569105195606441E-1   -1.072952084021362E-5   -7.449477744055850E-6   -1.018681218518147E-5   -4.813664651181479E-7    5.110333862742378E-1   -8.583784936119379E-1
 7.777631106679960E8     5.191104005846982E-1   -8.638475424977811E-1    7.491675262957002E-6   -2.567036017627332E-6    1.258178777477865E-5   -1.290235299512212E-6    4.994859348218813E-1   -8.647987037322831E-1
 7.877331505483550E8     5.088846977831212E-1   -8.707977865390290E-1   -3.525708646541365E-6   -2.976124542091535E-6   -1.183006332076111E-5    4.381216484247149E-6    4.876535336427202E-1   -8.715629584075997E-1
 7.977031904287138E8     4.975696436927970E-1   -8.772579859861424E-1    1.211501083193011E-6   -1.322589557184416E-5    1.196844403369026E-5    1.298537399552093E-5    4.749923640330472E-1   -8.779657305870232E-1
 8.076732303090727E8     4.857783162589467E-1   -8.830369282652992E-1    1.696503133441138E-6    4.191145522677261E-6    2.832829022673142E-6   -7.155206106601980E-6    4.620793348278351E-1   -8.840237612952898E-1
 8.176432701894317E8     4.737904914379863E-1   -8.890150199657527E-1   -1.247635476421540E-6   -3.187694502801942E-6   -3.552936681025391E-6   -1.953498173200048E-5    4.492243324301186E-1   -8.903946089154249E-1
 8.276133100697906E8     4.614567446525373E-1   -8.954912849174467E-1    4.557152076182092E-7    7.237577614978402E-6    3.991053401838400E-6   -6.345636664295970E-6    4.366526830929001E-1   -8.971556162262905E-1
 8.375833499501495E8     4.488887974686453E-1   -9.019266848496300E-1    1.376266677724988E-5   -3.101233032121094E-7   -3.748739124918350E-6    1.129235280171394E-5    4.244115660626354E-1   -9.038199339935875E-1
 8.475533898305085E8     4.360583262839587E-1   -9.082924037927095E-1   -5.897651526589792E-6    3.640000945242616E-7   -3.216324614174964E-7    8.296139112261359E-6    4.124925254817845E-1   -9.098245069844778E-1
 8.575234297108674E8     4.233300008090901E-1   -9.146703556903524E-1    4.381128949761022E-6    1.155478335573900E-5   -4.130115468640039E-6   -8.580623157302240E-7    4.008134104789282E-1   -9.151452272602590E-1
 8.674934695912263E8     4.104678840016721E-1   -9.213471822708813E-1    8.045975759679443E-6   -1.593937735057382E-6    4.139990448164781E-6    2.027466628405182E-5    3.886890525911630E-1   -9.199729719648355E-1
 8.774635094715853E8     3.973622598708421E-1   -9.279867619516219E-1   -1.509845265507276E-5    6.443619476244515E-6   -1.535872290966119E-5   -6.389764483205414E-6    3.761248453946583E-1   -9.247191303748831E-1
 8.874335493519442E8     3.843070997850652E-1   -9.325824332328142E-1   -9.950126414263009E-6   -1.274335955468179E-5   -1.279543252820068E-5    9.431366782343257E-6    3.630537738335649E-1   -9.291841670270905E-1
 8.974035892323031E8     3.729871189758405E-1   -9.362330291758425E-1   -4.217405619222629E-6   -2.431894857930358E-6   -8.819750952309244E-6   -5.036128117882293E-6    3.495489836540344E-1   -9.333340406780600E-1
