#  HZ   S   RI   R     50.00 
! Rohde & Schwarz Vector Network Analyzer 
! Rohde-Schwarz,ZNB20-2Port,1311601062102128,3.60
! Created: UTC 4/29/2024, 2:55:44 PM
! freq[Hz]                re:S11                  im:S11                  re:S21                  im:S21                  re:S12                  im:S12                  re:S22                  im:S22
 1.000000000000000E5     9.958169669647833E-1    3.677578546599010E-3    9.366226955052357E-5    1.794660264966726E-4   -7.366448547165927E-5    2.217358047638695E-4    1.010634739550244      -1.143157065064740E-2
 1.007003988035892E7     9.982880164986023E-1   -1.384218116124324E-2    2.002899697424732E-5    1.395445524337087E-5   -2.766792662131989E-6   -1.885456661382997E-6    9.959572014131786E-1   -1.459137484109198E-2
 2.004007976071785E7     1.000067105080979      -2.719891520340408E-2    1.421522871056043E-5   -4.565390451381183E-7   -3.297690840698850E-6   -1.027335462105416E-5    9.987204348677762E-1   -2.756604883295046E-2
 3.001011964107677E7     9.981775910697247E-1   -4.106776344881397E-2   -9.996029436583112E-6   -2.175130476018910E-7    3.178518895820262E-6   -1.802464461910292E-6    9.974856163054272E-1   -4.203313255185551E-2
 3.998015952143569E7     9.975408488640152E-1   -5.313097804646424E-2   -1.317576881435256E-5   -9.040970110883216E-6    4.856802710797390E-6    9.461226267419475E-6    9.974648948051983E-1   -5.665368683020675E-2
 4.995019940179461E7     9.958066024926704E-1   -6.608268304104907E-2   -8.257623834713232E-6    5.470877417134681E-6    1.088675311875699E-6   -5.060391930303123E-6    9.964623574802515E-1   -6.904196464121512E-2
 5.992023928215354E7     9.939450079879008E-1   -7.878899409042009E-2    3.138502188047117E-6   -1.845190833150065E-5    2.906383310414887E-6   -3.926211623806735E-6    9.947781156108277E-1   -8.190170829240208E-2
 6.989027916251247E7     9.930665748472600E-1   -9.188644715594987E-2    5.786008278013767E-6    1.259087380067920E-5   -5.140398978432462E-6   -9.795511089510425E-6    9.933886567906858E-1   -9.475646322940201E-2
 7.986031904287139E7     9.926787754457066E-1   -1.052218300859647E-1    2.121680000225216E-6    2.269931767902882E-5   -1.669294088353245E-6   -4.046362949227633E-6    9.922620350285060E-1   -1.078486012570489E-1
 8.983035892323031E7     9.915446606363716E-1   -1.189034515673350E-1    1.602768228248881E-5   -1.518375000613480E-5   -3.402991850502113E-5    1.029209612180252E-5    9.907011836961970E-1   -1.210140824447252E-1
 9.980039880358922E7     9.892155737993165E-1   -1.323223601856880E-1   -1.513728571321218E-5   -6.628327257081976E-6    4.253986145775890E-6    8.038990146134745E-7    9.885727622714399E-1   -1.344099034663431E-1
 1.097704386839482E8     9.863024297728276E-1   -1.454878800308472E-1    7.689143766899880E-6   -1.879691120942504E-5   -1.818214835474427E-6    9.859909466989303E-6    9.859780910993576E-1   -1.477846054274328E-1
 1.197404785643071E8     9.846355960505769E-1   -1.589669755762058E-1    6.767498745719549E-6    6.651348254986633E-6   -5.262576794799077E-6    8.142766416757865E-6    9.843477899823432E-1   -1.611615129495074E-1
 1.297105184446660E8     9.829798886104462E-1   -1.717735212654662E-1    5.357924743591347E-6   -1.515013829878327E-5   -9.752655946964760E-6   -8.998640477716957E-6    9.826823583753135E-1   -1.744275253540216E-1
 1.396805583250249E8     9.817123872543956E-1   -1.846759116694578E-1   -2.438947340475115E-6   -1.727017959074705E-6    1.319081932142018E-6   -2.309877578063103E-7    9.808384040711806E-1   -1.874804120108242E-1
 1.496505982053838E8     9.788840931844707E-1   -1.971069925927624E-1    3.920141818581429E-6    2.076207753739639E-5   -1.067913564196792E-6   -2.218606323888369E-6    9.784688813071334E-1   -2.003464834604524E-1
 1.596206380857428E8     9.760123504968612E-1   -2.094503279236806E-1   -6.734735260802944E-6   -8.472018318276086E-6    7.630025595180035E-6    8.109599464817353E-6    9.757007470605370E-1   -2.132448091996973E-1
 1.695906779661017E8     9.732327951787446E-1   -2.223371473766496E-1    1.935450617135266E-6    2.700952485047176E-6    2.295271800849559E-6   -5.381068656504394E-7    9.728288793940343E-1   -2.261577486162857E-1
 1.795607178464606E8     9.707110823723625E-1   -2.348463404816070E-1    6.748492154548934E-7    8.535221271658455E-6    8.699085678505998E-6   -9.590048064730975E-6    9.701373848773228E-1   -2.379709100039405E-1
 1.895307577268195E8     9.676124019412389E-1   -2.470947236070464E-1    1.788621702825311E-5    2.284826714005070E-5   -7.585186533937573E-6   -4.305224888340031E-6    9.666931532436974E-1   -2.504117978182714E-1
 1.995007976071784E8     9.637346923220605E-1   -2.594730072669151E-1    9.533440510526209E-6   -3.809049106172524E-6   -2.828239450435993E-6   -2.814688274994793E-6    9.627047007371211E-1   -2.631481064201763E-1
 2.094708374875374E8     9.604275987714052E-1   -2.723627131789042E-1   -6.602301073535367E-6   -8.657367250681741E-8    5.107904843579493E-6   -1.566090795764424E-5    9.588862110937489E-1   -2.761597518384251E-1
 2.194408773678963E8     9.573178639369238E-1   -2.851271057484946E-1    2.063089955222494E-7    7.335642048271738E-6    1.129704022344608E-6   -1.940954034983642E-5    9.551600092122865E-1   -2.891030060176067E-1
 2.294109172482552E8     9.536779895312817E-1   -2.974172075066283E-1   -2.067069616733604E-5   -2.873737266913957E-6   -1.266670303666055E-5   -2.415144334408292E-5    9.509927910293303E-1   -3.017723661197854E-1
 2.393809571286142E8     9.504178206935155E-1   -3.093622041764399E-1    6.290325798419498E-6   -1.836979491382561E-6    9.924729467598941E-6   -1.153094069124976E-5    9.469305623459038E-1   -3.139106419438076E-1
 2.493509970089731E8     9.468362059152389E-1   -3.232639960885618E-1   -5.298599738782357E-6    4.009770330152651E-6    2.900235122328289E-6   -1.534249867149634E-6    9.440595006655338E-1   -3.275328737738813E-1
 2.593210368893320E8     9.427387015600062E-1   -3.354051251058156E-1   -1.550676407704677E-5    1.410111591224874E-5   -1.475467455359893E-5   -6.301258064843310E-6    9.398693501934078E-1   -3.407853489463887E-1
 2.692910767696909E8     9.385428257672724E-1   -3.467454908083435E-1    5.563841073806033E-6    2.656482163625923E-6   -1.395807010798778E-5    2.034638281286577E-5    9.355592555988301E-1   -3.528375420527894E-1
 2.792611166500499E8     9.336713621916348E-1   -3.583826951818551E-1   -2.626094176617120E-6    2.733904869478859E-6    7.908075946489338E-6   -6.728273698681591E-6    9.308553371661858E-1   -3.646111637690866E-1
 2.892311565304088E8     9.288919661068034E-1   -3.704258131710722E-1    3.589218583889214E-6   -7.590782419535474E-7    7.892336965515212E-6    6.344855309225431E-6    9.261143137210716E-1   -3.767683629266557E-1
 2.992011964107677E8     9.240236429386599E-1   -3.826705436324057E-1   -8.056188269237144E-6    4.424419381127816E-6    7.324133668664982E-6    1.520140268995423E-6    9.213166611785867E-1   -3.886482269527542E-1
 3.091712362911266E8     9.188133309350883E-1   -3.950012212981050E-1    1.258787934075093E-5    1.207673580846923E-5   -1.643128502930391E-5    3.341325007945772E-6    9.156728912509114E-1   -4.001498230125703E-1
 3.191412761714855E8     9.132597655109476E-1   -4.073011159719663E-1    1.944129594990715E-5    2.945316143421689E-5   -9.361000479226209E-6    5.303559058891272E-7    9.097588942419208E-1   -4.118266251008058E-1
 3.291113160518445E8     9.074782167921247E-1   -4.199111890500554E-1   -4.355948491336395E-6   -2.735246136910162E-6    1.101449048152223E-5    9.688301912330371E-7    9.033902854113676E-1   -4.243893106700395E-1
 3.390813559322034E8     9.019033269495146E-1   -4.327752614836802E-1   -6.611526610857561E-6   -1.484334400355806E-6   -2.739227722976579E-6    8.122396788123582E-6    8.968909374032181E-1   -4.369749580114538E-1
 3.490513958125623E8     8.965924826882419E-1   -4.452287069766267E-1   -1.042794359132012E-5   -1.827283811233639E-5   -1.020063706248607E-5    1.474190808568033E-5    8.904073037807089E-1   -4.493505166354216E-1
 3.590214356929212E8     8.911567725011134E-1   -4.578595959872409E-1   -5.410081754254160E-7    9.745124709652723E-6   -9.867978678927406E-7    1.283100426788294E-5    8.844827518571705E-1   -4.621242544839128E-1
 3.689914755732802E8     8.857994615283153E-1   -4.699887916762344E-1    4.710442096665394E-6   -6.517800317394250E-6    7.059734847014169E-6   -8.096698302577109E-6    8.790269283216041E-1   -4.747708817974902E-1
 3.789615154536391E8     8.797717917051833E-1   -4.812242356889279E-1    3.920655733229365E-6    5.410783979274634E-6    1.876094616963931E-6   -1.031383401478192E-5    8.738645335763765E-1   -4.868547554831456E-1
 3.889315553339980E8     8.740697397273901E-1   -4.920137249584524E-1    2.955592621772815E-6   -1.699702295662393E-5   -1.381204441445772E-5   -8.968050663572871E-6    8.678682231339412E-1   -4.988293913424001E-1
 3.989015952143569E8     8.673612070302262E-1   -5.026727519294558E-1   -5.671121654057162E-6    4.165288678119839E-6   -2.866859621381602E-6    1.074996902037281E-5    8.611262601055414E-1   -5.096772852428947E-1
 4.088716350947158E8     8.601509422534394E-1   -5.134723053962402E-1    1.552343002503142E-5   -3.434891355555798E-6    7.120922553716574E-7   -4.131854447516759E-6    8.542068383216516E-1   -5.206447461115444E-1
 4.188416749750748E8     8.531108779684617E-1   -5.250472008869843E-1    1.076123926141013E-5    1.848392346973708E-6   -1.761730910033910E-6   -3.706981863547839E-6    8.475735312066146E-1   -5.314456183972580E-1
 4.288117148554337E8     8.459769312432188E-1   -5.367806655279571E-1   -1.431880841218919E-5   -6.124885251980054E-6    7.951975847583440E-6   -7.040233358173075E-6    8.406688849680055E-1   -5.418584256711730E-1
 4.387817547357926E8     8.381323627521982E-1   -5.481555227841550E-1    8.110449217380181E-6   -6.180351181791795E-6   -1.105177173142884E-5    1.013373763708879E-5    8.326693038939061E-1   -5.523217327422983E-1
 4.487517946161516E8     8.304880895076961E-1   -5.600019145863042E-1    1.087752011881109E-6   -1.059497593621129E-5    6.051453240150939E-6   -3.096282168124184E-6    8.241736169231253E-1   -5.634376953071175E-1
 4.587218344965104E8     8.234177757236691E-1   -5.719480085489659E-1   -1.230121357347496E-5    7.257964664155282E-7   -2.559384770031596E-6   -5.743166481371306E-6    8.159425009883207E-1   -5.751906124782096E-1
 4.686918743768694E8     8.168830661120977E-1   -5.832641699410461E-1    1.697824615963444E-6    1.732804277002859E-5    4.122641711939585E-6    1.400851857317823E-5    8.078787225098931E-1   -5.867991793395373E-1
 4.786619142572283E8     8.098736906523871E-1   -5.942126162309540E-1    4.443630413969412E-6   -5.726679950596171E-6    4.592324811880200E-7    9.846546306214183E-6    7.993286823572954E-1   -5.980299850109013E-1
 4.886319541375872E8     8.023374306066321E-1   -6.046606567239153E-1    9.973235493038507E-6    7.374480593991021E-6    1.500465176617263E-5    1.672551445074633E-5    7.905753136857909E-1   -6.087956932052683E-1
 4.986019940179462E8     7.939066611555613E-1   -6.152752288835518E-1   -8.178992878743478E-6   -1.343153526549003E-6    2.155746869396721E-7    4.801805170189088E-6    7.822831280018560E-1   -6.196358492143326E-1
 5.085720338983051E8     7.854824241045396E-1   -6.243284439837486E-1   -8.122241882929132E-6    1.316748122870406E-5   -2.230470600036226E-6    1.942749955878315E-5    7.746050792996959E-1   -6.303480006230634E-1
 5.185420737786640E8     7.782268964254488E-1   -6.334263714404630E-1   -5.016635590139900E-6    4.168429230725228E-6   -2.532396799026225E-6    1.351878651552728E-5    7.669256354988676E-1   -6.401143503961222E-1
 5.285121136590229E8     7.699280725135726E-1   -6.430293945634211E-1    5.739382300103115E-6   -2.066347347037215E-6   -1.834895113325945E-6    6.604003064559578E-6    7.589021729415772E-1   -6.495998853844956E-1
 5.384821535393819E8     7.613254483438292E-1   -6.530111550932874E-1   -1.597415468552666E-5   -5.755775484392594E-6    5.848795196420005E-6    9.692824572886716E-6    7.508262530709625E-1   -6.593706705760152E-1
 5.484521934197408E8     7.531952471376956E-1   -6.636142778693870E-1    1.220242065611789E-5   -3.350060621991679E-6   -1.306152320290836E-5    2.167048355608966E-6    7.423636251039261E-1   -6.692061622278280E-1
 5.584222333000997E8     7.447138848832370E-1   -6.746431505856801E-1   -1.229136754094493E-5   -2.470872752681142E-6   -4.878781338201906E-6   -1.725008454648318E-6    7.333235995513492E-1   -6.792015702496462E-1
 5.683922731804587E8     7.355429811131395E-1   -6.851128892321368E-1    6.977134222736904E-6   -8.459305721172814E-6   -9.381676857848585E-6   -1.057493060917595E-5    7.231337440329091E-1   -6.891473681499615E-1
 5.783623130608176E8     7.262437110422671E-1   -6.950817085143228E-1   -9.905504971638896E-6   -6.260637787630592E-6    1.708455859036651E-5    8.575610395636901E-6    7.126504763102225E-1   -6.988817062113726E-1
 5.883323529411764E8     7.170255554515461E-1   -7.050964873392951E-1    1.683806732381701E-5    9.925485572043754E-6   -6.308099474904985E-6   -1.552141505242088E-5    7.022157340459966E-1   -7.086394315176870E-1
 5.983023928215353E8     7.077046974313516E-1   -7.150715249504686E-1    1.158273743398378E-5   -1.019119090182538E-6    1.269251511811577E-6    7.549303981688848E-6    6.919558038095081E-1   -7.183752156910878E-1
 6.082724327018943E8     6.983740011049968E-1   -7.250109206558324E-1   -1.100029212515962E-5   -6.287878509474932E-6    1.461107498334297E-6    7.538116391014561E-6    6.816339840378538E-1   -7.278483366806693E-1
 6.182424725822532E8     6.885326749997928E-1   -7.346212721017983E-1   -8.347820041562441E-6    7.248780423784335E-6    1.249100925782616E-5   -5.370698228946578E-7    6.717343854740181E-1   -7.371483880207484E-1
 6.282125124626122E8     6.780162127947981E-1   -7.440203290590276E-1    4.700429588309342E-6    2.253020936895097E-6   -7.399962187241942E-6    9.294487435384971E-6    6.627568152788219E-1   -7.468200463856559E-1
 6.381825523429711E8     6.682963012124795E-1   -7.510275362375093E-1   -2.326935735068457E-6    1.194688812314182E-5   -7.940299296891371E-7   -2.404716441028356E-6    6.538022262085534E-1   -7.556469512403065E-1
 6.481525922233300E8     6.593837344941725E-1   -7.596144984032448E-1   -2.816353383007360E-6    7.331792173129568E-6    1.680523568086614E-5   -1.760677920850453E-5    6.446396648020526E-1   -7.641037759407827E-1
 6.581226321036890E8     6.496048162309455E-1   -7.685399328529907E-1    2.165182318511554E-6   -2.975196059233247E-6   -3.006848145331378E-6   -1.869002728662636E-5    6.345711419146577E-1   -7.723923454842341E-1
 6.680926719840479E8     6.396821900488456E-1   -7.772134842975325E-1    5.968171109650833E-6   -4.948926900873786E-6   -1.485012223721301E-5    2.002892251413711E-5    6.239026976146833E-1   -7.804126616988246E-1
 6.780627118644068E8     6.299875010958317E-1   -7.854450046004060E-1    1.422979987988551E-5    4.175580475857910E-6    4.752397639634944E-6    1.080011254616480E-5    6.129173963502486E-1   -7.883865269512246E-1
 6.880327517447658E8     6.195187873606885E-1   -7.936072056703128E-1   -1.422585611927304E-5    9.743323802269999E-6   -1.286202775295193E-5    3.816145707070094E-6    6.016398904204703E-1   -7.960081678942093E-1
 6.980027916251246E8     6.085103312179669E-1   -8.016998865230055E-1   -4.007037040182552E-6   -1.634284287372544E-7   -1.176466541435856E-5   -1.156433143750221E-5    5.899579461886306E-1   -8.035860419190772E-1
 7.079728315054835E8     5.972535979589245E-1   -8.101706373801019E-1   -1.831466726561003E-5   -5.511714913030149E-6   -1.499834822181560E-6   -2.021279671661612E-6    5.784429644625413E-1   -8.114926705997393E-1
 7.179428713858424E8     5.861901122527955E-1   -8.188161135913337E-1   -1.619346699234833E-6   -1.147790621235434E-6   -7.512601995826707E-6    6.140760084684724E-6    5.672580017137756E-1   -8.201565885332465E-1
 7.279129112662014E8     5.751667517954340E-1   -8.271897059146314E-1    1.048412603819655E-5   -3.190517323291429E-6    6.780306660647684E-6    4.327810197268618E-6    5.559604199628401E-1   -8.289511592033845E-1
 7.378829511465603E8     5.637531005159537E-1   -8.358700817582220E-1   -8.464291938508990E-6   -4.359824609062055E-6    5.144256502195640E-7   -1.604987165858451E-5    5.446517246962927E-1   -8.372909692984850E-1
 7.478529910269192E8     5.518158849428185E-1   -8.443532377269792E-1   -4.147788995624746E-6    1.655288903675797E-5   -7.969127915639706E-6    1.027564535242991E-6    5.334798259080016E-1   -8.449256770247754E-1
 7.578230309072782E8     5.391899162054988E-1   -8.516290502991994E-1    4.216882193328008E-6   -7.216722823092725E-6    3.082469112795912E-6    7.915781479524489E-6    5.223355851471162E-1   -8.519114148269538E-1
 7.677930707876371E8     5.287881642856639E-1   -8.570177088439460E-1   -1.883912844289438E-6    8.400672274125953E-6    2.140730886063215E-6    1.417230742657017E-6    5.110462150006613E-1   -8.582711297720906E-1
 7.777631106679960E8     5.191360415526143E-1   -8.638012990829019E-1   -7.580390923379841E-6    5.822272065250325E-6   -8.866682061202657E-6   -6.305728263742489E-6    4.994696817052749E-1   -8.649085364695314E-1
 7.877331505483550E8     5.087653395555884E-1   -8.707909703510811E-1    9.943038192833561E-6    2.285692613979908E-5    7.824009986211058E-6   -1.686988579982079E-5    4.876990978831452E-1   -8.714312539195030E-1
 7.977031904287138E8     4.977104951037108E-1   -8.772533179241744E-1   -4.556348556593140E-6   -5.571845795457569E-8   -1.193364879945326E-5   -2.000171000023884E-6    4.748905189574245E-1   -8.779353038359212E-1
 8.076732303090727E8     4.858506015735153E-1   -8.830864452597010E-1    2.940642638056782E-6    4.366382653475155E-6   -1.144068082729512E-5    4.450443976587079E-6    4.620696897209862E-1   -8.840666607382075E-1
 8.176432701894317E8     4.738054428914169E-1   -8.891198757183356E-1    1.306779706717537E-5    1.006991870019732E-5   -6.826027952193080E-6   -9.576200961553828E-6    4.492141087894542E-1   -8.904616101074542E-1
 8.276133100697906E8     4.614845513051858E-1   -8.954754908237383E-1    4.124703236435964E-6   -2.132198174617721E-6    5.820031475148804E-6    1.819433481071475E-5    4.366233369261939E-1   -8.970231992663256E-1
 8.375833499501495E8     4.489746563868461E-1   -9.019777518269388E-1    1.103017122840982E-5    9.789440725051742E-6    2.833648776289126E-6    2.146767197622967E-6    4.243934317940323E-1   -9.036918882899622E-1
 8.475533898305085E8     4.360672429692963E-1   -9.083485101186204E-1    6.781542101697319E-6   -4.057314058867158E-6   -4.872153047693229E-7    6.208097318345183E-6    4.126008558883084E-1   -9.098858532665646E-1
 8.575234297108674E8     4.233410919740744E-1   -9.147516148665271E-1    5.792015260510952E-6    1.480033228939420E-6   -6.972500533690891E-7   -1.381522495839227E-7    4.008076715614144E-1   -9.151258865099415E-1
 8.674934695912263E8     4.105955565076256E-1   -9.214074417319870E-1   -4.428664936011141E-6   -1.031790178864165E-5   -1.651554697697494E-5   -1.161609968645276E-5    3.887415788311238E-1   -9.199318533890548E-1
 8.774635094715853E8     3.973716196887769E-1   -9.279158843755969E-1    6.041987331629363E-6    1.029697531076077E-5   -7.469320574533889E-6    4.788325399293452E-6    3.760805680749051E-1   -9.245913778765392E-1
 8.874335493519442E8     3.843181783800212E-1   -9.325063108572970E-1    1.320517973942339E-5   -8.283444291148376E-6   -9.269059581710705E-6   -5.637829928668000E-6    3.630570798530603E-1   -9.291027799237835E-1
 8.974035892323031E8     3.730852464552852E-1   -9.362048782643024E-1    1.071634945483929E-5   -3.756194710271630E-6   -1.261773917161589E-5   -2.143849492635770E-6    3.495986871350790E-1   -9.334432945505567E-1
