#  HZ   S   RI   R     50.00 
! Rohde & Schwarz Vector Network Analyzer 
! Rohde-Schwarz,ZNB20-2Port,1311601062102128,3.60
! Created: UTC 4/29/2024, 2:55:49 PM
! freq[Hz]                re:S11                  im:S11                  re:S21                  im:S21                  re:S12                  im:S12                  re:S22                  im:S22
 1.000000000000000E5     9.962169933049654E-1    3.979137215947744E-3    1.622416543718717E-4   -6.868305036830959E-5   -2.338389515765318E-6    4.348529287514907E-5    1.010550383465179      -1.144179761373672E-2
 1.007003988035892E7     9.974358608699166E-1   -1.394402236810310E-2    2.506863595850487E-6   -2.287462796953862E-5    8.474572897708626E-6   -1.183005037225305E-5    9.959919496441526E-1   -1.450631527380261E-2
 2.004007976071785E7     9.998817765171564E-1   -2.706658193537637E-2   -5.115961495822797E-6    1.139530160272329E-5    1.650031451239729E-5   -1.045996001188614E-6    9.988442406698436E-1   -2.767670938297905E-2
 3.001011964107677E7     9.978836983209916E-1   -4.097695111434749E-2   -4.944822351771296E-7   -1.430921686826994E-5    1.174027033813926E-5   -3.698320501745742E-6    9.975175681759840E-1   -4.203810957681625E-2
 3.998015952143569E7     9.977418763978909E-1   -5.308001332318173E-2    1.164239200798105E-5   -7.003419266314648E-6   -1.566145258368724E-5    1.836431387408296E-5    9.975054227471761E-1   -5.669597016871814E-2
 4.995019940179461E7     9.961247760532932E-1   -6.599060327117463E-2   -1.862125346377462E-5   -1.770820066902923E-6   -2.983421635318774E-6    3.030457860136379E-6    9.965259635348542E-1   -6.912501706878127E-2
 5.992023928215354E7     9.943530835151438E-1   -7.881931053383801E-2   -1.585682318413527E-5   -7.902670686266908E-6    1.092313900700617E-5   -1.402176656576239E-5    9.945932070320478E-1   -8.193809475543713E-2
 6.989027916251247E7     9.930603189732593E-1   -9.176021736384202E-2   -4.283604522534153E-6   -5.268808277712658E-7   -1.307037449643933E-5   -2.260561484261258E-6    9.933358640390039E-1   -9.471767226766667E-2
 7.986031904287139E7     9.923996396168772E-1   -1.051680039165704E-1   -9.721455232718277E-6   -4.786596942847268E-8   -8.861603867252926E-6   -3.599391271132387E-6    9.922682820350367E-1   -1.080419488819735E-1
 8.983035892323031E7     9.913655693421995E-1   -1.186848337143935E-1   -2.038110231227546E-6    8.067472308432671E-6   -2.472917906492340E-8   -2.023383045516785E-5    9.905333421279564E-1   -1.211456794950292E-1
 9.980039880358922E7     9.895300001317937E-1   -1.323110019949715E-1    1.114007927110090E-5   -1.427401636330703E-5    1.308069185593306E-5   -2.764651439070274E-6    9.885197378704924E-1   -1.344206819071020E-1
 1.097704386839482E8     9.865989874318276E-1   -1.456042207703734E-1   -2.760105091485014E-6   -2.552376149084338E-5    6.636658121043717E-6   -1.527567707863791E-5    9.861805173243051E-1   -1.478693679352730E-1
 1.197404785643071E8     9.848380689747198E-1   -1.589117774999955E-1    7.313494420011520E-6   -1.124499771936211E-6    2.181167552165549E-6    1.519512400769060E-5    9.842824720383373E-1   -1.610794041964785E-1
 1.297105184446660E8     9.830439835990776E-1   -1.717679034177534E-1   -2.232609556806318E-6    1.120377429084531E-5    1.153287465657772E-5   -6.603158478685175E-6    9.829086297565774E-1   -1.744950003597033E-1
 1.396805583250249E8     9.814668855130562E-1   -1.845738106929992E-1   -7.524128763526056E-6   -2.600285813887635E-7    2.448431403677185E-6    8.519100096473464E-6    9.808237932330880E-1   -1.875472644783764E-1
 1.496505982053838E8     9.789650549138281E-1   -1.970965266565602E-1    6.153562273868661E-6   -5.710522775935874E-6   -7.756683968879878E-6    2.850215542277623E-6    9.784185429955615E-1   -2.004004161862457E-1
 1.596206380857428E8     9.762130438775236E-1   -2.095392548187018E-1    1.293545598421597E-6   -5.030551135078621E-6   -1.463790432637187E-5   -9.739229430269958E-6    9.757960982657651E-1   -2.133461067414790E-1
 1.695906779661017E8     9.732154660245929E-1   -2.222955189455879E-1   -4.251467364997606E-6   -1.838833945494229E-5   -1.176208482017128E-5    5.538613341877016E-6    9.729772148598277E-1   -2.261461797823816E-1
 1.795607178464606E8     9.706035361687931E-1   -2.347943582714184E-1    8.720435308859872E-6   -1.003082296451686E-5    1.042543044005193E-5   -1.190030070539754E-5    9.700940783797067E-1   -2.380041116794596E-1
 1.895307577268195E8     9.677499140913884E-1   -2.470287629054492E-1    1.249885967805277E-5   -7.297743182086066E-6    6.192887749736792E-6    1.709995865257552E-5    9.667836485841388E-1   -2.504540255197238E-1
 1.995007976071784E8     9.638922191960044E-1   -2.595147366224472E-1    5.971951078904006E-6    3.166282976446066E-6   -8.533110141147633E-6   -1.385542133915903E-5    9.628168651101254E-1   -2.630914217367950E-1
 2.094708374875374E8     9.603927151054551E-1   -2.723257605100426E-1    9.177025475052100E-7   -1.554068802325534E-5   -2.776618635614777E-5   -1.126200201855306E-5    9.589472813010842E-1   -2.761410429763430E-1
 2.194408773678963E8     9.572096853379948E-1   -2.850946612262307E-1   -3.048176082921089E-6   -1.608168131003012E-6    1.494888469404741E-5    3.323520735975607E-6    9.550739987636480E-1   -2.891058012157110E-1
 2.294109172482552E8     9.535383577380513E-1   -2.974446613053183E-1   -5.032537134358703E-6   -1.387429952787839E-5   -5.189155333719935E-7    1.098396470650040E-5    9.508600721733547E-1   -3.017028010015386E-1
 2.393809571286142E8     9.506332988428672E-1   -3.095159171443988E-1   -1.218111653580844E-5   -6.400001501431456E-6    9.405000245344659E-6   -1.064010555638826E-5    9.470053465845937E-1   -3.139569209593044E-1
 2.493509970089731E8     9.469275646057792E-1   -3.232320271911622E-1    1.661275002555825E-6    1.023598342418771E-5   -9.655702152590150E-6    3.462256410494827E-6    9.440481575667049E-1   -3.276620190932290E-1
 2.593210368893320E8     9.425892941842956E-1   -3.352990015304292E-1   -1.217862569074762E-5   -7.827315699820489E-6    1.458141167458181E-6    1.730797635784159E-6    9.398648864954968E-1   -3.408068513570481E-1
 2.692910767696909E8     9.385150254699601E-1   -3.468100341441103E-1    3.452619929843866E-6   -2.915859514829750E-6   -1.284539105448290E-5    5.498993233886861E-6    9.354573374539813E-1   -3.529092003377581E-1
 2.792611166500499E8     9.339897607028975E-1   -3.584441435096835E-1    5.232628032431098E-6   -6.709941322295862E-6   -2.384819077129989E-5    5.274476799303438E-6    9.308601390110498E-1   -3.645925742317248E-1
 2.892311565304088E8     9.290306335942121E-1   -3.704874700767580E-1   -4.477618353041484E-6   -7.334377847850492E-6    9.105283510680993E-6    2.540977599780884E-5    9.263152443203636E-1   -3.769577689934268E-1
 2.992011964107677E8     9.239798236736380E-1   -3.826142316372874E-1   -9.999370926409429E-7    8.490923841744773E-6   -1.422827309954437E-5    1.245161362757676E-5    9.211943933347663E-1   -3.886100024433770E-1
 3.091712362911266E8     9.189015639105200E-1   -3.949341494134473E-1   -2.830430849121684E-6   -9.665278520986549E-6   -1.850984744315749E-5   -6.013652137822648E-6    9.155953903170589E-1   -4.001440031407179E-1
 3.191412761714855E8     9.132949049785478E-1   -4.073222093432528E-1    8.336354481938131E-6    6.445965993174843E-6   -5.794549806083146E-6   -3.070601853720029E-6    9.096767066170807E-1   -4.119846513993655E-1
 3.291113160518445E8     9.075557552382185E-1   -4.200248561514481E-1    3.702620186130756E-6    7.567979241796141E-6   -1.281519017912777E-5   -4.643277171519553E-6    9.034516021271504E-1   -4.243566883352407E-1
 3.390813559322034E8     9.018987143432227E-1   -4.328260984838249E-1    1.157381967970390E-5   -3.174320980715517E-6    1.289835677458573E-5    8.087158064318942E-6    8.967970576070140E-1   -4.369317343624619E-1
 3.490513958125623E8     8.965584162510032E-1   -4.453155701809930E-1   -3.497766013950919E-6    3.585800472951994E-6    1.380800641084846E-5   -7.088161315603681E-7    8.904797855256447E-1   -4.493653269893651E-1
 3.590214356929212E8     8.913816999220727E-1   -4.579082081937351E-1    2.494105679318578E-6    8.080009564348849E-6    1.775294340102873E-5   -1.081738441043381E-5    8.844954320053429E-1   -4.620618396240349E-1
 3.689914755732802E8     8.859670663369865E-1   -4.700655582673847E-1    4.620333155014794E-6    7.210507225389084E-6   -6.802660780043874E-6    1.467044512324997E-6    8.790517267270211E-1   -4.747670048103432E-1
 3.789615154536391E8     8.797936791218341E-1   -4.813117344092854E-1   -2.258333411677772E-6   -5.673732890649816E-6   -9.550705733642454E-6   -1.591540207886367E-5    8.740111831448195E-1   -4.868505003641148E-1
 3.889315553339980E8     8.740479746557593E-1   -4.920425102643903E-1    3.550551604277544E-6    6.875075598102346E-6    1.114616413728611E-5   -1.049054476979473E-5    8.679350680468824E-1   -4.987027710522209E-1
 3.989015952143569E8     8.674033237790533E-1   -5.027656279571809E-1    3.721230949988802E-7    2.852226413035416E-7    1.244614905240757E-6    2.591439890638091E-5    8.610309339280467E-1   -5.096978628955459E-1
 4.088716350947158E8     8.602431211463948E-1   -5.136458518812185E-1    8.414911572330694E-6   -5.484699714478111E-6    4.481919808561498E-6    8.170066339078505E-6    8.542217109457499E-1   -5.206819769891131E-1
 4.188416749750748E8     8.533051257545223E-1   -5.251265276359515E-1    1.431779030832573E-5    8.799998423568139E-6    1.965959504590521E-5    1.269146364038019E-5    8.477483735462917E-1   -5.314955480893763E-1
 4.288117148554337E8     8.460010276267270E-1   -5.367311356180344E-1   -8.096580806014008E-6    3.383978251845988E-6   -3.388812668943656E-6   -1.665881799379934E-5    8.407224667308049E-1   -5.419150337863855E-1
 4.387817547357926E8     8.381333977252191E-1   -5.481851007579692E-1   -7.973130665291275E-6    1.362707820860369E-5    1.406733854376277E-5    1.556526284002181E-5    8.326754514149681E-1   -5.522547358868244E-1
 4.487517946161516E8     8.305480549983735E-1   -5.600083661020658E-1   -1.028980035345994E-5    3.046977992806749E-6    5.514964320803187E-7   -7.187642342292229E-7    8.240672748313422E-1   -5.633970288631674E-1
 4.587218344965104E8     8.235871797197156E-1   -5.719329109608122E-1   -1.211863301360904E-5   -2.085530854410781E-5   -8.219553820222062E-6   -6.809219016869059E-7    8.160082859902821E-1   -5.752393147398578E-1
 4.686918743768694E8     8.170018602571609E-1   -5.834254870429203E-1    4.353510405084938E-6    4.158843272716049E-7    2.917114802692255E-6   -2.654561960345520E-5    8.079858037288842E-1   -5.867991159554835E-1
 4.786619142572283E8     8.098333523397082E-1   -5.941742307780996E-1    9.819323780709865E-6   -2.233738827152687E-6    2.071730540743487E-6    1.130735274516281E-5    7.993886160511984E-1   -5.979628959594212E-1
 4.886319541375872E8     8.023331538921534E-1   -6.045904532410535E-1   -1.206158243174756E-5    8.009903288685260E-6   -8.866320139244126E-6   -1.289265935057986E-5    7.904286044449667E-1   -6.088086691376758E-1
 4.986019940179462E8     7.940616392928017E-1   -6.154297792482907E-1   -1.245423405692708E-5    1.653667960860791E-5   -1.458091745302230E-6    9.826873930336772E-7    7.822169741133034E-1   -6.195887419077136E-1
 5.085720338983051E8     7.857299974455925E-1   -6.245340106712548E-1   -1.924496841738269E-6    2.497258393492997E-5    1.335583846318422E-5   -3.397496203805242E-6    7.747914525592101E-1   -6.302985190134771E-1
 5.185420737786640E8     7.781910740553182E-1   -6.334728029192606E-1   -3.337418944772979E-6   -1.467104623580648E-5   -1.472725273700600E-5   -3.709137220661887E-6    7.669792607463177E-1   -6.400759465201769E-1
 5.285121136590229E8     7.699455965470257E-1   -6.430536227044836E-1    4.367037795891455E-6    2.347415620571667E-7   -8.245443937618012E-6   -6.266400139617742E-6    7.589912249399051E-1   -6.496890553078624E-1
 5.384821535393819E8     7.614284848858165E-1   -6.531629121975979E-1    6.270747126995623E-6   -1.445390791798966E-5    6.302166471394893E-6    2.068660757248140E-6    7.507910268312467E-1   -6.593089903217636E-1
 5.484521934197408E8     7.532669689622613E-1   -6.636591728839131E-1   -7.380717718463732E-6   -1.478226346700183E-6    8.943120257004240E-6    9.495577596192007E-7    7.425248265850568E-1   -6.691937312531681E-1
 5.584222333000997E8     7.447871666607672E-1   -6.746654044659252E-1   -8.710239791842179E-7   -6.891847296960076E-6   -6.463012506552480E-6    3.049630205856926E-6    7.333591458572236E-1   -6.791992693962685E-1
 5.683922731804587E8     7.355975444753600E-1   -6.850893664427189E-1   -1.042473479071435E-5    3.599872576590599E-6   -2.038553463385981E-5   -9.181120105847611E-6    7.231450189207586E-1   -6.892056788752474E-1
 5.783623130608176E8     7.262444087731261E-1   -6.950181810723143E-1   -1.178224807497387E-5   -1.730739375998600E-5    1.408580559913960E-5    1.343698374367079E-5    7.126299177574212E-1   -6.988936180741409E-1
 5.883323529411764E8     7.171063025039084E-1   -7.050350470085213E-1    5.109732655511372E-6    7.369197996265975E-6   -1.409630897317006E-5   -7.866358442786143E-6    7.021568895772402E-1   -7.086435322339651E-1
 5.983023928215353E8     7.078606679828887E-1   -7.152120529923138E-1   -9.335107300173132E-6   -7.505508591464378E-6   -6.685511428062980E-6   -2.262147571750485E-5    6.919387123135011E-1   -7.184267600779789E-1
 6.082724327018943E8     6.984860600166376E-1   -7.249666035805925E-1   -1.502294457427280E-5   -6.491773936195662E-6    1.135343149301329E-5    7.115879075797326E-6    6.817790223809340E-1   -7.278192531662019E-1
 6.182424725822532E8     6.884942650425934E-1   -7.346268087963600E-1    2.815572619708396E-6    2.734992985440836E-6   -1.728392962748215E-5    4.397861093573023E-6    6.717179813708706E-1   -7.372138510237256E-1
 6.282125124626122E8     6.780244159159063E-1   -7.439034771321271E-1    1.120432007699046E-6    3.126959589572096E-6    9.840187760854069E-7    9.171553750237270E-6    6.626800903102578E-1   -7.467357594190972E-1
 6.381825523429711E8     6.683368155739399E-1   -7.509766981959690E-1   -3.828333247658863E-6    1.603110193956210E-5    2.517057155920345E-6    1.141805007094714E-5    6.537598843437650E-1   -7.556870276356538E-1
 6.481525922233300E8     6.594453493788767E-1   -7.596636088334853E-1    3.813760996067338E-6   -1.146403722632942E-5   -1.179156435773316E-5   -3.362032834786003E-6    6.445774388934210E-1   -7.640668836032952E-1
 6.581226321036890E8     6.496751037359146E-1   -7.685164724533161E-1   -3.498826134475831E-6    2.109372802584209E-6   -1.725063723612969E-6   -5.529787128215698E-6    6.344981753697291E-1   -7.724109718966317E-1
 6.680926719840479E8     6.396734739384432E-1   -7.771450217223822E-1    1.141172208093444E-5   -1.156511593294210E-6   -9.626455994273164E-6   -1.917568629115967E-5    6.238886280665533E-1   -7.804791394677834E-1
 6.780627118644068E8     6.299080175692664E-1   -7.852702932544853E-1    3.100231438511980E-6    5.894180676055762E-8   -2.141829805710334E-6    2.003767087908636E-5    6.129376686014054E-1   -7.883785783767616E-1
 6.880327517447658E8     6.196504739747993E-1   -7.936761735075014E-1   -4.028287138958301E-6   -6.861634419097960E-6   -5.032177269954068E-6    1.505504492403888E-5    6.016509307299437E-1   -7.960147789716210E-1
 6.980027916251246E8     6.086682608577980E-1   -8.018605765550468E-1   -1.764921298657186E-5    3.325904235230088E-6    1.078916083148401E-5   -1.388741143185962E-5    5.900126200556407E-1   -8.036179211146153E-1
 7.079728315054835E8     5.973951378545085E-1   -8.101379036063123E-1   -1.016627551319939E-5    2.243151586026448E-6    1.463525377609303E-5    1.861626092211083E-5    5.785124504614484E-1   -8.114667220392270E-1
 7.179428713858424E8     5.862146639326355E-1   -8.186399083357651E-1   -4.795770280933792E-6    5.226243531925846E-6   -8.744968207764640E-6   -7.615131990223229E-6    5.672730276554405E-1   -8.201271183412430E-1
 7.279129112662014E8     5.750985413062888E-1   -8.271517842821259E-1   -1.232218499216826E-5    1.613792264589606E-5   -1.381429338264684E-6   -1.642623734615883E-5    5.559905088463269E-1   -8.288804856800124E-1
 7.378829511465603E8     5.639419095748117E-1   -8.359708702031312E-1    3.288379103856030E-6   -4.805618545147675E-6    8.278682870009558E-6   -7.191869816148394E-6    5.446262001210460E-1   -8.372457120817627E-1
 7.478529910269192E8     5.519009586596070E-1   -8.445013379920082E-1   -2.670670917412638E-6    8.561134913558157E-6   -4.187590677614139E-6   -1.173220452564079E-5    5.334275931956297E-1   -8.449093192476439E-1
 7.578230309072782E8     5.392208137659443E-1   -8.515622175811166E-1   -6.856721957141760E-6   -9.522066791841366E-7    6.329309145498678E-6    1.432246432052461E-5    5.222932985583721E-1   -8.518208881824323E-1
 7.677930707876371E8     5.287786579279714E-1   -8.569444130742589E-1   -6.033857024690101E-6   -4.480253532712037E-6    1.794196458853230E-5    1.467340654322772E-5    5.110418212380354E-1   -8.582585817540228E-1
 7.777631106679960E8     5.192063604552823E-1   -8.638761751786896E-1    2.614662928900859E-6   -1.125239892432538E-5   -2.117617690489476E-6   -8.498695645268827E-7    4.994527042722601E-1   -8.648570830771558E-1
 7.877331505483550E8     5.088805278294201E-1   -8.708302002792107E-1    7.185763981587736E-7    3.294329229092976E-6    3.155836939463513E-6    1.544125535060968E-6    4.876174129727094E-1   -8.715011818282613E-1
 7.977031904287138E8     4.977385476362216E-1   -8.772990060385533E-1    6.782990198400615E-6   -9.504715768406478E-7   -1.655832536064250E-6   -2.287316324766592E-6    4.748203185578094E-1   -8.778133176260732E-1
 8.076732303090727E8     4.859090535325253E-1   -8.831552037106299E-1    7.925805802800394E-6   -8.636260596967145E-6    1.043091112642365E-5   -6.402582761754665E-6    4.620438897122798E-1   -8.839880905018810E-1
 8.176432701894317E8     4.738413986250858E-1   -8.890636564980097E-1   -1.482253963392810E-6   -2.231018581895915E-6    1.172979780085384E-5    6.745341398101673E-6    4.491541047566889E-1   -8.903945743869597E-1
 8.276133100697906E8     4.616039061940557E-1   -8.954612333114463E-1    7.658430814095959E-6   -6.971818862496095E-6    1.953082596950681E-6   -1.121418194046913E-5    4.366068749880390E-1   -8.971364803164887E-1
 8.375833499501495E8     4.488776796481187E-1   -9.019851310707131E-1    9.201844273598534E-7    1.034360506782322E-5    8.224016165777473E-7   -1.128091477486818E-5    4.244192851070774E-1   -9.038695636803297E-1
 8.475533898305085E8     4.361972353189640E-1   -9.084469270789014E-1    3.967148498782678E-6    1.668608675221596E-6    1.241778496419079E-5   -3.123770139411306E-6    4.125523516312944E-1   -9.098619821655631E-1
 8.575234297108674E8     4.233618471101302E-1   -9.147429363162192E-1   -4.262415347321999E-6   -4.085050586001393E-6    6.637484209656193E-8    2.030540853544608E-6    4.008793798520193E-1   -9.151231759541856E-1
 8.674934695912263E8     4.105588352613580E-1   -9.213081449498123E-1   -3.724380801801787E-6    2.385268933982814E-5    7.404597249116470E-6    5.762650617089593E-7    3.887260248244835E-1   -9.200607496854085E-1
 8.774635094715853E8     3.974219575572706E-1   -9.279597241110528E-1   -7.581782035351132E-6   -4.969548358817930E-6    4.466272832265705E-6    6.834261757969014E-6    3.761276097459222E-1   -9.246656555817232E-1
 8.874335493519442E8     3.843930796926922E-1   -9.325656376373358E-1    1.920601471741181E-6   -5.528547846751324E-6   -2.601295101326331E-6    1.302827268571171E-5    3.631164459241842E-1   -9.291658902147135E-1
 8.974035892323031E8     3.730621054930558E-1   -9.362779981632098E-1   -2.839926851473098E-6    9.113533791686016E-6   -6.090022954873188E-8    2.075417647233003E-6    3.495239750909821E-1   -9.334162535104418E-1
