#  HZ   S   RI   R     50.00 
! Rohde & Schwarz Vector Network Analyzer 
! Rohde-Schwarz,ZNB20-2Port,1311601062102128,3.60
! Created: UTC 4/29/2024, 2:55:52 PM
! freq[Hz]                re:S11                  im:S11                  re:S21                  im:S21                  re:S12                  im:S12                  re:S22                  im:S22
 1.000000000000000E5     9.962595002556321E-1    3.965741360894615E-3    1.711440739562625E-4   -6.084975236256091E-5   -7.525488851358895E-5    8.841886256759957E-5    1.010532987738013      -1.165253130440709E-2
 1.007003988035892E7     9.973321289406500E-1   -1.438047416146673E-2    5.483829421917308E-6    3.720301343867912E-6    6.889270493365837E-6   -5.935817865571290E-6    9.957354945805733E-1   -1.450011354067508E-2
 2.004007976071785E7     9.994448760974221E-1   -2.726067794186154E-2   -1.784981131862238E-5   -2.770390765905721E-6   -1.264361462786546E-5    6.385685569636091E-6    9.987502018773075E-1   -2.770439874866114E-2
 3.001011964107677E7     9.977845423222121E-1   -4.104224505345856E-2    8.871767241723259E-8    5.742837975371206E-6    6.915945408127677E-7    1.234226943203091E-6    9.975002098102427E-1   -4.201459894614946E-2
 3.998015952143569E7     9.977124926414189E-1   -5.305649722369530E-2    1.200834253405063E-5    1.683559880874406E-5   -1.415861510773732E-6    4.247169168065398E-6    9.976091965114389E-1   -5.670964086158740E-2
 4.995019940179461E7     9.961134222863876E-1   -6.595725007653960E-2    1.596983705763761E-6    1.200257827634291E-6   -1.663194611327151E-5    1.004268639039269E-5    9.964118462231637E-1   -6.913755605635949E-2
 5.992023928215354E7     9.943062264026943E-1   -7.878852307095803E-2   -4.457074237382823E-6   -9.586703462219829E-6    2.386317606937904E-6    3.078011466097698E-6    9.946360919099695E-1   -8.186071030552566E-2
 6.989027916251247E7     9.930496307867093E-1   -9.181527617137000E-2    2.715864558858082E-6   -4.032674317076160E-6    3.512514995227066E-6    4.281870762246144E-6    9.935081687307188E-1   -9.471293187142044E-2
 7.986031904287139E7     9.924006980360230E-1   -1.052426801916326E-1    6.898636920119760E-6   -7.501473537200417E-6   -7.525557492020934E-6    9.659118894748302E-6    9.923188244356943E-1   -1.078845782431059E-1
 8.983035892323031E7     9.913860108204354E-1   -1.187174063074597E-1    5.477587778987609E-6   -2.950132339112177E-6    1.406486840610914E-6   -5.101013644454166E-6    9.907365828488347E-1   -1.210120336178209E-1
 9.980039880358922E7     9.894259143166020E-1   -1.323379585183428E-1    2.315943120273755E-6   -1.930960510487908E-5   -2.371838828953114E-6    4.860612255452840E-6    9.884891919173271E-1   -1.343215662786512E-1
 1.097704386839482E8     9.866105301255526E-1   -1.456019087226356E-1   -7.985055748222964E-6   -7.627908581051841E-7   -1.557324972703356E-5    2.376524093456653E-6    9.861840598022464E-1   -1.477582305473963E-1
 1.197404785643071E8     9.847676707869150E-1   -1.588610080524235E-1   -1.177443485535931E-5   -1.108244566346450E-5    3.146666377824187E-6    1.202513381484044E-5    9.843697313392125E-1   -1.611976720413298E-1
 1.297105184446660E8     9.831580141826738E-1   -1.717804498793432E-1   -2.585789257890189E-7    1.621900538911821E-5   -1.270260538025742E-5    4.547169314901559E-6    9.829058964578238E-1   -1.744605206708213E-1
 1.396805583250249E8     9.815871386036705E-1   -1.846437154888823E-1   -5.739215078000829E-6   -3.005791613979836E-6   -3.414575040456999E-6   -1.384272231701607E-5    9.808385400351465E-1   -1.874752878861321E-1
 1.496505982053838E8     9.790427042132137E-1   -1.971366827434329E-1   -2.030807741073779E-5   -1.887001298772283E-7    2.693738649999540E-6   -1.957099393808739E-5    9.785162375225750E-1   -2.003194162851303E-1
 1.596206380857428E8     9.761843060595902E-1   -2.093822384345349E-1   -2.080406838405799E-5   -1.240833811124141E-5    8.989199309085352E-6    9.528411807175428E-6    9.757663694136925E-1   -2.132270185700437E-1
 1.695906779661017E8     9.732483638640627E-1   -2.223101328422787E-1    4.696175632436423E-6    3.588205569429546E-6   -3.218393512132576E-6   -6.850898877579338E-6    9.728316539038596E-1   -2.260946228162631E-1
 1.795607178464606E8     9.706569254655496E-1   -2.347632062251830E-1   -6.754909596775605E-6   -1.634055018132274E-5    1.148063158739820E-6    1.177281400918967E-5    9.700761628178753E-1   -2.379921734670911E-1
 1.895307577268195E8     9.676476649954477E-1   -2.470112705344583E-1   -4.810857582507881E-6   -1.082787081912551E-5    4.142177086288306E-6   -8.493720674916807E-6    9.667526193118228E-1   -2.504101323184600E-1
 1.995007976071784E8     9.639429054839478E-1   -2.595524417628996E-1    4.288446713824344E-6    2.034624058303566E-6   -1.476275624170820E-5    1.153411168485341E-5    9.627610928847968E-1   -2.632308898301297E-1
 2.094708374875374E8     9.605057324882711E-1   -2.723691236583373E-1    1.061141376438080E-6   -8.364818881720882E-6    2.997580305656571E-6   -3.557718824450277E-6    9.588906880803190E-1   -2.761985686577855E-1
 2.194408773678963E8     9.572123720650516E-1   -2.850889546739054E-1   -1.493465772139187E-6   -3.240288674338232E-6   -3.466643117267195E-6   -5.618609769600264E-6    9.549607198474251E-1   -2.891116054340085E-1
 2.294109172482552E8     9.535150923627552E-1   -2.973975151571884E-1   -5.102067573852028E-6    1.046297324132197E-6    1.125319590891473E-5   -1.208300334580411E-5    9.508704019532234E-1   -3.017817247739530E-1
 2.393809571286142E8     9.506123264541234E-1   -3.094368255966072E-1    7.244804231661184E-6   -1.350798949350336E-5   -6.624194564682566E-6    1.256655404409350E-6    9.469658326738639E-1   -3.139671630659532E-1
 2.493509970089731E8     9.468828973273100E-1   -3.233137117492682E-1   -4.429110297055556E-6   -4.124537310489409E-6    9.301907496463087E-6    4.956488149262651E-6    9.441780217338087E-1   -3.276108658468972E-1
 2.593210368893320E8     9.425934287226070E-1   -3.353321030518102E-1   -6.622481619966703E-6    1.681675263187398E-6   -3.893508690843274E-7   -8.558496557588621E-6    9.398228908505567E-1   -3.409188883055488E-1
 2.692910767696909E8     9.385078545996945E-1   -3.467881678706033E-1    2.260214435380580E-6    7.831123006141312E-6   -1.520876082040434E-5   -1.334436883719603E-5    9.353784388133879E-1   -3.528263073334837E-1
 2.792611166500499E8     9.338688798448516E-1   -3.584602792988427E-1   -4.605426768439628E-6   -1.155144302413716E-5   -1.183617973229205E-6    3.227538508427705E-6    9.309493921075377E-1   -3.646893737944382E-1
 2.892311565304088E8     9.290172885091144E-1   -3.704055062980099E-1    1.263778815792787E-5    1.000002487954361E-5    1.414664639396623E-7   -6.684695945319983E-6    9.262072023499484E-1   -3.768086560565098E-1
 2.992011964107677E8     9.241191076595807E-1   -3.826769647202077E-1   -5.989671648473037E-6    1.007998738741581E-5    6.262482506958962E-6    1.398269921760225E-5    9.212208488254675E-1   -3.886040090069702E-1
 3.091712362911266E8     9.189063094762882E-1   -3.949208914834641E-1   -5.578340742342725E-6    1.082902992411904E-5    1.270582894927625E-5   -3.024025224249873E-6    9.156649369544807E-1   -4.001343864494072E-1
 3.191412761714855E8     9.132351584584224E-1   -4.073201773920435E-1   -1.068701258679478E-5   -1.814830853642986E-6   -7.783723121147334E-7   -1.145036569969533E-5    9.097401008836840E-1   -4.119511756875185E-1
 3.291113160518445E8     9.076471031386585E-1   -4.200329804964180E-1   -9.779822801308510E-7   -8.205258450174592E-6   -1.253880232460757E-5    4.530093075672150E-6    9.033662890757392E-1   -4.244312960040706E-1
 3.390813559322034E8     9.019814359280491E-1   -4.327772763817734E-1    4.961220215397606E-6    9.540884032435888E-6    6.488514432379201E-6    2.231702135203477E-5    8.967346390694266E-1   -4.369165826362886E-1
 3.490513958125623E8     8.967894964891449E-1   -4.453599851961932E-1   -8.807488509063932E-6   -2.346139845264056E-6   -4.177215051735282E-6    2.497316098961800E-5    8.905581824209244E-1   -4.494257461287905E-1
 3.590214356929212E8     8.913047006950593E-1   -4.577660504117840E-1    3.069891598827529E-6    1.023788273377774E-5   -7.613605276324292E-6    1.354585079741353E-5    8.845166107968883E-1   -4.621404249740101E-1
 3.689914755732802E8     8.858667791885082E-1   -4.700886410162753E-1   -4.460891210774720E-6   -5.375955379903240E-6    4.701978016824505E-6   -9.700757830682549E-7    8.789774502240959E-1   -4.746988830945429E-1
 3.789615154536391E8     8.799421283559598E-1   -4.813196608083081E-1   -3.872608515586363E-7   -5.777616661284759E-6   -3.070358279165130E-6   -1.462301880176073E-5    8.738312721550219E-1   -4.868136273552466E-1
 3.889315553339980E8     8.743479110285965E-1   -4.920771869378247E-1   -1.791989644785632E-5   -1.134102599264121E-5   -1.399114872011619E-5    1.056676104274889E-5    8.679851718059534E-1   -4.988211681676611E-1
 3.989015952143569E8     8.674316447827284E-1   -5.026764401050675E-1   -9.329361477881538E-6    2.543891856931913E-6   -2.301474885543658E-6   -1.697974850198092E-5    8.610466377433156E-1   -5.097305268221975E-1
 4.088716350947158E8     8.601968880300722E-1   -5.134894839850384E-1   -8.359929204997684E-6   -1.028883205651414E-5    1.692150546168919E-5   -9.232420742109766E-6    8.541533738772160E-1   -5.205922697035896E-1
 4.188416749750748E8     8.533586544970894E-1   -5.251491122232449E-1   -6.552431695181938E-6   -7.144195293414584E-6   -1.879724559337035E-6    4.371766186482434E-6    8.475465136134992E-1   -5.314387639944264E-1
 4.288117148554337E8     8.461112839947988E-1   -5.368750532872931E-1   -2.759070427787663E-6   -3.994181402551760E-6   -7.082970640227161E-6   -3.161089700095974E-6    8.404868175307543E-1   -5.418263042906331E-1
 4.387817547357926E8     8.381958135461423E-1   -5.481401521594099E-1    1.176908823981229E-7    3.322831490171257E-6    5.653321723628689E-6   -8.027251671718693E-7    8.326566359185513E-1   -5.523863195762756E-1
 4.487517946161516E8     8.304895710658773E-1   -5.600160870872232E-1   -1.204236610935740E-5    6.334383023596165E-6   -2.623811588486717E-6   -2.312839716216390E-6    8.241310680622922E-1   -5.635150602561515E-1
 4.587218344965104E8     8.236384428911550E-1   -5.719911804447001E-1    8.819665726924204E-6   -2.218766082824364E-6   -5.374788055962136E-7    2.180927139422671E-6    8.158980366089508E-1   -5.752396509432106E-1
 4.686918743768694E8     8.169992614259177E-1   -5.833144817228608E-1    6.157778474971179E-6   -1.067546099258554E-6   -2.841466426080416E-6   -9.644345465743693E-6    8.077859130291755E-1   -5.868307699407893E-1
 4.786619142572283E8     8.098875986241133E-1   -5.941994563265783E-1    5.063532520235376E-6   -7.381024206137568E-7   -4.968272455857538E-6    1.708858761252191E-5    7.993914709491449E-1   -5.980651823066117E-1
 4.886319541375872E8     8.023171624309879E-1   -6.046406298895490E-1   -1.026898867044195E-5   -6.515139613515899E-7    1.488813610922923E-6   -8.435196748817609E-7    7.906255701771417E-1   -6.089357473545931E-1
 4.986019940179462E8     7.940307238467211E-1   -6.152827027291813E-1    1.767702409616214E-6   -2.633198351723851E-6    9.580127995160301E-6    1.535274350365870E-5    7.823881313370465E-1   -6.197496373742480E-1
 5.085720338983051E8     7.857042797892044E-1   -6.244320094272533E-1    7.223340481498684E-6    6.549806615273983E-6   -1.434772660260456E-5   -8.671040572542037E-6    7.745620162900536E-1   -6.301922820414106E-1
 5.185420737786640E8     7.783102138163907E-1   -6.335905086975238E-1    3.561490186679549E-6   -1.039034354578974E-6   -8.019086274256157E-6   -1.831396268382846E-5    7.669449495975765E-1   -6.401721295792658E-1
 5.285121136590229E8     7.700552017185663E-1   -6.430409398537372E-1    1.043397702619034E-5   -3.347855199729605E-6    1.262984569380047E-5   -1.621900971665062E-5    7.591275341094749E-1   -6.497543901691456E-1
 5.384821535393819E8     7.614564512921544E-1   -6.530211374815109E-1   -3.445256411028971E-6    2.156376227945437E-6    2.244742198774085E-6   -4.070952052409865E-6    7.508561281158487E-1   -6.593695310947094E-1
 5.484521934197408E8     7.532390236755945E-1   -6.636572879388389E-1    5.006094971958178E-6   -2.268503405017055E-7   -1.700107010348722E-6   -6.217507614758984E-6    7.424247478510153E-1   -6.691456687153718E-1
 5.584222333000997E8     7.448160037258701E-1   -6.746659425120872E-1    2.093774767215309E-5    2.725711865370436E-6   -1.835231649878596E-6   -8.317720819257341E-6    7.333069930654972E-1   -6.792259446326243E-1
 5.683922731804587E8     7.356807189206035E-1   -6.851544050558177E-1    5.363517932223428E-6    4.753999047165135E-7   -3.046205517409952E-6   -9.812759617546517E-6    7.231645619548304E-1   -6.892360864893698E-1
 5.783623130608176E8     7.262798541907600E-1   -6.950272003146512E-1   -3.499323259703538E-6    5.930763451107315E-7    1.961347481638820E-6    9.074395022765159E-6    7.127039588671706E-1   -6.990235190963940E-1
 5.883323529411764E8     7.170064551372967E-1   -7.050728396490646E-1   -5.883870825626278E-6    2.118010142932596E-6   -7.014732563479270E-6   -1.691202920443299E-6    7.021906641727750E-1   -7.086854247396230E-1
 5.983023928215353E8     7.079036940870100E-1   -7.151889283526865E-1   -1.227888705719287E-5   -5.256899102027884E-8    8.055689564224438E-6    3.116952253360580E-6    6.917420226692452E-1   -7.183470997446282E-1
 6.082724327018943E8     6.985296130081702E-1   -7.249041448295339E-1   -2.311785443357422E-6   -9.113529660951287E-6   -3.000087216546200E-6   -4.086602929900636E-6    6.815612461739837E-1   -7.278010610147793E-1
 6.182424725822532E8     6.885791243565353E-1   -7.345514123990861E-1   -1.820436347642307E-6    7.463187181649844E-6    1.088507445278327E-5    4.170441833623391E-6    6.717977434818057E-1   -7.372604770289647E-1
 6.282125124626122E8     6.779208543966529E-1   -7.438848359351423E-1    1.004285800934167E-5   -1.591193562529022E-5    8.802107576329861E-6   -1.191656671829284E-5    6.627432918088674E-1   -7.467728347465818E-1
 6.381825523429711E8     6.683150873454906E-1   -7.509998336169712E-1    8.082152266334493E-6    4.257640489049116E-6   -3.961072855283863E-6    1.634088704097671E-5    6.536992158012823E-1   -7.556608230401076E-1
 6.481525922233300E8     6.593475541187245E-1   -7.597332303749751E-1    6.860799596471037E-6    1.069325359733731E-5    4.775145067034228E-6   -1.443506773066419E-6    6.445490640025320E-1   -7.639920775871902E-1
 6.581226321036890E8     6.497157993844460E-1   -7.685995424704894E-1    8.746624217422599E-6    7.706311250576380E-7   -9.820965490584401E-6    5.367720229313797E-6    6.345570373973912E-1   -7.723776051988517E-1
 6.680926719840479E8     6.398168406607482E-1   -7.772688739077864E-1    6.274999896492542E-6   -9.145017235945086E-6    2.694686105640402E-6    1.739372972471577E-6    6.239619328002607E-1   -7.805024221266258E-1
 6.780627118644068E8     6.299166607770597E-1   -7.853377956670875E-1   -5.282609072684951E-6   -9.980126679470007E-6   -1.620723695256924E-5   -6.077722179896174E-6    6.129100212713163E-1   -7.882817110100996E-1
 6.880327517447658E8     6.196563434029201E-1   -7.935823589408517E-1    1.670822232719572E-5   -1.077967640017521E-5    6.300523288016007E-6    1.157894459133372E-6    6.015450366134267E-1   -7.959827337629584E-1
 6.980027916251246E8     6.087494891986370E-1   -8.019322884543596E-1   -6.768336893916900E-6    3.452505602032791E-6   -6.789434340212240E-6    9.343553257835919E-6    5.899870647047204E-1   -8.036316185387734E-1
 7.079728315054835E8     5.973692770069048E-1   -8.102884487930381E-1   -3.096268172410911E-6    1.006847781574426E-5   -2.965326149362296E-6    3.738995787258854E-6    5.784969821054993E-1   -8.115411161019537E-1
 7.179428713858424E8     5.860955262718398E-1   -8.186279931795646E-1    1.240925143860449E-5   -8.970791718416218E-7   -3.735826577548000E-6   -3.991679394591224E-6    5.673447927032814E-1   -8.202815794127165E-1
 7.279129112662014E8     5.750300738547306E-1   -8.269829019969934E-1   -1.423463754659352E-5    7.650328490713383E-6   -2.811032952975581E-6   -4.288316622333070E-7    5.559812434581130E-1   -8.289027036283462E-1
 7.378829511465603E8     5.638289276263097E-1   -8.359629584900903E-1    5.108761774114374E-6   -8.021641961393097E-6   -1.070216360919034E-5    1.288626982228358E-5    5.446648438064502E-1   -8.373116492249890E-1
 7.478529910269192E8     5.519115492091983E-1   -8.446351919735545E-1   -1.535270890383645E-5   -6.378713265574518E-6    3.887405166298265E-6   -1.326937523603577E-7    5.333732938730991E-1   -8.449616806811396E-1
 7.578230309072782E8     5.393102128564560E-1   -8.516762002034380E-1    7.996073219772745E-6    1.464478888442906E-5    6.732063244888336E-6    9.586215766230221E-7    5.223076240016910E-1   -8.519288058368019E-1
 7.677930707876371E8     5.287183754827010E-1   -8.569297010223200E-1    2.100690955917685E-6    1.400070025819994E-6   -3.302456817946251E-6    6.054227077246597E-6    5.110113393603271E-1   -8.584175931780635E-1
 7.777631106679960E8     5.191954191580378E-1   -8.638761638467304E-1    1.685343312635787E-5    4.024840102858347E-6   -1.189271219379824E-5   -2.311165900910241E-5    4.996256268606849E-1   -8.648441939984567E-1
 7.877331505483550E8     5.089078936430318E-1   -8.708929108838895E-1    3.159116648452711E-6    7.768970684129536E-6    4.654481449567717E-6    1.184154345670848E-5    4.876715979368637E-1   -8.715271955671757E-1
 7.977031904287138E8     4.977137134576335E-1   -8.773278378328954E-1    3.789237904970928E-6   -1.644174514994630E-6   -2.280144626433859E-6   -1.199435503016444E-5    4.749247624448067E-1   -8.779416221945421E-1
 8.076732303090727E8     4.858769120291043E-1   -8.831435743782393E-1    8.181808292833322E-6   -2.841139629235161E-6   -2.709085085511740E-6    3.642949355667377E-6    4.620885158084920E-1   -8.840987360158760E-1
 8.176432701894317E8     4.738964451974470E-1   -8.890078819443473E-1   -2.508524138625403E-6    1.639465439837782E-6   -6.300672916267869E-6    1.336928720088158E-5    4.492219546269818E-1   -8.904467873536243E-1
 8.276133100697906E8     4.614987147066013E-1   -8.954654878016316E-1    2.035612240014025E-7   -1.165859356313824E-5    4.540503187852667E-7    5.142128106091667E-6    4.365195349053689E-1   -8.970301610555883E-1
 8.375833499501495E8     4.490814911561131E-1   -9.019832515470235E-1   -1.356478067310205E-5    7.206679463087195E-6    9.456043067518172E-6    8.813893367807572E-7    4.244259803212407E-1   -9.037989898511104E-1
 8.475533898305085E8     4.361875417055995E-1   -9.084862949889289E-1   -8.509872118083325E-6   -1.804950891392590E-5   -3.182375543227698E-6   -1.130024717506698E-6    4.125667057623584E-1   -9.098694597593927E-1
 8.575234297108674E8     4.233371281524212E-1   -9.146556721700800E-1   -4.809308623456156E-6    7.196443052658351E-7   -8.932064269171345E-6   -1.031757887928491E-5    4.008470613216143E-1   -9.151101662945349E-1
 8.674934695912263E8     4.104518124116117E-1   -9.213266353241282E-1    1.397381278085051E-5   -3.208733731547041E-6   -3.309683277353909E-6   -9.191397145733487E-6    3.887476463392648E-1   -9.199016134427592E-1
 8.774635094715853E8     3.974235238977621E-1   -9.280049495602053E-1   -1.688920343832589E-6   -5.306155121294962E-6    9.821019112848724E-6   -1.498598169831449E-6    3.760062557744226E-1   -9.245911748876506E-1
 8.874335493519442E8     3.843543906092244E-1   -9.327005627225868E-1   -1.492492923500935E-6   -8.418143559577166E-6    1.318360025678930E-5   -3.076066662112629E-7    3.631522715893861E-1   -9.290622747923730E-1
 8.974035892323031E8     3.730658852362403E-1   -9.362703867726720E-1    2.510867372964444E-6    4.169154303908970E-6    3.006179086101134E-6    1.250906688614016E-5    3.496751988182275E-1   -9.334991993327528E-1
