#  HZ   S   RI   R     50.00 
! Rohde & Schwarz Vector Network Analyzer 
! Rohde-Schwarz,ZNB20-2Port,1311601062102128,3.60
! Created: UTC 4/29/2024, 2:56:00 PM
! freq[Hz]                re:S11                  im:S11                  re:S21                  im:S21                  re:S12                  im:S12                  re:S22                  im:S22
 1.000000000000000E5     9.963948907263083E-1    3.764562175192295E-3    6.480845033538227E-5    1.225431829239536E-4    8.203677326415018E-5    5.469575173899153E-6    1.010552141422247      -1.148348755027701E-2
 1.007003988035892E7     9.975008027173282E-1   -1.398866592733027E-2    5.700416567105890E-6    2.451315319169299E-5    2.469140021503169E-6   -4.133766258902483E-6    9.958870493508966E-1   -1.450951650983059E-2
 2.004007976071785E7     9.998174114241524E-1   -2.710370785533740E-2    2.930967235160389E-5    2.783801592278832E-5   -7.661489642715110E-6    2.818960116305789E-5    9.986870581436281E-1   -2.767214807629517E-2
 3.001011964107677E7     9.978825187412919E-1   -4.107466455648055E-2    6.583439815466624E-6    3.614366969103670E-6   -3.870965220377901E-6   -9.259424010968891E-6    9.974153709581238E-1   -4.189942693814357E-2
 3.998015952143569E7     9.975803876859600E-1   -5.313366686277037E-2    9.383697592213203E-6    2.526891303876148E-5   -1.244557311948805E-5   -5.923872740547414E-6    9.975638539024606E-1   -5.674422151517201E-2
 4.995019940179461E7     9.961328526656145E-1   -6.595583902379035E-2   -1.348724926203400E-6    1.740886190126356E-5    3.091730046483597E-5    9.724682359233382E-6    9.964102367183097E-1   -6.904481879872335E-2
 5.992023928215354E7     9.942973642694778E-1   -7.884747444862676E-2    2.361868881995566E-6   -9.112128845923980E-6    8.512695758626166E-6   -5.926694259066805E-6    9.945513480519548E-1   -8.196386981148832E-2
 6.989027916251247E7     9.929968234647601E-1   -9.173586182252885E-2    2.059547592739547E-5   -3.654350509799056E-6    8.101989092672899E-6    4.226858651311831E-6    9.934141810603367E-1   -9.475669744381451E-2
 7.986031904287139E7     9.923555351021407E-1   -1.052005229998571E-1   -8.695033793643294E-6    2.748094649576921E-5    1.060180389783168E-5   -1.323279073147432E-5    9.922693718680483E-1   -1.078960670121992E-1
 8.983035892323031E7     9.913114772636501E-1   -1.186477680708304E-1    1.310877148089461E-5    2.395557619282767E-6    3.020683700661382E-6   -1.953473650477711E-5    9.907364262454298E-1   -1.211335522437413E-1
 9.980039880358922E7     9.892412892039600E-1   -1.323350100363119E-1   -5.991359609480418E-6    2.494570984955101E-6    3.527179544185889E-6    7.687517325122421E-6    9.885571530800290E-1   -1.344053038411678E-1
 1.097704386839482E8     9.866404039388845E-1   -1.455079372084866E-1    5.383149299181525E-6    7.662276909846482E-6   -1.092717539063144E-5    1.670072286168867E-5    9.859996217271436E-1   -1.478210956947490E-1
 1.197404785643071E8     9.849240042474925E-1   -1.589877993057141E-1    2.287136930122252E-6   -9.518797171778139E-7    8.317910716462830E-6    1.664194467004012E-5    9.843339414413660E-1   -1.610589246430947E-1
 1.297105184446660E8     9.830379270380861E-1   -1.718227287146767E-1   -2.552297491440060E-7    1.602668911163589E-6    1.392776990474944E-5    1.341379111964552E-5    9.829032236524955E-1   -1.744186127550238E-1
 1.396805583250249E8     9.815807135405774E-1   -1.846963033194822E-1   -1.492875972825938E-5    8.259061278015783E-6   -9.663704722591313E-6    5.360391727630650E-6    9.809214858445522E-1   -1.875636872030172E-1
 1.496505982053838E8     9.790354782238466E-1   -1.971171202313132E-1   -1.031783090349962E-5    3.970430962647355E-6    8.003396262775158E-6    8.648263344520169E-6    9.783768930731610E-1   -2.004470765409546E-1
 1.596206380857428E8     9.762696672245982E-1   -2.095066923970573E-1    7.649058278878159E-6   -2.206880940075561E-6   -5.611641497991782E-6   -8.053582006925454E-6    9.757133213131187E-1   -2.133360974612766E-1
 1.695906779661017E8     9.731163095882529E-1   -2.223558885637454E-1    4.230348366250228E-6   -7.150212738712770E-7   -1.901473834766820E-7   -1.999473303128805E-5    9.727963294765314E-1   -2.261119856862891E-1
 1.795607178464606E8     9.707035852111521E-1   -2.347956386305514E-1    6.492957918075684E-6    2.164964156055384E-5    1.628458666793548E-6    7.825054647018729E-6    9.701826283530670E-1   -2.380839343775397E-1
 1.895307577268195E8     9.676972204573134E-1   -2.471263572725513E-1   -7.927941971905830E-6    1.423885045623884E-5    8.818977892382792E-6   -7.331473508904646E-6    9.665695991891765E-1   -2.505029619828356E-1
 1.995007976071784E8     9.638618522206407E-1   -2.595806153601591E-1   -4.149434683882340E-6   -1.255836646233004E-5   -6.443364687416630E-6    8.634876618190566E-6    9.627078193001619E-1   -2.631252059430783E-1
 2.094708374875374E8     9.603577014157585E-1   -2.723713264496249E-1    6.445479008193281E-6    1.842268951426360E-6    1.710464729036137E-5   -1.059279583478874E-5    9.589247186262700E-1   -2.761676266507669E-1
 2.194408773678963E8     9.571835923763065E-1   -2.851078824037498E-1   -5.458778261958621E-6    2.346370350226440E-5   -3.694271194692272E-6   -2.004945667364644E-7    9.550024970588510E-1   -2.890273270721989E-1
 2.294109172482552E8     9.536818067349462E-1   -2.974058994179715E-1   -1.097195400013004E-5    5.823689744691601E-6    5.501267321790558E-6    2.100021574131148E-5    9.508932211513743E-1   -3.017538486818130E-1
 2.393809571286142E8     9.505177147340060E-1   -3.093883206870887E-1    1.680942189539358E-5    1.258707391874270E-5    1.114204157690682E-6    5.523516415961926E-7    9.469839890083236E-1   -3.140068209057384E-1
 2.493509970089731E8     9.468306269146700E-1   -3.233119151215004E-1    1.294041081264977E-5    2.868464735463288E-6    7.000078080427074E-6   -2.558458715134109E-6    9.441362058974265E-1   -3.277051434762750E-1
 2.593210368893320E8     9.426611527978388E-1   -3.353880725754835E-1    8.172200781392818E-6   -2.758519225237113E-6   -1.994780638168451E-5   -2.215618527070149E-6    9.397684990732054E-1   -3.408535907922736E-1
 2.692910767696909E8     9.385126028808120E-1   -3.468258974282430E-1    6.123650660573782E-6    6.235541273013612E-6    5.457844494426266E-6    1.375677450402521E-5    9.354486590836926E-1   -3.528528684175563E-1
 2.792611166500499E8     9.337592748075583E-1   -3.584620621155922E-1    7.153412207076305E-6    4.139137526821561E-7    1.393823261757243E-5    8.073279723919131E-6    9.310189422860542E-1   -3.646675073608542E-1
 2.892311565304088E8     9.289649050556837E-1   -3.704580213158643E-1   -1.600571943301789E-6    1.019372442961320E-5    1.765811955357006E-5    5.172008195774476E-7    9.261208809461045E-1   -3.767967764115516E-1
 2.992011964107677E8     9.240368802157547E-1   -3.826679071499047E-1   -2.143614244984995E-6    8.266561957143448E-7   -1.312312663998494E-5    5.777319527936270E-6    9.212175691421146E-1   -3.885938739703849E-1
 3.091712362911266E8     9.187918492173367E-1   -3.949603900092085E-1   -2.183818798459019E-5   -1.703586421786672E-5   -1.205060426930492E-5    1.870553077609164E-5    9.156952541205560E-1   -4.001150388761135E-1
 3.191412761714855E8     9.133772707906164E-1   -4.074154554032898E-1    4.663165446749746E-6    1.353020555233720E-5    2.764630535170601E-5    1.552777087447868E-5    9.097746610022454E-1   -4.119999520901906E-1
 3.291113160518445E8     9.076023882349216E-1   -4.200290855767257E-1    2.344507150244577E-6   -3.240811967937684E-6    1.073268015347657E-5    2.250833348112086E-5    9.033686486928432E-1   -4.243290947467236E-1
 3.390813559322034E8     9.018937988876987E-1   -4.327495423073595E-1    1.016282602169499E-5    8.544345345376585E-7    1.928365102313324E-5   -1.213114100208863E-6    8.968782695020082E-1   -4.369478868189606E-1
 3.490513958125623E8     8.966834366407882E-1   -4.453600727438559E-1    1.414840451437058E-6    6.302990865588722E-6    8.283772461545519E-6   -1.109316202843797E-5    8.904623328544907E-1   -4.494058583897853E-1
 3.590214356929212E8     8.914238625538790E-1   -4.578540371021776E-1   -8.292938388225890E-6    1.736256734987035E-6   -8.339770997708661E-6   -3.256974081543020E-6    8.844691851724659E-1   -4.621125081623711E-1
 3.689914755732802E8     8.859535479031825E-1   -4.700534355234620E-1   -7.470785020072282E-6   -1.254186616528312E-5    1.007274738456719E-5    1.715443956016488E-6    8.790713529450541E-1   -4.748167511181307E-1
 3.789615154536391E8     8.797628292485922E-1   -4.813315056008417E-1    1.331540329012005E-5   -8.411834877290730E-6    5.879685014810531E-6   -2.717482557822560E-6    8.739146646241513E-1   -4.868573816404952E-1
 3.889315553339980E8     8.741518219767803E-1   -4.920165501951070E-1    1.126791240807332E-5   -4.992864598203379E-6   -8.420004414214343E-6    8.342206621425852E-7    8.678925398790809E-1   -4.986803442985418E-1
 3.989015952143569E8     8.674434209347673E-1   -5.027229486817647E-1    7.186742071400783E-6   -7.941945295654994E-6   -9.182596145422297E-6   -1.689270037410696E-5    8.611704430666564E-1   -5.097696466922993E-1
 4.088716350947158E8     8.602199021551151E-1   -5.135432444098615E-1   -8.246680121202978E-6    1.306377970264250E-5    9.634965741741467E-6   -5.232367269660604E-6    8.541493869584497E-1   -5.206269265507476E-1
 4.188416749750748E8     8.532173847555619E-1   -5.250670958065810E-1   -7.718785459877739E-7    5.708805819717674E-8    1.436307596492637E-5   -1.726609585163458E-5    8.476824075387335E-1   -5.315228239262419E-1
 4.288117148554337E8     8.460384648306217E-1   -5.367991318982321E-1    1.513699983798649E-5   -9.203775437452481E-6   -2.268708250918336E-6   -2.894880370847111E-6    8.406274168944443E-1   -5.419235183845670E-1
 4.387817547357926E8     8.381661984652760E-1   -5.481907716344774E-1   -1.125895657292161E-5   -7.789262618800297E-6    1.280588940905934E-5    1.419083482467324E-5    8.326823457174922E-1   -5.523198541655833E-1
 4.487517946161516E8     8.305672782197226E-1   -5.600280180774136E-1    6.850526258735652E-6    1.433347518076862E-6   -9.658445960597394E-6    2.361172667434475E-6    8.240504297983824E-1   -5.634234450047233E-1
 4.587218344965104E8     8.235262417791571E-1   -5.719646348430041E-1    7.436509049997120E-6   -2.088050791981247E-6    2.222650117669259E-5    1.351970769725172E-5    8.159264540657375E-1   -5.751832012965282E-1
 4.686918743768694E8     8.170069135472289E-1   -5.833739554992082E-1    2.116400816101231E-7    4.718557355528522E-6   -9.164750493665171E-6    1.620513296790984E-6    8.078926211546887E-1   -5.867857338484761E-1
 4.786619142572283E8     8.097736910451443E-1   -5.941997589943531E-1    4.333938094531373E-6    2.342916042335257E-6   -6.562922537626467E-6   -1.253585761006338E-5    7.994597366762551E-1   -5.981417299846143E-1
 4.886319541375872E8     8.023998616076683E-1   -6.047054301722248E-1    3.336670359514921E-6   -9.373760510169881E-6   -1.477495627896306E-5    2.841709452803792E-6    7.905402444469596E-1   -6.088875240262877E-1
 4.986019940179462E8     7.940784455020432E-1   -6.153321012412417E-1    2.114432940062782E-7    7.103143513785240E-6    1.784866000668234E-5   -1.718075094687261E-6    7.823022621158769E-1   -6.196630212737017E-1
 5.085720338983051E8     7.855194960080589E-1   -6.244931785368212E-1   -3.827435959742371E-6   -3.177886164087549E-6    8.077345510383987E-7    1.094916511148020E-5    7.746086091797734E-1   -6.302083415452707E-1
 5.185420737786640E8     7.781278522974453E-1   -6.334151277994045E-1   -1.243596596161363E-5    7.036747934435831E-6    6.085866750349070E-6    8.681849658550886E-6    7.670632605899287E-1   -6.401662445851448E-1
 5.285121136590229E8     7.700137295624579E-1   -6.429861970801123E-1   -6.889431442505801E-6    3.709690689072447E-6   -4.086086681620225E-8   -1.983460799398964E-5    7.588879388872644E-1   -6.497945303357957E-1
 5.384821535393819E8     7.614478977902348E-1   -6.531704167245362E-1   -2.712787820887313E-7    5.305361613853119E-6    5.609149320083337E-6   -5.725606117313597E-6    7.508433834725136E-1   -6.594032802386164E-1
 5.484521934197408E8     7.533401268622734E-1   -6.636915793078627E-1   -2.082806660773266E-6   -8.401903820282827E-6    4.355090641070002E-6    9.498873097236136E-6    7.423180666249148E-1   -6.691032611175938E-1
 5.584222333000997E8     7.446815066818682E-1   -6.745816972075350E-1   -1.086066579762492E-5    9.797159824170696E-6    4.565479231684113E-7   -7.712819645961499E-6    7.332547524390988E-1   -6.791219989450192E-1
 5.683922731804587E8     7.355282921257729E-1   -6.850209598356345E-1    5.764333179467207E-6    1.212093426509614E-5   -2.064926459358761E-6   -9.839724303942664E-6    7.232072194544898E-1   -6.892739156189888E-1
 5.783623130608176E8     7.263112361499279E-1   -6.950134020600454E-1    1.297462996039906E-5    1.187258937667692E-5   -1.391286875192285E-6   -7.687035795528204E-6    7.126764398636386E-1   -6.989574463174163E-1
 5.883323529411764E8     7.171648794664393E-1   -7.052423796143055E-1    6.826472192389305E-6   -1.048705033367431E-5   -9.081136668871121E-6   -1.352409702107969E-5    7.021493516383021E-1   -7.085969299889108E-1
 5.983023928215353E8     7.078988672606744E-1   -7.151669572054280E-1   -4.763743282713494E-7    1.918957326790529E-6    2.190420540143456E-5    1.874483297663751E-5    6.918858712002244E-1   -7.182873533585094E-1
 6.082724327018943E8     6.983591186626738E-1   -7.248899753532088E-1    6.310821802226568E-6   -1.043454817589542E-5   -8.524405189254742E-7   -4.275730866159145E-7    6.816989547152842E-1   -7.279031367276230E-1
 6.182424725822532E8     6.884539836857935E-1   -7.345403899849140E-1   -4.832911427685368E-6   -8.941809290080469E-6    1.179977829551585E-5    2.377813945746184E-5    6.716522162813882E-1   -7.372860074524018E-1
 6.282125124626122E8     6.780105748218165E-1   -7.439238040579631E-1   -5.740679282324996E-6    2.548167158689315E-6   -1.665158893664641E-5   -2.535775097552388E-6    6.626552512511794E-1   -7.467592923610524E-1
 6.381825523429711E8     6.684023838558341E-1   -7.510809965482025E-1    3.125486881790099E-6    8.860637244056141E-6   -3.712716945704192E-6    7.323514592136291E-6    6.537142568463193E-1   -7.555771228674378E-1
 6.481525922233300E8     6.593954964826531E-1   -7.595908081760816E-1   -3.345122203609014E-6    7.548058564938806E-6   -3.167472319940630E-6   -3.266372958473149E-6    6.446414358964689E-1   -7.641788484943574E-1
 6.581226321036890E8     6.496358313538722E-1   -7.684811923700393E-1    9.213583928487616E-6    7.158411182180708E-7   -1.076068442854312E-5    2.703795310981243E-6    6.346248540570056E-1   -7.726067027258775E-1
 6.680926719840479E8     6.396130983354127E-1   -7.771153026363413E-1    3.821480887698616E-6   -1.957171877645048E-6    1.896297311910151E-6   -1.783527188998634E-5    6.239392011797786E-1   -7.804356506766326E-1
 6.780627118644068E8     6.299972362143319E-1   -7.853205559503182E-1   -7.247879563538982E-6    2.506733661892039E-6    2.672088244328409E-7   -1.026672978905519E-5    6.128834665805620E-1   -7.883984036865457E-1
 6.880327517447658E8     6.196077838655215E-1   -7.937445628047017E-1   -2.681262779976839E-5    3.078250131250318E-6    2.791369604106079E-6    3.418193727572970E-6    6.015572160706630E-1   -7.959916723401753E-1
 6.980027916251246E8     6.086156351283872E-1   -8.017940886227319E-1    5.505336403174254E-6   -1.132691149963054E-5    1.165777024526234E-5    1.646437146349543E-5    5.900402572851615E-1   -8.037166097661262E-1
 7.079728315054835E8     5.972049332887587E-1   -8.100652330719453E-1   -5.432413343378690E-6   -1.203271269326894E-6   -1.570708069731552E-6   -7.542787244531714E-7    5.786068660876876E-1   -8.116397825207143E-1
 7.179428713858424E8     5.861544969188893E-1   -8.186189655518893E-1   -1.324411213223552E-5   -5.602065942423047E-6   -7.080814555052605E-6    1.009232364712243E-5    5.672466772954691E-1   -8.201523087353700E-1
 7.279129112662014E8     5.752322600760138E-1   -8.271839882250777E-1    3.994472775245123E-6   -7.712935068364263E-7    9.833445641382326E-6   -8.438648359028613E-6    5.559911908605281E-1   -8.289049083291063E-1
 7.378829511465603E8     5.639428582426709E-1   -8.360239951618792E-1   -1.159308176425850E-5   -4.653850815467622E-7    1.112630030875308E-5    5.342405031803333E-6    5.446574690403845E-1   -8.373689829900871E-1
 7.478529910269192E8     5.517795338161773E-1   -8.445087847315720E-1   -5.468214481882413E-6   -2.773873871801073E-6   -4.683456506602173E-6    6.003111986080429E-6    5.333923500730684E-1   -8.450139223524509E-1
 7.578230309072782E8     5.391132245419691E-1   -8.515718970989861E-1    4.628813821412182E-7   -2.044923456832505E-6    7.401710702808477E-6    1.665897670450430E-5    5.222827047167818E-1   -8.519679569609399E-1
 7.677930707876371E8     5.288205552398724E-1   -8.569954163073634E-1   -6.351749247033097E-7    1.681699022299861E-5    9.844934994811572E-7    9.614454362946150E-6    5.110602161010336E-1   -8.583667093585376E-1
 7.777631106679960E8     5.192546286473606E-1   -8.639359820939306E-1    9.358250595994037E-6   -2.446645211187698E-6   -1.480239916434428E-5    6.314534313258499E-6    4.994390903429040E-1   -8.647759355082932E-1
 7.877331505483550E8     5.089841342518309E-1   -8.708884191950641E-1    1.849059720411086E-5   -6.309811410509136E-6    9.872167310883157E-6    3.384905452582912E-6    4.876592580175564E-1   -8.714842505261082E-1
 7.977031904287138E8     4.976675235525151E-1   -8.772445757809034E-1   -8.776019003740310E-6   -2.307499043691507E-5   -1.913381082456956E-5   -6.022539510855894E-6    4.749691785216890E-1   -8.780249295580915E-1
 8.076732303090727E8     4.859432659215516E-1   -8.829830295982030E-1    1.856747108367334E-6    2.585896779453621E-6    1.009182184075988E-5    6.903009697569296E-6    4.621200043269576E-1   -8.842106681082060E-1
 8.176432701894317E8     4.739008385349546E-1   -8.890634926323047E-1   -1.683382813678258E-6   -9.957063386122807E-6   -4.246357362840935E-6    1.458744152606796E-5    4.491905887182963E-1   -8.903265725406183E-1
 8.276133100697906E8     4.616079012351899E-1   -8.955889631349957E-1   -7.525155135055592E-6   -1.397891683046552E-5    7.051447632905768E-6   -1.519584484883449E-5    4.365862567936926E-1   -8.970180994794307E-1
 8.375833499501495E8     4.489906860769334E-1   -9.020198363022413E-1    9.069699872402124E-7    1.235230408383469E-5   -5.217614447309861E-6   -6.782234438725090E-6    4.244200730740556E-1   -9.037341601583267E-1
 8.475533898305085E8     4.361167943180105E-1   -9.082908936052129E-1    1.737191041106332E-6    2.338432619303389E-6    8.081415472225267E-6    3.074261388969948E-8    4.125256626427192E-1   -9.098581039051267E-1
 8.575234297108674E8     4.233708037756604E-1   -9.145745534387264E-1   -1.267355667966789E-5    1.750140788243535E-5   -1.949405127039334E-7   -9.167244506507299E-6    4.008389685113917E-1   -9.152730127838206E-1
 8.674934695912263E8     4.106167284358850E-1   -9.214026628094366E-1   -8.598663566122913E-7   -6.850901076648101E-6   -1.550593013654918E-5   -1.259363106530978E-5    3.887467540719020E-1   -9.199369984358139E-1
 8.774635094715853E8     3.976418197031734E-1   -9.281138283461803E-1   -4.458362653320428E-7    6.878879109721696E-6    7.260251590221608E-7   -2.142049397963658E-6    3.761585438035389E-1   -9.246922687067372E-1
 8.874335493519442E8     3.844702490401079E-1   -9.326889046827486E-1    9.546133150443421E-6   -1.176502416053302E-5   -3.356081594549056E-6    5.973500499450149E-6    3.630347520110177E-1   -9.290997783643355E-1
 8.974035892323031E8     3.731002075080960E-1   -9.362316293301809E-1    2.614502031318341E-7   -2.089938458334195E-7   -1.446972054338636E-6    1.073186145380896E-5    3.495594347153735E-1   -9.333546016977680E-1
