#  HZ   S   RI   R     50.00 
! Rohde & Schwarz Vector Network Analyzer 
! Rohde-Schwarz,ZNB20-2Port,1311601062102128,3.60
! Created: UTC 4/29/2024, 2:56:54 PM
! freq[Hz]                re:S11                  im:S11                  re:S21                  im:S21                  re:S12                  im:S12                  re:S22                  im:S22
 1.000000000000000E5     9.962983142797373E-1    3.715194103098267E-3   -1.135494915327817E-4    8.613913973778018E-5    1.583647133654907E-4   -4.330787918104030E-5    1.010599050189766      -1.142786307894398E-2
 1.007003988035892E7     9.976585200031480E-1   -1.393159104045442E-2    1.633953047723587E-5    4.193257144123689E-6    1.580757732450870E-5    8.152522977125109E-6    9.957795572728260E-1   -1.448562336890397E-2
 2.004007976071785E7     9.998638739698448E-1   -2.727648146913765E-2    3.986200824356279E-5   -1.280430106575494E-5   -2.754378065302733E-5   -6.883821517910241E-6    9.986417872076684E-1   -2.768098108512218E-2
 3.001011964107677E7     9.979217668893474E-1   -4.105280225297254E-2    8.238197872749728E-6   -6.599377253040484E-7    1.602711350519847E-6    3.003770148007708E-6    9.975246291839261E-1   -4.194323285650289E-2
 3.998015952143569E7     9.976583074510043E-1   -5.312437371671584E-2    5.738848250682539E-6   -2.329103981192950E-5   -1.469763106689575E-5   -1.536728651644429E-5    9.976095846986077E-1   -5.666217983265563E-2
 4.995019940179461E7     9.960767147059203E-1   -6.598731368135187E-2    1.133087820328361E-5    1.978974754911016E-5   -1.397927452501751E-5    7.404786734458415E-6    9.966341508429267E-1   -6.911371341544058E-2
 5.992023928215354E7     9.942615013551781E-1   -7.894312059564029E-2    1.623779072691564E-5    4.910160963775591E-6    5.016653679090287E-6   -5.262963857812995E-6    9.947058575902452E-1   -8.192340779505727E-2
 6.989027916251247E7     9.930702435177902E-1   -9.188080219292048E-2    1.795447875084164E-5    1.807224823114442E-6    3.485623907157663E-7   -6.591317205155725E-6    9.933612679109567E-1   -9.475786415134339E-2
 7.986031904287139E7     9.925304414069104E-1   -1.052172533859701E-1   -5.157210861506497E-6   -1.773504660960492E-5    2.393883827476894E-5    2.185570709497725E-6    9.922257804230551E-1   -1.079531053630543E-1
 8.983035892323031E7     9.913948077323260E-1   -1.187633881915421E-1    8.839009900444847E-6   -1.411336660146574E-6    1.590191637266331E-5   -1.194365731716977E-6    9.906722788221507E-1   -1.210785613280151E-1
 9.980039880358922E7     9.892810679532175E-1   -1.323748482586491E-1   -9.957580714714055E-7    1.025635210265484E-5    1.488251966403720E-5   -3.815904127444423E-6    9.886486957640624E-1   -1.344692496835304E-1
 1.097704386839482E8     9.865290043931507E-1   -1.456018726131580E-1    5.576236901493306E-6    2.252714380834271E-5    4.053305339461486E-6    7.012606612148029E-6    9.862061476582580E-1   -1.477777441010724E-1
 1.197404785643071E8     9.849134038910815E-1   -1.589797182402206E-1    5.816243270972850E-7    1.687729670282534E-6   -1.289647170153621E-8    3.101503669945225E-6    9.842469622561781E-1   -1.610838813213661E-1
 1.297105184446660E8     9.830499131907174E-1   -1.718349788816367E-1   -3.597345772380953E-6    8.123870068266185E-6   -1.828608979954908E-6   -1.382514262154125E-5    9.828205009381565E-1   -1.743806678296700E-1
 1.396805583250249E8     9.815585571046282E-1   -1.846990827547771E-1    1.312682620274175E-5   -2.984316857763801E-6   -6.194618800759506E-6   -2.555306181889599E-6    9.808910211686312E-1   -1.876270231480898E-1
 1.496505982053838E8     9.788478006678932E-1   -1.970941458093484E-1    4.096168292951620E-6    5.737275557363415E-6    9.120454652439812E-6   -1.890477702577463E-5    9.784478371857092E-1   -2.003981939351703E-1
 1.596206380857428E8     9.762454179259095E-1   -2.094836825877213E-1   -1.611220675948251E-5   -3.379775018225154E-7    2.732545456052894E-6    8.865300625478886E-6    9.757891674586040E-1   -2.133252384386558E-1
 1.695906779661017E8     9.732965455667494E-1   -2.223689871921049E-1   -6.903634559003729E-6   -1.679098079697064E-7    4.493911951787536E-7    2.675735304211163E-6    9.728085769787803E-1   -2.261789217816673E-1
 1.795607178464606E8     9.707270342422866E-1   -2.348612620647322E-1    1.091665219831308E-6   -1.247464495081127E-6   -6.581203018507072E-6    7.709089833441076E-6    9.702467871838506E-1   -2.380774028739530E-1
 1.895307577268195E8     9.677725545876203E-1   -2.470276464674467E-1    3.299795336719574E-7    1.322196316241704E-5   -9.025078094524422E-6    6.723506802907677E-6    9.667632981244801E-1   -2.504874043960771E-1
 1.995007976071784E8     9.638623778591350E-1   -2.595305583915510E-1   -3.301518470259598E-6    1.081176680955466E-5    1.103277416407931E-5   -9.302180490239194E-6    9.628318721909042E-1   -2.632048190937665E-1
 2.094708374875374E8     9.604548492529240E-1   -2.724856786615946E-1    3.910513057482638E-6   -1.405837368910773E-5    1.700419027547434E-5   -1.083279283445984E-5    9.590072393460592E-1   -2.763310204770575E-1
 2.194408773678963E8     9.573291014912554E-1   -2.851248518898501E-1   -1.713373435500643E-5   -6.129520218182579E-6    4.475457770351654E-7    2.361176646541929E-5    9.550615215353337E-1   -2.891025612189123E-1
 2.294109172482552E8     9.536981388102667E-1   -2.974138096241035E-1    1.003428544295561E-5   -7.085156978423671E-6    3.398593229056646E-7    3.472940695460772E-5    9.508499862181280E-1   -3.016888133608298E-1
 2.393809571286142E8     9.506821013192893E-1   -3.094374095779959E-1   -9.224739418241281E-6    4.957603022234360E-6    9.785947498179091E-6   -1.033309859410929E-5    9.469333894673937E-1   -3.139869712197236E-1
 2.493509970089731E8     9.469018337172583E-1   -3.232614900494051E-1   -9.695783618317033E-6    5.509429222826720E-7    3.209684923232713E-6    4.921615003613863E-7    9.442024241537252E-1   -3.276919193125858E-1
 2.593210368893320E8     9.426730974196921E-1   -3.353009278215576E-1    2.948335711439212E-6    5.747617267447155E-6    1.498652617233394E-5    1.819992860162443E-5    9.397338722037889E-1   -3.408641048081914E-1
 2.692910767696909E8     9.385533805481242E-1   -3.467989452743108E-1    1.122941078309960E-5   -1.500640812422430E-6   -5.297876311232630E-6   -1.217724795627643E-5    9.354889107749471E-1   -3.528745061814245E-1
 2.792611166500499E8     9.339082035965255E-1   -3.584336339393082E-1    8.169279741568476E-6   -3.102851005079886E-6    9.646068256848181E-6   -1.011373981708436E-6    9.310069885587565E-1   -3.647035506157601E-1
 2.892311565304088E8     9.289239129871679E-1   -3.704887046389022E-1    7.426607014958275E-6    1.477254279596220E-6   -2.053028666362567E-6    1.103842078258775E-5    9.262418125963879E-1   -3.768952896694682E-1
 2.992011964107677E8     9.241644424062678E-1   -3.826535159002717E-1    5.879204738021393E-6   -1.639287336111366E-5    1.060314949572493E-5    4.661633526856152E-6    9.211251780317734E-1   -3.886072130468395E-1
 3.091712362911266E8     9.189204458476495E-1   -3.949502953229289E-1    1.360193790009859E-5   -4.433328748907397E-6   -1.730871691671472E-6   -4.688113667030949E-6    9.157236708604403E-1   -4.001667648851349E-1
 3.191412761714855E8     9.132519401027501E-1   -4.073678768710010E-1    2.470255359503114E-7   -2.436563511954590E-6    1.442137631229965E-6    2.030570144751452E-5    9.098228433320812E-1   -4.119503600530834E-1
 3.291113160518445E8     9.075251905946770E-1   -4.199858614480356E-1   -1.007263819420952E-5    2.281478188670250E-6   -8.401133739056457E-6   -4.141771678333888E-6    9.034557899350506E-1   -4.243984004628630E-1
 3.390813559322034E8     9.019996797409037E-1   -4.328363880572123E-1   -4.933982806998955E-6    1.623665176668812E-6   -1.400585887397849E-5    8.217377115315390E-6    8.967941542334258E-1   -4.368706485396902E-1
 3.490513958125623E8     8.968605918832215E-1   -4.454136000301493E-1    7.964923754303467E-6   -2.857319324783665E-6    1.635595313009691E-5    1.001275885182629E-5    8.904313526760099E-1   -4.493331377901303E-1
 3.590214356929212E8     8.913036712289175E-1   -4.578402960627206E-1    4.956988367779675E-6    5.176764119652835E-6    6.799944214450785E-6   -5.605400753124175E-6    8.845315181626696E-1   -4.620749496429059E-1
 3.689914755732802E8     8.858871250844673E-1   -4.700379233809275E-1   -7.743626857613423E-6    1.102716307317807E-5   -5.046594036508586E-6    6.295542314958242E-6    8.791659661667512E-1   -4.747577276284612E-1
 3.789615154536391E8     8.798894728594981E-1   -4.814045604489139E-1   -2.967429431501624E-6   -1.816904375499727E-6   -6.728309974144232E-6    9.247234612033555E-7    8.739143762348345E-1   -4.868676223293587E-1
 3.889315553339980E8     8.741360804564449E-1   -4.921025467835380E-1   -5.129489108536120E-6   -6.543091815573350E-6   -2.995374485813933E-6    7.745553637518423E-6    8.679792876341622E-1   -4.987239446949717E-1
 3.989015952143569E8     8.674755621665893E-1   -5.027577492245305E-1    9.156178100985689E-6   -3.988236940747889E-7    5.637969008513520E-6    2.430127980218190E-5    8.610880560090401E-1   -5.097222957983052E-1
 4.088716350947158E8     8.602149182902480E-1   -5.136757286770929E-1    1.772168953715048E-6    3.971018296915657E-6    2.648822409157238E-5    1.722980503296319E-5    8.543884629191717E-1   -5.207365806549433E-1
 4.188416749750748E8     8.532798161226662E-1   -5.251542712657288E-1    9.421762191220186E-6    1.044593027565536E-5   -8.910572664455416E-6    8.025211935350612E-6    8.476307340062340E-1   -5.315274033426096E-1
 4.288117148554337E8     8.460219361444331E-1   -5.368997477591885E-1   -1.204755123960455E-5    5.526583058790310E-6   -1.146841911574251E-5    1.252763769614503E-6    8.406370198888001E-1   -5.418151699251541E-1
 4.387817547357926E8     8.382279190384144E-1   -5.482900478631163E-1   -4.136523817883662E-6   -7.491616084625031E-6   -4.426150173844763E-6    3.536425114745686E-6    8.326153253751611E-1   -5.521988524499089E-1
 4.487517946161516E8     8.304874601615043E-1   -5.600727571155647E-1   -2.491749117179803E-6   -1.986580838374965E-6    7.587889517458688E-6   -1.977480775508248E-6    8.241578910076631E-1   -5.634820631615637E-1
 4.587218344965104E8     8.236024702912683E-1   -5.720370556104420E-1    1.381524251684226E-7    5.919683556364941E-6    1.282439224911419E-5    3.061916240905544E-6    8.160829017762591E-1   -5.753195106482559E-1
 4.686918743768694E8     8.170584397026260E-1   -5.834974295216242E-1   -4.174782706664100E-6   -3.021105573207262E-6    7.518797972000000E-6    1.508181407699668E-5    8.079528958420084E-1   -5.867697760722439E-1
 4.786619142572283E8     8.099005732568443E-1   -5.942393674494293E-1   -2.053802369359305E-6    2.212332854839511E-6   -2.952139520025102E-6   -8.993050302254141E-7    7.992791051133129E-1   -5.979846943050157E-1
 4.886319541375872E8     8.024135492538700E-1   -6.047147268841833E-1    2.752113866455527E-7   -7.793290052963921E-6    1.000596402533302E-5   -7.840560926995229E-6    7.904001094793505E-1   -6.088368728274612E-1
 4.986019940179462E8     7.939883501087479E-1   -6.154105857336669E-1    4.671361301042574E-6   -1.853373795967914E-7    1.613721094679165E-6    1.244498532005375E-5    7.824064198410571E-1   -6.196758589035410E-1
 5.085720338983051E8     7.856356795047226E-1   -6.245076403412149E-1    1.714718430865305E-5   -4.514886412567256E-6   -2.113732141755491E-6    1.471688213911527E-5    7.747526062098742E-1   -6.303164009370089E-1
 5.185420737786640E8     7.782474150214728E-1   -6.336640809265022E-1    5.875997771829306E-6    6.303290508432453E-7    5.912573883054116E-6    9.717716505971896E-6    7.669900848655041E-1   -6.400419445323549E-1
 5.285121136590229E8     7.700518688515520E-1   -6.431207842474387E-1   -8.388847187289730E-6   -8.836939401045166E-6    5.297470809268304E-6    3.395779936160391E-6    7.589606596893833E-1   -6.497300430764302E-1
 5.384821535393819E8     7.613189994952471E-1   -6.531714767786989E-1    1.422800977281692E-6   -5.302591508500557E-6   -5.590712333019180E-6    1.102337374306960E-6    7.508180795459592E-1   -6.594174081828081E-1
 5.484521934197408E8     7.532339906904780E-1   -6.637580873941470E-1   -3.774040500115903E-6   -1.237568127600104E-5   -2.506402653216452E-6    4.014235483500978E-6    7.424262722503926E-1   -6.692549089442580E-1
 5.584222333000997E8     7.447350135741929E-1   -6.746639047500038E-1    8.957481364893550E-6    1.941912011836382E-6    9.407918211986151E-6   -8.376879944634667E-7    7.332839254505542E-1   -6.791359075203298E-1
 5.683922731804587E8     7.356535367448361E-1   -6.851984781140407E-1    9.544237964115795E-6   -1.151512888283975E-5   -2.084864696275263E-5   -1.287706027887344E-5    7.230413014519486E-1   -6.890607500789281E-1
 5.783623130608176E8     7.263105501403025E-1   -6.951043059521606E-1   -5.340659158124728E-6   -8.234510003592913E-6   -5.232790768713595E-6   -2.347397047419231E-5    7.127021857001126E-1   -6.989559497231629E-1
 5.883323529411764E8     7.169691395975020E-1   -7.051689053376000E-1    1.394406841004665E-5    7.051513211674863E-6   -1.185480482249571E-6    5.752510572445198E-6    7.023123583112155E-1   -7.087892584249355E-1
 5.983023928215353E8     7.079229305037995E-1   -7.153338887045008E-1   -1.338192769258601E-5    5.089677134842041E-6    1.556574128414501E-5    7.883408076495100E-6    6.918842587124097E-1   -7.184268770733945E-1
 6.082724327018943E8     6.984459424860758E-1   -7.250647094802121E-1   -2.531473439470305E-6    4.204596212806296E-6   -1.026258512079849E-6    6.055079002267260E-6    6.815658702487122E-1   -7.276956629475712E-1
 6.182424725822532E8     6.886464053303920E-1   -7.347186510848113E-1    1.045563285452764E-5   -6.054963616530486E-7   -2.143331346485258E-5    6.436507664385878E-6    6.716764288122316E-1   -7.373083990407793E-1
 6.282125124626122E8     6.780505833598074E-1   -7.439540742384260E-1   -6.581892484134669E-7    9.115001217563980E-6    9.446132260000001E-6    7.431048923639337E-7    6.628368143215033E-1   -7.469984836782350E-1
 6.381825523429711E8     6.682437035909483E-1   -7.510431572347585E-1   -3.416266430914862E-6   -7.453758011834026E-6    1.001876082113482E-5   -1.842794236571022E-5    6.538709795330515E-1   -7.557681223241305E-1
 6.481525922233300E8     6.593563310074815E-1   -7.595545092599758E-1   -2.877896378816788E-6    6.677045761623571E-6    3.936316071248721E-6    1.306784148460928E-5    6.445209903058040E-1   -7.641526365559302E-1
 6.581226321036890E8     6.497201763961509E-1   -7.686122972909358E-1   -6.321207777801338E-6    1.267365400750775E-5    8.101631848248006E-6   -2.212305487776815E-6    6.344472191878082E-1   -7.723795523051263E-1
 6.680926719840479E8     6.398082345496289E-1   -7.771996930127275E-1   -1.365180509619357E-7    2.208957256060404E-6    3.295466961728246E-6   -4.288883491193650E-6    6.238625653484717E-1   -7.804479374874569E-1
 6.780627118644068E8     6.299838560910549E-1   -7.853963904571437E-1    8.016607185051408E-7    4.725682687855804E-7    1.186390899203076E-6    1.421532277195594E-5    6.130316668696522E-1   -7.885199535424178E-1
 6.880327517447658E8     6.196151198211203E-1   -7.937232770836301E-1   -5.083403490036101E-6   -4.379881809668411E-6    1.104332510653693E-5    9.259592464838718E-6    6.015451149288255E-1   -7.960269283413313E-1
 6.980027916251246E8     6.086927248930917E-1   -8.019139055509107E-1    6.852502411816379E-6   -7.970478695756037E-6    2.483507961444263E-6    1.054515841640726E-5    5.899500469866716E-1   -8.036236087064965E-1
 7.079728315054835E8     5.973759204112242E-1   -8.102716179001338E-1   -1.317948810304001E-5    1.182604949092422E-5    1.337312819656051E-5   -8.127058313206394E-6    5.785172135236093E-1   -8.115699244579457E-1
 7.179428713858424E8     5.861374650128179E-1   -8.188031964576995E-1    4.440606080611494E-6   -1.732488266379105E-6   -4.270879765109015E-6   -1.530736629084847E-5    5.672823558692772E-1   -8.202389641189324E-1
 7.279129112662014E8     5.750582696549125E-1   -8.272119413744994E-1   -1.150698480815157E-5   -2.771853641608394E-6    6.497108363731635E-6    4.997297290672616E-6    5.559887298443680E-1   -8.289901142330298E-1
 7.378829511465603E8     5.638512523850465E-1   -8.360257181894896E-1    8.764792939808435E-6   -8.475340428915656E-6   -5.859356318050140E-6   -2.584371616644856E-6    5.446184771463504E-1   -8.372365811655907E-1
 7.478529910269192E8     5.519125237397078E-1   -8.445030930028535E-1    1.835447825781052E-5   -6.979355881824695E-6    4.690360243382402E-6   -6.587799574254442E-6    5.333183839241274E-1   -8.450216294204187E-1
 7.578230309072782E8     5.391920292407816E-1   -8.516394683573234E-1   -1.058034782617498E-5    5.453202330434178E-6    3.242488959472542E-6   -9.611576322373007E-6    5.222748211472806E-1   -8.518494261083580E-1
 7.677930707876371E8     5.288303371790365E-1   -8.570372469965876E-1   -2.543433872253468E-6   -1.468284422040423E-6    1.240898800293005E-5    1.085227374008081E-5    5.109995692960060E-1   -8.583888050783555E-1
 7.777631106679960E8     5.192353584291807E-1   -8.639635364361478E-1    1.101330098787106E-5   -3.130994335480755E-6    8.311213839554443E-7   -2.714334275092043E-6    4.995675075304861E-1   -8.649106682284986E-1
 7.877331505483550E8     5.088982242703015E-1   -8.708953646171154E-1    1.130859659406800E-5   -8.733001391410466E-7   -9.902447748806647E-6   -1.124459228348803E-5    4.877018111915594E-1   -8.715063167179121E-1
 7.977031904287138E8     4.976106545578652E-1   -8.772160187929041E-1   -3.558210833336677E-6   -3.270789668688607E-6   -4.932417322186179E-6    2.804700249985054E-6    4.748785712280323E-1   -8.780085987661248E-1
 8.076732303090727E8     4.858936192287663E-1   -8.831797361219325E-1    8.613150897138775E-6    3.327541160302290E-6    1.176293475702891E-5    5.227922130272085E-6    4.620161404248053E-1   -8.839935297688198E-1
 8.176432701894317E8     4.739079247356634E-1   -8.892865095209423E-1    4.602438722135556E-6    2.165244897463513E-6   -5.531007180140675E-6   -8.591813430338149E-7    4.492573290742989E-1   -8.904397307741636E-1
 8.276133100697906E8     4.615580873626585E-1   -8.956002288776118E-1    2.620718392434248E-6   -1.182355176185672E-5    1.097084924883154E-6   -2.799407180185691E-6    4.366296634183485E-1   -8.972524333123718E-1
 8.375833499501495E8     4.488750945472572E-1   -9.019975505221954E-1   -9.009429104258543E-6   -8.348769257944062E-6   -3.616344686227972E-6    1.056415229567522E-5    4.243944664453531E-1   -9.038305413073007E-1
 8.475533898305085E8     4.361155954351038E-1   -9.083812750021436E-1    4.432064655963713E-6   -1.035711714424485E-5    7.714993812918314E-7   -6.284965058055633E-6    4.125033292896633E-1   -9.097231624509472E-1
 8.575234297108674E8     4.234664245777559E-1   -9.148692643139853E-1   -5.785645740267954E-6    3.498835692582587E-6   -1.443614337814520E-6   -1.342830901725613E-5    4.008123752538056E-1   -9.151519791518238E-1
 8.674934695912263E8     4.105349047170261E-1   -9.215168161087349E-1    5.402500366722220E-6   -9.754144317804276E-6    1.323208984231586E-5    4.987381698802953E-6    3.888034704565162E-1   -9.200317027531444E-1
 8.774635094715853E8     3.974485099465594E-1   -9.280879008858711E-1   -4.516552321059849E-6   -1.343358519154984E-6    7.710115595318257E-6   -1.088539238519083E-5    3.761589818808098E-1   -9.247432196109491E-1
 8.874335493519442E8     3.843380381974927E-1   -9.326803157536158E-1   -7.877894303628382E-6    6.698261098568169E-6    1.462311688592906E-6    3.638314983856326E-6    3.631082528689318E-1   -9.290429828594698E-1
 8.974035892323031E8     3.731266641651327E-1   -9.363658629632640E-1    1.009542404471050E-6   -5.736160404157940E-6   -9.683180843589885E-6    1.377406058036705E-5    3.495092482423619E-1   -9.334999063395549E-1
