#  HZ   S   RI   R     50.00 
! Rohde & Schwarz Vector Network Analyzer 
! Rohde-Schwarz,ZNB20-2Port,1311601062102128,3.60
! Created: UTC 4/29/2024, 2:57:59 PM
! freq[Hz]                re:S11                  im:S11                  re:S21                  im:S21                  re:S12                  im:S12                  re:S22                  im:S22
 1.000000000000000E5     9.960840066181974E-1    3.814264532278461E-3   -9.771420408576163E-5   -9.216949861544753E-6    7.373831701801215E-5   -3.046611635648038E-5    1.010425651268150      -1.164732851826855E-2
 1.007003988035892E7     9.976021966897778E-1   -1.389630136791381E-2    8.808048567496808E-7    1.066494286925864E-5   -1.783380269907334E-5    6.864237157312562E-7    9.957668950433166E-1   -1.446835081569391E-2
 2.004007976071785E7     9.997103610092852E-1   -2.724426839931096E-2   -7.067505438566188E-6   -6.467544903767281E-7    1.234641848294887E-5    2.934014208300415E-6    9.987971757933591E-1   -2.769934911542729E-2
 3.001011964107677E7     9.978937826691212E-1   -4.104283926980890E-2   -3.733103422833879E-6    6.975099571869731E-6   -1.530505930972661E-6   -8.063116296092414E-6    9.973856526728454E-1   -4.198776354993475E-2
 3.998015952143569E7     9.975085336658944E-1   -5.302223106462561E-2   -7.981353619568318E-6   -1.456190716216651E-5   -4.500465639184036E-6    6.849372340448417E-6    9.976316211544689E-1   -5.668258760166834E-2
 4.995019940179461E7     9.960259978668011E-1   -6.601734742112889E-2   -1.017144064002894E-5    9.539325525349142E-7   -2.331487668082451E-5   -2.147682524240007E-6    9.964949801568194E-1   -6.912978373024885E-2
 5.992023928215354E7     9.941331316581511E-1   -7.880630951475259E-2   -1.100918128538300E-6    3.414563823362534E-6   -3.226484039792216E-6    4.898683600626757E-6    9.945823976398357E-1   -8.196278529951874E-2
 6.989027916251247E7     9.930577237140047E-1   -9.191244605894185E-2   -1.531580549658281E-5    2.918244160108202E-6    3.262199549386751E-6   -6.095923290280997E-6    9.933072574895315E-1   -9.476570424154020E-2
 7.986031904287139E7     9.923858249199876E-1   -1.052273752498118E-1   -7.495359926626298E-6   -5.582650254149499E-6    5.965936394253488E-6   -7.211979791620152E-6    9.923245585909608E-1   -1.079620858669531E-1
 8.983035892323031E7     9.912934790377063E-1   -1.187619188388336E-1    7.349239949002337E-6    1.204784722437163E-5    3.973922084066488E-6    7.802384516243104E-8    9.906942089988877E-1   -1.210959045700659E-1
 9.980039880358922E7     9.893012624203479E-1   -1.324841348011102E-1   -3.933722278393127E-6   -1.566060337045480E-5   -5.275531517885333E-6    1.492571013237695E-5    9.885527992650656E-1   -1.344119249545128E-1
 1.097704386839482E8     9.864882316556802E-1   -1.455922095407294E-1    2.189908316032042E-5    2.573075824455309E-6    5.291644371060429E-6    1.015341651912657E-5    9.861223285562989E-1   -1.478409143861812E-1
 1.197404785643071E8     9.847537838562975E-1   -1.589429248109597E-1   -6.179194007909122E-6    4.730621827182018E-6    2.604300170846818E-6   -2.392416049504214E-6    9.842394521738955E-1   -1.611583590092626E-1
 1.297105184446660E8     9.829984827886862E-1   -1.717103012466501E-1    7.600035560933902E-6   -8.143935753904901E-6    8.648013936095920E-6    1.664835745473997E-5    9.827909208296416E-1   -1.744330154239373E-1
 1.396805583250249E8     9.814905585988207E-1   -1.846597561361844E-1   -8.081456979945243E-7    9.653336576669173E-6   -1.199089000719771E-5   -2.391579040459264E-6    9.807993446514119E-1   -1.876066470495796E-1
 1.496505982053838E8     9.788053542402779E-1   -1.971564241856925E-1   -1.264593071898884E-5    4.144001568000325E-6   -3.914351608813406E-6    3.529854389370492E-6    9.783615710909529E-1   -2.003371326379483E-1
 1.596206380857428E8     9.760729636640395E-1   -2.094865256956608E-1   -1.780825660945969E-5   -2.663618189048098E-5   -8.268892617052766E-6   -1.506790818603878E-5    9.758357417559710E-1   -2.133347989454907E-1
 1.695906779661017E8     9.731143844968525E-1   -2.222900625690598E-1   -1.910722529040524E-5   -8.799639415282078E-6   -5.226837612721682E-6   -1.168732232101833E-6    9.728350737095870E-1   -2.261257841981286E-1
 1.795607178464606E8     9.707604347732082E-1   -2.348987079427615E-1   -4.547639523640979E-6    9.391692662547941E-6   -2.285131160100226E-5    4.284495714823400E-6    9.701539224795576E-1   -2.380025990587241E-1
 1.895307577268195E8     9.675643107688857E-1   -2.470036548226496E-1   -8.198908975927197E-6    1.258553929908020E-5    9.920183269350194E-6   -1.606491320491537E-6    9.667846625602584E-1   -2.506171589696319E-1
 1.995007976071784E8     9.636764509785114E-1   -2.594752137424379E-1   -1.242818964333091E-5   -2.314893843905764E-6    7.402749459743583E-6   -5.818589030789244E-7    9.628765155061351E-1   -2.631985675697082E-1
 2.094708374875374E8     9.604017878102031E-1   -2.723960179046641E-1   -5.248946627536537E-6    8.246459180502827E-6    9.216284716173834E-6    5.863808885573450E-7    9.588986118564004E-1   -2.761323210669689E-1
 2.194408773678963E8     9.571912112521306E-1   -2.850996567343959E-1    1.945269425031965E-6   -6.214312013968726E-6   -6.321234056614951E-6    1.532420811914426E-5    9.551542586113224E-1   -2.891825230309070E-1
 2.294109172482552E8     9.535364200537427E-1   -2.974255491633489E-1    1.059159001581806E-5    1.235781398481781E-6   -9.629939477131500E-6   -4.978981861193400E-6    9.509753002109427E-1   -3.017918645143108E-1
 2.393809571286142E8     9.503970974406791E-1   -3.094514400596442E-1    2.378440294707641E-6   -4.502347994614031E-6   -5.173764748699049E-6   -1.339270244314016E-5    9.469778637125982E-1   -3.139370687349390E-1
 2.493509970089731E8     9.468801720084763E-1   -3.232881544504920E-1   -1.489815214364773E-6   -5.117514050778341E-6    9.208375080908800E-6    5.535308851803740E-6    9.439967568079083E-1   -3.276113231680402E-1
 2.593210368893320E8     9.426235476442022E-1   -3.353691816262537E-1    1.450956897014534E-5   -1.512838393768935E-5    1.588177235265748E-5    7.813319662938856E-6    9.397716879600054E-1   -3.408697946196781E-1
 2.692910767696909E8     9.383628180049377E-1   -3.467980972273094E-1   -6.906686446260269E-6    1.278603044430245E-5   -1.082942205416403E-5    1.182789766768880E-5    9.356397669063578E-1   -3.528898090315107E-1
 2.792611166500499E8     9.338116206081442E-1   -3.583703099585575E-1    3.083630791759630E-6    8.521061733249616E-6   -4.936177108542796E-6    2.347522759734668E-5    9.310511922065314E-1   -3.647123350950653E-1
 2.892311565304088E8     9.288859941792761E-1   -3.704738396498363E-1    1.771270370144412E-6   -1.553892241134764E-6    5.340308692739059E-6    3.912492774530983E-6    9.259342833520311E-1   -3.767904874841043E-1
 2.992011964107677E8     9.239020426729014E-1   -3.826885593368962E-1    8.886112250855689E-6   -3.843476062718898E-6    8.816761089868536E-6    1.753806800707159E-6    9.211956796696205E-1   -3.885898338318344E-1
 3.091712362911266E8     9.187648397454219E-1   -3.948923699794070E-1    1.114125575633489E-6   -4.534082549390831E-6   -9.616390154094991E-6    1.533071759397036E-5    9.158140357799693E-1   -4.001679172678455E-1
 3.191412761714855E8     9.132956550312512E-1   -4.073191869767446E-1   -2.869813662153742E-6    2.090132789190648E-6   -5.934886610880357E-7    5.871837388259901E-6    9.097993715355484E-1   -4.119694788149044E-1
 3.291113160518445E8     9.075809025304307E-1   -4.200141295709366E-1    9.435097765651078E-6   -3.469023272239836E-6   -1.062608231260637E-5   -2.254325646405698E-5    9.032872869931846E-1   -4.243623117079597E-1
 3.390813559322034E8     9.018638152240951E-1   -4.327758097629970E-1   -3.026477524661576E-6    2.456636072515263E-5   -1.189299116233235E-5    1.035572853129867E-6    8.967818299024435E-1   -4.368293432000181E-1
 3.490513958125623E8     8.965552225530653E-1   -4.452836710508262E-1   -8.343217600341078E-6    1.237590856506070E-6    1.079620244871350E-5    1.244126781732727E-5    8.905467942959190E-1   -4.495083497350554E-1
 3.590214356929212E8     8.912846619431537E-1   -4.577846211839793E-1    6.667947849734391E-7   -2.415407725199191E-6   -1.165025021282245E-6   -2.857255788394496E-6    8.846976899126202E-1   -4.622264521705736E-1
 3.689914755732802E8     8.859542241344129E-1   -4.700105424178865E-1   -5.311286229646847E-7    9.258869718945969E-6    5.957912838093542E-6    1.038043206455920E-5    8.790102522730926E-1   -4.747963155550520E-1
 3.789615154536391E8     8.797131278319870E-1   -4.812424456045383E-1   -1.020894892634772E-5    1.600961675855662E-5    8.031296353227806E-6    1.120996794450340E-6    8.737158176400668E-1   -4.868237643650440E-1
 3.889315553339980E8     8.740786626011530E-1   -4.919292335650760E-1   -1.250029435705014E-5    5.585955430258867E-6   -1.095168455723118E-5   -4.456727797639791E-6    8.679293134897432E-1   -4.988218307837157E-1
 3.989015952143569E8     8.673548552103051E-1   -5.026755322217528E-1   -9.054320432813215E-6   -7.987325355463823E-6    6.678642063245396E-7   -1.015416310711297E-5    8.612686150072766E-1   -5.097355053827619E-1
 4.088716350947158E8     8.601553180104202E-1   -5.135344222146299E-1   -5.211946350958267E-6   -2.770438613103205E-5   -4.715706605672227E-6   -2.337255964282532E-5    8.542137883688028E-1   -5.206501084470769E-1
 4.188416749750748E8     8.532272759406435E-1   -5.251006718493381E-1    1.248806040692890E-5    2.664671925995062E-6   -5.326624903962917E-6    3.451901424909517E-6    8.476242488616645E-1   -5.315245985380940E-1
 4.288117148554337E8     8.459630970991209E-1   -5.367599370303567E-1    1.668591248228955E-5    2.426573301262234E-6   -1.634619188852452E-5   -2.011505337602731E-5    8.405634796506581E-1   -5.418246633103772E-1
 4.387817547357926E8     8.382097825941314E-1   -5.481643512663391E-1   -1.516445103551893E-5    7.502622218722053E-6   -7.627932928718259E-6   -1.808480345046318E-6    8.326599186368041E-1   -5.523287631572186E-1
 4.487517946161516E8     8.304841380996839E-1   -5.600145890879620E-1   -1.216611346434035E-6   -9.434561447642169E-6    9.271585467155072E-6    2.167494655859904E-7    8.242039820177968E-1   -5.635016625988849E-1
 4.587218344965104E8     8.235136510524445E-1   -5.719654764825216E-1    6.910306600470716E-6    1.114320176159686E-6    2.560451657371270E-6    6.132043900118505E-6    8.159460377663701E-1   -5.752202351551975E-1
 4.686918743768694E8     8.169666007223935E-1   -5.833371066676366E-1   -2.004105218981370E-6    9.615242924685932E-6   -7.821072471425893E-6    5.615511548046322E-6    8.077765909596754E-1   -5.867990608380079E-1
 4.786619142572283E8     8.097911907024925E-1   -5.942043864308475E-1   -1.460565399847646E-7   -4.576163782335908E-7    2.718189237550500E-6   -1.197261730883636E-5    7.992914609159635E-1   -5.980944569075128E-1
 4.886319541375872E8     8.023435090947865E-1   -6.046644098095156E-1    8.338691303120983E-6   -6.308618747330954E-6    2.038042039222994E-5   -5.266604330049465E-6    7.904370187780539E-1   -6.089995402873305E-1
 4.986019940179462E8     7.939404285278375E-1   -6.153520714477568E-1    7.048589576071224E-6   -9.738790932812606E-6    1.139151599458860E-5    7.260370343479494E-6    7.823489398061729E-1   -6.196846143531801E-1
 5.085720338983051E8     7.856242895178579E-1   -6.245277760186944E-1    6.737534284930708E-6    5.403039388335186E-6    6.080240351193282E-7   -1.760861569682281E-5    7.746193703863816E-1   -6.302817941929391E-1
 5.185420737786640E8     7.782196768081345E-1   -6.336141136438520E-1    1.020615906235079E-5   -1.405701775055313E-5   -4.960913227778643E-6    1.374245914480412E-5    7.669206679718996E-1   -6.401093471159351E-1
 5.285121136590229E8     7.699566286806465E-1   -6.430520146971322E-1   -6.697490391869337E-6   -6.206387666748919E-6   -8.063443415766025E-6    5.087311009603264E-6    7.589516326932543E-1   -6.497415985392971E-1
 5.384821535393819E8     7.613981328135094E-1   -6.530799065810490E-1    5.171915082206527E-6    5.401568325523578E-6   -5.321396125034711E-6    1.313247579590930E-6    7.507816142659554E-1   -6.594422993843895E-1
 5.484521934197408E8     7.532600485326115E-1   -6.636985130292187E-1   -7.525000876694585E-6    1.199969778090234E-5    2.105228815369916E-6   -6.730243074116147E-6    7.424350251804526E-1   -6.692625196782412E-1
 5.584222333000997E8     7.447905159520990E-1   -6.746801006141107E-1   -1.874607060558699E-6   -4.161710522859212E-8    1.601073909912101E-5    1.384049923829058E-5    7.332889881202266E-1   -6.792127575589395E-1
 5.683922731804587E8     7.355420747291269E-1   -6.851077296837000E-1   -5.009923421427488E-6    2.092042169786352E-6   -9.670554359340356E-6   -1.346444588991822E-5    7.231745945637388E-1   -6.892836449947545E-1
 5.783623130608176E8     7.262886581695176E-1   -6.949702647923663E-1   -9.877281898960132E-6   -3.865699053875403E-6    1.908191672303654E-5    1.774321839012750E-5    7.125653292036999E-1   -6.989428228877164E-1
 5.883323529411764E8     7.170801392268017E-1   -7.050414109045614E-1    1.348279883945820E-5   -1.127339064933485E-5    1.613057194618019E-5   -3.978285023019555E-6    7.022072510872345E-1   -7.086469365803140E-1
 5.983023928215353E8     7.079049459872275E-1   -7.151884082435326E-1    4.744463212718148E-6   -1.774406016450064E-6    9.251482176897036E-6    1.526785123735676E-5    6.917644769841215E-1   -7.182910418899109E-1
 6.082724327018943E8     6.984904072908455E-1   -7.249875378587287E-1   -1.209834507549928E-5   -7.643448637361451E-6    2.625658150015873E-5    9.840961593972943E-6    6.817868900937620E-1   -7.279258670130376E-1
 6.182424725822532E8     6.885161568981845E-1   -7.344376605765843E-1    5.814254461206913E-6    9.101676899752204E-6    6.200133948923097E-6    3.679666447506023E-6    6.717422585607897E-1   -7.373151744890148E-1
 6.282125124626122E8     6.780120000571042E-1   -7.438819817895086E-1    1.762748149930741E-7   -8.480295555130976E-6    2.571119613739060E-6    1.137713193722381E-5    6.626476556801618E-1   -7.467476822501761E-1
 6.381825523429711E8     6.683046678387349E-1   -7.510655549225447E-1   -1.760968423235816E-6    1.388543390361275E-6    1.165260980341303E-5    1.633179821141897E-5    6.536597647372577E-1   -7.557223731344177E-1
 6.481525922233300E8     6.594313185319550E-1   -7.597265727307146E-1    2.440569094837504E-6   -1.969599660556428E-6    3.888285979445581E-6   -1.408763520488041E-6    6.445869845741262E-1   -7.641450542223862E-1
 6.581226321036890E8     6.496289740143892E-1   -7.685625367666727E-1    1.020007298759977E-5    1.582918160262213E-6   -2.405260094971587E-5    1.532729321277298E-5    6.345171441696468E-1   -7.725526991700179E-1
 6.680926719840479E8     6.396232151967767E-1   -7.772464748643859E-1    1.370422343699701E-5    1.167395284578300E-5    3.854317529206129E-7    1.877210511594038E-5    6.239597019230996E-1   -7.804684473031129E-1
 6.780627118644068E8     6.298384670644331E-1   -7.852704452940273E-1    1.344922382148593E-5   -1.167216996518254E-5    1.275717937232095E-5    6.702630131518623E-6    6.129147635465774E-1   -7.883867013365752E-1
 6.880327517447658E8     6.195912625137102E-1   -7.937093287182919E-1    7.842470851786594E-6   -4.273512732979956E-6    1.924654734811618E-5   -8.932343985107925E-6    6.015126631249348E-1   -7.959243572335806E-1
 6.980027916251246E8     6.086602264562259E-1   -8.019826620959659E-1   -3.138636905237844E-6    1.455657265047481E-6   -2.244465867402600E-6   -8.534603874898464E-7    5.899706172568947E-1   -8.037028449923354E-1
 7.079728315054835E8     5.973289206405555E-1   -8.102213071166576E-1    3.411056457187600E-6    1.128082592350851E-5    2.102309006053872E-5   -2.154067989609281E-6    5.784942563775543E-1   -8.115740473310596E-1
 7.179428713858424E8     5.859972919556052E-1   -8.185711203654747E-1   -7.310110965763189E-6   -1.108797314810716E-5    2.723750898396189E-5   -9.939663374599843E-6    5.673045554311198E-1   -8.202000785663696E-1
 7.279129112662014E8     5.750791408428213E-1   -8.271266213695635E-1   -4.640282623662808E-6    9.771846134702887E-6   -1.972662910511461E-6    1.126910702628489E-5    5.560096474224265E-1   -8.289749487459982E-1
 7.378829511465603E8     5.638698453680988E-1   -8.360456857517616E-1    5.173741331599479E-6   -2.411876804047944E-6   -6.714878527302441E-7   -5.109229628411090E-6    5.445538281717955E-1   -8.373416435992952E-1
 7.478529910269192E8     5.518162233030407E-1   -8.446102267402863E-1    9.852437241822738E-6    1.623031691583683E-5    6.088778006634499E-6   -1.115878299483540E-6    5.334528861668927E-1   -8.449911673501762E-1
 7.578230309072782E8     5.392409451532439E-1   -8.516194362364843E-1    2.326973315077560E-6   -1.812720400445393E-6    1.082362251632061E-5    3.587304767636678E-6    5.223600571236332E-1   -8.518544012877529E-1
 7.677930707876371E8     5.288059492387523E-1   -8.570595035305787E-1   -1.552343354617247E-5    2.278666953250406E-6   -7.222475785062884E-6   -3.743440809289332E-6    5.110165871527406E-1   -8.584232942509270E-1
 7.777631106679960E8     5.191528893922488E-1   -8.638648364964238E-1   -1.029860949741274E-5    3.195939347323998E-6    5.000451097911926E-6    1.278982606557665E-6    4.994754211555366E-1   -8.648762050008907E-1
 7.877331505483550E8     5.088221328725703E-1   -8.708810872980514E-1    7.079696994508538E-6   -1.796052386950624E-5   -8.107975355085819E-7   -1.156081149891449E-5    4.876828242039803E-1   -8.715626326332835E-1
 7.977031904287138E8     4.976405298746314E-1   -8.773739200818353E-1   -1.826747748830134E-5    2.565784998793987E-6   -9.451067656358358E-9    1.985494866020104E-7    4.748303548030650E-1   -8.779088098617546E-1
 8.076732303090727E8     4.858248295476251E-1   -8.831712521439227E-1   -4.669646292613844E-6   -9.199958740818240E-6   -1.254798075825396E-5    6.480802430637090E-6    4.619997757882587E-1   -8.841911524622623E-1
 8.176432701894317E8     4.738234902103516E-1   -8.891951309154497E-1   -1.945909918619700E-6   -2.204707024106680E-5    8.163535991223896E-6   -2.458904351071856E-6    4.492424360343790E-1   -8.905084121943233E-1
 8.276133100697906E8     4.615703191947407E-1   -8.956504359996675E-1   -1.104715340773885E-5   -3.760356153376901E-6    3.730283175244056E-6    6.790452230371543E-6    4.365785631852393E-1   -8.971299964853700E-1
 8.375833499501495E8     4.489110644684692E-1   -9.020803924945521E-1    1.812978875599616E-6   -8.073676141166251E-6   -4.904059523223852E-7   -1.354597800645973E-5    4.243719733290662E-1   -9.037718461122257E-1
 8.475533898305085E8     4.361108106778709E-1   -9.084960594998666E-1   -8.109529885824966E-7    1.955274610193354E-5   -1.063405495997521E-5    3.221980060630995E-6    4.124952165960863E-1   -9.097870864409529E-1
 8.575234297108674E8     4.233127443960792E-1   -9.147544931282140E-1    2.302463229879121E-6   -4.566239749894766E-6    5.613232478561032E-6   -8.998728553186759E-6    4.008240164378140E-1   -9.151204139988534E-1
 8.674934695912263E8     4.104779849031618E-1   -9.214115322888998E-1    1.263675471039621E-5    1.721058266082134E-5   -6.098292792764312E-6    8.816070279406985E-6    3.888128441793878E-1   -9.201605070859662E-1
 8.774635094715853E8     3.974756281706301E-1   -9.280594154158164E-1    7.544988280114982E-6   -5.272996099345593E-6    9.126161374640573E-6    7.895499692079747E-6    3.762248991050863E-1   -9.246702506010533E-1
 8.874335493519442E8     3.842745866253761E-1   -9.327741253154664E-1    1.502647264360165E-5   -7.755234108542164E-6    6.935172401219223E-6   -4.873863897107453E-6    3.631626027339167E-1   -9.290565073272575E-1
 8.974035892323031E8     3.730102789019684E-1   -9.363415900585901E-1   -6.486241564943288E-6    7.118401741374017E-6    1.719770165613073E-6   -1.317438067184009E-7    3.495135994177930E-1   -9.333297650993831E-1
