#  HZ   S   RI   R     50.00 
! Rohde & Schwarz Vector Network Analyzer 
! Rohde-Schwarz,ZNB20-2Port,1311601062102128,3.60
! Created: UTC 4/29/2024, 2:59:09 PM
! freq[Hz]                re:S11                  im:S11                  re:S21                  im:S21                  re:S12                  im:S12                  re:S22                  im:S22
 1.000000000000000E5     9.963580889957958E-1    3.960020480872716E-3   -8.459979753721656E-5    9.615169975214556E-5    1.210697303855592E-5   -6.098867982750552E-5    1.010591753624889      -1.149635144648241E-2
 1.007003988035892E7     9.975828311262854E-1   -1.381644692776728E-2    2.022677184915283E-5    2.726638906336491E-5   -2.720028041798504E-5    1.691417376760295E-5    9.958380016519485E-1   -1.452227867046899E-2
 2.004007976071785E7     9.997916634757018E-1   -2.708062741775517E-2    2.137178236438013E-5   -6.638823679810643E-6    9.235305235377581E-6    4.751670186231501E-6    9.987146680768784E-1   -2.770130086429647E-2
 3.001011964107677E7     9.978158730812595E-1   -4.098425753009202E-2   -3.113614261709371E-5    6.023550124904840E-6   -6.468043747156826E-6   -4.216248701976642E-6    9.975749688860972E-1   -4.196397027989624E-2
 3.998015952143569E7     9.975113833866964E-1   -5.317070575827151E-2    7.145352613513795E-6    5.012197922005002E-6   -1.233561272129241E-6    9.455519136630570E-6    9.976552250582730E-1   -5.669825957868685E-2
 4.995019940179461E7     9.961434487258689E-1   -6.602477670690295E-2    2.268886016783661E-6   -1.118512086029278E-5    1.246557991328679E-5    7.698867211908983E-6    9.965483410713176E-1   -6.911302453893418E-2
 5.992023928215354E7     9.941887981351162E-1   -7.888949798426631E-2   -4.763000250630607E-6    3.811115182955493E-6   -3.442101459116320E-6   -5.498161929653524E-6    9.946471670943458E-1   -8.186118123735782E-2
 6.989027916251247E7     9.931432275122316E-1   -9.183241203319448E-2   -1.204726071421881E-5    2.494661327604198E-6   -2.360296473971421E-6   -1.061902342877925E-6    9.933653832365756E-1   -9.462841471913705E-2
 7.986031904287139E7     9.924082887808459E-1   -1.052411467080744E-1   -4.123039935092793E-6    3.577585859615839E-6   -1.457518665483290E-5    1.531035496947505E-5    9.922866938940976E-1   -1.079427436522668E-1
 8.983035892323031E7     9.914088495100559E-1   -1.188233493958735E-1    1.141727983680183E-5   -5.758265643864247E-6   -8.454859265155032E-6   -3.256500848382466E-6    9.907779378627635E-1   -1.210321517348661E-1
 9.980039880358922E7     9.894279437968915E-1   -1.323724347679646E-1   -8.221096613638151E-6    3.712074112038691E-7    7.402650010712270E-6    2.145742037511753E-6    9.885660776750508E-1   -1.343650627639424E-1
 1.097704386839482E8     9.865176855583029E-1   -1.455379831998747E-1    8.893441390301814E-6    1.555576211408121E-5    7.402125130535865E-6   -1.799549609028777E-5    9.859659474314578E-1   -1.477492715199953E-1
 1.197404785643071E8     9.847536925079907E-1   -1.589414653061824E-1    8.200499544158266E-6   -1.115108222715847E-5    6.759615118376009E-6   -3.566024777586208E-6    9.841880598280481E-1   -1.610853929220206E-1
 1.297105184446660E8     9.830695689930149E-1   -1.717833844659423E-1   -5.191085986633238E-6    1.227007508605995E-5    6.252068521032010E-6    2.815939990046254E-6    9.826823699180718E-1   -1.744703483511195E-1
 1.396805583250249E8     9.814804497694910E-1   -1.846568484154689E-1    1.775361708448480E-6   -7.444544628417654E-6   -5.468688743189044E-7   -7.788416397644698E-6    9.809063784897188E-1   -1.875623830846698E-1
 1.496505982053838E8     9.789607312312730E-1   -1.970357792686148E-1    5.712612878678648E-6    1.135367294841200E-6    1.595331360946644E-5   -1.071659589673630E-5    9.783964050912948E-1   -2.004705931780632E-1
 1.596206380857428E8     9.760982933224449E-1   -2.095105315121484E-1   -9.576750857220996E-6    5.871232290639284E-7   -1.594639754288679E-5    3.627916792576322E-6    9.756812082856104E-1   -2.133308650824056E-1
 1.695906779661017E8     9.731222861179379E-1   -2.222927489318772E-1    7.462952900983348E-7    1.093636351716505E-5    7.995913022483349E-6   -1.079860893971673E-5    9.727015591476204E-1   -2.261596159576277E-1
 1.795607178464606E8     9.706645187822874E-1   -2.347472975826199E-1   -1.291214147814310E-5   -1.922779047674409E-5    1.068313983525426E-5   -2.880813645217882E-6    9.701587363352966E-1   -2.380781128961654E-1
 1.895307577268195E8     9.676882147321962E-1   -2.469853357589464E-1   -5.795539654513817E-6   -8.886548378205385E-6   -4.062894412902158E-6    5.483164363507323E-6    9.667170408808112E-1   -2.504299277225246E-1
 1.995007976071784E8     9.638249756615497E-1   -2.594972531010923E-1    1.031336276805722E-6    8.034637772415535E-6    8.833466859755600E-6   -1.756480421155429E-5    9.627428036628097E-1   -2.631989569124581E-1
 2.094708374875374E8     9.603045637296324E-1   -2.723196126428851E-1    5.163596501294113E-6    7.224042964530225E-6   -1.157734165244854E-5    3.196864271317401E-6    9.589100098838551E-1   -2.761426270692777E-1
 2.194408773678963E8     9.573330364875707E-1   -2.851147547503524E-1   -3.082561336814945E-6    7.701801760051196E-6   -1.509550649479588E-5    2.389880888141231E-5    9.550920180292710E-1   -2.890740792393799E-1
 2.294109172482552E8     9.536884835309661E-1   -2.974374187632819E-1   -6.661879049068080E-6    5.697605348002469E-6    6.695877269455333E-6   -1.408270967106861E-5    9.508233479279135E-1   -3.017499140787360E-1
 2.393809571286142E8     9.506204522406142E-1   -3.093778139891222E-1    1.272328080200645E-5   -5.712685397776317E-6    3.370922853110549E-7    5.707483531536277E-6    9.469774749559224E-1   -3.140089373293738E-1
 2.493509970089731E8     9.468949288731113E-1   -3.233276535012471E-1    5.353098218064616E-6   -5.542453220866180E-6    4.520375510904411E-6   -5.711330821335330E-6    9.439500994656339E-1   -3.276494414480373E-1
 2.593210368893320E8     9.426549777679966E-1   -3.353104339783969E-1    1.024063643902908E-6    5.802973082609802E-6    6.393402620489464E-6    8.734735708332139E-6    9.397731716479650E-1   -3.407818050598819E-1
 2.692910767696909E8     9.385077556130698E-1   -3.467472945862422E-1    4.393982288908668E-6   -2.798587461371769E-6    1.016672992684964E-5    1.380904259119903E-5    9.354203668467903E-1   -3.528873658052119E-1
 2.792611166500499E8     9.338327156348936E-1   -3.583992355227548E-1   -1.597154355752152E-6   -2.784080701219996E-6   -1.273257793370487E-5    5.540718929127002E-6    9.309746674935461E-1   -3.647291481734358E-1
 2.892311565304088E8     9.289563335354646E-1   -3.705025138361548E-1    3.582096278901862E-6    1.955746388039885E-7   -1.034951803797739E-5    1.074520663286930E-5    9.261468277334891E-1   -3.768390266909677E-1
 2.992011964107677E8     9.240780295722870E-1   -3.825996538626226E-1    5.045103667476797E-6    1.186973568814650E-5    3.066066011114001E-6   -1.083681819513314E-5    9.211102366974998E-1   -3.885640911584614E-1
 3.091712362911266E8     9.188070425752169E-1   -3.949048327406210E-1    1.343752991176743E-5    5.567024253529313E-6   -2.148721562126342E-5   -1.692272085345129E-6    9.156336304062851E-1   -4.000725253193356E-1
 3.191412761714855E8     9.133069060989186E-1   -4.072625571222205E-1    6.879031817723920E-7    1.655777213065947E-6   -1.714805151368353E-5   -1.241275677186501E-5    9.097053838497494E-1   -4.118823980014689E-1
 3.291113160518445E8     9.075808001758112E-1   -4.199886217997383E-1   -6.769120374343190E-6   -3.973077781279083E-7   -3.692543649496943E-6   -1.290111153050340E-5    9.034158138826460E-1   -4.244280116318469E-1
 3.390813559322034E8     9.018386532545324E-1   -4.326660949707788E-1    9.644128857395350E-7    4.719386093250363E-7   -6.470145906651065E-6   -7.526522915766851E-6    8.968046493307646E-1   -4.368882344029650E-1
 3.490513958125623E8     8.965572323675893E-1   -4.452618217280302E-1   -1.104879424128287E-5    2.719183006641370E-6    1.247187488525672E-6   -2.478408041526927E-7    8.904531881606690E-1   -4.493521082080328E-1
 3.590214356929212E8     8.913182657062630E-1   -4.577620413770868E-1   -1.025282834018953E-5    6.083869178898242E-6   -7.938791050314578E-6    1.198804778096401E-5    8.845652318590133E-1   -4.621143709422699E-1
 3.689914755732802E8     8.860092057738864E-1   -4.700635621535275E-1    3.413676691288284E-6    4.703248774140385E-6    3.445262903486967E-6   -1.057052845002594E-5    8.789962599579233E-1   -4.747541260411910E-1
 3.789615154536391E8     8.798039553183264E-1   -4.812833158331636E-1    5.996937091256908E-6    1.820927503980911E-6   -7.680828369909907E-6    3.472492321674916E-6    8.737731093453075E-1   -4.868340574610918E-1
 3.889315553339980E8     8.740593416417506E-1   -4.919371309561790E-1    5.210945998905999E-6   -6.501574681586670E-8   -7.497557677255922E-6    4.737667744988937E-7    8.677332354637503E-1   -4.988429719170843E-1
 3.989015952143569E8     8.673326983850533E-1   -5.026339463791638E-1    6.775374678478366E-6   -1.764163518470300E-6   -1.225153213966081E-6    4.340323376388113E-6    8.610630626656224E-1   -5.096957552798278E-1
 4.088716350947158E8     8.601646200640258E-1   -5.135196243619088E-1    1.740456610511159E-6    2.560484557057992E-8    9.383813791728398E-6    1.293893648788883E-5    8.541882783848355E-1   -5.206961893737851E-1
 4.188416749750748E8     8.532595786228623E-1   -5.250361594811646E-1   -1.482650902861206E-5   -8.776470137455986E-6    1.724947183111345E-5    1.714333696656750E-5    8.474731410167272E-1   -5.314107072479177E-1
 4.288117148554337E8     8.460592907254367E-1   -5.367358881955897E-1    7.776526663188963E-6    1.310665279847455E-6   -1.387718444896997E-6    1.256256104847668E-5    8.405504648013220E-1   -5.419006791313578E-1
 4.387817547357926E8     8.381839771077089E-1   -5.480663429658263E-1   -1.822709926901158E-6   -8.053483446304965E-6    6.692018207678021E-6    1.796654995683636E-5    8.326168241908245E-1   -5.523109793014273E-1
 4.487517946161516E8     8.305239272535214E-1   -5.600438578140378E-1    1.050972250808786E-5   -1.729707036811778E-5   -5.778702000505070E-7   -6.594952334063356E-6    8.241456724223860E-1   -5.633961836848204E-1
 4.587218344965104E8     8.235816114826578E-1   -5.718949801959513E-1    1.409388104585363E-6    7.400166139459025E-6    1.147170102582610E-5   -3.028268514299029E-6    8.158956899928743E-1   -5.751887239689830E-1
 4.686918743768694E8     8.170570726199523E-1   -5.834401241951933E-1    2.566971337628652E-6   -5.726835314621748E-6   -1.180437092202693E-5    8.490130706812402E-6    8.078169926968239E-1   -5.867869809032530E-1
 4.786619142572283E8     8.098184611846114E-1   -5.942474076436181E-1   -6.108661012840803E-6    1.513803754545876E-6    3.155195748843243E-6   -4.214783515731218E-7    7.993104696562908E-1   -5.981047855648127E-1
 4.886319541375872E8     8.022654495178618E-1   -6.045936201324468E-1   -5.963430463987465E-6    5.156984260560313E-6    3.324265567831895E-6    8.438336671935537E-6    7.903851705995142E-1   -6.088329754368931E-1
 4.986019940179462E8     7.940397421875469E-1   -6.153076478302590E-1    9.129002546795923E-6   -1.033159279916920E-6    5.718211625240244E-8    1.254613277493439E-5    7.822381991773926E-1   -6.197098590867887E-1
 5.085720338983051E8     7.855849103786785E-1   -6.244848503917265E-1   -1.502035048762291E-5   -7.002463770760389E-6    9.120265080327865E-6    5.506666918150828E-6    7.746288318723837E-1   -6.302876398140291E-1
 5.185420737786640E8     7.782168761989489E-1   -6.335509670191576E-1    1.103042374080187E-6    8.864605324881623E-6    2.978007030046348E-6    2.528012857555697E-6    7.669247488490547E-1   -6.400014605580379E-1
 5.285121136590229E8     7.699928405217707E-1   -6.430863169270251E-1    1.313671083776278E-6    1.476259310888262E-6   -3.205076046792740E-6   -2.267118372379555E-5    7.587946928894025E-1   -6.496549435356136E-1
 5.384821535393819E8     7.613821856167109E-1   -6.531087279712648E-1    6.445922256599070E-7    1.723594109155805E-5   -9.583353219596002E-6   -6.556368825254788E-7    7.507774849442144E-1   -6.593176549767217E-1
 5.484521934197408E8     7.532607006554543E-1   -6.636991684269419E-1   -5.735250183375581E-6   -2.812072879548802E-6    1.524884766713817E-5    8.547388692452486E-6    7.424362791693722E-1   -6.692621294001215E-1
 5.584222333000997E8     7.447416200790777E-1   -6.745869191657748E-1   -4.960326833771943E-6    7.567948880849126E-7   -1.672519708291817E-5   -1.738188163844868E-5    7.333108428004067E-1   -6.792348544073110E-1
 5.683922731804587E8     7.356626711485205E-1   -6.850798326030689E-1    1.073907197775850E-5    2.484902029180711E-6    4.703661798831670E-6   -5.224314809910488E-6    7.231136251936963E-1   -6.892189064092680E-1
 5.783623130608176E8     7.263551237649016E-1   -6.950369506013642E-1   -9.433877281358732E-6   -5.952692378499449E-6    3.898591664560942E-6    8.429723614839779E-6    7.125704589909795E-1   -6.989109219011476E-1
 5.883323529411764E8     7.171031218134672E-1   -7.052006709578176E-1   -3.438370615681935E-6   -7.529777420810710E-6   -3.440216357259914E-6   -1.628518364872448E-5    7.021356373384298E-1   -7.086201075356939E-1
 5.983023928215353E8     7.078436139339105E-1   -7.150958783101442E-1    3.391732902293938E-6    9.606464574043795E-6    4.730625080094301E-6   -1.339779194436794E-5    6.918400062319069E-1   -7.183217714134533E-1
 6.082724327018943E8     6.984148955267016E-1   -7.249298680361702E-1    2.032866243592186E-5   -3.688626829677410E-6    4.943544839866456E-6    1.622137221082129E-6    6.816049491155902E-1   -7.277471539034958E-1
 6.182424725822532E8     6.886530655363038E-1   -7.346269560382801E-1    6.744995591159751E-6   -2.910653386129296E-6   -1.142546609596060E-5    1.426146929238859E-5    6.716634236393868E-1   -7.372130965182103E-1
 6.282125124626122E8     6.781038769690760E-1   -7.440151402672636E-1    9.637405631046853E-7   -3.889236928627209E-6   -1.263662688143200E-5   -1.167013885714254E-6    6.626177210285412E-1   -7.468046353441951E-1
 6.381825523429711E8     6.684066402819856E-1   -7.511525751505604E-1   -1.434475844197218E-5   -7.101950279576373E-6   -9.984932619202695E-6   -4.928189330377558E-6    6.537379385727073E-1   -7.557474314645379E-1
 6.481525922233300E8     6.593746963603747E-1   -7.596366177448991E-1   -9.303002514245491E-7   -6.858825204752829E-6    5.875515309465366E-6    5.458944954036531E-6    6.445287057203165E-1   -7.640754049875170E-1
 6.581226321036890E8     6.496968652844232E-1   -7.685576534472800E-1    6.136897729491146E-7   -1.490156395385818E-6    8.181213893744461E-6   -1.770963028575415E-5    6.344968926698082E-1   -7.724772838233600E-1
 6.680926719840479E8     6.396818305001992E-1   -7.771516221836445E-1    9.526623756124932E-6    1.294418136965962E-6   -8.266251059152944E-6    2.862241256043082E-6    6.239083907522185E-1   -7.803822542389737E-1
 6.780627118644068E8     6.299314497615630E-1   -7.853982467872551E-1   -6.371258508436191E-6    9.601680010932634E-6    1.244676703783841E-5   -1.021883199871657E-5    6.128672841015351E-1   -7.881907227407402E-1
 6.880327517447658E8     6.196420988971958E-1   -7.938056990349914E-1   -6.897892174562295E-6    1.029001067068312E-5   -5.785658361317653E-6   -4.391782459818695E-6    6.015099829894780E-1   -7.959722795012044E-1
 6.980027916251246E8     6.086571608798357E-1   -8.018014927753682E-1    8.268064492185813E-7    2.000301282121005E-6   -9.004998037802546E-6    1.387038052157868E-5    5.899169187036576E-1   -8.035411788178375E-1
 7.079728315054835E8     5.972516253474758E-1   -8.100532051734548E-1   -5.945026114125196E-6    1.114959374063346E-5    5.178294911054556E-6    2.757492996172012E-6    5.783571839617279E-1   -8.115920060450191E-1
 7.179428713858424E8     5.860664513226316E-1   -8.187876270015400E-1    1.002406163959800E-6   -2.265290266572677E-7    9.284306076183687E-6    6.701122243686589E-6    5.672065595482507E-1   -8.200114194218966E-1
 7.279129112662014E8     5.751835965051677E-1   -8.273379727080789E-1    2.461480876273128E-6   -8.257799030050726E-6    5.230616772726426E-6   -4.530767079178344E-6    5.559451533051012E-1   -8.289308484461972E-1
 7.378829511465603E8     5.639299722157892E-1   -8.359851050440115E-1    1.989289396292962E-6    4.745812582905554E-7    2.191492232609908E-6    3.727462513957078E-7    5.446592397430052E-1   -8.373277883620979E-1
 7.478529910269192E8     5.517763589685836E-1   -8.443987185671614E-1   -2.278055430304140E-6   -1.739320851777420E-6   -8.475287471280878E-7   -7.709335530733879E-6    5.333801451177516E-1   -8.449383789466679E-1
 7.578230309072782E8     5.392561725668038E-1   -8.516087187313344E-1   -1.599756041204723E-6    1.565391090602241E-5    5.633085419770748E-6    4.358454329788166E-6    5.222645486175956E-1   -8.518829232127599E-1
 7.677930707876371E8     5.288184987277575E-1   -8.570657547451472E-1    1.770627445610167E-5   -8.946491392008156E-6   -1.361549590037071E-6    3.784198110819899E-6    5.110064484146191E-1   -8.583261693402038E-1
 7.777631106679960E8     5.193100270884042E-1   -8.640473249078385E-1   -1.408890909108957E-5    2.882460965517483E-6    6.251801424044646E-6   -1.921723821744640E-5    4.993968288486417E-1   -8.648314045113683E-1
 7.877331505483550E8     5.088503874327942E-1   -8.708825032144143E-1   -1.897248348267124E-6    3.557564980614664E-6   -5.699715137120533E-6   -2.284709869532873E-6    4.876402253320375E-1   -8.713878308168107E-1
 7.977031904287138E8     4.976121314887398E-1   -8.772285996679569E-1   -5.955083612666571E-6   -6.666319572699899E-7    9.337222433265255E-6    1.465083480338027E-5    4.748274957689116E-1   -8.779310618585365E-1
 8.076732303090727E8     4.858807693168655E-1   -8.831413819763501E-1    3.399234679046869E-6   -3.306455908916035E-6   -1.279842380649995E-5    4.800200827975490E-6    4.620496786166475E-1   -8.840392898091213E-1
 8.176432701894317E8     4.739370340630887E-1   -8.891987539611567E-1    3.509182669301525E-6   -5.557039556160892E-6    1.314447513507213E-5   -1.238683706563630E-5    4.491936280647886E-1   -8.902814632263190E-1
 8.276133100697906E8     4.615602551311905E-1   -8.957584009908593E-1    7.002781102485855E-6    1.842203291498026E-6    9.463800030495157E-6   -8.871306125872639E-6    4.365513611169494E-1   -8.970272977103201E-1
 8.375833499501495E8     4.489961343955792E-1   -9.020684946127324E-1   -1.035347587182014E-6   -4.773653148418274E-7   -5.690645847720940E-6   -2.378974042071397E-6    4.243745079539218E-1   -9.036311959197045E-1
 8.475533898305085E8     4.361001955025193E-1   -9.083902787437110E-1    2.998254689440019E-6   -1.201818858979968E-5   -3.825053168479263E-6   -1.364036380738220E-5    4.125493486035734E-1   -9.098156547315013E-1
 8.575234297108674E8     4.234074747502531E-1   -9.146875801221149E-1   -4.766764842894458E-6    5.026602631448917E-8   -5.899649346738244E-6   -5.944947148923156E-6    4.007600356655124E-1   -9.151131513127343E-1
 8.674934695912263E8     4.106013635950047E-1   -9.215124679293242E-1    8.214342519446901E-6    6.722313097158419E-6   -5.069450532627107E-6    8.647201963994492E-6    3.886725097668667E-1   -9.199388293649244E-1
 8.774635094715853E8     3.975137642162447E-1   -9.281146635539419E-1    8.636706824156855E-6   -4.215461679493551E-6    1.117764071144548E-5    1.715509405695855E-5    3.760334284606627E-1   -9.245521872672353E-1
 8.874335493519442E8     3.843913364199447E-1   -9.327107667679990E-1   -1.295708381708046E-5    2.621551105399475E-6    8.659709854713479E-7    1.615310381533170E-5    3.629728365146432E-1   -9.290406227120982E-1
 8.974035892323031E8     3.730740705291223E-1   -9.362685687807905E-1   -1.091493591260304E-5   -1.609362917935916E-6    2.447285789050519E-6    1.585351126531216E-6    3.495716806858930E-1   -9.335716241161245E-1
