#  HZ   S   RI   R     50.00 
! Rohde & Schwarz Vector Network Analyzer 
! Rohde-Schwarz,ZNB20-2Port,1311601062102128,3.60
! Created: UTC 4/29/2024, 2:58:53 PM
! freq[Hz]                re:S11                  im:S11                  re:S21                  im:S21                  re:S12                  im:S12                  re:S22                  im:S22
 1.000000000000000E5     9.963015175772868E-1    3.681440275912891E-3   -1.387382472687100E-4   -4.154935675952607E-5    1.578013315006529E-4    1.659102382844954E-4    1.010687758649885      -1.145403634187973E-2
 1.007003988035892E7     9.974755203161720E-1   -1.380946676368882E-2   -2.513866083733676E-6    4.895842859009383E-6    5.695442572836770E-8    8.782478062160105E-6    9.959930775840922E-1   -1.454483381275146E-2
 2.004007976071785E7     9.997498334303347E-1   -2.720399106583030E-2   -5.643912595230886E-6   -1.846346304366628E-5   -1.725178623217207E-5    2.293409837003892E-5    9.986914452276430E-1   -2.771844682844157E-2
 3.001011964107677E7     9.978722887736091E-1   -4.108740030596202E-2   -1.216459739991597E-6   -1.463796074078119E-5   -9.512656486823659E-6    3.235750055261724E-6    9.974876956704752E-1   -4.206389739145706E-2
 3.998015952143569E7     9.976506878000276E-1   -5.306881591984858E-2    1.307670807170955E-5   -1.090969081982553E-5    1.154012013192558E-6    1.470543594375705E-5    9.975432439620356E-1   -5.674434770411040E-2
 4.995019940179461E7     9.961485368474748E-1   -6.606295436667584E-2   -4.998519792463951E-6    1.487553165376192E-6   -5.997896379522311E-7   -3.884387410790662E-6    9.964887244871842E-1   -6.910570068188381E-2
 5.992023928215354E7     9.942705489994189E-1   -7.874151704936730E-2   -1.628505347685251E-5   -4.268553546078474E-7   -3.312608721464217E-6   -5.343331003959887E-6    9.947227966656765E-1   -8.194167215089168E-2
 6.989027916251247E7     9.931376800340929E-1   -9.174637833787322E-2   -3.952775275693118E-6    1.008224618196845E-5    1.314821394750875E-6    9.916266261886825E-6    9.934297035442825E-1   -9.469665623088172E-2
 7.986031904287139E7     9.923799353062084E-1   -1.052327703494471E-1   -8.903843054274643E-6    2.922083269950300E-6    1.954149477965115E-5   -2.145102307060050E-6    9.923669354111493E-1   -1.079411007888995E-1
 8.983035892323031E7     9.913634497061016E-1   -1.187403744009922E-1   -1.389792672511375E-5   -1.545510422828519E-6   -9.081411700243605E-6   -8.291179542228906E-6    9.908378028156939E-1   -1.209926814519506E-1
 9.980039880358922E7     9.893330623082854E-1   -1.322593044239776E-1   -5.091054649763385E-7    9.700861013078826E-6   -1.915846476620366E-5   -4.698088104215434E-6    9.886653032618506E-1   -1.344246463527251E-1
 1.097704386839482E8     9.866462261283127E-1   -1.455055258092240E-1   -9.209484926095504E-6    2.253714577483716E-5    2.114189848153750E-6    2.200606125873469E-6    9.860657515502138E-1   -1.478154917056552E-1
 1.197404785643071E8     9.848679188844596E-1   -1.588948671988927E-1    1.297724432422601E-6   -3.355988111357373E-6    1.722231214567637E-6    3.068274086209483E-6    9.842559120801844E-1   -1.611915100085800E-1
 1.297105184446660E8     9.829475050195049E-1   -1.716805530879190E-1   -9.045945457220541E-7   -2.747205773341261E-6   -2.476124214555818E-6   -7.227812898782529E-6    9.827784642918098E-1   -1.744445623662109E-1
 1.396805583250249E8     9.815939281934088E-1   -1.846627205879371E-1   -4.481646972968503E-6   -1.093648583036685E-6    1.457812397711679E-5   -4.134092834423351E-6    9.807819995365504E-1   -1.874953418716552E-1
 1.496505982053838E8     9.788451658245692E-1   -1.970997848941798E-1   -1.037368454980058E-5    1.925294149763605E-6    1.164463054959502E-5   -8.848591921521999E-7    9.784665337737599E-1   -2.004764760416884E-1
 1.596206380857428E8     9.761417702690692E-1   -2.094706263760377E-1    5.831333971392723E-6    4.481801062613115E-7   -5.554474143154286E-8    9.234067184456010E-6    9.758250630969966E-1   -2.132799563228371E-1
 1.695906779661017E8     9.731388926556708E-1   -2.222655474065714E-1    6.662303407389622E-6   -1.405364213933013E-7    6.865828489592461E-7    2.696794574667974E-6    9.729072586878137E-1   -2.262108354261404E-1
 1.795607178464606E8     9.706930909329436E-1   -2.346931608824803E-1   -1.141614134799325E-5    1.444941722759552E-5   -1.100394492692269E-5    5.109275780266410E-9    9.701041783200332E-1   -2.379563567437838E-1
 1.895307577268195E8     9.676104807018840E-1   -2.469394985364359E-1   -1.343256640166382E-5    6.563280778796848E-6    3.768758193296005E-6    6.100649629046437E-6    9.668071389578924E-1   -2.505510015878997E-1
 1.995007976071784E8     9.638079515002710E-1   -2.593765556530661E-1   -8.506665029010933E-7   -5.688040216926811E-6   -1.231335413700089E-5    1.704376339663403E-5    9.627980258564175E-1   -2.632616005854723E-1
 2.094708374875374E8     9.604219624510044E-1   -2.722861074625549E-1   -1.046936380443820E-5   -3.197339773838976E-6    1.043406402221351E-5   -3.274209074273743E-6    9.587691963395385E-1   -2.760665680366760E-1
 2.194408773678963E8     9.572639019595807E-1   -2.851182614454106E-1   -6.674654512116332E-6   -7.433276772087045E-6   -1.867038783155017E-5    8.299178402970405E-6    9.550715558080495E-1   -2.890574811685933E-1
 2.294109172482552E8     9.535638569030623E-1   -2.972871688739258E-1   -8.458200663984707E-6    2.091496748505393E-6   -5.838118251221332E-6    4.932587365865314E-6    9.509185969885499E-1   -3.017472234115705E-1
 2.393809571286142E8     9.505386602477081E-1   -3.094034213927315E-1    3.141964774497231E-6   -1.311859354733390E-7   -7.521573851145440E-6   -4.700616757882769E-6    9.471056312927714E-1   -3.139866928265300E-1
 2.493509970089731E8     9.469505481705397E-1   -3.232643528705418E-1   -4.763434537628311E-6   -1.662651076348873E-5   -2.417611050061879E-6   -7.821926196304024E-6    9.441414099890956E-1   -3.275964057149179E-1
 2.593210368893320E8     9.426432606191435E-1   -3.353315302728080E-1    7.876686885129494E-6    8.016214429699209E-6   -4.847392554592525E-7    1.260879574209936E-6    9.397822608121451E-1   -3.408296262426749E-1
 2.692910767696909E8     9.384751490917074E-1   -3.467146028105376E-1   -8.953527666904881E-6    1.233775144703973E-7    1.034522852254565E-5    5.321119485474124E-6    9.354630443880385E-1   -3.528293333420239E-1
 2.792611166500499E8     9.338087780715082E-1   -3.584075823744582E-1    9.410073070832479E-6   -5.905888539507389E-6    5.826179081946299E-6    4.468753400405303E-6    9.310416232367587E-1   -3.647875907928264E-1
 2.892311565304088E8     9.289658753304748E-1   -3.704471622864107E-1    7.281332004252900E-6    4.621449824222010E-6    1.555729823579662E-8   -1.860505215321482E-5    9.261649420249108E-1   -3.768494654928106E-1
 2.992011964107677E8     9.240974994629020E-1   -3.826385322369515E-1    6.802963653512714E-6    8.117663260631185E-6   -1.766291536774547E-7    1.448580879445238E-5    9.210743515939117E-1   -3.887035303977597E-1
 3.091712362911266E8     9.188739979501217E-1   -3.948550983387785E-1    9.058648737221639E-6   -1.425174714600669E-5    1.916582292587213E-5   -1.486371849065818E-5    9.157414631534897E-1   -4.002994885245907E-1
 3.191412761714855E8     9.132670935373021E-1   -4.072045004341244E-1   -1.577884802981393E-5   -5.986419642567946E-6    1.373746823181922E-6   -5.929782501386116E-9    9.097990309156232E-1   -4.119892263593971E-1
 3.291113160518445E8     9.076104882772638E-1   -4.199417676307808E-1    1.437819489317796E-7    9.946451398156547E-6    1.068320025820897E-5    1.455741672964133E-6    9.034426274435939E-1   -4.243476263131013E-1
 3.390813559322034E8     9.018914793516618E-1   -4.327653340160718E-1   -1.341550841535817E-5    3.271464522785890E-6    3.061677767654898E-6    1.018428520985091E-6    8.967057610336170E-1   -4.368779567099416E-1
 3.490513958125623E8     8.966960624601741E-1   -4.453024067290942E-1   -2.382130603255032E-6   -7.103668684979220E-6   -1.503088946043536E-5   -9.104541932900171E-6    8.905048965630694E-1   -4.493763958291841E-1
 3.590214356929212E8     8.912062052436535E-1   -4.577627404796846E-1    1.653679697506432E-5   -1.973631702100919E-8    1.793625089298953E-6   -1.046534111393539E-5    8.845916899279678E-1   -4.621614315026522E-1
 3.689914755732802E8     8.858893837576999E-1   -4.699515937748414E-1   -7.067161712090863E-6    2.047966652330744E-6   -3.979260125186044E-6   -2.465671887566627E-6    8.791015410809360E-1   -4.747782877817582E-1
 3.789615154536391E8     8.798042022218442E-1   -4.811837787175572E-1    1.787748229793800E-5    5.762034833907949E-6    1.203362861218615E-5   -1.247598075965508E-5    8.737827046052195E-1   -4.867904748766709E-1
 3.889315553339980E8     8.741017116136858E-1   -4.919204433565122E-1   -1.901513188245419E-6    8.116080755332246E-7   -3.669335350921100E-6    1.409417110717406E-5    8.678934720630413E-1   -4.988360941416158E-1
 3.989015952143569E8     8.674453604440082E-1   -5.026329374122649E-1   -9.535259675869782E-6   -1.210847367818687E-5    2.923431835326924E-6    1.699207511530295E-7    8.611098818160894E-1   -5.097276378580354E-1
 4.088716350947158E8     8.602038474037433E-1   -5.135812004863788E-1    7.332757012851636E-6    3.107712641593188E-6   -1.225960290894221E-5   -3.331919060534699E-6    8.543126649567885E-1   -5.207445163876301E-1
 4.188416749750748E8     8.532675968412247E-1   -5.249910774776226E-1    1.575342639366206E-6    4.521375165598784E-6   -9.991956997962116E-6    2.679606830125624E-5    8.474846248289757E-1   -5.314531776360348E-1
 4.288117148554337E8     8.459918770038738E-1   -5.367110811425295E-1    3.456588929635118E-6   -6.622229692942940E-6    1.390560679852184E-5    3.546173825007990E-7    8.405866418706406E-1   -5.418598044745289E-1
 4.387817547357926E8     8.382160542161605E-1   -5.481142653793977E-1   -3.006502507145919E-6    1.456735842028244E-5    8.988230114844457E-6   -3.338719445442003E-6    8.326564302496916E-1   -5.523558645052163E-1
 4.487517946161516E8     8.305365011498507E-1   -5.600806759174755E-1    8.885470399869510E-6    5.025273723107181E-6    1.273474207048453E-5    2.438983212605845E-6    8.242360753052210E-1   -5.634705215579753E-1
 4.587218344965104E8     8.236442698620533E-1   -5.719673857987084E-1    6.006920967800412E-6    2.131312816651191E-6   -4.954002640459554E-6    7.877341814160190E-7    8.159580289383054E-1   -5.752946370801502E-1
 4.686918743768694E8     8.170845413886306E-1   -5.833559777198566E-1   -8.575153380698445E-6    4.426736236373138E-6    1.557951072562179E-5   -1.202275270112006E-5    8.078408823160032E-1   -5.868596345909384E-1
 4.786619142572283E8     8.098717738701481E-1   -5.942014047628995E-1    3.571799119688554E-6   -1.773641211538664E-6   -4.983305004044629E-6    1.369907830548778E-5    7.992778278893927E-1   -5.980213138120946E-1
 4.886319541375872E8     8.023066411362541E-1   -6.046058698403891E-1    1.313816703627240E-5    7.775375694063227E-7    4.224588493753178E-6   -1.285005791460669E-5    7.904428763268605E-1   -6.088282365628467E-1
 4.986019940179462E8     7.939713195655165E-1   -6.153065948475518E-1    7.150859630282514E-6    2.012136728521644E-6   -3.304361503583560E-7   -4.428838431591418E-6    7.822416165571385E-1   -6.197321793797393E-1
 5.085720338983051E8     7.857015072290728E-1   -6.244366035852048E-1   -3.662382673693714E-6    1.284475652138226E-5    8.983242066047251E-6    7.462308961941100E-6    7.746022452217511E-1   -6.303421140160511E-1
 5.185420737786640E8     7.783392530520138E-1   -6.335306860755873E-1    4.247617607647955E-6    6.750208203127447E-7   -4.290021014542037E-7   -2.711649548012117E-6    7.669843287144623E-1   -6.402511153042076E-1
 5.285121136590229E8     7.700624655589975E-1   -6.430026151441589E-1   -5.715263896011975E-6   -4.054622450309331E-6    2.583689554064363E-6   -8.722665163961083E-8    7.589980855614098E-1   -6.497445901258898E-1
 5.384821535393819E8     7.613969675464820E-1   -6.530254862924358E-1   -1.329704457854508E-5   -3.266595427171961E-6    1.037202841067138E-5   -5.975492186152347E-6    7.507740206695385E-1   -6.593909524871157E-1
 5.484521934197408E8     7.533359611436933E-1   -6.637781745931572E-1   -8.902642487871745E-6   -1.446251601415651E-5   -3.585859654236679E-6   -2.735900625997618E-6    7.424277046321588E-1   -6.692719173997130E-1
 5.584222333000997E8     7.448148451975672E-1   -6.746392316325953E-1   -1.221857638675627E-5    6.029068479619254E-6    4.145584224908282E-6    1.191115428838780E-5    7.332754689901109E-1   -6.792589191399494E-1
 5.683922731804587E8     7.356138202916525E-1   -6.850477857903545E-1    7.642398483811487E-6    1.654937912496349E-5    4.418993271777050E-6    2.198113998399749E-5    7.230568585234438E-1   -6.891870230917299E-1
 5.783623130608176E8     7.262923169703833E-1   -6.951021987045201E-1   -1.213727582002254E-5   -3.325873345218812E-6    1.686264612278271E-5   -2.776752068082809E-6    7.126462564357611E-1   -6.988947039353138E-1
 5.883323529411764E8     7.171012412311237E-1   -7.050293466769806E-1    2.587172842098303E-6   -7.711427269950045E-6    4.486997372003661E-6   -1.013815136686437E-5    7.022063786190362E-1   -7.086775835369440E-1
 5.983023928215353E8     7.079043882773336E-1   -7.151662048903988E-1    8.938843757505948E-6   -3.809612862424323E-6    8.094750245600753E-6   -3.319097968170717E-6    6.919047003914033E-1   -7.183430532601334E-1
 6.082724327018943E8     6.985105595730770E-1   -7.250225640044029E-1    1.157864417180004E-5    5.708027981019599E-6    4.135369592513257E-6    1.543623588219204E-5    6.816590957720248E-1   -7.278232825993376E-1
 6.182424725822532E8     6.886551510795963E-1   -7.346616959711093E-1   -6.685691288401129E-6    1.721392447389792E-6    3.573109388012648E-6   -3.335032562612241E-6    6.718022442066766E-1   -7.373029053822990E-1
 6.282125124626122E8     6.779959859644734E-1   -7.438952849970688E-1    1.426368471776360E-5    4.481249059018039E-6    8.373965763937533E-7    1.013627834106855E-5    6.627669756889891E-1   -7.468970039676847E-1
 6.381825523429711E8     6.682632830178475E-1   -7.509753437503165E-1    9.772097782864141E-6   -6.593161354759745E-6    5.798509158382750E-6   -1.248551562665548E-5    6.536137188112356E-1   -7.556653766326709E-1
 6.481525922233300E8     6.593386887005269E-1   -7.595530754515916E-1    4.218641063117899E-6    1.676561838809792E-5    1.824927465952012E-7    9.457624924810852E-7    6.445429556209015E-1   -7.641364178394249E-1
 6.581226321036890E8     6.496565419259288E-1   -7.685207615686781E-1   -5.982506258145558E-7    1.214436129483452E-5    1.691387091358122E-5    4.310679508396049E-6    6.344835027997333E-1   -7.724692988356158E-1
 6.680926719840479E8     6.397229320139545E-1   -7.771927656277871E-1    1.565210870841939E-5   -9.352264234686197E-6   -1.726918385855846E-6   -9.936783219887096E-6    6.239323687316211E-1   -7.805530425058440E-1
 6.780627118644068E8     6.299124917248341E-1   -7.853778125392141E-1   -5.346296424017499E-6   -1.016006232685382E-5    9.632479156646655E-6    9.428371800838760E-6    6.128637377961892E-1   -7.883316123580016E-1
 6.880327517447658E8     6.196399780440943E-1   -7.936747887988843E-1   -5.712558373870454E-6    5.714567857152644E-6    2.109519116604658E-5   -3.337063866490130E-6    6.015275600838509E-1   -7.959114120202715E-1
 6.980027916251246E8     6.086208009050732E-1   -8.017297312275291E-1   -1.154172567839277E-5   -7.157809969258118E-6    8.986667138578469E-6    1.032387711145974E-5    5.899797558122392E-1   -8.037096515048362E-1
 7.079728315054835E8     5.973835288164905E-1   -8.102144695685847E-1   -8.208154252880908E-6   -5.957984260696040E-6    8.859478473747740E-6   -1.257707422109687E-5    5.784877144289355E-1   -8.116703269676109E-1
 7.179428713858424E8     5.861436586634909E-1   -8.187944821049782E-1    2.784209254281204E-6    1.409430505739092E-5    2.489944014489840E-6    6.843652624973841E-6    5.672718553552069E-1   -8.202838925415429E-1
 7.279129112662014E8     5.751966128100500E-1   -8.272111715806512E-1   -5.008222253897968E-6   -2.283437976962500E-6   -6.518886442401103E-6   -1.519547687961417E-5    5.559182366096851E-1   -8.288585334740406E-1
 7.378829511465603E8     5.637776906967481E-1   -8.358957903431173E-1   -2.965889743223435E-6    1.292661520990335E-5    9.623242950315016E-6    2.221223817510796E-5    5.445260283497342E-1   -8.373090988323655E-1
 7.478529910269192E8     5.518674217191674E-1   -8.444739264502202E-1   -7.743558966644618E-6   -4.639455997871141E-6    7.001990308878939E-6    5.370902946179237E-6    5.334249975726626E-1   -8.449990752572136E-1
 7.578230309072782E8     5.392332773918022E-1   -8.516378550979822E-1   -6.117952724548873E-6   -6.848695499728458E-6   -9.257328135524083E-6    1.222385941363243E-5    5.223186703697816E-1   -8.519951520411686E-1
 7.677930707876371E8     5.288713794961498E-1   -8.569943683575348E-1    3.702616418776854E-6    1.591414878822820E-6   -5.121821293384174E-6    1.324359347730991E-6    5.109936421088807E-1   -8.583138582696780E-1
 7.777631106679960E8     5.192764094796332E-1   -8.638680212920293E-1   -6.773550926393533E-6    6.243039651302695E-6    2.778414874689112E-6    3.657617495297474E-6    4.995144826433009E-1   -8.648729058168878E-1
 7.877331505483550E8     5.089068602130802E-1   -8.708718599956542E-1   -6.651038014822568E-6    7.759545949113954E-6    2.196210478980093E-6   -4.484007848315457E-6    4.875976126608718E-1   -8.713862144679829E-1
 7.977031904287138E8     4.976374835210445E-1   -8.771904140395884E-1    1.199817026219325E-5    8.929267825410191E-6   -1.028873803131417E-5   -2.821890024903239E-7    4.749369708004033E-1   -8.780734741775738E-1
 8.076732303090727E8     4.859708835537637E-1   -8.831087695948033E-1    1.914132365458634E-5    1.023460167713210E-5    8.623854291899073E-8   -9.827538204318969E-7    4.620742151514838E-1   -8.841316470787853E-1
 8.176432701894317E8     4.739103560414384E-1   -8.891642185689097E-1    7.095773543967796E-6    3.169089837051086E-6    1.635457723877092E-6    1.767505322967567E-5    4.491296008328555E-1   -8.904659625007203E-1
 8.276133100697906E8     4.615826675265465E-1   -8.955724235400566E-1   -7.241196051030571E-6   -5.721732799945140E-6   -6.351525121988487E-7    1.099883558062007E-5    4.365000801513811E-1   -8.970906418412100E-1
 8.375833499501495E8     4.489048996385793E-1   -9.019415686667325E-1   -7.603189903324798E-6    6.910031795124133E-6   -1.338821592591915E-5   -7.246060828108250E-6    4.242458153352442E-1   -9.036954485984185E-1
 8.475533898305085E8     4.361448498427299E-1   -9.084343145066678E-1   -1.084536309255547E-5   -3.161035917647868E-6   -2.635989124511392E-6   -7.237134349241786E-6    4.125019902871529E-1   -9.097516711728491E-1
 8.575234297108674E8     4.234399327095619E-1   -9.148047052816264E-1    5.941675458849603E-6    3.476011036565594E-6    5.337492097537765E-6    7.676065569791508E-6    4.008671540029919E-1   -9.152620998533658E-1
 8.674934695912263E8     4.105966939110338E-1   -9.214497031803573E-1    1.800972173008750E-6   -7.003308005869662E-6   -9.385114905124762E-6    7.741474700336493E-6    3.887692418385337E-1   -9.201295213026751E-1
 8.774635094715853E8     3.975356442744674E-1   -9.280323179422700E-1    2.224060548843316E-5    1.208120834887395E-6   -2.479688477888791E-5   -1.050749241265003E-5    3.761129015416038E-1   -9.246655934083989E-1
 8.874335493519442E8     3.843968416373108E-1   -9.325474137805626E-1   -9.669382765355251E-6   -8.424630038162991E-6    7.834562458204332E-6   -1.193425231874359E-6    3.630045056899688E-1   -9.290741378067638E-1
 8.974035892323031E8     3.730396675915726E-1   -9.362046682665396E-1    1.405644444347772E-6    4.431107704594226E-6    6.413166224254800E-6   -6.557789763914898E-7    3.495712202497485E-1   -9.334655906177928E-1
