#  HZ   S   RI   R     50.00 
! Rohde & Schwarz Vector Network Analyzer 
! Rohde-Schwarz,ZNB20-2Port,1311601062102128,3.60
! Created: UTC 4/29/2024, 2:58:41 PM
! freq[Hz]                re:S11                  im:S11                  re:S21                  im:S21                  re:S12                  im:S12                  re:S22                  im:S22
 1.000000000000000E5     9.958885040041541E-1    3.761321576495202E-3   -1.056415924523072E-4    1.015152817421395E-4   -5.804904580405104E-5   -3.055310115190513E-5    1.010417536255819      -1.138511515429145E-2
 1.007003988035892E7     9.982888768583141E-1   -1.379835657048689E-2   -1.916057171697718E-5    1.049531004529749E-5   -2.920855720933824E-6    1.258898419172908E-5    9.957766810974149E-1   -1.451091609015509E-2
 2.004007976071785E7     9.997982997064128E-1   -2.717307870145733E-2    2.360527844423959E-5    8.072766689483691E-6    2.712089029303955E-5    2.082409433502190E-5    9.988541765662474E-1   -2.768513249693544E-2
 3.001011964107677E7     9.981430723143591E-1   -4.099567739113105E-2   -1.902876173754850E-5    3.622922609350950E-6    8.819636641911997E-6   -3.306961687795256E-6    9.976489680362425E-1   -4.201805577910681E-2
 3.998015952143569E7     9.976267268026759E-1   -5.312367865000950E-2   -4.838367242394326E-6   -4.407214472547795E-7   -1.156517248658142E-5    2.014517705245564E-6    9.977098251062698E-1   -5.660341928629300E-2
 4.995019940179461E7     9.958648397305422E-1   -6.600820421519718E-2   -1.258465203480734E-5   -9.868381758127356E-6    5.226111372030056E-6    1.120384086566129E-5    9.964821842876220E-1   -6.906792440067129E-2
 5.992023928215354E7     9.940155432583762E-1   -7.879591928024376E-2   -1.212342045275699E-5   -1.417901012903984E-6    1.069445287829713E-5    1.020605158077997E-5    9.946687896095823E-1   -8.200520544736539E-2
 6.989027916251247E7     9.931873350581810E-1   -9.175342028198256E-2    1.198731352886024E-5    8.566442096816867E-6   -2.180246742124227E-6    1.716976781109988E-5    9.935119831228971E-1   -9.480767917419176E-2
 7.986031904287139E7     9.927266355515600E-1   -1.052142892670377E-1    8.809742875034577E-6    1.724657661761078E-6   -9.942505621606547E-6   -1.492493551771079E-6    9.925087508602071E-1   -1.078888820464141E-1
 8.983035892323031E7     9.915776674660992E-1   -1.188385577659540E-1   -9.831500409814022E-6    1.137314368308328E-5    6.865453539255529E-6   -5.923676445715289E-6    9.908318234951451E-1   -1.210748443806801E-1
 9.980039880358922E7     9.891652647041045E-1   -1.323157314964215E-1    5.612039834840323E-7   -1.046798639014053E-5   -2.437033301229890E-6    2.830969982851292E-6    9.885775225999005E-1   -1.343234316699508E-1
 1.097704386839482E8     9.863803502166982E-1   -1.456049770342120E-1    1.903450898391393E-5    4.002680726348845E-7   -9.903488771449944E-6   -2.050604752536734E-6    9.861133175425116E-1   -1.478513845847607E-1
 1.197404785643071E8     9.848363130981653E-1   -1.589361177300171E-1   -6.445451737871313E-6    1.412394086804495E-5   -1.330976870756145E-6    1.097226856129450E-5    9.842563201294874E-1   -1.611441158736233E-1
 1.297105184446660E8     9.831218323003872E-1   -1.718146690260778E-1   -6.988461437990486E-6   -6.185521955750719E-7   -1.532826966808002E-6   -1.339014867071728E-8    9.828752865090578E-1   -1.744348010448203E-1
 1.396805583250249E8     9.816385285897268E-1   -1.846608968349991E-1   -1.782633565525514E-5    9.890615155467001E-6   -5.122988982177361E-6    6.068069493917259E-6    9.808117997398723E-1   -1.875394828168593E-1
 1.496505982053838E8     9.788225843573338E-1   -1.970341157553727E-1    6.505183666953716E-7    1.127794526499140E-5    3.740616465728343E-6    1.685691566569678E-5    9.785119479416146E-1   -2.004926768295081E-1
 1.596206380857428E8     9.762184723532817E-1   -2.094737471160996E-1   -4.452585791952372E-7    7.735739200300962E-6   -9.518027050229061E-7   -9.398406240309602E-7    9.757463883563813E-1   -2.133152828222528E-1
 1.695906779661017E8     9.732700082843374E-1   -2.223456823403671E-1   -5.656517527540361E-6   -6.043407841703095E-6   -6.845169267039815E-6   -1.404953287597063E-5    9.727779395121945E-1   -2.261390678177292E-1
 1.795607178464606E8     9.706420884807155E-1   -2.347936530331833E-1    2.133969370436910E-6   -1.598076581809024E-6   -1.582572627454874E-5   -1.119912610266786E-5    9.701737601403385E-1   -2.379570068543540E-1
 1.895307577268195E8     9.676223344278685E-1   -2.469531634875105E-1    7.382016764398580E-6   -2.440025980678773E-6    9.425209755266940E-6    8.524483567503104E-6    9.667420512574610E-1   -2.504693434251603E-1
 1.995007976071784E8     9.638540765326917E-1   -2.595095600857006E-1   -1.983603938340406E-6    5.646549219630517E-6    9.250897450795026E-6   -1.564094123751141E-5    9.627031773980110E-1   -2.631597764740176E-1
 2.094708374875374E8     9.605315610622429E-1   -2.723676670555179E-1    1.052430656022763E-5    1.563573732672354E-5    2.756355678712179E-6    1.758707592103457E-5    9.589585855047176E-1   -2.762412936112099E-1
 2.194408773678963E8     9.572727749170757E-1   -2.851564896868589E-1   -9.654982223175185E-6   -3.142056102616118E-6   -3.439190099910925E-6    6.046800123512257E-6    9.550919423815343E-1   -2.890869196529509E-1
 2.294109172482552E8     9.535929002267715E-1   -2.974192343563528E-1    5.001674215804564E-6    2.014445783421322E-6    4.330683764206338E-7   -1.740323114102045E-5    9.509693577512657E-1   -3.018378334200046E-1
 2.393809571286142E8     9.504819345175661E-1   -3.094158951091167E-1    7.486441289453035E-7   -3.724073550631836E-6   -1.518300987011615E-5   -1.243573017769647E-5    9.469703485457042E-1   -3.139651637848043E-1
 2.493509970089731E8     9.468454654735995E-1   -3.233337951246626E-1    2.498387179687061E-6    2.322842953564357E-6   -6.836404913023546E-6    4.381126543111993E-6    9.439552932867550E-1   -3.275586549289983E-1
 2.593210368893320E8     9.427836819699923E-1   -3.353724710017764E-1    1.186728309337512E-6    9.957872863577124E-6    4.231968878683034E-6    6.111236444764492E-6    9.397978239997533E-1   -3.408701920740944E-1
 2.692910767696909E8     9.385692963029471E-1   -3.467481244784392E-1   -3.880584456906609E-6    4.917934901585485E-6    2.784563368734840E-6   -1.731065937531664E-5    9.356258434544045E-1   -3.528603159775205E-1
 2.792611166500499E8     9.337406035256999E-1   -3.584526816159926E-1    1.026616809933409E-5   -6.507271539053054E-6    5.959576717236401E-6   -2.460032675042300E-5    9.309892834642564E-1   -3.647514237315123E-1
 2.892311565304088E8     9.289181368841094E-1   -3.704644716508557E-1    4.550185362910304E-6   -1.105887127338572E-5   -8.097415137557177E-6    1.529579373116860E-5    9.261384874708591E-1   -3.768160633109139E-1
 2.992011964107677E8     9.240597643230816E-1   -3.827160509824474E-1    4.487115257671848E-6    8.310510501774549E-6    8.116675220063637E-6   -6.418875147670323E-6    9.210889145715205E-1   -3.886918411907249E-1
 3.091712362911266E8     9.187733874191238E-1   -3.949059626814907E-1    9.290511035486312E-6   -1.510426316207986E-5    1.449428833447692E-5   -2.134491054363193E-6    9.157314725429929E-1   -4.001610544259808E-1
 3.191412761714855E8     9.133617664573458E-1   -4.072939854370876E-1   -1.599441777646477E-6    1.528218116265855E-6   -1.395269583539538E-5    9.715525121163623E-6    9.097001662395714E-1   -4.119938399779778E-1
 3.291113160518445E8     9.076194807502155E-1   -4.199610748822485E-1   -1.058831469179560E-5    2.143555251882542E-6   -3.238746738468234E-6   -1.851192270796982E-5    9.033063372766859E-1   -4.244348486029097E-1
 3.390813559322034E8     9.019752921067379E-1   -4.328238104609109E-1    6.867248075554680E-6   -4.638135259707895E-7   -3.036172906401987E-6   -1.398461093659164E-6    8.967267762298258E-1   -4.369075326798262E-1
 3.490513958125623E8     8.966527420773013E-1   -4.453346041995810E-1    5.773932607534112E-6   -7.005983780162133E-6   -1.343567476591882E-7    7.926659780747818E-6    8.905186301532927E-1   -4.494096860281444E-1
 3.590214356929212E8     8.912774138670146E-1   -4.578531559573112E-1    5.837347571752773E-6   -3.305826137208166E-6   -1.114210013696163E-5    1.053060615121328E-5    8.845947342708783E-1   -4.621345176218914E-1
 3.689914755732802E8     8.859449499287734E-1   -4.700795078598602E-1    1.078509984650385E-6   -8.419817992663232E-7   -4.606304911053682E-6   -5.402680354929760E-7    8.790108780843382E-1   -4.747683340562905E-1
 3.789615154536391E8     8.798616571937129E-1   -4.812611177942702E-1   -3.497716955561146E-6   -1.014344527358314E-5   -6.853662280919756E-7    5.274585258141514E-6    8.737418548496754E-1   -4.867586038150543E-1
 3.889315553339980E8     8.740673024073951E-1   -4.920329051184860E-1    1.124115979351348E-5   -3.664385845826556E-6    4.585696080804245E-6   -9.871170866577591E-6    8.680055640492308E-1   -4.988181839290576E-1
 3.989015952143569E8     8.673142892191618E-1   -5.026258171543475E-1   -9.158849059580992E-6   -1.188670610202860E-5    2.058533675028498E-5    3.821444757381142E-6    8.611099907382214E-1   -5.097597589716717E-1
 4.088716350947158E8     8.601424851727743E-1   -5.136035022145781E-1   -9.745978709593318E-7    7.530147535323425E-6   -1.421296157162454E-5    1.024844997642818E-5    8.541943599363091E-1   -5.206524497866254E-1
 4.188416749750748E8     8.533135107337635E-1   -5.250694429426023E-1    4.713549192454343E-6   -8.356032981993451E-6   -1.314873061127435E-5    1.061928025111121E-5    8.475719848612063E-1   -5.315167716429740E-1
 4.288117148554337E8     8.460027325152966E-1   -5.368154233312296E-1   -9.020912714253223E-6   -3.311090710886619E-6   -1.071602819468096E-5    1.261060838020215E-5    8.405196567288650E-1   -5.417839502814216E-1
 4.387817547357926E8     8.382054221083294E-1   -5.482404546034191E-1   -3.761792225378706E-6   -8.071863456131401E-6   -1.105138845859919E-6   -1.505667131596470E-5    8.325542211490649E-1   -5.523302355791463E-1
 4.487517946161516E8     8.304274480339401E-1   -5.599546496672536E-1   -1.191482150799066E-5    2.564673878623246E-6    2.564667122020224E-5    1.128213193677254E-5    8.241860164723404E-1   -5.634910718805829E-1
 4.587218344965104E8     8.235175856674845E-1   -5.719811544411565E-1   -8.372721712488395E-7   -5.945495042905041E-6    9.518795640855003E-6    5.331152368055895E-6    8.159980152443259E-1   -5.753637670359698E-1
 4.686918743768694E8     8.170086066488160E-1   -5.834466746636618E-1    1.160062131455804E-5   -1.732458647973762E-6    1.310425515142046E-7    8.011525210274856E-7    8.077624792266415E-1   -5.868261304167646E-1
 4.786619142572283E8     8.098461545316994E-1   -5.941376984465556E-1   -1.094606434506149E-5    3.833250404260047E-6    7.544750655323917E-6    8.585173014142899E-6    7.992583306125951E-1   -5.980138936649385E-1
 4.886319541375872E8     8.023326855235491E-1   -6.045467506898674E-1   -5.677107334633977E-6    1.425217605134504E-5   -1.701608118123759E-5   -6.468270318066491E-6    7.904857939535085E-1   -6.088486154899625E-1
 4.986019940179462E8     7.939589433972647E-1   -6.153487316183105E-1   -1.538773150404868E-6    7.544280945200916E-7   -6.929697288581186E-7    5.034520651405420E-6    7.823596576348485E-1   -6.197196392693936E-1
 5.085720338983051E8     7.855761604957459E-1   -6.244592171074315E-1    4.119143982493049E-6   -9.904382233539193E-6   -1.127283053445425E-6   -9.287688686714367E-6    7.746594750744352E-1   -6.303351427689083E-1
 5.185420737786640E8     7.781894650917554E-1   -6.334454939015469E-1    4.920301378187164E-6   -1.093463353590491E-6   -1.196620117303266E-5   -8.054679418118816E-6    7.669507048247292E-1   -6.401449846965479E-1
 5.285121136590229E8     7.698810219368197E-1   -6.429853126312546E-1   -1.592014119876249E-5    5.445528044728434E-7    1.384975419534924E-5    1.119415429179172E-5    7.588753763617020E-1   -6.496815152018556E-1
 5.384821535393819E8     7.613588800023846E-1   -6.530643451681066E-1   -5.374044539099952E-6   -7.508639643407344E-6   -1.032495237065645E-5    5.858914594446692E-6    7.509699349428670E-1   -6.594573053668112E-1
 5.484521934197408E8     7.532314777962600E-1   -6.636637673758876E-1    7.344105913267600E-6    9.480901873708805E-6    8.595828978701175E-6    1.641061233191549E-5    7.424313784659401E-1   -6.692509527761219E-1
 5.584222333000997E8     7.447459406014607E-1   -6.745985610256241E-1   -8.632635333048535E-6   -1.055516389473496E-5   -7.698104929517730E-6   -6.854727777675506E-6    7.332338275430653E-1   -6.791891005671303E-1
 5.683922731804587E8     7.356212585019070E-1   -6.851361224874388E-1   -4.739060001914224E-6   -1.163121549462085E-6    4.514260232592744E-6   -2.139780368851048E-5    7.230835236215897E-1   -6.891094096060922E-1
 5.783623130608176E8     7.261903348747512E-1   -6.949781115718899E-1    3.991709096224232E-6   -1.218450141938667E-5   -9.854067661353365E-6    9.970345358829509E-6    7.125389917915664E-1   -6.989615459802718E-1
 5.883323529411764E8     7.170586420953590E-1   -7.050252596170997E-1    8.519230059718618E-6   -3.358071068758091E-6   -1.986338259033449E-7   -7.366407800171061E-6    7.022015271248582E-1   -7.086586517950701E-1
 5.983023928215353E8     7.077835102772044E-1   -7.151207157688898E-1    1.136616689078641E-6    3.195491561204620E-6   -1.319170466870946E-5   -1.863439936517246E-5    6.918485726878324E-1   -7.184146427833403E-1
 6.082724327018943E8     6.983939972016221E-1   -7.249045114091494E-1   -1.437484083750104E-5   -3.522342200674479E-7    2.397479113452071E-5   -1.300177913187604E-5    6.816720136489308E-1   -7.276941398065003E-1
 6.182424725822532E8     6.886015437078087E-1   -7.346333497518096E-1    4.765772982876893E-6    1.632012886846389E-6   -2.349961231341496E-5    1.308304881108065E-5    6.716914190092821E-1   -7.372949386068374E-1
 6.282125124626122E8     6.780517569942602E-1   -7.440283192222019E-1   -3.133023454621925E-6    9.286721505864096E-6    1.613354226435799E-5    9.739947622119897E-6    6.627626372402677E-1   -7.468157821472957E-1
 6.381825523429711E8     6.684069308512813E-1   -7.511267517164111E-1    1.137112380825188E-5    6.106880934756436E-6   -2.269905549593915E-5    8.920254388541264E-6    6.537365701338310E-1   -7.557273247654002E-1
 6.481525922233300E8     6.593112971111238E-1   -7.596168320792068E-1   -4.877541707721105E-6    1.124949868314329E-5    1.885724457673153E-5    1.309562677552752E-5    6.446744399725388E-1   -7.641991820948553E-1
 6.581226321036890E8     6.496663223900773E-1   -7.686195784031681E-1    1.261499688933136E-6   -2.530743244647078E-6    4.867702533352837E-6    1.038721998031849E-5    6.344718262064771E-1   -7.724289566414784E-1
 6.680926719840479E8     6.397498699648827E-1   -7.772729889135082E-1   -8.259135871633174E-6   -1.836816507939775E-5    3.359763771661422E-6   -5.701774000532602E-6    6.239314956983136E-1   -7.804042665105321E-1
 6.780627118644068E8     6.300334735230343E-1   -7.855427788657300E-1   -2.737853832296315E-6    6.448497086142990E-6    1.319758332588171E-5   -1.000883716844690E-5    6.128684425651649E-1   -7.883369831965987E-1
 6.880327517447658E8     6.195849285032072E-1   -7.937396520932453E-1   -8.230248169341138E-6    5.226633712028174E-6   -8.192984111245819E-7    1.191894588508970E-5    6.015343588779004E-1   -7.960168792334760E-1
 6.980027916251246E8     6.085186309676514E-1   -8.017260663097338E-1    1.413033211534913E-5   -1.932922561782070E-5   -1.790218751155449E-5   -5.555730287160809E-6    5.900856187170270E-1   -8.036521966951814E-1
 7.079728315054835E8     5.972613382725253E-1   -8.102694024636299E-1   -5.009228831743590E-6   -3.063095329894069E-6    3.196180349003656E-6   -4.072183031623798E-6    5.784695142708257E-1   -8.115304564896376E-1
 7.179428713858424E8     5.860646193347686E-1   -8.189257246808948E-1    4.330140077881772E-6   -2.072445400999576E-5    6.758189886280902E-6    6.403703111583232E-6    5.672955231725459E-1   -8.202270268672851E-1
 7.279129112662014E8     5.750798126222703E-1   -8.273241150166241E-1   -7.034302517298800E-7    5.757981069221904E-6    3.475705882600581E-6    1.821301685526804E-5    5.560007294518877E-1   -8.289138997265485E-1
 7.378829511465603E8     5.637494380605422E-1   -8.359756332151854E-1   -2.906162034006972E-6    3.530237967635864E-6   -3.224465026160228E-6   -1.191498187245849E-6    5.446308710910223E-1   -8.373847271486731E-1
 7.478529910269192E8     5.517623020360370E-1   -8.443812326292556E-1   -1.467213853352698E-5    3.751542482393387E-6    9.879148426808736E-6    8.173620681594947E-6    5.335088790088780E-1   -8.450126856909596E-1
 7.578230309072782E8     5.391810418519688E-1   -8.516942895482518E-1    2.068727406322093E-6    9.934650599809434E-6    3.760608487952130E-6    2.818270615071769E-6    5.223137864346903E-1   -8.519237069078160E-1
 7.677930707876371E8     5.288283040307525E-1   -8.571236333973212E-1   -5.844377686680758E-6    2.452611933590583E-6   -6.049946309490128E-6    4.458342505156741E-6    5.110055138076582E-1   -8.582664333261898E-1
 7.777631106679960E8     5.191940169772576E-1   -8.639754345980635E-1    1.886947548807030E-6   -8.939228163465130E-6   -9.838263858902731E-6   -2.797330743414682E-6    4.994466146883649E-1   -8.648099568840238E-1
 7.877331505483550E8     5.087933700689703E-1   -8.708490981848239E-1   -8.222196468514905E-7    7.013222036377074E-6    1.568457398770940E-6   -1.357259572320484E-5    4.876708207285923E-1   -8.715575038476093E-1
 7.977031904287138E8     4.975697742862048E-1   -8.772145104884218E-1    1.221084418848594E-5    3.971846505878795E-7   -4.381008357439957E-6   -1.310963671814155E-5    4.749710858885783E-1   -8.780119851328928E-1
 8.076732303090727E8     4.858013572082340E-1   -8.831707531382388E-1   -7.016537509668453E-7   -2.658075165421020E-6    2.942184829694982E-7    4.330993927943735E-6    4.620317355162901E-1   -8.840823711968119E-1
 8.176432701894317E8     4.738452493616362E-1   -8.893726354577522E-1    4.746223200598821E-6    1.286497050035477E-6   -3.267015121891400E-7    4.159086009393518E-6    4.491481143507005E-1   -8.903727063805347E-1
 8.276133100697906E8     4.615867551082727E-1   -8.956321889284867E-1   -5.706395905651166E-6   -3.305562228959909E-6    5.009088931381974E-6    1.202427454228079E-5    4.365881890017511E-1   -8.971181445891413E-1
 8.375833499501495E8     4.488445676054333E-1   -9.019130085542969E-1    4.796194797740552E-6    2.539622707251175E-6    5.745072185140162E-6   -1.079197480959702E-5    4.243653017497802E-1   -9.037704372860114E-1
 8.475533898305085E8     4.361277859278703E-1   -9.083838422190655E-1   -5.105905133902868E-6    1.069454369259624E-7   -2.750449870905336E-6    8.786261903926447E-6    4.126328970796439E-1   -9.098480769711864E-1
 8.575234297108674E8     4.233968198833499E-1   -9.149048091493515E-1   -9.222839915018383E-7   -3.962957861263041E-6    3.799451211411794E-6    7.700414385932283E-6    4.007514020971868E-1   -9.151182083636749E-1
 8.674934695912263E8     4.105375623307534E-1   -9.215593066015626E-1   -6.203609853978537E-7   -4.052276597252334E-6    1.463923913171656E-5    1.901110253415370E-5    3.886462442001349E-1   -9.199074584559890E-1
 8.774635094715853E8     3.973765716538172E-1   -9.280858808039821E-1    4.019618077208805E-6   -5.114102081644491E-6   -1.470004618044361E-6    1.237935941375309E-5    3.761057328679159E-1   -9.246073545163586E-1
 8.874335493519442E8     3.843810300514987E-1   -9.326650459966997E-1    4.916764797819103E-6   -8.051050171597880E-7    1.764649588686927E-5   -1.280268449933233E-5    3.630943302672552E-1   -9.291659153910883E-1
 8.974035892323031E8     3.730384393299030E-1   -9.362925832925584E-1   -8.879052588672277E-6   -1.209750449718343E-5   -8.362920472221289E-7    7.021738324547442E-6    3.494899773693758E-1   -9.333815540890383E-1
