#  HZ   S   RI   R     50.00 
! Rohde & Schwarz Vector Network Analyzer 
! Rohde-Schwarz,ZNB20-2Port,1311601062102128,3.60
! Created: UTC 4/29/2024, 3:00:01 PM
! freq[Hz]                re:S11                  im:S11                  re:S21                  im:S21                  re:S12                  im:S12                  re:S22                  im:S22
 1.000000000000000E5     9.963374713441575E-1    3.800901515543121E-3    2.473468701297105E-5   -9.937628673571261E-5   -2.091303314266686E-5   -1.755234565463806E-5    1.010509819695203      -1.144926548921406E-2
 1.007003988035892E7     9.976792427862219E-1   -1.392741373851917E-2   -5.285046392769243E-6   -5.842596448868159E-6    9.036110539951529E-6    2.416582541219695E-5    9.958696823008407E-1   -1.441565035669730E-2
 2.004007976071785E7     9.999099604044032E-1   -2.703909679949183E-2    8.264518951403178E-6    1.209255065203294E-5   -1.225806026839602E-6    5.488586529598277E-6    9.986164957931667E-1   -2.765055753878130E-2
 3.001011964107677E7     9.978953539775663E-1   -4.114827529151287E-2   -1.260029225315940E-5   -5.261070162876164E-6   -5.753276279795280E-6   -1.368862838909484E-5    9.975571620605562E-1   -4.210269354810601E-2
 3.998015952143569E7     9.976337494863829E-1   -5.312989543647512E-2   -1.574722221610836E-5    2.992887718693993E-5   -8.959242760506208E-6    1.031587173623076E-5    9.976038141224516E-1   -5.671125437602555E-2
 4.995019940179461E7     9.960299563591777E-1   -6.604486140323475E-2   -2.441687627316844E-6   -9.354665630626895E-7   -3.534609236120271E-6    6.006275959415716E-6    9.964309831472489E-1   -6.905721258190568E-2
 5.992023928215354E7     9.943208499316030E-1   -7.877326167479548E-2    1.530515430580949E-5   -2.086645703496550E-6   -1.622699627161212E-5    1.591318202722607E-5    9.946273997170597E-1   -8.184540459265498E-2
 6.989027916251247E7     9.932355555186078E-1   -9.191401256210593E-2    3.233532580506399E-6    9.747985533932197E-7   -1.589862880439815E-6   -7.920585660108431E-6    9.933526492549533E-1   -9.484005854123212E-2
 7.986031904287139E7     9.925739129814968E-1   -1.052388979877139E-1    4.109827115023213E-6   -4.743364426790316E-6    3.476508183720387E-6    8.814009758942942E-6    9.923518224216482E-1   -1.079204803103985E-1
 8.983035892323031E7     9.913692656670361E-1   -1.187763572298918E-1   -1.122059323282443E-5   -1.577396217336095E-5   -1.006762975262551E-5   -6.086014582608025E-6    9.907683849275992E-1   -1.211336286942452E-1
 9.980039880358922E7     9.893580468719542E-1   -1.324013043168497E-1    5.644251798268057E-6   -1.040806627857174E-5    1.154879633184588E-5    1.696065022524904E-7    9.885458087160469E-1   -1.344193219774644E-1
 1.097704386839482E8     9.865280084384526E-1   -1.454987729576510E-1    6.706943020671796E-6   -8.609383097773683E-6    9.926203594428655E-6   -4.984944245595282E-6    9.860870691811165E-1   -1.477394752292580E-1
 1.197404785643071E8     9.848670000445008E-1   -1.589281759104814E-1    5.248251927250101E-6   -4.289888664117042E-6    3.410645375242410E-7   -1.039455175402237E-5    9.843342326917083E-1   -1.611846387957430E-1
 1.297105184446660E8     9.830663665504242E-1   -1.717243318005395E-1    1.304678167983635E-5    7.431357988976209E-7   -9.464587482220004E-6    1.421934680865018E-5    9.827920525375816E-1   -1.743755515208172E-1
 1.396805583250249E8     9.814725279954097E-1   -1.846419821345251E-1   -6.436591346086238E-7    3.603818236917760E-6    1.467667370918581E-7    2.379354149682384E-5    9.809335279658999E-1   -1.876024464436682E-1
 1.496505982053838E8     9.789094609071790E-1   -1.971305412817585E-1    1.097812840001262E-5    1.684536562608957E-5   -1.686173578262517E-5    8.965365289617797E-6    9.784556343541025E-1   -2.003910947541477E-1
 1.596206380857428E8     9.761280198545526E-1   -2.094837470226503E-1   -2.453078151121366E-6   -3.768829147380992E-6    1.199108830035580E-5   -3.053638606034469E-6    9.757384171502254E-1   -2.132728134609347E-1
 1.695906779661017E8     9.732327462450874E-1   -2.223881572646869E-1    1.004535098309812E-5    8.576548418700715E-6    1.960616673337926E-6   -7.262233053201458E-6    9.728875729356734E-1   -2.261283801342860E-1
 1.795607178464606E8     9.707054480894993E-1   -2.347705111546340E-1    5.910031395825618E-6    1.641836758210725E-6   -1.477801731683280E-5   -4.447794539555137E-6    9.701978142129509E-1   -2.380832479522158E-1
 1.895307577268195E8     9.676638272090298E-1   -2.470291108926450E-1    1.320694950840763E-5   -3.501058050185987E-6   -5.832654286795452E-6    7.969828512637629E-6    9.665473218932726E-1   -2.505700933661379E-1
 1.995007976071784E8     9.637832569932800E-1   -2.594668905216556E-1    4.398866341920639E-6   -1.110342654628712E-5    2.986358114744893E-6   -1.428212679692737E-5    9.626488280468284E-1   -2.631739894687353E-1
 2.094708374875374E8     9.603905196501782E-1   -2.723353602839511E-1    4.823846025870508E-6   -2.564223765479899E-6    5.549177710730833E-6    1.491685932629124E-5    9.589346223950563E-1   -2.762766315780257E-1
 2.194408773678963E8     9.572843241034213E-1   -2.850963643474398E-1   -1.904009361744227E-7   -1.215110470618628E-6   -8.545395370777782E-6    1.370411995725007E-5    9.550840180475132E-1   -2.891591779094387E-1
 2.294109172482552E8     9.535930833134606E-1   -2.974383537441911E-1   -6.670656631533004E-6   -3.533702063265773E-6    7.028946027436235E-7   -1.406165241197231E-5    9.508625091788874E-1   -3.017726435904539E-1
 2.393809571286142E8     9.504376851111418E-1   -3.093828928394076E-1   -1.975696343934443E-6    1.169828704521634E-5    1.433287333175713E-5   -3.991135834195260E-6    9.469526385872480E-1   -3.139112918913666E-1
 2.493509970089731E8     9.468193398560777E-1   -3.233360779169177E-1   -1.539713469410031E-6   -3.902897181993090E-6   -5.083836010311614E-6    1.402981883010392E-5    9.441439488510088E-1   -3.276528950206159E-1
 2.593210368893320E8     9.426639504562728E-1   -3.353444892292318E-1   -1.967744101845169E-6   -5.174717598667645E-6   -7.972921447032833E-7   -2.202175772278832E-5    9.398916399531774E-1   -3.408321657919686E-1
 2.692910767696909E8     9.385789857146671E-1   -3.467327538519562E-1   -2.430737612520331E-6    1.122372384267228E-5    2.116426240361628E-5    1.532011621796006E-6    9.355223733137670E-1   -3.529137791395144E-1
 2.792611166500499E8     9.338106740701787E-1   -3.583575335410733E-1    6.684535524343232E-6    1.879675073111653E-6   -4.549426277643032E-6   -1.572343443412231E-5    9.308716125790273E-1   -3.646556360238891E-1
 2.892311565304088E8     9.288737247040098E-1   -3.704239855239519E-1   -4.705161517398767E-6    5.341877897091390E-6   -9.979533897923046E-6    1.216594947050278E-5    9.261442556808082E-1   -3.768496186434894E-1
 2.992011964107677E8     9.240889816041146E-1   -3.826401806921885E-1   -1.043631220432818E-5    1.214886102663036E-5   -8.060899190267793E-6   -1.080453165005041E-5    9.213075630155301E-1   -3.886379271747161E-1
 3.091712362911266E8     9.188224284548467E-1   -3.949310504152573E-1    3.613990003443006E-6    1.711062228854633E-6    1.280625636123765E-5    9.564147521125465E-6    9.156965713255470E-1   -4.001021530777756E-1
 3.191412761714855E8     9.132467251453532E-1   -4.072497083865445E-1    1.298475679029434E-5   -1.013803583252140E-6   -6.401910451257384E-6   -1.082223123833006E-5    9.096387121117322E-1   -4.119003631936359E-1
 3.291113160518445E8     9.075610951005629E-1   -4.199371297763142E-1    8.980731026210896E-6    1.237399398002758E-5   -4.487390889431905E-6   -1.176740823766233E-5    9.034175808195775E-1   -4.244448298126297E-1
 3.390813559322034E8     9.019695879106548E-1   -4.328019144818462E-1    1.099307768004413E-5    2.049605910167741E-6    9.022251428011431E-6   -8.231426876126499E-6    8.968036598871386E-1   -4.369582928706625E-1
 3.490513958125623E8     8.967086755479593E-1   -4.454076980925171E-1   -1.081033240153186E-6   -9.204264598184599E-6   -4.497669788814732E-6    2.436018713665766E-5    8.905098245315378E-1   -4.494378718921210E-1
 3.590214356929212E8     8.913472081648350E-1   -4.578775680135873E-1   -1.453460827471734E-5   -3.752253872308680E-6    6.830568451616313E-6    1.762048077728115E-5    8.844732234188641E-1   -4.620645928340326E-1
 3.689914755732802E8     8.859568997118520E-1   -4.700062738380786E-1   -3.503070383854659E-6    6.391877124082208E-6   -3.373683804065570E-7    4.134424701886980E-6    8.789943723090000E-1   -4.747579290367080E-1
 3.789615154536391E8     8.798596550930575E-1   -4.812153097265210E-1   -8.662706629472603E-6   -6.048259108047992E-6    8.662292323902158E-6   -9.118158130973418E-6    8.738317782648599E-1   -4.867758270948506E-1
 3.889315553339980E8     8.741079954174293E-1   -4.919542307255397E-1   -1.758356874544865E-5    1.533527952955797E-5    6.765652467462592E-6   -2.181662868502724E-5    8.680431943409318E-1   -4.988517832402468E-1
 3.989015952143569E8     8.674729452016399E-1   -5.027340507343132E-1   -9.110904986957501E-7   -1.145360015239364E-5   -3.472712148552752E-6   -5.494950312984706E-6    8.610787698459859E-1   -5.096933316126022E-1
 4.088716350947158E8     8.602320075608664E-1   -5.135741530487909E-1    1.181225823180649E-6   -9.335125862553650E-7   -3.568170700000158E-6    1.055182205693132E-5    8.542599058880141E-1   -5.206567421236823E-1
 4.188416749750748E8     8.532818878946489E-1   -5.250401379802426E-1   -1.401314420439092E-5    1.051267784533834E-5   -2.923918512961730E-6    3.070498927265360E-6    8.475229680666250E-1   -5.314144031989039E-1
 4.288117148554337E8     8.459796180125199E-1   -5.368339030327260E-1   -5.927264245295197E-6    8.345488032055390E-7   -5.286287109223936E-6    4.037921155180144E-6    8.406379112597132E-1   -5.419201197008605E-1
 4.387817547357926E8     8.382826803530461E-1   -5.483121379078678E-1   -9.912193481790569E-6   -9.974149041311092E-6   -2.949572147941730E-6   -4.825247742899960E-6    8.327064230564871E-1   -5.523534614379997E-1
 4.487517946161516E8     8.305434760551695E-1   -5.600148345644911E-1    5.321871798912875E-6    3.392049194116723E-6   -8.362018466279530E-6    1.241321634501039E-5    8.241919259087883E-1   -5.634843288081660E-1
 4.587218344965104E8     8.235297627775302E-1   -5.718857158077800E-1   -3.615957498150628E-6    2.575565844477234E-7    3.011052040831392E-6   -7.897423125397037E-6    8.159740552769325E-1   -5.752169446267742E-1
 4.686918743768694E8     8.169271562397851E-1   -5.833675833032865E-1    2.873295936775198E-6    8.360721650342807E-6   -8.476784895185479E-6   -2.174545142269984E-5    8.077839290654407E-1   -5.868743063807891E-1
 4.786619142572283E8     8.099204495429789E-1   -5.942144535133246E-1   -9.939422784837187E-6   -5.476126329410083E-6   -9.857261984467026E-6    3.256588461223981E-7    7.992748860346351E-1   -5.980840190352753E-1
 4.886319541375872E8     8.023110795156911E-1   -6.047055242083259E-1   -7.556056121109790E-6   -7.804957564328247E-6    4.739610717896952E-6    1.715491265971726E-5    7.904839499523644E-1   -6.088395341345247E-1
 4.986019940179462E8     7.939893944171244E-1   -6.153766220509919E-1    1.313157551489861E-5   -4.331907537648469E-6    9.877613956639497E-6   -1.849506834946714E-6    7.822803144314162E-1   -6.196344665726844E-1
 5.085720338983051E8     7.856635581990140E-1   -6.244678713430529E-1   -4.464272706179625E-6    1.448693182870163E-7   -1.413556745962109E-5   -3.848682986945874E-6    7.746823236344216E-1   -6.303604292591350E-1
 5.185420737786640E8     7.782804322245414E-1   -6.335489063113139E-1   -8.379003391432503E-6   -1.984784811400113E-5    5.655847400570445E-6    1.825485363962634E-5    7.669175817585923E-1   -6.400538485130205E-1
 5.285121136590229E8     7.699698604834148E-1   -6.430447745083313E-1    1.269523401667723E-6   -1.340903276750545E-6   -6.861059952279229E-6   -9.813061776730525E-6    7.589396531186238E-1   -6.497435206576010E-1
 5.384821535393819E8     7.613871556376210E-1   -6.531305427744188E-1    3.252805217214153E-6    1.166852344389360E-5    1.736104528945024E-5    2.161136909554715E-6    7.508351786637014E-1   -6.593491643440702E-1
 5.484521934197408E8     7.532209582418777E-1   -6.636466655991812E-1    1.099675165743480E-6    1.147770326130647E-6   -3.221729078050130E-5    7.029749585713460E-6    7.423551658857253E-1   -6.691705620083591E-1
 5.584222333000997E8     7.447312904095178E-1   -6.746760867169782E-1   -8.042805575110727E-6   -1.740755331610628E-6    4.487196207861320E-6    2.982985421122312E-6    7.332042033026438E-1   -6.791934251629704E-1
 5.683922731804587E8     7.356802263583682E-1   -6.851641805106030E-1    8.921107797127505E-6   -1.526467787304927E-5    2.693664414841988E-7   -1.978828256434002E-5    7.231390715207396E-1   -6.891235074403541E-1
 5.783623130608176E8     7.263850279087014E-1   -6.951559554841056E-1   -8.720067363740125E-6    9.940334007744737E-6   -1.634539057211083E-5    1.578733802846083E-5    7.126722726813458E-1   -6.989770971166941E-1
 5.883323529411764E8     7.171895409655237E-1   -7.050691867391786E-1   -5.432753609722336E-6   -1.125037192585988E-5   -3.044613238043460E-6    1.239586840454145E-5    7.021532698407019E-1   -7.086894313065025E-1
 5.983023928215353E8     7.078858458117109E-1   -7.151143941175373E-1    4.468772961037087E-6   -7.631833010394711E-6    7.790409734593906E-6   -1.916432349656479E-7    6.917941765172723E-1   -7.184106401247005E-1
 6.082724327018943E8     6.984610954681453E-1   -7.249973736219825E-1    1.080808384495942E-6    1.185035518190313E-5    6.983272165166495E-6   -5.438508910710556E-6    6.815032884675902E-1   -7.275599331459986E-1
 6.182424725822532E8     6.885714091752654E-1   -7.346253642035995E-1   -1.177366383809367E-6    3.023442278487404E-6   -5.139037026630820E-6   -1.497946441773897E-5    6.717923884031662E-1   -7.372439289282792E-1
 6.282125124626122E8     6.780884307617177E-1   -7.439841209083929E-1    6.323598611533352E-6    1.686676970197241E-5    1.138235758200009E-6   -1.008091736343014E-5    6.627841977504060E-1   -7.468508424133041E-1
 6.381825523429711E8     6.683219397580904E-1   -7.510153411405435E-1   -1.092134555456177E-5    1.022675625518360E-6   -6.826039051759604E-6    4.323850352445190E-6    6.537325036408853E-1   -7.557234958021138E-1
 6.481525922233300E8     6.593384538147395E-1   -7.596260218010862E-1   -9.495521994813356E-6    9.102725485130279E-6    5.590499870954343E-6   -6.820029646589419E-6    6.445111207971824E-1   -7.640750726408828E-1
 6.581226321036890E8     6.496722357243870E-1   -7.686627389981601E-1   -8.031719520487363E-6    1.056326062664094E-5    8.712573004923557E-6    8.751495513468760E-7    6.344800317737916E-1   -7.724425798273780E-1
 6.680926719840479E8     6.398595808784840E-1   -7.773629226104875E-1    4.258509388650508E-6   -8.153111941957819E-6    5.273515213876779E-6   -9.455372734569021E-7    6.239304165551887E-1   -7.804813423077678E-1
 6.780627118644068E8     6.299856866376770E-1   -7.854002882397501E-1   -5.845684380038866E-6    2.284920039749940E-6   -5.653353674765605E-6   -8.535098193306854E-6    6.128814327595666E-1   -7.884177507623594E-1
 6.880327517447658E8     6.195445164445893E-1   -7.936925446799369E-1    1.166697670102997E-6   -5.598825231517596E-6    1.020768869278038E-5    4.303534629609728E-6    6.015252848950479E-1   -7.958900988780969E-1
 6.980027916251246E8     6.086555110243803E-1   -8.018242701784063E-1    3.846592649788376E-6   -3.081856192061447E-6    7.223424251853685E-6   -8.103651614269773E-6    5.898420151075691E-1   -8.034741336520547E-1
 7.079728315054835E8     5.974725889258243E-1   -8.102967696382518E-1   -2.722846760430210E-5   -1.029014458563813E-5   -9.586479865702520E-6    1.455175015026226E-6    5.784818050006296E-1   -8.116527386182940E-1
 7.179428713858424E8     5.861636857696534E-1   -8.187319774800907E-1   -2.098917321809102E-6    1.233028262627750E-5    1.076508908895701E-5    9.997473502908579E-6    5.672609153220122E-1   -8.201333423122376E-1
 7.279129112662014E8     5.751057190290338E-1   -8.271031304731066E-1    2.452330608074395E-6   -6.165197092928808E-6    4.723216654009019E-6   -5.982197023266556E-6    5.559255339974074E-1   -8.289602405854506E-1
 7.378829511465603E8     5.637720501713389E-1   -8.359004099461304E-1    2.028455212168963E-6   -1.353742989923692E-6   -1.155951136379294E-6    2.291257101582912E-6    5.446110711109755E-1   -8.371131966855393E-1
 7.478529910269192E8     5.518946191158348E-1   -8.445231779884698E-1    3.940968785897734E-6    4.101591556631076E-6    3.036353455866242E-6    5.756908634235460E-6    5.333631822496318E-1   -8.449399968681911E-1
 7.578230309072782E8     5.393054208871740E-1   -8.517603517162662E-1   -4.695152695963923E-6   -1.663003958983589E-5    2.778309401513788E-6   -1.314116309269524E-5    5.223879857816688E-1   -8.519349581152240E-1
 7.677930707876371E8     5.287643570441899E-1   -8.570526926329750E-1    2.067312042330358E-6   -1.051282773659813E-5    7.407763154485355E-6   -9.648394059030804E-6    5.110085791136202E-1   -8.583667495091494E-1
 7.777631106679960E8     5.191790443098986E-1   -8.638972836730571E-1    1.246981450872745E-5   -3.764136656591847E-6    1.084891398985877E-5    8.187538865782982E-6    4.994525775854534E-1   -8.648637953436127E-1
 7.877331505483550E8     5.089110612992865E-1   -8.709524023306804E-1   -1.514776411614897E-5   -1.197714162210069E-5   -1.441119952555812E-6   -3.336936426725345E-6    4.875743949010839E-1   -8.713053280764340E-1
 7.977031904287138E8     4.977014738730030E-1   -8.773614465070134E-1   -2.776184569442210E-6    5.500199097595768E-6    6.462922868742362E-6   -3.045330351962079E-6    4.748942278486706E-1   -8.778863573280186E-1
 8.076732303090727E8     4.859957107521832E-1   -8.832332601521100E-1   -1.111593932612305E-5    3.448431263438071E-6    4.118044546427677E-6    2.254508934928026E-6    4.620983350114871E-1   -8.840861334139111E-1
 8.176432701894317E8     4.738342860539230E-1   -8.891121002160122E-1   -3.810261728867345E-7    3.541302210295691E-6   -1.838510180468907E-6   -4.213600584929998E-6    4.491591665659354E-1   -8.904394850849012E-1
 8.276133100697906E8     4.615680666087968E-1   -8.956141413574540E-1    5.134434920468999E-6   -1.720346262500962E-5    8.030617490754905E-6   -4.858672581464537E-6    4.365907264082366E-1   -8.969026305510807E-1
 8.375833499501495E8     4.489517654638515E-1   -9.021033724964075E-1   -2.987536434994212E-6    3.858204010873643E-6   -3.458570347703796E-6   -3.925239648483897E-6    4.243965285280726E-1   -9.036178299994454E-1
 8.475533898305085E8     4.361402218159603E-1   -9.085172289147686E-1   -4.389154792732127E-6    1.457027259901567E-7    1.355875790917523E-5    1.114169937253947E-5    4.126059197327715E-1   -9.097680917100380E-1
 8.575234297108674E8     4.234528911014827E-1   -9.148979896391185E-1   -5.711548560295840E-6    4.074881587341998E-6    4.730605671334253E-6    6.350570579559164E-6    4.008231735784002E-1   -9.152427816219433E-1
 8.674934695912263E8     4.106072336422191E-1   -9.215529001014804E-1   -1.075777634265727E-5   -1.128006484282610E-5   -5.287356252108417E-6   -1.144255815031070E-5    3.887804684248745E-1   -9.200121864007488E-1
 8.774635094715853E8     3.974784364164667E-1   -9.280055104813786E-1   -2.100416303945157E-6    9.859571070353457E-6   -9.851436020116694E-6   -2.901885060095819E-5    3.760693800699020E-1   -9.245729723372401E-1
 8.874335493519442E8     3.843498695582142E-1   -9.327122365645312E-1    6.204279849595225E-6   -8.096194240971111E-6    2.484823010245458E-6    2.957135316918203E-6    3.630165518222660E-1   -9.289806497952046E-1
 8.974035892323031E8     3.731269160962173E-1   -9.363971791295058E-1   -1.495431623111591E-5    1.166281989593464E-5   -7.114610405251690E-6    4.257585163599707E-7    3.495224473133455E-1   -9.333281756532410E-1
