#  HZ   S   RI   R     50.00 
! Rohde & Schwarz Vector Network Analyzer 
! Rohde-Schwarz,ZNB20-2Port,1311601062102128,3.60
! Created: UTC 4/29/2024, 2:59:52 PM
! freq[Hz]                re:S11                  im:S11                  re:S21                  im:S21                  re:S12                  im:S12                  re:S22                  im:S22
 1.000000000000000E5     9.962707820344837E-1    3.837200759187161E-3   -5.780321180099248E-5   -1.316383021584749E-4   -8.376781355751010E-5    1.914750753968809E-4    1.010685480459996      -1.149411509177576E-2
 1.007003988035892E7     9.974414251679838E-1   -1.390872071533766E-2   -8.669829440511201E-6    1.937985500326825E-6    7.993370122489836E-6   -1.541486591417362E-5    9.957248713935236E-1   -1.445718947169067E-2
 2.004007976071785E7     9.999237999229839E-1   -2.715443615504230E-2    2.122049143100746E-7    1.008111296448216E-5   -3.111732086482347E-6    1.647764875914328E-6    9.988199391911657E-1   -2.771414016684838E-2
 3.001011964107677E7     9.979359695742503E-1   -4.097540859892609E-2   -6.216467986297859E-6   -1.113754096923437E-5   -9.067409578107578E-6   -2.516217584419053E-5    9.974719616830963E-1   -4.200122210295491E-2
 3.998015952143569E7     9.975580138581136E-1   -5.316927283044472E-2    2.980578701085107E-8    9.934477065921572E-6   -1.586098427059376E-5    3.232203864936208E-6    9.976364464925458E-1   -5.665473024501950E-2
 4.995019940179461E7     9.959580036073342E-1   -6.608078189054230E-2    7.800747158726727E-6    7.002896608559740E-6   -3.598507603772361E-6   -6.069869840435460E-6    9.965920146940485E-1   -6.912729875238237E-2
 5.992023928215354E7     9.941894250508768E-1   -7.889818082638084E-2    2.083597521941790E-6   -4.393814611250939E-6    2.356147202507037E-5   -6.809915733697230E-6    9.944507387174556E-1   -8.190454811429096E-2
 6.989027916251247E7     9.930352054145204E-1   -9.185512980405651E-2    6.414476604907726E-6   -8.559463748797350E-6    1.487642562550535E-5   -8.415175296528424E-6    9.933585057988259E-1   -9.488986944352215E-2
 7.986031904287139E7     9.924421799263270E-1   -1.052893120453669E-1   -5.103046581892527E-6    4.211444066465293E-6    3.897677901627122E-6    8.622180870794827E-6    9.922887800605584E-1   -1.078987862299813E-1
 8.983035892323031E7     9.914440624858445E-1   -1.188408283925676E-1    1.038643476136295E-5   -1.512714022676257E-5    5.109538180138173E-6    2.405291587971299E-6    9.909306875429130E-1   -1.211617413448788E-1
 9.980039880358922E7     9.892623754685823E-1   -1.323478425486874E-1   -9.388635350700017E-6   -1.243586155607656E-5   -5.022132435195851E-6    9.022256012955319E-6    9.885726575897784E-1   -1.343850708744193E-1
 1.097704386839482E8     9.863919173394673E-1   -1.455471278369531E-1    3.955791728883195E-6    1.073444998575323E-5   -8.572136442223109E-6    4.245826320175215E-6    9.860223000714666E-1   -1.477772903778105E-1
 1.197404785643071E8     9.848349443530091E-1   -1.589925817829157E-1   -1.928694225521128E-5   -9.402944572864733E-6    6.827756857550075E-6   -1.662872522405333E-5    9.842189163297460E-1   -1.611585257489974E-1
 1.297105184446660E8     9.828997642768370E-1   -1.717555339401561E-1   -6.161722724592053E-7    1.242359046476108E-6   -8.418471169880065E-6    6.464268052422009E-6    9.827812843607767E-1   -1.744505617945784E-1
 1.396805583250249E8     9.814935007780604E-1   -1.846370597629479E-1    2.645985828560655E-6    1.337475528372380E-6   -1.956366121361910E-5   -4.696794333920838E-6    9.809257293206254E-1   -1.874983417875285E-1
 1.496505982053838E8     9.788932278593282E-1   -1.969874744730905E-1   -9.830938721458858E-6    1.314837790992204E-5   -5.523119875850585E-6    1.320244328874028E-5    9.783381540748288E-1   -2.004364851949638E-1
 1.596206380857428E8     9.760784635490237E-1   -2.094656610816386E-1   -2.028441634761661E-5   -1.215904157846209E-5    7.110643731157610E-6    3.763223383292901E-6    9.756530908108196E-1   -2.132184838421283E-1
 1.695906779661017E8     9.731212123936589E-1   -2.222587466525184E-1    3.817587970622324E-6   -1.439073841270219E-6   -1.252776840870243E-5    4.670118528106332E-6    9.729216296147435E-1   -2.261689343602325E-1
 1.795607178464606E8     9.706226413721816E-1   -2.347098586658764E-1    7.873376627560940E-6    5.248281332300611E-6   -1.073520339657671E-5   -3.560810183347281E-6    9.702681425544663E-1   -2.380667149149773E-1
 1.895307577268195E8     9.676657782851711E-1   -2.470108012979119E-1   -1.348132619434090E-8   -8.226888000578694E-6    1.091537993864200E-5    1.492218470444590E-6    9.666444253969786E-1   -2.504833933599834E-1
 1.995007976071784E8     9.637094222229422E-1   -2.593898645892427E-1   -8.277003366850026E-6   -9.445531890916592E-6    6.127154378612184E-6   -1.049133150428809E-5    9.626176121516579E-1   -2.631918590962273E-1
 2.094708374875374E8     9.603629561696395E-1   -2.723300723924748E-1    6.432701738207989E-6   -7.386970223398743E-6    2.354550746332932E-5   -5.102872892993017E-6    9.589249495751003E-1   -2.761857623546679E-1
 2.194408773678963E8     9.571677743236683E-1   -2.850373828700212E-1   -5.557486352999020E-6   -1.186786098955961E-6    9.704136364730298E-6    5.285398790147287E-6    9.551957521841541E-1   -2.891134178465096E-1
 2.294109172482552E8     9.536985727748349E-1   -2.973841068925003E-1    5.617789934193468E-6   -9.602031688345784E-6   -6.104726794358454E-6    1.422888110225493E-5    9.509056017953564E-1   -3.017701705453904E-1
 2.393809571286142E8     9.505068441668211E-1   -3.094117446818309E-1   -7.609392437813288E-6   -2.670096679804594E-6   -3.071945894082968E-6   -1.263052320593825E-5    9.469887801465583E-1   -3.139389463838324E-1
 2.493509970089731E8     9.466972397256124E-1   -3.232602705818689E-1   -2.717682642404945E-6    2.167564706711725E-7    5.249100162154651E-6   -6.698682181466611E-6    9.441054281105337E-1   -3.275803453644984E-1
 2.593210368893320E8     9.426528392553879E-1   -3.353033944733760E-1   -3.765122201174938E-6   -1.416432030289809E-5    8.615539534584564E-6    1.281979521447413E-5    9.398365757786167E-1   -3.408169384320025E-1
 2.692910767696909E8     9.384247271211301E-1   -3.467729644781109E-1   -1.600260951350792E-5    8.897815371246281E-6    1.151703820641360E-6    9.841611677698741E-6    9.354735345273357E-1   -3.528559438028352E-1
 2.792611166500499E8     9.338294967211200E-1   -3.583066266772039E-1    5.891252308924769E-6   -5.412528342610490E-6    3.912811472761296E-6    6.658788663779768E-6    9.308884223809293E-1   -3.646477423086218E-1
 2.892311565304088E8     9.289569649380814E-1   -3.704708101431534E-1    9.444903978059549E-6   -9.852173990866316E-7    1.413714685373953E-5    1.609052064014877E-5    9.262739916038741E-1   -3.768803439043955E-1
 2.992011964107677E8     9.240498674188689E-1   -3.825814916722590E-1   -5.123511658119264E-6   -7.677547876652005E-6   -6.104750433102260E-7   -3.075968531821601E-6    9.212333316153184E-1   -3.886082575066722E-1
 3.091712362911266E8     9.187633746180199E-1   -3.948127713320932E-1   -1.505460730515855E-5   -5.739450353554318E-6   -1.233548658888872E-5    6.507806749566702E-6    9.157535635230627E-1   -4.000608743222672E-1
 3.191412761714855E8     9.132607545637486E-1   -4.073834312091154E-1    1.242733279362259E-5    1.133699777624333E-6    6.359587133259876E-6    6.174222462975653E-6    9.097216880588014E-1   -4.119584458868891E-1
 3.291113160518445E8     9.075618945495384E-1   -4.199915292750961E-1    9.443349376806527E-6    1.146458079073020E-7   -1.226852034488111E-5    3.395248913389279E-6    9.034220902060827E-1   -4.243394957693442E-1
 3.390813559322034E8     9.018675282635522E-1   -4.327348791769152E-1   -1.421784140093036E-5    7.094684549216356E-6   -5.216966937299764E-6   -6.421409448145175E-6    8.967871576836767E-1   -4.369079755958619E-1
 3.490513958125623E8     8.966776143672307E-1   -4.453321292276547E-1   -1.175122720341439E-6   -2.180583006107979E-6   -3.663683269034284E-6    4.815300059206381E-6    8.905528060504233E-1   -4.494581898357874E-1
 3.590214356929212E8     8.912314985040531E-1   -4.578220917620922E-1   -1.611671610906325E-5    7.331885889635939E-6   -6.559102373066911E-7    4.494051326481919E-5    8.845193544126327E-1   -4.621107586859932E-1
 3.689914755732802E8     8.859680906078631E-1   -4.700242715956206E-1   -3.396228486393789E-6    2.759988227280138E-6    5.651255036304385E-6   -7.919833981237188E-7    8.790197064667232E-1   -4.748218428769315E-1
 3.789615154536391E8     8.798278897312443E-1   -4.812827553156055E-1   -6.050349856735383E-6   -9.691242401597554E-6    7.058196995227039E-6   -7.106027545699282E-7    8.738208519712602E-1   -4.868483766207176E-1
 3.889315553339980E8     8.740497149725217E-1   -4.919510298816341E-1   -2.489021325803634E-6    2.350408007721855E-6   -1.698020621589154E-5    1.589708033226723E-6    8.678421455270893E-1   -4.987480478057305E-1
 3.989015952143569E8     8.672862426942589E-1   -5.027186479873528E-1   -8.046163587790372E-8    2.349207697996085E-5   -5.034600644356228E-6   -2.054213336102749E-6    8.610821167129686E-1   -5.097668873563348E-1
 4.088716350947158E8     8.602429293249918E-1   -5.135642146078532E-1   -8.772400624631566E-6    1.443229742483729E-5   -1.383910259630597E-5   -2.910628165411269E-6    8.541908335382964E-1   -5.207101297338803E-1
 4.188416749750748E8     8.533471932687674E-1   -5.251276161095983E-1   -8.918920439243312E-6   -1.111229305775174E-5    6.657538318051615E-6    1.569417206598569E-6    8.475811393459527E-1   -5.315103069964240E-1
 4.288117148554337E8     8.459228803957911E-1   -5.367575833663584E-1   -1.360268785969831E-5    5.806880425596724E-6   -2.196060248136420E-6    3.172025344678212E-6    8.405833887731466E-1   -5.418122946547466E-1
 4.387817547357926E8     8.381589960528336E-1   -5.481568251810591E-1   -1.249802767220741E-7    2.322337075311051E-6   -2.340362642325195E-6    6.108579490150020E-6    8.326282453470774E-1   -5.523390869378814E-1
 4.487517946161516E8     8.305019969386914E-1   -5.600126657443504E-1    5.425694032218251E-6   -1.873171046516151E-7   -4.779753537277165E-6   -1.123826059759286E-6    8.242150921612559E-1   -5.634655853981977E-1
 4.587218344965104E8     8.236024375813559E-1   -5.719928743774214E-1   -1.094444541987059E-6   -6.208550933897614E-6   -8.430705351755857E-6    5.128553058784663E-7    8.160130696379823E-1   -5.752298200515494E-1
 4.686918743768694E8     8.170399885603770E-1   -5.833752764263810E-1    7.017410415809648E-7    7.787139287747838E-6    8.710532790198746E-6   -3.581142157276614E-6    8.078983405334699E-1   -5.867774531250435E-1
 4.786619142572283E8     8.097787541853878E-1   -5.942393313933142E-1    3.155649556098816E-6    5.873388278632402E-7   -2.102505067978565E-5   -1.029084186288246E-6    7.992468171365893E-1   -5.980115964717819E-1
 4.886319541375872E8     8.022881823731642E-1   -6.046604711913767E-1   -1.163648503527106E-5    1.522536243919371E-6    4.238601900465747E-6   -1.524019396401227E-5    7.903410476502629E-1   -6.089323159810143E-1
 4.986019940179462E8     7.939105250312343E-1   -6.153699167719637E-1   -1.221529812518098E-5    9.040153183273742E-6   -1.720139684550983E-5   -7.047337250175156E-7    7.822028241146971E-1   -6.196584508343532E-1
 5.085720338983051E8     7.856746215777345E-1   -6.245742577703657E-1   -3.367610048248935E-7   -8.750404361889981E-7   -9.823999626775931E-6   -8.098075794360389E-6    7.746560321535698E-1   -6.303207842461620E-1
 5.185420737786640E8     7.782737141195955E-1   -6.336207523716411E-1    4.570906691813167E-6   -1.543967964612926E-5    1.014874074203045E-6    9.322452395125238E-6    7.669673958144358E-1   -6.400999178987441E-1
 5.285121136590229E8     7.699155934875112E-1   -6.430405593529027E-1   -6.360192216340066E-6    9.245717184466037E-6   -2.103832230691643E-5   -1.048958435713715E-5    7.590244510182839E-1   -6.498342741786366E-1
 5.384821535393819E8     7.613118430980890E-1   -6.530706793792551E-1    3.815718735467469E-6   -7.547801771448729E-6   -4.907284846168156E-6    6.512721110803712E-6    7.507995324041569E-1   -6.593894296234355E-1
 5.484521934197408E8     7.532208923765251E-1   -6.636660757301429E-1    4.719728619571731E-7    6.362976325662476E-6   -1.377365844705753E-5    5.388234094306862E-6    7.423217642242572E-1   -6.691916462700452E-1
 5.584222333000997E8     7.447417431878848E-1   -6.746947507895587E-1    9.287442144504731E-6    2.826383580501457E-6    1.314249558856269E-5   -7.059841316799264E-6    7.333615265319946E-1   -6.791755406380843E-1
 5.683922731804587E8     7.355284786152259E-1   -6.851030234196890E-1    7.363719301596239E-6    7.848925098909549E-6    1.923873389255819E-7   -1.474931162337303E-5    7.231659609430908E-1   -6.891696440318974E-1
 5.783623130608176E8     7.262138801105060E-1   -6.950549199416342E-1   -6.414297943213663E-6    4.510610889774606E-6    1.287784096258011E-5    6.800775835565842E-6    7.125820382727043E-1   -6.989460281020133E-1
 5.883323529411764E8     7.169621606610249E-1   -7.050363145103534E-1   -2.188201161968954E-5   -2.750256976544003E-5   -5.723309698606870E-6    1.073373043758645E-6    7.021249255553936E-1   -7.085648942708989E-1
 5.983023928215353E8     7.078871381751231E-1   -7.151734600809165E-1   -1.615500680191492E-5   -1.870332985559726E-5   -1.465793486604761E-6   -8.634405937848049E-7    6.918689933104595E-1   -7.183063405762391E-1
 6.082724327018943E8     6.984577393323097E-1   -7.249858822535299E-1   -2.294956737265827E-6   -1.394860501616621E-5   -5.648797538283335E-7    1.001506298139242E-5    6.817927173652263E-1   -7.278751315999497E-1
 6.182424725822532E8     6.885614280951465E-1   -7.345898180325915E-1    3.919565334791066E-6   -5.379283191556125E-6   -1.572642188534406E-5    5.600261821910399E-6    6.717262694875692E-1   -7.371283778924700E-1
 6.282125124626122E8     6.779955639487942E-1   -7.439538624146550E-1    5.738470054900621E-6   -7.307478186696128E-6   -1.730191733744076E-5    5.254395433799628E-6    6.626482172140687E-1   -7.467203279411387E-1
 6.381825523429711E8     6.683428120839072E-1   -7.511570373066425E-1    1.046053640631667E-5    1.265511346225557E-5   -8.887436058263220E-6   -1.012674793040723E-6    6.538016638680448E-1   -7.557078326461183E-1
 6.481525922233300E8     6.593286435595684E-1   -7.596924132622490E-1   -5.496036057345336E-6    2.900943149334379E-6   -2.521840043425126E-7   -2.855169322955350E-6    6.445833194912193E-1   -7.641817984926544E-1
 6.581226321036890E8     6.496375777643104E-1   -7.685611699890009E-1    7.496312604291433E-6    1.620768793325526E-6    1.121316890891027E-5    4.618449538190923E-6    6.345572893700878E-1   -7.724773960947273E-1
 6.680926719840479E8     6.396258511726131E-1   -7.771817851171587E-1   -1.355747559431626E-5   -8.285900071672897E-6    3.568231140063055E-6   -5.382695678806746E-9    6.239288565558407E-1   -7.803370392765240E-1
 6.780627118644068E8     6.298919185001590E-1   -7.854417682921884E-1    4.741060851137327E-6    7.689532674392224E-7    4.322512517320798E-6    8.628456194172368E-6    6.128314175528721E-1   -7.883427036906335E-1
 6.880327517447658E8     6.196174968425204E-1   -7.937724541261891E-1    8.022598325919763E-6    1.213861116386427E-5   -1.764804678145106E-5    4.480832208646931E-6    6.015460112314250E-1   -7.960278006677757E-1
 6.980027916251246E8     6.086117046523768E-1   -8.018646222098913E-1   -3.620820009641343E-6    8.594139806800932E-7    8.260765259744112E-6    1.338293477789741E-5    5.900299815981518E-1   -8.036679017753304E-1
 7.079728315054835E8     5.972779333320553E-1   -8.101781586951130E-1    1.167418885950270E-5   -1.756491894418633E-6   -7.692205019608058E-6   -1.051597200730172E-5    5.785475899529199E-1   -8.115918273379358E-1
 7.179428713858424E8     5.861308560714898E-1   -8.186912180430783E-1   -8.568043395581569E-6    1.627535127664225E-5    1.802433906691799E-5   -8.228906502718250E-6    5.672601845945621E-1   -8.200517565908970E-1
 7.279129112662014E8     5.750744223548072E-1   -8.271852261434368E-1   -5.387595532495978E-7    7.098180039478578E-6   -1.198134004793613E-5    1.436991228372967E-5    5.558718305125856E-1   -8.288681313944117E-1
 7.378829511465603E8     5.637566762271798E-1   -8.359460208511237E-1   -1.337720824504309E-5    9.321238601163163E-7   -4.113000431383267E-6   -2.104813358731496E-7    5.446633198800044E-1   -8.372145742737436E-1
 7.478529910269192E8     5.518315976527406E-1   -8.445528378545299E-1    5.958015257711930E-6    8.069895446674277E-6    3.233815162652550E-6   -5.371667032796490E-6    5.333155753417063E-1   -8.449340032230783E-1
 7.578230309072782E8     5.391516190677805E-1   -8.516663897985669E-1    6.963037024264289E-6    2.405360140265313E-6   -9.191741767495084E-6   -1.873137487005868E-6    5.223829958909937E-1   -8.520015264496401E-1
 7.677930707876371E8     5.287479475260454E-1   -8.570317082458834E-1   -3.789404979520484E-6   -8.054818246521613E-6    2.046891533289490E-5    1.392247254256856E-5    5.109311888570736E-1   -8.583849517670824E-1
 7.777631106679960E8     5.191175013674594E-1   -8.639480017918666E-1    4.881610071750223E-6    2.455548286730553E-6    6.343264748347856E-6    7.734194248194072E-6    4.993754638390894E-1   -8.648176988910075E-1
 7.877331505483550E8     5.087668898892040E-1   -8.708332602812054E-1    4.019011403193019E-6    4.385139815029280E-6    2.457288056100827E-6    1.304967456418028E-6    4.877067638067180E-1   -8.714844891625503E-1
 7.977031904287138E8     4.976139515773243E-1   -8.772848545137474E-1    9.734788195073583E-6    1.501404188734063E-5    2.759792244153159E-6   -1.671296771109921E-6    4.748422655554401E-1   -8.779094311087401E-1
 8.076732303090727E8     4.859007407543113E-1   -8.832150988011975E-1   -8.288400977360344E-6    4.635092660634983E-7   -1.548733576810063E-5    4.371660380939806E-6    4.622261426853545E-1   -8.841326815864996E-1
 8.176432701894317E8     4.738502507286491E-1   -8.892215488373267E-1   -2.681351853482414E-6    9.110906861312924E-6   -6.503297428727226E-6    2.470635395778567E-6    4.493216849638456E-1   -8.903989833032347E-1
 8.276133100697906E8     4.615087708996262E-1   -8.956190394200029E-1    4.431694806957031E-6   -4.589219246238075E-6   -8.768172452253197E-6    4.947907016591275E-6    4.365426053583542E-1   -8.970331832975481E-1
 8.375833499501495E8     4.488769695003236E-1   -9.020322887164767E-1   -9.249028396564716E-6   -1.867849679712807E-5    1.416628822368716E-5    1.207623147717532E-6    4.244043878621766E-1   -9.036317152394931E-1
 8.475533898305085E8     4.360984264833827E-1   -9.084442442945450E-1    1.210268018279849E-5    1.006034684800128E-6    1.173901012716940E-5   -2.548641219371050E-6    4.125717622212237E-1   -9.097798741605633E-1
 8.575234297108674E8     4.233507086292654E-1   -9.148401320309653E-1   -7.535449405730409E-6   -6.829638044628643E-6    2.875505638355019E-6    1.043324881100919E-5    4.008978090745668E-1   -9.153020636365915E-1
 8.674934695912263E8     4.105319181486070E-1   -9.214867643491436E-1    5.530472075141955E-6    2.360873629221039E-6    4.586018524796112E-6    4.420768170942330E-7    3.888233346750909E-1   -9.199518263570493E-1
 8.774635094715853E8     3.974577445782971E-1   -9.280732403103487E-1   -1.307352985906407E-6    1.538003292472352E-6    4.013972131279184E-6    3.241327847652048E-6    3.760993078682853E-1   -9.245243674767931E-1
 8.874335493519442E8     3.843209238280347E-1   -9.326281039197640E-1    8.232963635160738E-6   -1.140344289394898E-5   -1.655067419680654E-5    1.756090080895545E-6    3.630980634049063E-1   -9.290864964843160E-1
 8.974035892323031E8     3.730451494813217E-1   -9.363723576868108E-1   -8.907762939269044E-6    1.142553902671588E-6    9.409179357484937E-6    9.213663880326423E-7    3.496083860926724E-1   -9.334847985505870E-1
