#  HZ   S   RI   R     50.00 
! Rohde & Schwarz Vector Network Analyzer 
! Rohde-Schwarz,ZNB20-2Port,1311601062102128,3.60
! Created: UTC 4/29/2024, 2:59:49 PM
! freq[Hz]                re:S11                  im:S11                  re:S21                  im:S21                  re:S12                  im:S12                  re:S22                  im:S22
 1.000000000000000E5     9.959856397026067E-1    3.732341785984027E-3   -4.254452857991815E-5   -8.818827276813055E-5    7.009624279824524E-5    1.033998114888893E-4    1.010721782003287      -1.140015486747031E-2
 1.007003988035892E7     9.979943926127954E-1   -1.389334159901867E-2   -7.122497034921010E-6    1.751975143325800E-6   -1.050582780993242E-5    1.487571712269135E-6    9.958165521412469E-1   -1.447150240656312E-2
 2.004007976071785E7     9.997237478412281E-1   -2.709803385317490E-2   -4.222264521329672E-7   -1.207688167836191E-5    6.132789364930671E-6    3.612398890730440E-6    9.986789742414184E-1   -2.757897165228613E-2
 3.001011964107677E7     9.980623365043610E-1   -4.099448151585935E-2    4.004102014498732E-6    2.340060140758584E-6   -3.319462380139145E-5    1.431876567869945E-5    9.974202952631073E-1   -4.197066264477802E-2
 3.998015952143569E7     9.974493587471639E-1   -5.321564828998551E-2   -3.150767418198361E-6   -7.055962236682067E-6    1.499827674890214E-5   -1.782890977388745E-6    9.975058788728910E-1   -5.664048500957566E-2
 4.995019940179461E7     9.958418080838290E-1   -6.599132008132433E-2   -6.102505868677201E-6   -9.461298373642208E-6   -5.113110896497903E-6    9.891911663538190E-6    9.965671851841122E-1   -6.914214733441430E-2
 5.992023928215354E7     9.940495014153551E-1   -7.877268106564486E-2    3.986173158046708E-6   -8.762274401633992E-6   -1.864257539871974E-5   -8.329002929566797E-6    9.947464928722320E-1   -8.190570777447446E-2
 6.989027916251247E7     9.930015674756361E-1   -9.183924303671086E-2   -7.095566390475715E-6   -3.956010369857355E-6   -7.020268760196076E-6    3.215843301051494E-6    9.933607500606663E-1   -9.484511426696529E-2
 7.986031904287139E7     9.925647656169878E-1   -1.052976358764324E-1    6.847776193453786E-6    1.124328406842183E-5    7.861456041854902E-6    7.658111556338633E-6    9.923049308776494E-1   -1.078709529605996E-1
 8.983035892323031E7     9.915438572592836E-1   -1.188019973346154E-1   -6.254701123419255E-6    8.504732293133030E-6   -9.295978067933115E-6   -1.556986608089471E-6    9.906700717733301E-1   -1.210747826714193E-1
 9.980039880358922E7     9.892986259795408E-1   -1.323856152675361E-1    2.340618873010020E-6   -1.439800448486392E-7    4.823780462242371E-6   -9.884033499864768E-6    9.884562532899650E-1   -1.345460700203775E-1
 1.097704386839482E8     9.864032378175450E-1   -1.454860598701561E-1   -1.108984252114997E-5   -2.094110272512189E-5   -3.189077071981541E-6    9.450629559285330E-6    9.860134853352113E-1   -1.478078274007403E-1
 1.197404785643071E8     9.848482910743371E-1   -1.589314469765290E-1    1.082336245768734E-5    3.295063603879358E-6   -2.069115588407877E-5   -1.506453711408029E-5    9.843120785988658E-1   -1.611092266018512E-1
 1.297105184446660E8     9.828764643617404E-1   -1.717546353943022E-1    9.394486750987857E-6    1.344412239320363E-5    8.028729351805732E-6   -1.143122692065743E-5    9.827777911561788E-1   -1.745019888241109E-1
 1.396805583250249E8     9.815632222527634E-1   -1.846494014745743E-1    7.990759553639624E-6    1.584535563323974E-5   -3.355627202398728E-6    2.391648149544491E-6    9.808236820447477E-1   -1.875942763601713E-1
 1.496505982053838E8     9.789223311805101E-1   -1.970847843941911E-1    5.306308662967543E-6   -8.689724011199990E-6    1.672358229137122E-5   -7.559534933964243E-6    9.785443218424456E-1   -2.004303008424577E-1
 1.596206380857428E8     9.760343620092553E-1   -2.094380238662819E-1   -6.800389670937011E-6   -4.086091677517842E-6   -9.241963835500503E-6   -4.535059243936643E-6    9.758209496744376E-1   -2.133315210358391E-1
 1.695906779661017E8     9.730734383412344E-1   -2.222663978256584E-1   -5.396346595088372E-6   -8.584477882526188E-6    6.941916189346735E-6    6.112569581939013E-7    9.728117147721717E-1   -2.261465719952088E-1
 1.795607178464606E8     9.707310233515193E-1   -2.348407200281316E-1   -7.061854898951593E-7   -1.183560082659635E-5   -2.543888699038093E-5    1.012176596151779E-6    9.700653676159686E-1   -2.380552864015301E-1
 1.895307577268195E8     9.677111900848353E-1   -2.470754816720281E-1   -6.414775182592710E-6    1.501579975630766E-5   -1.881047896566785E-5    7.976421982389501E-6    9.667220036739245E-1   -2.504692825713674E-1
 1.995007976071784E8     9.638104513525262E-1   -2.594864892387767E-1    1.494305985680078E-5   -5.428337820390348E-6   -7.637982598853499E-6   -3.286063791022117E-6    9.627890122817847E-1   -2.631377177128971E-1
 2.094708374875374E8     9.602914810185091E-1   -2.723530896453248E-1    1.085774814766969E-5    8.382423121358055E-6   -4.869453766815225E-6   -3.837277845430646E-6    9.587273691186817E-1   -2.762225157261634E-1
 2.194408773678963E8     9.573109943872977E-1   -2.851117477087822E-1    5.854340482418999E-6    6.556922074702309E-6   -6.492154556823775E-7   -2.273523051520881E-5    9.549955337356700E-1   -2.890835494069354E-1
 2.294109172482552E8     9.537141397985581E-1   -2.974618497252163E-1   -6.934757463329634E-6    8.334587968940476E-6    1.174592009516406E-5   -1.377102806001085E-5    9.508648217802272E-1   -3.017337714477710E-1
 2.393809571286142E8     9.505329200963549E-1   -3.093765729569670E-1    5.618847464811849E-6   -1.233583694817962E-6   -7.399001394356662E-6   -1.484331663473996E-5    9.469515601769641E-1   -3.140057768213665E-1
 2.493509970089731E8     9.468162002935787E-1   -3.232068896681514E-1    4.558449548478858E-6   -5.951776088272400E-6    6.545106314492180E-6    9.186012410149963E-6    9.439573951291058E-1   -3.276089395361944E-1
 2.593210368893320E8     9.427413517934199E-1   -3.353646027432775E-1    5.930077168175539E-6    1.354597251763032E-5   -9.555098120961100E-6   -5.450829818871228E-6    9.396666613922183E-1   -3.408268447435777E-1
 2.692910767696909E8     9.385161101762376E-1   -3.467258323465607E-1    3.897975142066173E-6    9.500218038405231E-6   -1.768791076715707E-5    2.268317014803589E-5    9.354370761655504E-1   -3.528279363834962E-1
 2.792611166500499E8     9.337240951434445E-1   -3.584341633821447E-1   -1.462232386354657E-5    2.655722606947538E-6    1.564873093187640E-5   -1.313439084987992E-5    9.308873433171938E-1   -3.647433493491817E-1
 2.892311565304088E8     9.288117570653455E-1   -3.704079549650613E-1    8.828011220199704E-6    1.144119426349889E-5    1.241413444557974E-5   -7.455222666577981E-6    9.261023306799739E-1   -3.767930047924125E-1
 2.992011964107677E8     9.240903210339643E-1   -3.825918101181809E-1    7.911112200989881E-6   -4.933165847791186E-6    1.458454062150052E-5    5.129504703291317E-6    9.211203923127393E-1   -3.885897639483117E-1
 3.091712362911266E8     9.188480245474976E-1   -3.949254198106444E-1   -8.062180059837369E-6   -1.028341455414193E-5   -1.100172067593506E-5    1.239068258938364E-5    9.157346861240663E-1   -4.001567922408344E-1
 3.191412761714855E8     9.132560000316180E-1   -4.073215714524197E-1    9.583159116374415E-6   -7.897916473222938E-7   -1.414621986763119E-5    1.860117887053801E-5    9.097066974092574E-1   -4.119662000074018E-1
 3.291113160518445E8     9.076129199280997E-1   -4.200662101496974E-1    1.466159425588630E-5   -9.054674791657747E-6   -1.206026859964441E-6    1.039369635655472E-6    9.032957640535941E-1   -4.243350514042674E-1
 3.390813559322034E8     9.019986043829740E-1   -4.328178167922687E-1    1.318627551910746E-5    1.014127499316201E-5   -2.053582929411830E-7   -4.155337042163678E-6    8.966891551792958E-1   -4.368756750648151E-1
 3.490513958125623E8     8.966552228979150E-1   -4.453568427580655E-1   -3.883310449958568E-6    6.599067463011321E-6    1.035264198577893E-5   -1.182644481865525E-5    8.904148063550004E-1   -4.493404808592774E-1
 3.590214356929212E8     8.912386562059070E-1   -4.578208543731491E-1   -1.563886388397097E-6   -3.094422251169557E-6    8.138202860973793E-6   -5.170595457972154E-6    8.844794122266109E-1   -4.621018058593587E-1
 3.689914755732802E8     8.857933132548207E-1   -4.700536193678748E-1   -9.528272851943971E-6   -6.194910300933482E-7    1.947104004921088E-5    1.313243870756508E-5    8.789892348924044E-1   -4.746760630554905E-1
 3.789615154536391E8     8.799320228230195E-1   -4.812419939582415E-1    1.811212755949927E-5   -1.813220934158383E-6    2.456117535674340E-5   -1.342048136438293E-5    8.737193151819983E-1   -4.867204870380112E-1
 3.889315553339980E8     8.741774875835138E-1   -4.921024911599033E-1    2.679655356395454E-6   -1.380926973911203E-5    1.380851190445871E-5    9.070118251525249E-6    8.678273010549743E-1   -4.987227186947564E-1
 3.989015952143569E8     8.674755608258828E-1   -5.026924391261178E-1    6.640230652038888E-6    3.802534738685920E-6   -1.983035052244255E-5    1.926543766991604E-6    8.611243327448062E-1   -5.097977213857240E-1
 4.088716350947158E8     8.602087106622087E-1   -5.134947849432490E-1   -4.034592407264065E-6   -4.021708082907285E-7   -9.036412142226705E-6   -3.289199054250718E-6    8.542108761768237E-1   -5.206298451085564E-1
 4.188416749750748E8     8.532110496675009E-1   -5.251255772403267E-1    3.413887637200170E-6   -1.351625438305448E-5   -1.668680880244037E-5    5.388824090636638E-6    8.475827096964251E-1   -5.314844842149857E-1
 4.288117148554337E8     8.459887039029436E-1   -5.367404865697383E-1    2.880452485874106E-6    3.014686150481197E-6   -1.184286958724684E-5    2.737476174368541E-5    8.404881346972689E-1   -5.417582979131383E-1
 4.387817547357926E8     8.380987560688217E-1   -5.481663644062096E-1    8.739761010503280E-6   -2.387154670410317E-6   -1.285360202901763E-5    1.025548252203943E-5    8.325993916431629E-1   -5.522897005985651E-1
 4.487517946161516E8     8.304726965209874E-1   -5.600817636626226E-1    1.102809551081082E-5    5.380015833060084E-6    1.913290461595668E-5   -9.899482495254338E-6    8.241531652581731E-1   -5.634548342258140E-1
 4.587218344965104E8     8.235075432753945E-1   -5.719390293066672E-1   -5.034175345846712E-6   -5.081146760395042E-6   -6.547359118609674E-6    8.118848135298799E-6    8.160523328594429E-1   -5.753043080610094E-1
 4.686918743768694E8     8.169142770710692E-1   -5.834114948046540E-1    6.030254314542124E-6   -1.213264442615781E-5    2.129982422558571E-5    8.459613321111754E-7    8.078196637588992E-1   -5.868037334310170E-1
 4.786619142572283E8     8.097758005104326E-1   -5.942372127199461E-1    2.150366736197524E-6    1.939179832378413E-6   -7.508693596417154E-7   -7.187452222707607E-6    7.992358158013840E-1   -5.979888185981531E-1
 4.886319541375872E8     8.021790441313390E-1   -6.046180294686564E-1   -1.091302820936126E-6   -2.528610997269336E-6   -1.769441797913923E-6   -7.975096390273294E-7    7.905281480739907E-1   -6.088799714689844E-1
 4.986019940179462E8     7.940748286892449E-1   -6.154406776311377E-1    6.097573148324150E-6    5.451935183729562E-6   -6.874534695485523E-6    1.936071136679661E-6    7.823368534008970E-1   -6.196316818003765E-1
 5.085720338983051E8     7.856565589457926E-1   -6.245843766510962E-1    6.338154773767171E-7    1.994186097271813E-7    1.212212834045830E-5    8.099979354458873E-6    7.745707508028503E-1   -6.302709443646103E-1
 5.185420737786640E8     7.782516736818630E-1   -6.335236230885839E-1    4.598931362246271E-6    8.882309107106371E-7   -1.285547697424961E-5    1.550537069563334E-5    7.669490462505818E-1   -6.401061581208271E-1
 5.285121136590229E8     7.698958416413542E-1   -6.430050496128999E-1   -6.907913090636985E-7   -8.230385281917668E-6    2.905719384331842E-6    3.816747166452875E-6    7.588913431893293E-1   -6.497488850472255E-1
 5.384821535393819E8     7.614411481245558E-1   -6.531700007808795E-1   -4.447353609364018E-6    4.666012592415863E-6   -4.049287209048361E-6    1.861298672292637E-6    7.508604867766183E-1   -6.593576776005803E-1
 5.484521934197408E8     7.532410247067515E-1   -6.637585157357492E-1   -7.626391625416501E-6   -3.070508163591925E-6    1.290138146222375E-5   -1.843111317613331E-6    7.423208066373618E-1   -6.691396902549936E-1
 5.584222333000997E8     7.446544859111275E-1   -6.746269859334898E-1   -2.530490999753985E-6    5.704246250677406E-6   -3.933635731360053E-6    6.806754250927167E-6    7.332358456029455E-1   -6.791104514163934E-1
 5.683922731804587E8     7.355411802689480E-1   -6.851391515960340E-1    1.060974345135033E-5    4.386430967638056E-6    2.190466368209940E-6    8.526413094654560E-6    7.231101607583084E-1   -6.892402559676474E-1
 5.783623130608176E8     7.261445712738551E-1   -6.951797737580648E-1   -1.087106449685841E-5   -4.778414244763658E-6    5.555821222101793E-7   -6.972743842707808E-6    7.126520056536061E-1   -6.989201947429959E-1
 5.883323529411764E8     7.170220175868708E-1   -7.051206649650603E-1   -9.374988999466414E-6   -8.386429920646752E-6    4.889014525995955E-6    2.073522668374905E-5    7.021891322644557E-1   -7.087423952395207E-1
 5.983023928215353E8     7.079661140381720E-1   -7.152841183532003E-1    9.524375637439787E-6   -1.087143380383854E-5    3.011999253047552E-5    1.212479040644201E-5    6.917033478911628E-1   -7.183055879579276E-1
 6.082724327018943E8     6.984223837419878E-1   -7.249139291476158E-1    1.189788386929525E-5    5.805847470032355E-6    1.063016843928811E-6    1.674007229495828E-5    6.815914226251086E-1   -7.277051868353763E-1
 6.182424725822532E8     6.885109112314421E-1   -7.345726797869494E-1    2.035490669631221E-7    3.445929273704949E-6   -1.013544831444847E-5   -9.226653749441148E-7    6.717306928438653E-1   -7.371166458055849E-1
 6.282125124626122E8     6.780648056252752E-1   -7.439178440575172E-1   -3.020758320792639E-6   -4.710348146574273E-6    3.653215079040000E-6    1.174347397019006E-6    6.627126777595779E-1   -7.467987657061962E-1
 6.381825523429711E8     6.683240400042906E-1   -7.510879294127213E-1   -3.859117884490714E-6    3.431386482091622E-6    1.172447272251205E-6    1.652230726701055E-6    6.537149350122503E-1   -7.555886277615553E-1
 6.481525922233300E8     6.594034696702431E-1   -7.596899170258761E-1   -8.089791922347167E-7   -7.784460842708702E-6   -1.909727764197342E-5    1.755167592570127E-6    6.445439657912624E-1   -7.640032850765160E-1
 6.581226321036890E8     6.495905144819798E-1   -7.685886644986387E-1   -1.546528069587442E-5    4.274277449365987E-6   -8.880996065801654E-6   -1.629342576219511E-5    6.345297536770931E-1   -7.724615446082642E-1
 6.680926719840479E8     6.396533869629795E-1   -7.771999529574614E-1   -1.888711904591017E-5   -9.538562569649701E-6    6.408792971828925E-6    1.929589424259329E-5    6.239483990551156E-1   -7.804621147837068E-1
 6.780627118644068E8     6.298852703232057E-1   -7.853969403224640E-1   -5.121481205825723E-7   -2.303690362768862E-6   -5.454449604487386E-6    8.170774523074263E-7    6.128141332632463E-1   -7.882685097022482E-1
 6.880327517447658E8     6.195942833422884E-1   -7.937297750105751E-1   -1.609572288348978E-5   -5.209049479728913E-6   -1.301194705076141E-5    5.750854610649959E-6    6.015391317806311E-1   -7.959325104314865E-1
 6.980027916251246E8     6.085532622473451E-1   -8.018608455925017E-1   -2.434800162560512E-6    7.346454703224772E-6    8.983313848820635E-7    1.478544652066652E-5    5.900050167505742E-1   -8.036922928007831E-1
 7.079728315054835E8     5.972606613360557E-1   -8.102123719971266E-1    1.316148253703129E-6   -1.455193939662146E-6   -1.218191641922068E-6    9.111438485621325E-6    5.786235932074979E-1   -8.115693477541310E-1
 7.179428713858424E8     5.861230761649743E-1   -8.188008168741140E-1   -9.742818393763952E-6   -5.726245620604035E-6    3.805180481036189E-6   -5.199958420357678E-6    5.672254242586496E-1   -8.201188841306692E-1
 7.279129112662014E8     5.751384534480189E-1   -8.272912901325761E-1   -7.991412033424841E-6   -9.460638127095879E-6    1.063633647589346E-6   -7.070750693071511E-6    5.559189344424972E-1   -8.288451449556856E-1
 7.378829511465603E8     5.638198050170730E-1   -8.360249439463288E-1   -1.583042079956847E-5    7.188781548028143E-6   -1.245650287568957E-6    4.931520806973648E-6    5.446397757719358E-1   -8.373444687754317E-1
 7.478529910269192E8     5.518262165858233E-1   -8.444441101882638E-1   -1.029906205897853E-5    1.151658918072531E-5   -3.217558485905794E-5    3.343972833981162E-6    5.334637091840337E-1   -8.449592530740770E-1
 7.578230309072782E8     5.392661983981654E-1   -8.516527395622483E-1    8.548064688338243E-6   -2.158315424341407E-6    4.438014828748916E-6    9.982876939065716E-6    5.222903077700900E-1   -8.519324033860772E-1
 7.677930707876371E8     5.288302444824476E-1   -8.571119683261136E-1   -4.441946748722071E-6   -4.074116788468729E-6   -1.066140480355075E-5    3.619467323683620E-6    5.109324650673351E-1   -8.582319764398307E-1
 7.777631106679960E8     5.192114357204274E-1   -8.639449782303864E-1    1.124325991200646E-6    6.494264724035818E-6    9.211974823399439E-6    2.642637016204744E-6    4.993950737130646E-1   -8.648206466114989E-1
 7.877331505483550E8     5.088058130575500E-1   -8.708738722548393E-1    1.470017531436685E-5    1.376140014310315E-5    7.690631695753575E-6   -1.797780603160553E-5    4.876570061672326E-1   -8.714213959021464E-1
 7.977031904287138E8     4.976218657682696E-1   -8.772331052883593E-1    1.127397094205590E-5   -3.737073897582486E-6    8.147599531462053E-6    7.986983156987269E-6    4.748996340171749E-1   -8.780069581917850E-1
 8.076732303090727E8     4.858581500617092E-1   -8.830986572846200E-1   -3.648869228739857E-7    1.504008813741580E-5    1.410523829491225E-5    3.730245563448599E-6    4.619886470960597E-1   -8.840262329512739E-1
 8.176432701894317E8     4.738338434670314E-1   -8.891031009079668E-1    7.211158816469551E-6   -6.726276954957419E-6    9.073510596286313E-7   -1.209513927251910E-7    4.491756311070722E-1   -8.902423721207233E-1
 8.276133100697906E8     4.615480465186043E-1   -8.955283648320207E-1    2.481971596693878E-6   -3.864402578480954E-6   -5.537479491313868E-6   -9.275504953571310E-6    4.364861576950087E-1   -8.970079036863251E-1
 8.375833499501495E8     4.488989590389080E-1   -9.019223575781905E-1    8.721089930704747E-6   -6.796363540757957E-6   -4.581754694467806E-6    1.078944689484351E-5    4.245302349848757E-1   -9.038173413835524E-1
 8.475533898305085E8     4.360855200600707E-1   -9.083744123007861E-1    5.999925895493622E-6   -5.842820194593154E-6    1.720880918984431E-5   -3.589136662746289E-6    4.125260705879967E-1   -9.097888589987173E-1
 8.575234297108674E8     4.233176487822190E-1   -9.147930409398943E-1    1.652549572308688E-6    5.490325016059298E-6   -1.069736830820005E-6    1.146841706467144E-5    4.008060548556153E-1   -9.150902903571424E-1
 8.674934695912263E8     4.106102361783254E-1   -9.215110933143617E-1    5.982525714251120E-6    4.754067087428508E-6   -1.569876631805856E-5    9.481894180954966E-6    3.887002255549755E-1   -9.199488284795280E-1
 8.774635094715853E8     3.974907608631297E-1   -9.280860365264968E-1   -4.817779662873716E-6    5.468492330569540E-6   -1.583087954165681E-5   -1.002711187898577E-5    3.760991493453583E-1   -9.246526257208183E-1
 8.874335493519442E8     3.843159122873255E-1   -9.326279820069728E-1    3.423324627301165E-6    1.848992842726888E-6   -2.419611971271804E-6    2.259201948920875E-6    3.630393214468506E-1   -9.290941438119134E-1
 8.974035892323031E8     3.729754099155485E-1   -9.363260151674273E-1    9.490917361684238E-6    3.248408776358506E-6    3.462219143142604E-6    8.552828654729570E-6    3.494710258698417E-1   -9.332732079477332E-1
