#  HZ   S   RI   R     50.00 
! Rohde & Schwarz Vector Network Analyzer 
! Rohde-Schwarz,ZNB20-2Port,1311601062102128,3.60
! Created: UTC 4/29/2024, 2:52:23 PM
! freq[Hz]                re:S11                  im:S11                  re:S21                  im:S21                  re:S12                  im:S12                  re:S22                  im:S22
 1.000000000000000E5     9.964390097523087E-1    3.730583782881476E-3   -1.242985266460873E-4   -2.981084396945228E-5    6.500572350030863E-5   -5.721499382555387E-5    1.010432343261102      -1.134214873793853E-2
 1.007003988035892E7     9.974869715200636E-1   -1.394370436520926E-2   -3.178063388769809E-6   -5.228061010271901E-6   -6.893078230435879E-6   -8.484742156324371E-6    9.958370063116184E-1   -1.448744259555404E-2
 2.004007976071785E7     9.998477530682182E-1   -2.722719300515979E-2    1.296345777843261E-5   -2.167121687235768E-6   -5.774234565660886E-6    4.878858574817767E-6    9.987879754632436E-1   -2.759760360227339E-2
 3.001011964107677E7     9.976901322445565E-1   -4.101047946339288E-2    3.619058845599857E-6   -1.063148053311306E-5    1.343014030964640E-5    3.229177785920846E-6    9.975228821770032E-1   -4.204534040574880E-2
 3.998015952143569E7     9.975735075532228E-1   -5.303551450143607E-2   -1.376877160529210E-5    5.171490699468794E-6   -7.448626960406013E-6   -3.569530208968315E-7    9.975660813658456E-1   -5.673450580598801E-2
 4.995019940179461E7     9.960611236433410E-1   -6.600764922738962E-2    1.237977520059358E-6    1.018495763162441E-5   -3.526734218239052E-6   -1.329389068183121E-5    9.964375391713602E-1   -6.905280819816791E-2
 5.992023928215354E7     9.943288801987012E-1   -7.882623736200758E-2    4.310841312809386E-6   -9.528163652901214E-6    1.191900409333210E-5    4.992618509004177E-6    9.946182001476211E-1   -8.196005746712304E-2
 6.989027916251247E7     9.929708359983175E-1   -9.179013636672423E-2    1.445667721477950E-5   -5.702490815245760E-6    6.176265284098074E-6   -7.177823305335793E-7    9.933879125401706E-1   -9.473959505866861E-2
 7.986031904287139E7     9.922751579654732E-1   -1.052035263397383E-1   -8.297630264445789E-6    6.371282674423626E-6   -9.739988503857143E-6    1.254174782309931E-5    9.922242036580218E-1   -1.079591755876599E-1
 8.983035892323031E7     9.913006828559432E-1   -1.187679587693565E-1    2.534732932842999E-5    1.512205367383207E-5    1.226470040059075E-5    3.160782804326871E-6    9.908702812799057E-1   -1.210479557509042E-1
 9.980039880358922E7     9.893328965877402E-1   -1.323281894488116E-1   -1.710739722258816E-5   -1.603547365434614E-6    7.196694535027712E-6    3.929865525820453E-6    9.884920691003227E-1   -1.343363953605624E-1
 1.097704386839482E8     9.865460059680193E-1   -1.455136041885723E-1   -1.549758127142733E-5   -3.067769033457993E-6    8.620939696411899E-6    4.651912576376643E-6    9.861209106983401E-1   -1.477231075959383E-1
 1.197404785643071E8     9.848078185494809E-1   -1.590165265708514E-1   -2.074454346609328E-6    1.363636725383148E-7    1.203900285884106E-5    9.555987986815374E-7    9.842783518800940E-1   -1.611825822036932E-1
 1.297105184446660E8     9.829835016628165E-1   -1.717458982950311E-1    1.290278211909134E-5    6.910059635377180E-7    9.879210303110206E-6    2.145470635325390E-6    9.829413637489092E-1   -1.744378955129711E-1
 1.396805583250249E8     9.814694326650292E-1   -1.846318829832560E-1   -1.163208584940796E-5   -1.226350461681363E-5    1.763219800132335E-5   -6.731205382047856E-6    9.809371941666314E-1   -1.875378673496035E-1
 1.496505982053838E8     9.789553060394791E-1   -1.970892123798856E-1   -1.032058820637331E-6    1.038437698318063E-5   -1.907917067015445E-5   -4.329531754854069E-6    9.785113932707756E-1   -2.004253997368961E-1
 1.596206380857428E8     9.762449478866724E-1   -2.095519253287627E-1   -3.596084196466522E-6    9.707715317621012E-6    3.639222848879629E-6   -8.115308079610150E-7    9.757733259476173E-1   -2.132454464725461E-1
 1.695906779661017E8     9.730674397177398E-1   -2.223833410016246E-1    7.961095068468039E-7   -1.683261310059366E-5   -5.890414295362150E-6   -2.091754310446300E-5    9.729186492447003E-1   -2.261645466705070E-1
 1.795607178464606E8     9.706280675937446E-1   -2.348682020885667E-1    7.627191031194060E-6   -5.085920886574968E-6    1.329684098060417E-5   -8.461023275608272E-7    9.701858664990680E-1   -2.380095791811239E-1
 1.895307577268195E8     9.677003884087222E-1   -2.470881580663549E-1    9.465210099684702E-6    1.145909990056010E-5    7.082514380207324E-6   -6.234185731103293E-7    9.667016383022956E-1   -2.504758820500403E-1
 1.995007976071784E8     9.637402255749444E-1   -2.594797897671804E-1    8.424217031688803E-6    2.821900670813789E-6   -1.865472484099310E-6   -1.368535569141528E-5    9.627795326517784E-1   -2.632294088129515E-1
 2.094708374875374E8     9.602928041267964E-1   -2.722773955299729E-1    8.788169906034393E-6   -2.902887832379714E-6   -3.451301115682861E-6    4.614701650041212E-6    9.589401356780862E-1   -2.762434020714567E-1
 2.194408773678963E8     9.572201283297929E-1   -2.851185586389703E-1    5.680112240030334E-6   -7.302867113071067E-6   -6.303126045916906E-6    1.171699138263521E-5    9.551226643632564E-1   -2.890992321288022E-1
 2.294109172482552E8     9.536681047201737E-1   -2.974036184051906E-1   -1.386069842576251E-5    1.021069384928159E-6   -6.597838163231319E-6   -1.998794328544109E-5    9.508741546457138E-1   -3.017358926042700E-1
 2.393809571286142E8     9.505164904553283E-1   -3.094071446586807E-1   -9.337520320423700E-6   -3.880479481328960E-6    2.958099759327687E-5    1.557420594547844E-5    9.469116527012896E-1   -3.139674132816678E-1
 2.493509970089731E8     9.468303429170329E-1   -3.233408010057476E-1    8.723351579920223E-6   -4.233039610245238E-8   -6.357183822973228E-6   -2.130478280345898E-6    9.440918357453661E-1   -3.276651525797798E-1
 2.593210368893320E8     9.426632961070728E-1   -3.353622442776963E-1   -8.609161703234036E-6   -1.326144875777715E-5    4.286337825432248E-6    8.839683471341697E-6    9.398301128475052E-1   -3.409224840551980E-1
 2.692910767696909E8     9.385120541979873E-1   -3.467741567351508E-1   -2.637467143958636E-8   -1.385806499576708E-6   -4.599113013414376E-6    1.604655829151687E-5    9.354228579240849E-1   -3.528375519316556E-1
 2.792611166500499E8     9.337733446788655E-1   -3.584433524443761E-1    1.011549281798358E-6    4.999902572735689E-6    5.638374567266439E-6   -7.291486426026970E-6    9.309680215217635E-1   -3.646174556212239E-1
 2.892311565304088E8     9.289540001535118E-1   -3.705443166639797E-1   -1.054118201237825E-5   -4.465976024510837E-7   -1.793207137576506E-5    2.544063017371032E-5    9.262957428110824E-1   -3.768774398297696E-1
 2.992011964107677E8     9.241177400040687E-1   -3.826387456808867E-1   -9.030598183216324E-6   -1.113812276776290E-6   -1.898068240652337E-5    1.013629215263970E-5    9.212037772453949E-1   -3.886407225102636E-1
 3.091712362911266E8     9.188103886289961E-1   -3.949080458612342E-1   -8.573802565902107E-6   -2.105510219377388E-6    1.157772358924401E-6    1.205208665245336E-5    9.156344022018691E-1   -4.001682939949724E-1
 3.191412761714855E8     9.130342143087601E-1   -4.072545913362283E-1    1.016658539733434E-5    1.013234413206739E-6   -5.998579157491930E-6    2.131219967785524E-6    9.097044851685698E-1   -4.119381745626722E-1
 3.291113160518445E8     9.074218875879139E-1   -4.200266719952608E-1    5.886839878488548E-6   -5.844488160853823E-6    8.147408548500201E-6   -2.817399535962757E-6    9.035482533111108E-1   -4.244026895411788E-1
 3.390813559322034E8     9.019367569937666E-1   -4.327652986795641E-1   -4.035558924507133E-6    1.684245790503093E-5    2.262217519821644E-5    1.293523367668243E-5    8.968966664860331E-1   -4.369490027331837E-1
 3.490513958125623E8     8.966631517956614E-1   -4.453755783985978E-1    5.108195264229376E-6   -5.251317641379962E-6    4.195417045404593E-6    5.869251032801955E-7    8.904218319248289E-1   -4.494223583561056E-1
 3.590214356929212E8     8.912091542809986E-1   -4.578838196021172E-1    5.670523367462750E-6    1.860564979661334E-6    7.389379392534008E-6   -8.161481152904732E-6    8.844359709003786E-1   -4.620773641247277E-1
 3.689914755732802E8     8.858496140833665E-1   -4.701069173533515E-1    1.699015743832042E-5    3.512982626563637E-6   -6.515049163526502E-6   -4.538747411529188E-6    8.790167905785251E-1   -4.748063550426743E-1
 3.789615154536391E8     8.798341139820772E-1   -4.813565410484190E-1    8.123634523258795E-6    2.194576479083063E-6    7.718144358626494E-6   -7.653593458708760E-6    8.738967666460637E-1   -4.868104008832125E-1
 3.889315553339980E8     8.741791161285484E-1   -4.920849867048972E-1   -7.683836803715453E-6   -8.633891169597415E-6   -7.194976606598240E-6    1.348194351077816E-5    8.678850232122070E-1   -4.987464731540351E-1
 3.989015952143569E8     8.673469845365437E-1   -5.027657368637662E-1   -3.570807275551532E-6   -9.041241695650358E-6   -2.137431402198195E-6    1.063320965580289E-5    8.610665693829882E-1   -5.096512892663485E-1
 4.088716350947158E8     8.600593024375118E-1   -5.135238806116154E-1    1.795672730899007E-5   -7.675389099424196E-6   -8.077722170270779E-6   -1.714114083056430E-5    8.541728072346420E-1   -5.205925093892715E-1
 4.188416749750748E8     8.531771337358095E-1   -5.250829843662885E-1    2.829684329734447E-6    9.656869087892481E-6    2.011689395811912E-6   -7.090446013239599E-6    8.477399535966417E-1   -5.315820529604505E-1
 4.288117148554337E8     8.460063983550280E-1   -5.368559279921129E-1    1.118646315162357E-6   -1.982030324408569E-6   -1.127868081642479E-5    4.523255276714587E-6    8.406303674329882E-1   -5.417988201186261E-1
 4.387817547357926E8     8.381985327974351E-1   -5.482273247279484E-1   -6.884359762440261E-6    1.322203058814261E-5   -5.001294399897098E-6   -2.222167015433316E-5    8.325444301295755E-1   -5.522160669704795E-1
 4.487517946161516E8     8.304422548790663E-1   -5.600079225386146E-1   -6.859943015050395E-6   -6.435275256136170E-6    8.509252544843312E-6    1.512524682878770E-6    8.241640600438418E-1   -5.634256590449707E-1
 4.587218344965104E8     8.234642288746196E-1   -5.719747455240760E-1    8.805449624899917E-6    1.252481697871363E-6    4.201734026117489E-8    6.622128015274303E-6    8.160801305152512E-1   -5.752765060653369E-1
 4.686918743768694E8     8.170798426735413E-1   -5.834832631903377E-1    2.366886874530502E-6    7.427572321117249E-6   -9.138850075491310E-6   -1.527607897905174E-5    8.078886391390130E-1   -5.868632401491571E-1
 4.786619142572283E8     8.098079314780939E-1   -5.942634553809458E-1    9.735661099578463E-6   -6.789467454876000E-6   -1.675116310128613E-6    3.824668306865152E-6    7.992678317649742E-1   -5.979872118721271E-1
 4.886319541375872E8     8.022702887660365E-1   -6.047141199655055E-1    4.216763428084153E-6   -9.750455939111701E-6    1.008933789522341E-5    8.726440981070994E-6    7.905328602901430E-1   -6.088101998818712E-1
 4.986019940179462E8     7.939024847186682E-1   -6.153309227709111E-1    1.486837707755313E-5    3.131355157715932E-6    1.362386758578883E-5    1.399497468705487E-5    7.823316064201558E-1   -6.196660263414594E-1
 5.085720338983051E8     7.855334068960271E-1   -6.245384620152148E-1    1.029509544565902E-5   -1.009098659727136E-6    5.509239028840413E-7   -1.784795821716000E-5    7.746017459584479E-1   -6.302443133403853E-1
 5.185420737786640E8     7.782369414587792E-1   -6.336259240768213E-1    7.388012716727633E-6   -2.048827708116603E-5   -4.742585459033755E-7   -8.059775515744196E-6    7.668656648918989E-1   -6.401044374694642E-1
 5.285121136590229E8     7.699881031980671E-1   -6.430980724635355E-1   -6.258035143541395E-6    1.464258679849910E-5    2.198406636639456E-6    6.877838066816871E-6    7.589215877947789E-1   -6.497272179121215E-1
 5.384821535393819E8     7.613879837568296E-1   -6.532032408015848E-1   -5.829574825710570E-6   -4.659985028838059E-6   -1.178976381579731E-6    4.223616648174520E-6    7.508920698696127E-1   -6.593537565164732E-1
 5.484521934197408E8     7.531496199350910E-1   -6.636857805162947E-1    1.591097177418025E-5    2.468149200217623E-6    1.296981747826529E-6    8.462730600843365E-6    7.423568177053932E-1   -6.692146459366837E-1
 5.584222333000997E8     7.446833111460612E-1   -6.746726366498739E-1   -8.680213073412887E-6    3.192491698401376E-6   -1.960175979148269E-5    1.233743146623742E-5    7.333202422672607E-1   -6.791242417339340E-1
 5.683922731804587E8     7.356072547222815E-1   -6.852548104936960E-1    6.350148861793918E-6   -1.477705613166597E-5    6.891238408857873E-6   -8.700983439296667E-6    7.230886259142800E-1   -6.891344884730757E-1
 5.783623130608176E8     7.262363228186195E-1   -6.950846705023351E-1    8.936735823549082E-6    3.177204942842705E-6    2.769125977694293E-6    9.530166775739425E-6    7.126991887500403E-1   -6.989603549457464E-1
 5.883323529411764E8     7.169514410761986E-1   -7.050489379978445E-1    1.419500205638047E-5   -6.117643618016142E-6    2.777431638094549E-6    1.858916944790349E-5    7.022698806509872E-1   -7.086839785370553E-1
 5.983023928215353E8     7.078152897964634E-1   -7.151931302091386E-1   -1.095933404857584E-6   -1.156961091818707E-5   -7.273444631837349E-6    1.040677999476434E-6    6.919016418134326E-1   -7.183124098369318E-1
 6.082724327018943E8     6.983775298373905E-1   -7.249785743546255E-1   -7.519765693521191E-6    5.017276279589216E-7   -4.736596664755694E-6   -4.433809204339289E-6    6.815385478645003E-1   -7.276674348748347E-1
 6.182424725822532E8     6.885724641384865E-1   -7.347074184201337E-1   -5.373786183917605E-6    6.893230445153476E-7   -8.517074410931530E-6   -1.171361081824187E-5    6.716519769278543E-1   -7.371944307193672E-1
 6.282125124626122E8     6.779530150139734E-1   -7.440094237518884E-1   -4.063815640938360E-6   -1.296619537698380E-5    4.294684953432238E-6   -1.405900059486122E-6    6.626930683468121E-1   -7.468282318374159E-1
 6.381825523429711E8     6.682589473253943E-1   -7.510361195462565E-1    7.027265553384401E-6    4.975065367470237E-6    9.815054255315350E-6   -1.685618467334711E-5    6.538165033734890E-1   -7.557108937042667E-1
 6.481525922233300E8     6.592666372169039E-1   -7.596204968268679E-1   -7.393072987049571E-6    7.569388004974733E-6   -1.385089597810273E-5    7.443009572861491E-7    6.445683199070523E-1   -7.641485816678460E-1
 6.581226321036890E8     6.495784049184337E-1   -7.686230252048267E-1   -4.286371776498189E-6   -4.377779443014168E-6   -8.066549024077862E-6   -2.031761736139438E-5    6.345201569172683E-1   -7.724491988698601E-1
 6.680926719840479E8     6.397692299256725E-1   -7.772873838718354E-1   -3.311515950043690E-6    1.946887971630253E-6    4.988755437633380E-6    1.684639022046405E-6    6.239147523492382E-1   -7.805321156722103E-1
 6.780627118644068E8     6.298345059963850E-1   -7.854315399674819E-1    2.082064335806698E-6   -4.104512120065042E-6   -1.157614337134068E-5    1.869204705999642E-5    6.128404455802191E-1   -7.883493330867266E-1
 6.880327517447658E8     6.194882306069104E-1   -7.936962044937714E-1   -1.727584539472128E-6    1.158783274938822E-5    1.413367132691851E-6   -3.302189075902919E-6    6.014616573975470E-1   -7.959345053043523E-1
 6.980027916251246E8     6.085483834336217E-1   -8.018219962969885E-1   -4.188448719147981E-6   -1.170971198137208E-5    7.437444622136331E-7    5.437803425437011E-6    5.899415884390002E-1   -8.036709282755904E-1
 7.079728315054835E8     5.972678792197634E-1   -8.102329698261260E-1    1.729159729076552E-5   -2.563916064006168E-6   -4.634550149330511E-6   -2.085097798400371E-5    5.784870795305745E-1   -8.116098041928275E-1
 7.179428713858424E8     5.861136015795946E-1   -8.187022279387796E-1   -8.418305012962961E-6   -1.187004446324208E-5   -2.157778383676197E-5    9.170162780715030E-6    5.673091225761469E-1   -8.201926783372343E-1
 7.279129112662014E8     5.750822980893492E-1   -8.271912291738118E-1   -1.088548746255459E-5   -1.374583258833693E-5    1.301010367957207E-5    7.704525473455597E-6    5.559164160738410E-1   -8.288873081103424E-1
 7.378829511465603E8     5.637735547131653E-1   -8.360006359461468E-1   -1.131203642011553E-6    2.856756565049183E-6    5.085283778861580E-7   -7.622187476287970E-6    5.445450042828388E-1   -8.372507687707853E-1
 7.478529910269192E8     5.517280034687092E-1   -8.445035269972492E-1    1.205383782738733E-5    1.181538702778251E-5   -4.386392163561844E-6    3.328797245768565E-6    5.334266932272013E-1   -8.449821722944167E-1
 7.578230309072782E8     5.391577349219476E-1   -8.516392716193313E-1    2.206135778357129E-6    1.306172661089162E-5    4.547407225040363E-6   -3.678568661304937E-7    5.222372884615225E-1   -8.519615973918713E-1
 7.677930707876371E8     5.288685060585969E-1   -8.571274919397647E-1   -5.443259763328692E-6    8.808400365754283E-6    3.960513293428009E-7   -1.586867994786958E-5    5.109802394146398E-1   -8.582824368017183E-1
 7.777631106679960E8     5.190947210821003E-1   -8.640204453778769E-1   -1.668563780474247E-5    4.329302600140878E-6   -1.884485850780706E-6   -3.762706216598196E-6    4.994956048122265E-1   -8.648166382949363E-1
 7.877331505483550E8     5.087370184168616E-1   -8.708304569459092E-1    7.143239409694696E-6    7.020573007255757E-6   -1.592650942371879E-5    1.234229416776817E-7    4.876921249751487E-1   -8.715574076480692E-1
 7.977031904287138E8     4.975157813236121E-1   -8.772383650302459E-1   -4.535610012302974E-6   -1.497897884014555E-6    6.232712157005511E-6   -7.868271020505674E-6    4.749288401363071E-1   -8.780209590818205E-1
 8.076732303090727E8     4.858151404509005E-1   -8.831829839940508E-1   -3.795117931814118E-7   -1.444318791376324E-6    4.615611014092787E-6   -1.306007203457365E-6    4.620670377716234E-1   -8.840668549475776E-1
 8.176432701894317E8     4.738068708124566E-1   -8.891913109755889E-1    4.320168557982745E-6    7.176052909009110E-6    5.384376696128105E-6    4.897775695833681E-6    4.491518630622589E-1   -8.903589313265594E-1
 8.276133100697906E8     4.614431268176590E-1   -8.956936250076953E-1   -4.499325385151575E-7   -3.847939229386272E-6   -1.312095232314316E-6   -5.542659929135832E-6    4.365373896302066E-1   -8.970619648923090E-1
 8.375833499501495E8     4.488372278481448E-1   -9.020113523992319E-1   -1.305969305654186E-6    1.162038436385390E-6    1.044459337892746E-5    8.601759183751129E-7    4.244535781348998E-1   -9.037916259952645E-1
 8.475533898305085E8     4.360732257943164E-1   -9.084246938904887E-1   -3.816151196702004E-6    1.651157240726460E-6    9.477197665443032E-6    5.653045434286784E-6    4.125612138326434E-1   -9.098705110137614E-1
 8.575234297108674E8     4.233067269048350E-1   -9.147410850311708E-1    5.618126995380839E-6    2.543497359347311E-6   -3.945835248167265E-6    4.574959725708071E-7    4.007908871839156E-1   -9.150661389233294E-1
 8.674934695912263E8     4.104606188822474E-1   -9.214354625802671E-1   -3.733076755589321E-6   -6.037523349962460E-6   -3.217775704286814E-6   -3.276425156660184E-6    3.886524590036833E-1   -9.199222780031865E-1
 8.774635094715853E8     3.972946114210434E-1   -9.280076479950826E-1    1.006002330526056E-5   -1.121391336573344E-5    1.537911160525608E-5   -1.621889765790615E-5    3.761029345287119E-1   -9.247210377897694E-1
 8.874335493519442E8     3.842995418413385E-1   -9.326941642277486E-1    2.214313430471492E-6    1.052458223447722E-5   -7.795235836127563E-7   -1.980988954276145E-6    3.629916788678859E-1   -9.291580628505371E-1
 8.974035892323031E8     3.730072340821151E-1   -9.362806349632947E-1   -7.873245918824909E-6   -1.792709260816585E-5   -4.179806902998843E-6    1.334772074625608E-6    3.496641774717096E-1   -9.335044174513646E-1
