#  HZ   S   RI   R     50.00 
! Rohde & Schwarz Vector Network Analyzer 
! Rohde-Schwarz,ZNB20-2Port,1311601062102128,3.60
! Created: UTC 4/29/2024, 2:52:19 PM
! freq[Hz]                re:S11                  im:S11                  re:S21                  im:S21                  re:S12                  im:S12                  re:S22                  im:S22
 1.000000000000000E5     9.957770463571618E-1    3.749782649687692E-3   -3.776866903988162E-5   -1.582073859597049E-4    1.202280966346334E-4    9.791260487609898E-5    1.010374949518382      -1.116611085764668E-2
 1.007003988035892E7     9.983016176794778E-1   -1.391843025475394E-2    6.275016184615537E-6   -2.796949936608575E-6   -1.280461378659244E-5    6.681776748483645E-6    9.959052619511464E-1   -1.451328741527377E-2
 2.004007976071785E7     9.999046810498923E-1   -2.712566822577922E-2    2.990729742395091E-6   -2.015903063866013E-5    7.548210902532311E-6    3.150706634497274E-5    9.988015516572216E-1   -2.769850188872428E-2
 3.001011964107677E7     9.983182180617969E-1   -4.105664508430760E-2    9.398966399764018E-6    1.502838211296068E-6    1.267748665172578E-5   -7.675531271345642E-6    9.973815592738154E-1   -4.205769766619211E-2
 3.998015952143569E7     9.977012512908384E-1   -5.318565973046734E-2    4.695451784471285E-6    4.500782425723660E-6    2.446614806555693E-5    1.237343695953134E-5    9.976442027306408E-1   -5.666776511723226E-2
 4.995019940179461E7     9.957694195957502E-1   -6.608137326725813E-2   -3.460147059387422E-6    2.693057298762757E-6    2.964807300148250E-6    1.406666515810064E-5    9.966781424770772E-1   -6.906752766795837E-2
 5.992023928215354E7     9.939339989152582E-1   -7.876350905015446E-2   -6.121466045725439E-6   -5.842311210817821E-6   -1.163494851627627E-5   -1.498735157912668E-5    9.946556353303477E-1   -8.191061497072896E-2
 6.989027916251247E7     9.930585440838325E-1   -9.192782431760610E-2   -1.042557239884174E-5    1.292827298653033E-5    6.952082674416936E-6    9.759394422577555E-6    9.933367427706329E-1   -9.474976759381727E-2
 7.986031904287139E7     9.926394201660127E-1   -1.052520913244797E-1    6.239756076587306E-6   -1.018504262946332E-5   -7.746099866583092E-6   -1.702912036590143E-6    9.923126861882013E-1   -1.078693977144532E-1
 8.983035892323031E7     9.917597035217877E-1   -1.188854844181690E-1    1.190970930109437E-5    6.007722635537731E-6    1.241480833631818E-5    1.387673399359833E-5    9.907937289048365E-1   -1.210632475825985E-1
 9.980039880358922E7     9.895480812584906E-1   -1.323980972583859E-1   -1.088198094688097E-5   -9.770936325544274E-6    5.278274177153029E-6    1.879925300506796E-6    9.887103248219224E-1   -1.344338991217643E-1
 1.097704386839482E8     9.863203838845241E-1   -1.456212366046082E-1    1.445953201390905E-5    4.222784767760442E-6    6.536361963158879E-6    8.304573934576553E-7    9.861965564973214E-1   -1.478155205327291E-1
 1.197404785643071E8     9.846764114545832E-1   -1.589649289909843E-1   -5.224261134645425E-6   -3.195708159273134E-6   -1.540672433797798E-5    3.792552488314914E-6    9.841925659917790E-1   -1.609905513980995E-1
 1.297105184446660E8     9.828564508839299E-1   -1.717520704961285E-1    5.280452175771795E-6   -1.328149918801101E-5   -5.533274499397440E-7   -2.786202259251185E-6    9.827673628170316E-1   -1.744141524046431E-1
 1.396805583250249E8     9.818413566869530E-1   -1.846695729669083E-1    6.735307379808270E-6   -4.309048726309727E-6    2.004016286841793E-7   -6.415479137221598E-6    9.809786576846087E-1   -1.876066324641593E-1
 1.496505982053838E8     9.790141866442378E-1   -1.970715266291851E-1    1.033418749909207E-5    2.789871283196427E-6    8.497318472469323E-6    1.232236893268721E-5    9.786973270778336E-1   -2.004098694820061E-1
 1.596206380857428E8     9.761255257020774E-1   -2.094939407602665E-1    4.579904756698058E-6   -9.650987798976088E-6   -1.994004333885703E-5   -1.535443325818868E-6    9.758317042635950E-1   -2.133316710169340E-1
 1.695906779661017E8     9.730441220419273E-1   -2.223775491938540E-1   -4.293112212608427E-6   -6.121674082796243E-6   -5.025704648538416E-6   -1.055030957550975E-5    9.728434830302949E-1   -2.261179869583437E-1
 1.795607178464606E8     9.707719322068195E-1   -2.347936536690990E-1    4.351158311498404E-6    5.262225523902696E-6   -5.697030192140004E-6    1.942440154913008E-6    9.701417006810575E-1   -2.380763316869128E-1
 1.895307577268195E8     9.676883117475039E-1   -2.470496794279274E-1   -1.553864383693662E-6   -5.254094495160538E-6    5.021321952689621E-6    5.795343929599387E-6    9.668310411025831E-1   -2.505889381431106E-1
 1.995007976071784E8     9.637467127746083E-1   -2.595224539066405E-1   -5.458843889608802E-6   -4.906912862687975E-7    1.874906240556441E-5    2.248353346375788E-7    9.628370153856421E-1   -2.633116931261409E-1
 2.094708374875374E8     9.604126601490796E-1   -2.723751232126935E-1   -5.287123482449947E-6   -1.158584274627759E-5   -2.303812677266494E-6   -1.195526829764379E-5    9.588320824258949E-1   -2.762238304776148E-1
 2.194408773678963E8     9.572308590050335E-1   -2.851435241836368E-1   -2.456743959378706E-6   -1.336952392647437E-5    1.711605683805960E-5   -2.434619946501307E-5    9.550768470482731E-1   -2.891474805266545E-1
 2.294109172482552E8     9.537011063236889E-1   -2.974239554020016E-1    1.945178476037002E-5    1.851247514790712E-6   -1.269323046656861E-5    8.059683722278366E-6    9.510333754079806E-1   -3.018430057959248E-1
 2.393809571286142E8     9.505623680455487E-1   -3.094042327160803E-1   -1.213899160827334E-7    1.232341406467535E-6   -2.088213450702015E-6   -1.985205529066761E-5    9.471748230438569E-1   -3.140386710444729E-1
 2.493509970089731E8     9.469122221390122E-1   -3.233104587529450E-1   -1.823443899752170E-5    6.972514841419033E-6   -3.232748597863841E-6   -9.794094527944389E-6    9.440726800750601E-1   -3.276871483459259E-1
 2.593210368893320E8     9.426372189659853E-1   -3.354231292317055E-1    7.281649701462084E-6    5.489658293711533E-7   -1.400783917193804E-5    4.635474502352698E-6    9.397286357408391E-1   -3.408119633636725E-1
 2.692910767696909E8     9.386182581292135E-1   -3.468314321665883E-1   -5.870071039699273E-6    1.196762545922285E-5   -2.590444400057268E-5    3.071873045275010E-6    9.355872712249418E-1   -3.528831644791106E-1
 2.792611166500499E8     9.338207197261633E-1   -3.584562635409915E-1    8.311866231992124E-6    1.725296458041628E-5   -2.665030225573422E-6    2.565240265775288E-5    9.309533181521479E-1   -3.646701299678997E-1
 2.892311565304088E8     9.290046989602555E-1   -3.705385717940730E-1   -9.270391101528920E-6   -1.415532239719025E-5    5.092838846566434E-6    1.892111017135887E-5    9.262276094791965E-1   -3.768409990397959E-1
 2.992011964107677E8     9.240151383446396E-1   -3.826375685048263E-1   -4.814388178001825E-6   -1.421190623666582E-5    1.245686900277267E-5    9.683241305994058E-7    9.211950148359961E-1   -3.886730782696943E-1
 3.091712362911266E8     9.188617927152670E-1   -3.949640573059834E-1    1.503676527784003E-6   -2.757552814068598E-6   -2.351406178017329E-6    3.329043905653733E-7    9.157329391223068E-1   -4.002377543335324E-1
 3.191412761714855E8     9.133526828887283E-1   -4.074377938920064E-1   -7.796630868742405E-6    4.796201571390397E-6   -1.233740322146922E-6    9.528266419354222E-6    9.097978207865010E-1   -4.120123724109906E-1
 3.291113160518445E8     9.076605192162513E-1   -4.200615575357228E-1    9.200403322604396E-6   -1.052266851633223E-5    8.593263391742345E-6    9.502814381668707E-6    9.033738541938302E-1   -4.243480204948185E-1
 3.390813559322034E8     9.018899052268416E-1   -4.327934305241819E-1   -8.594951886272449E-6    1.781131011598705E-5    1.076320022642148E-5    1.179149587774022E-5    8.967830308221325E-1   -4.368759758688640E-1
 3.490513958125623E8     8.966278755097926E-1   -4.453018108733911E-1   -4.389956433950332E-6    4.640611146124532E-6   -1.411029007371681E-5    1.955902526200584E-6    8.904857761004229E-1   -4.494629894812210E-1
 3.590214356929212E8     8.913746921191600E-1   -4.579111294987190E-1   -6.168650242875771E-6   -3.400007198515830E-6    1.715635795371871E-5   -4.491718686024893E-6    8.845725807242750E-1   -4.620728215841853E-1
 3.689914755732802E8     8.860525219725105E-1   -4.701142483887708E-1    9.235540158703731E-6   -1.071165826689264E-5    5.409426272848654E-6    5.003159108009517E-6    8.791154604111926E-1   -4.746641948233028E-1
 3.789615154536391E8     8.798283103528879E-1   -4.813544020465209E-1   -1.092156793971497E-5   -1.321951326892605E-5   -1.046543985068871E-6   -1.572793875254839E-5    8.740070884793445E-1   -4.868626679205142E-1
 3.889315553339980E8     8.740699827511093E-1   -4.920144331689215E-1    5.224298218390024E-6    2.484856113335112E-6    6.678290782323637E-6   -5.779470989013484E-6    8.680006752146250E-1   -4.987841558438958E-1
 3.989015952143569E8     8.674675744705913E-1   -5.027602184036254E-1   -1.283499801323216E-5    8.632733373092424E-6    1.666357190893626E-5   -3.218528554287204E-6    8.611166571578499E-1   -5.097487241782829E-1
 4.088716350947158E8     8.603140472348999E-1   -5.136932004338991E-1   -7.212996639870402E-6    8.767604327294666E-6   -1.348528543017413E-5    2.025512495301521E-6    8.542103044035014E-1   -5.206846640497996E-1
 4.188416749750748E8     8.532565910447134E-1   -5.251119678192787E-1   -2.787647338829904E-6    2.462617272968488E-6    6.256493604681365E-6    1.279691359219290E-6    8.476699934653944E-1   -5.314584905078420E-1
 4.288117148554337E8     8.459530125451867E-1   -5.367464480899270E-1    1.048564937711396E-6    1.233323587790271E-6   -6.327894154221019E-8    3.567793174382194E-6    8.405753362004035E-1   -5.418753373218761E-1
 4.387817547357926E8     8.382083643571305E-1   -5.482064137482988E-1   -2.249221565052444E-7    3.983173975076084E-7   -5.270063700835549E-6   -8.831776992602686E-6    8.326805322639360E-1   -5.523373481334892E-1
 4.487517946161516E8     8.305976348734997E-1   -5.601706556265342E-1    1.347378980770432E-6   -2.685951911116076E-6   -1.424292094082285E-5   -5.043610960446238E-6    8.241582040366633E-1   -5.634750667349602E-1
 4.587218344965104E8     8.236117008265078E-1   -5.720307223222779E-1    3.521492942659555E-6    1.273922492696277E-6   -8.860834645058410E-6    9.146474334762180E-6    8.159885368529732E-1   -5.752821144915240E-1
 4.686918743768694E8     8.168005821273808E-1   -5.833682232553077E-1   -1.871814382327505E-5    5.157273028189151E-6    8.792418085925253E-6   -1.765690006242432E-5    8.078763439256373E-1   -5.868771129031333E-1
 4.786619142572283E8     8.097870761767076E-1   -5.941814823409606E-1    4.246109306126086E-6   -5.007670442913305E-6    7.095233690338674E-6    9.958384640626172E-6    7.993435300917653E-1   -5.981119036162972E-1
 4.886319541375872E8     8.024770551315383E-1   -6.048131378817583E-1   -3.737939487518300E-6   -3.502555511232910E-6   -7.466426718829963E-6   -3.397340594055515E-6    7.905048208606400E-1   -6.088915994275401E-1
 4.986019940179462E8     7.940859386068498E-1   -6.154394558158973E-1    5.440540620157376E-6   -3.397550934951318E-6   -8.483692318287017E-6    4.973603308253142E-6    7.822140099420400E-1   -6.197430144387159E-1
 5.085720338983051E8     7.856008375842286E-1   -6.245036570617479E-1   -2.353949452982105E-6   -1.470148664422632E-6    1.182750359168753E-5    3.641719978961049E-6    7.746880204524130E-1   -6.303423348532669E-1
 5.185420737786640E8     7.780839078422571E-1   -6.335188275014463E-1   -3.542344599943869E-6   -3.203345748104987E-6    6.830573587265094E-6    6.516456696869949E-6    7.670111490116672E-1   -6.403142096275163E-1
 5.285121136590229E8     7.700289747007244E-1   -6.431495636186232E-1   -7.643510127027730E-6   -6.500603587872681E-6    9.693327275026026E-6   -3.995615035758238E-6    7.590051511902939E-1   -6.497851042867515E-1
 5.384821535393819E8     7.615089556573109E-1   -6.532014582661897E-1    3.324555473656934E-6    1.038798782263554E-5    7.906909492350288E-6    1.544678591428947E-5    7.507687277068774E-1   -6.592177849678486E-1
 5.484521934197408E8     7.533097615753759E-1   -6.637719251264538E-1   -8.891341680700231E-6    3.738081846141239E-6   -1.181211293696046E-5   -2.098291614440110E-5    7.424865595942839E-1   -6.692851134971727E-1
 5.584222333000997E8     7.446614917830332E-1   -6.746052832055208E-1    7.988516457969739E-6    4.710378179680294E-6   -1.779764829521927E-5    2.336934593612146E-6    7.333621687593959E-1   -6.793430553188484E-1
 5.683922731804587E8     7.355719427642642E-1   -6.851018459542785E-1   -1.007528676523343E-5   -4.584315124901896E-6   -1.181733816733374E-5    1.341823698882356E-5    7.231597909353796E-1   -6.891965876866534E-1
 5.783623130608176E8     7.263474870105682E-1   -6.951718587971688E-1   -9.546794267867609E-6   -5.660822846187931E-6    6.650750358089971E-6   -6.986371577287758E-6    7.125061803360581E-1   -6.989981411045946E-1
 5.883323529411764E8     7.171390005016591E-1   -7.052233756263365E-1   -1.884141793864241E-6    2.011003327378815E-6   -1.171037508024236E-5   -7.843229996567391E-7    7.022210155250834E-1   -7.086277339236501E-1
 5.983023928215353E8     7.077637739339341E-1   -7.152299303355265E-1    9.821902229169582E-6   -8.197325047335776E-6   -1.534631614060503E-5    3.673896015241438E-6    6.920514223388201E-1   -7.184231219103807E-1
 6.082724327018943E8     6.983269807468988E-1   -7.249008671776767E-1   -2.157282790739279E-6   -2.338185425208810E-6    4.676620412643639E-6    4.254187827825916E-6    6.818624066719868E-1   -7.278763452686235E-1
 6.182424725822532E8     6.885357668818209E-1   -7.346934969767563E-1    2.538805265476199E-6    1.748369602298194E-5   -8.791963894629121E-7    1.353949273278851E-6    6.717528255750841E-1   -7.372095650113948E-1
 6.282125124626122E8     6.780252659870663E-1   -7.440552671528149E-1   -2.905500599582035E-6    1.048541724080017E-5    5.456358816386774E-6    8.128372704034716E-7    6.626950581229514E-1   -7.467844284021501E-1
 6.381825523429711E8     6.683169140585706E-1   -7.511343207707656E-1    1.374195121759583E-7   -1.451696412202603E-5    2.311928078032477E-5    4.218007907703314E-6    6.537821716931661E-1   -7.557163896812579E-1
 6.481525922233300E8     6.592998797211320E-1   -7.596974713640523E-1   -1.277673199969733E-5   -6.190128567964347E-6   -2.701338025658425E-6   -1.128817382272615E-5    6.446394361095232E-1   -7.642899225787787E-1
 6.581226321036890E8     6.497127581194401E-1   -7.686628739626667E-1   -5.464146960912401E-6    1.312350477808818E-5   -1.426344412538414E-5   -1.897064925134756E-5    6.344965703349047E-1   -7.725351313760819E-1
 6.680926719840479E8     6.397775702018719E-1   -7.773498325734104E-1    8.403026990370073E-6   -1.269657346893203E-5   -2.274830375238048E-5   -5.211849782373602E-6    6.239011552757401E-1   -7.803477273503353E-1
 6.780627118644068E8     6.298712014752924E-1   -7.854925455619732E-1    1.011407919327383E-6    1.924502078183501E-5   -1.254386058947089E-5   -1.212784630858371E-5    6.129073017405438E-1   -7.883910915112330E-1
 6.880327517447658E8     6.194534183497805E-1   -7.936201591815102E-1    6.347368548638409E-7    9.474342259486950E-7   -2.010841345588553E-5   -2.200956993666727E-6    6.016222864243902E-1   -7.960452711881516E-1
 6.980027916251246E8     6.086055358266186E-1   -8.019463149655408E-1    1.454977299646851E-5    1.225396583291185E-5   -1.225660820574089E-5    8.144479332863904E-7    5.898807963780864E-1   -8.036530402605577E-1
 7.079728315054835E8     5.973257848501201E-1   -8.103012124189281E-1    1.038416886710762E-5    6.830551717757975E-6    1.745773538778814E-5    3.423198914462194E-6    5.784262877925207E-1   -8.116682938462579E-1
 7.179428713858424E8     5.861299185197377E-1   -8.189172038573246E-1    1.743751680207559E-6    1.043452410714476E-5    6.965744771007197E-7    4.448934757703477E-6    5.671773819589095E-1   -8.201905530393451E-1
 7.279129112662014E8     5.751261263053277E-1   -8.273100468010408E-1    1.912765277494789E-5    1.625806584850711E-6   -4.545048209530905E-6   -8.842447333694434E-6    5.559737578533867E-1   -8.289719003853248E-1
 7.378829511465603E8     5.637599374863668E-1   -8.359992654407677E-1    5.730998613422194E-6    2.379698450307800E-6    8.492342563834530E-6    8.902199308106808E-6    5.446578503525054E-1   -8.373802543132756E-1
 7.478529910269192E8     5.517368019545427E-1   -8.444670886125880E-1    2.740115932997194E-7    6.772488918130076E-6    8.684798727856623E-7   -1.673759756804268E-5    5.334020552996439E-1   -8.450341431754569E-1
 7.578230309072782E8     5.392027730383343E-1   -8.517440619380815E-1   -4.106423207743657E-6    1.013657848539518E-5   -1.075190760590112E-5    2.441773923802112E-5    5.222441697940802E-1   -8.519510634195430E-1
 7.677930707876371E8     5.287955146649813E-1   -8.570586816910741E-1    1.989782784243327E-6    1.043586898831055E-5   -9.191434995415977E-6   -8.368681487589933E-6    5.110046610067632E-1   -8.583906524329714E-1
 7.777631106679960E8     5.191347322789860E-1   -8.638877453598482E-1   -7.755982405464130E-6   -1.955984181561520E-6    7.042606265690314E-6    2.552884125917818E-7    4.995569368644009E-1   -8.649378882425587E-1
 7.877331505483550E8     5.088137239663225E-1   -8.708608486939672E-1    7.513560416573124E-6   -9.822593065145449E-6    2.779088546210857E-5   -1.483895754938579E-5    4.876535097447388E-1   -8.715035561660285E-1
 7.977031904287138E8     4.976150312979313E-1   -8.773595809035417E-1    8.084841999548845E-8   -2.555459135067386E-6    1.947609575495160E-6   -1.239018111373312E-5    4.749751703001929E-1   -8.780591898149035E-1
 8.076732303090727E8     4.858545985571289E-1   -8.832187577869191E-1    8.811470552628181E-6   -3.734360643008580E-6    9.582217412413902E-6   -8.894190286404082E-6    4.620821111777670E-1   -8.842358451470348E-1
 8.176432701894317E8     4.738145187179931E-1   -8.891652033727468E-1    5.431920081359600E-7   -6.169752535103878E-6   -3.547260410450446E-6    1.028154487550370E-5    4.491041401466840E-1   -8.903703967947975E-1
 8.276133100697906E8     4.614758050165184E-1   -8.956322360702080E-1   -3.008747496876871E-6   -6.967779912148364E-6   -7.985263371995146E-6   -2.097074622129927E-6    4.365646519783903E-1   -8.970830836618083E-1
 8.375833499501495E8     4.488789368321269E-1   -9.019909482730193E-1   -7.496094854382653E-6   -4.999795801741573E-6   -1.350527205827301E-5    4.789338655651945E-6    4.243409323877873E-1   -9.038694371965870E-1
 8.475533898305085E8     4.361495764768430E-1   -9.084772872588733E-1    2.580759940196932E-6   -4.109744936098585E-6    1.683111297707238E-5   -1.751009179047034E-7    4.124931857165271E-1   -9.098843476516844E-1
 8.575234297108674E8     4.233657107042860E-1   -9.147533382144187E-1   -5.556208701098716E-6    7.903556796600507E-6    1.270874070306653E-5    2.835382671456217E-6    4.007928581638548E-1   -9.150952030648737E-1
 8.674934695912263E8     4.105158217520973E-1   -9.214685727440124E-1   -4.684918268069870E-6   -3.240958786395061E-7   -4.575476371985225E-6   -2.255634342497805E-5    3.887224655600208E-1   -9.200678094340889E-1
 8.774635094715853E8     3.973895128607248E-1   -9.280134660772263E-1   -1.860995518566014E-6    9.496924391528992E-6   -1.713962299758641E-6   -2.195153372224927E-6    3.761043828713128E-1   -9.246860745292516E-1
 8.874335493519442E8     3.842937161099765E-1   -9.326477176315177E-1   -6.405422099164182E-6    9.441006942248047E-7    3.723503188986169E-6    6.890076008182199E-6    3.630834007798499E-1   -9.291973045527636E-1
 8.974035892323031E8     3.730502451970417E-1   -9.362602189964569E-1   -4.565752960256838E-6    9.641904742470819E-6   -3.272689671730405E-6   -2.368630342987730E-6    3.496168475775272E-1   -9.334819675728746E-1
