#  HZ   S   RI   R     50.00 
! Rohde & Schwarz Vector Network Analyzer 
! Rohde-Schwarz,ZNB20-2Port,1311601062102128,3.60
! Created: UTC 4/29/2024, 2:52:37 PM
! freq[Hz]                re:S11                  im:S11                  re:S21                  im:S21                  re:S12                  im:S12                  re:S22                  im:S22
 1.000000000000000E5     9.963941759656763E-1    3.828523431867127E-3   -1.268169383628016E-4    2.020437959685831E-5    8.844405441187236E-5    2.226086538485743E-5    1.010408129661470      -1.128360846888900E-2
 1.007003988035892E7     9.975083774722002E-1   -1.384759278278856E-2   -5.997553935175656E-6    1.259292303105643E-5   -1.318985873488202E-5    1.577771218428165E-5    9.959702036748544E-1   -1.451782756337155E-2
 2.004007976071785E7     9.997172603655042E-1   -2.717109177411912E-2   -4.713705533012840E-6   -1.478506386359371E-5   -8.378556027558664E-6    2.147964944939032E-5    9.988986505766014E-1   -2.755302626541845E-2
 3.001011964107677E7     9.977901354248105E-1   -4.093633130285083E-2   -1.546363464921126E-5   -1.355800547016175E-5    3.250774354236748E-6    2.484241178512825E-6    9.975403338907072E-1   -4.203555859180510E-2
 3.998015952143569E7     9.975725449976185E-1   -5.306379744560765E-2   -2.430708880413607E-6    2.350552009352535E-6    2.972924938090901E-6   -8.696989682269389E-6    9.976955327668081E-1   -5.662224500386297E-2
 4.995019940179461E7     9.961255879618868E-1   -6.602662821710067E-2    1.936271781087475E-5    3.056167069169719E-6   -1.516150685777271E-6    7.699305014291888E-6    9.965100212462079E-1   -6.910105954771691E-2
 5.992023928215354E7     9.942328399574041E-1   -7.878736351414646E-2    7.327585296417229E-6    2.328403862199989E-5   -4.357621117097717E-5    3.721930215115091E-6    9.946582552176644E-1   -8.186739600444652E-2
 6.989027916251247E7     9.930137721434059E-1   -9.189650594529565E-2   -2.067124695374743E-5    2.366643339741524E-7   -4.952457107273983E-6    2.779266904640315E-6    9.934961334750070E-1   -9.475660120460415E-2
 7.986031904287139E7     9.924474618225119E-1   -1.051963660305038E-1   -1.391754800785165E-5    1.171030102877644E-5   -6.141730704441842E-6   -9.793970691967685E-6    9.923642522682055E-1   -1.079256763008929E-1
 8.983035892323031E7     9.913271122792476E-1   -1.187473030475114E-1    4.740941692519890E-6   -5.541956055522017E-6   -4.806903643698875E-6   -4.802484362024124E-6    9.908582929584966E-1   -1.210751859119043E-1
 9.980039880358922E7     9.893586982284621E-1   -1.323682024679760E-1    1.131649522853133E-6   -6.073014941963996E-6   -1.706174858606288E-6   -1.547553699872418E-5    9.885965601836851E-1   -1.344212423279721E-1
 1.097704386839482E8     9.865942325387609E-1   -1.454667066338921E-1   -6.615325926230888E-6    8.376145162037808E-6    5.437616595190982E-6    3.915156901700213E-6    9.862019245806940E-1   -1.476947224490921E-1
 1.197404785643071E8     9.848154945952519E-1   -1.589043251307475E-1   -3.987884347407051E-6    3.561267442167509E-6    1.233023351540455E-6    1.459930667930702E-5    9.843453273422046E-1   -1.611015368737438E-1
 1.297105184446660E8     9.830500979886579E-1   -1.717958619263991E-1    1.424339894540322E-6    3.442834593449826E-6   -1.364055956348342E-5   -1.322920774119272E-5    9.828329587249423E-1   -1.744560181894829E-1
 1.396805583250249E8     9.815413911136244E-1   -1.846432232214642E-1    6.511223854957062E-6   -1.068671739455788E-5    1.856059803338770E-6    6.600455924919688E-6    9.809223755734218E-1   -1.874832882828625E-1
 1.496505982053838E8     9.789030796676123E-1   -1.970801845938583E-1   -1.685201331209288E-5    3.169458988158557E-7   -2.543066679675697E-6    1.832123627465720E-5    9.786487876704387E-1   -2.003826315559436E-1
 1.596206380857428E8     9.762607990177284E-1   -2.094832377931437E-1   -1.087411414649582E-5   -1.126452020479517E-5   -9.799968333487422E-6    1.426330371309007E-5    9.758223381534143E-1   -2.132655904721396E-1
 1.695906779661017E8     9.732214152339208E-1   -2.223385184568986E-1   -7.342007307506608E-6   -3.606155749340878E-6   -4.840573788909154E-6   -1.129624676373569E-5    9.728343126433335E-1   -2.261254251202693E-1
 1.795607178464606E8     9.706344917493557E-1   -2.348665597331798E-1    1.864460489302037E-6   -1.944928903878548E-7   -2.472432117483912E-6    8.609681232721995E-6    9.702219494994690E-1   -2.380492423812646E-1
 1.895307577268195E8     9.677490602278027E-1   -2.470397352643586E-1   -3.553448226672685E-6   -8.995496351566222E-6   -9.535931132508361E-7   -3.706892951303027E-6    9.667625906516417E-1   -2.505709633045421E-1
 1.995007976071784E8     9.639261919245227E-1   -2.595288201869020E-1    3.148493109306006E-6    3.187782396663921E-6   -1.972171606488739E-5    5.835693279297029E-6    9.629000438942599E-1   -2.631077533677665E-1
 2.094708374875374E8     9.603524779315827E-1   -2.723465277276554E-1    2.263497704928599E-6    1.450409620715740E-6   -1.066732873834032E-5   -7.307726674830949E-6    9.589144971814382E-1   -2.762180476422573E-1
 2.194408773678963E8     9.572298924529909E-1   -2.851732781226454E-1    1.190056320903560E-5   -1.822320580126151E-5   -4.537951404334680E-6   -8.239134030869018E-6    9.550833480304547E-1   -2.891552113561479E-1
 2.294109172482552E8     9.536298368964594E-1   -2.974560155481206E-1   -1.371156785542036E-5   -4.384155049741827E-6   -1.974957647938224E-5   -6.086405253456335E-6    9.510771901839783E-1   -3.017647988386867E-1
 2.393809571286142E8     9.506328495020033E-1   -3.094213817063510E-1    1.016623727447097E-5   -8.186013791069707E-6   -1.944719044492502E-5    1.296207302769547E-5    9.470485086790483E-1   -3.138972127592515E-1
 2.493509970089731E8     9.469378768342784E-1   -3.233354594849241E-1    4.596038548229356E-6    6.883430909118971E-6   -7.854951717609741E-6    7.371983685442993E-6    9.441795636227656E-1   -3.276874660067000E-1
 2.593210368893320E8     9.426331503613794E-1   -3.354162310285206E-1   -3.458625361088724E-6   -5.888136315803879E-6   -5.599626984033476E-6    3.512192844738613E-6    9.399252225174826E-1   -3.408707455877872E-1
 2.692910767696909E8     9.385230724544964E-1   -3.468192681438426E-1    2.792281885044051E-6   -1.181417163192840E-5   -2.016297524247458E-5    1.387061375069588E-5    9.356024245124006E-1   -3.528679721142234E-1
 2.792611166500499E8     9.337558670249767E-1   -3.584759333987422E-1   -1.528352681671612E-5    3.761266625500445E-7    1.279261990900251E-5   -4.153850577412867E-6    9.309062794907558E-1   -3.646843860410636E-1
 2.892311565304088E8     9.289339325581547E-1   -3.705658840405401E-1    7.031309372023008E-6   -1.562919789874319E-5   -8.918705868158361E-7   -2.054904640372984E-6    9.262333584629130E-1   -3.768823909795181E-1
 2.992011964107677E8     9.240393621233055E-1   -3.826304851847803E-1   -5.545694076112416E-7    5.880415929121835E-7    1.256423126913972E-5    1.102863290502709E-7    9.212111223760971E-1   -3.886703796552096E-1
 3.091712362911266E8     9.188411860459724E-1   -3.949367732589107E-1   -8.263029511506274E-6   -1.451379752688976E-5   -5.793253063897870E-6    4.101492146072010E-7    9.157767509874991E-1   -4.001921877760798E-1
 3.191412761714855E8     9.132394005491806E-1   -4.073785028713183E-1    1.489247497156421E-5   -9.619654824315748E-6   -1.209787916955248E-5   -4.792056036418970E-6    9.097441860528068E-1   -4.119255203542639E-1
 3.291113160518445E8     9.075607447543980E-1   -4.200773245640137E-1    1.491243840940498E-5    9.411195081063881E-6   -3.750664647010490E-6    1.390117398912055E-5    9.034226544978666E-1   -4.244829961876077E-1
 3.390813559322034E8     9.018958415934871E-1   -4.328752546371120E-1   -9.876150309045436E-6   -5.890274919821425E-6   -2.600947210235114E-6   -4.050998838289316E-6    8.968644500833777E-1   -4.369637452760328E-1
 3.490513958125623E8     8.966760409956862E-1   -4.452989539065657E-1    1.527344240072612E-6    8.544704828553211E-6   -4.654261526055149E-6    5.739887047719560E-6    8.905879421906657E-1   -4.494125707158696E-1
 3.590214356929212E8     8.911861171987291E-1   -4.578014288499903E-1   -4.978222633267900E-7   -4.635689506394895E-6    9.413874120155188E-6   -8.343177558017657E-7    8.845483382157600E-1   -4.621845268354169E-1
 3.689914755732802E8     8.858870914439491E-1   -4.700608878880551E-1    2.191518030852443E-6   -9.176475791509348E-7   -4.513611392360348E-6    5.169139861361091E-6    8.790738597997451E-1   -4.747538764925054E-1
 3.789615154536391E8     8.798274861560341E-1   -4.813553292730165E-1    1.011800490652979E-6   -3.930764476675317E-6    4.366293014550815E-6   -9.218693785459659E-7    8.739166142675465E-1   -4.868531064129336E-1
 3.889315553339980E8     8.741256944640104E-1   -4.920303904250282E-1   -4.314206440944458E-6   -2.371860898394790E-7   -2.372544729480243E-6   -8.945190979495346E-6    8.679334766636305E-1   -4.987499280132557E-1
 3.989015952143569E8     8.672908783124569E-1   -5.027191565592563E-1   -6.784830109401673E-7   -1.110883183856185E-5   -8.929911526579530E-6    3.574505536698280E-6    8.611507316138471E-1   -5.096744530006734E-1
 4.088716350947158E8     8.601137678690183E-1   -5.135711014110658E-1   -1.178705462030165E-5    1.975741581498810E-6   -2.565329686816492E-6    8.972758165618458E-6    8.543145724728844E-1   -5.207018796964701E-1
 4.188416749750748E8     8.533358649511015E-1   -5.251816268215342E-1   -4.981190119928103E-7   -6.815318741806647E-7    3.897801061812865E-6   -1.401591258673861E-5    8.476735700741589E-1   -5.315066828131505E-1
 4.288117148554337E8     8.460237252251916E-1   -5.368450780552901E-1    4.881965920460742E-6    5.521802680126401E-6   -7.866425681554209E-6    1.043755143322007E-5    8.405840148959103E-1   -5.418667236121936E-1
 4.387817547357926E8     8.381213445760766E-1   -5.481691055424412E-1    1.987415981562924E-6   -6.614740325084095E-6    1.398733902730014E-6    4.915473166169229E-6    8.326619951419371E-1   -5.523297062768764E-1
 4.487517946161516E8     8.304526655559631E-1   -5.600028721149631E-1    5.780769296890569E-6    2.107851588657901E-6    7.079973452349402E-6    2.253624936467113E-6    8.241970290397215E-1   -5.634919511336982E-1
 4.587218344965104E8     8.235533973247691E-1   -5.720233247316823E-1    1.363792137699336E-6    4.394797333564359E-7    5.201969267218710E-6   -5.919624997790249E-6    8.161160482574638E-1   -5.753191405114682E-1
 4.686918743768694E8     8.171368022418418E-1   -5.834563206288893E-1   -7.373123965861957E-6    1.325562833332889E-5   -1.263943874009835E-6   -1.688455440994074E-5    8.078649282549609E-1   -5.869327007973655E-1
 4.786619142572283E8     8.097792590731884E-1   -5.941721826910659E-1    1.011853054460820E-5   -1.215129493514852E-5   -3.567197229270722E-6   -1.314694791709151E-5    7.992239363233160E-1   -5.979342471602017E-1
 4.886319541375872E8     8.021992143351395E-1   -6.046922295300906E-1   -1.417682691490681E-5   -1.117603869098455E-5    6.610893640051733E-6   -1.777577881082040E-6    7.904625771903618E-1   -6.088913071493530E-1
 4.986019940179462E8     7.939875076375468E-1   -6.153709992409633E-1    3.789488481683446E-6    3.833983168987274E-6    9.062591719007089E-6    1.232955398050596E-5    7.825859551489343E-1   -6.198065971791128E-1
 5.085720338983051E8     7.855392823087141E-1   -6.245321873861249E-1    1.402507101041854E-6   -3.082390100063644E-6    1.957805123785111E-5    2.861587094399296E-6    7.746603271222861E-1   -6.302712670724089E-1
 5.185420737786640E8     7.781800899718089E-1   -6.335167639837704E-1   -2.576541863849565E-6    7.625684511911218E-6    8.760004281169974E-7    1.122483895257071E-6    7.669426804788927E-1   -6.401346436922090E-1
 5.285121136590229E8     7.698907875106396E-1   -6.430359924214715E-1   -2.851022860416953E-6   -3.901385213662814E-6    6.861199338339234E-6   -3.263826793846636E-6    7.590186605315802E-1   -6.497479802242219E-1
 5.384821535393819E8     7.613720102517187E-1   -6.531372461837428E-1    4.452344944953459E-6   -5.521596579547648E-6   -8.532400606413841E-6    2.682731264389454E-6    7.509554163564565E-1   -6.594552579202058E-1
 5.484521934197408E8     7.533005854995686E-1   -6.637581283824721E-1    3.840478190709329E-6    4.958154878854269E-8   -7.302344639921902E-8    1.943435555569220E-5    7.425884920377545E-1   -6.692999617655646E-1
 5.584222333000997E8     7.447515897032674E-1   -6.746631377609382E-1    5.641972012324444E-6   -2.478035342810017E-6    7.997299663077667E-6    2.192319266047133E-5    7.333536548518311E-1   -6.792130620657231E-1
 5.683922731804587E8     7.355748114509361E-1   -6.851442843625273E-1    5.784220691023567E-7   -8.669747874141816E-6   -2.849367023109259E-6   -1.251347995356893E-5    7.231133292745412E-1   -6.892262393591729E-1
 5.783623130608176E8     7.262456388221658E-1   -6.951254379775743E-1   -2.028685469303708E-6   -5.203932285340256E-6    3.020615499253971E-6    5.741549996154033E-6    7.127026761116109E-1   -6.989797885617416E-1
 5.883323529411764E8     7.170738745324615E-1   -7.050712054023702E-1    2.017809529695000E-6    1.383572179622384E-5    8.044947691805337E-6   -5.241837269223072E-6    7.022490591543078E-1   -7.087603527062503E-1
 5.983023928215353E8     7.079433584076154E-1   -7.152673864033988E-1    1.769062007963890E-5    6.274897361908285E-6    3.005934693891912E-6   -7.202518682359751E-6    6.919819585904574E-1   -7.185437790528665E-1
 6.082724327018943E8     6.983860681165024E-1   -7.250066033986950E-1    2.025853138753235E-5   -8.581413743794761E-8    7.405329937486679E-6    1.593673652713446E-5    6.817362477279696E-1   -7.278156693186864E-1
 6.182424725822532E8     6.884524842868034E-1   -7.345560832980053E-1   -5.373520904135046E-6    1.302780287079229E-5   -1.043162900287369E-5    5.560666673290002E-6    6.717156578093856E-1   -7.372291910788674E-1
 6.282125124626122E8     6.779715133951048E-1   -7.440110920842483E-1   -9.613698763170199E-7    9.498461109159303E-6   -6.540653904501465E-6   -2.063204190348656E-5    6.627279848028085E-1   -7.468060819163252E-1
 6.381825523429711E8     6.684024332209445E-1   -7.513361508806832E-1   -3.885162199674709E-6    2.619609302126070E-6   -5.306820230958294E-6    2.352056437103292E-6    6.538441772835268E-1   -7.558171813985826E-1
 6.481525922233300E8     6.594126064867627E-1   -7.596740027039748E-1    3.979096069465676E-6    2.926078935670916E-6    1.256834108843255E-5   -4.595978720564572E-6    6.447058331508229E-1   -7.642460221099665E-1
 6.581226321036890E8     6.496431037674364E-1   -7.686613969686991E-1   -1.821465122548320E-6    1.645050726682388E-6   -5.754007285450951E-6   -2.463683209097223E-6    6.346103700045466E-1   -7.724564436656201E-1
 6.680926719840479E8     6.397663224575761E-1   -7.772871128609905E-1    1.006210966295660E-5    4.997205731967404E-6   -9.064765505732513E-6    8.842648297622640E-6    6.239034029219430E-1   -7.804417095020413E-1
 6.780627118644068E8     6.299332699168104E-1   -7.854743503716229E-1   -9.245336479445486E-6   -5.061852311346518E-6   -3.711407654496643E-6    9.082840630507539E-6    6.129467627563795E-1   -7.885407868988048E-1
 6.880327517447658E8     6.194800339049634E-1   -7.937712006527804E-1    4.231209890265776E-6   -7.022100762692051E-6    1.980934597850148E-5   -1.135990313301825E-5    6.015996114205141E-1   -7.960388588438072E-1
 6.980027916251246E8     6.086318722081836E-1   -8.019112097259796E-1   -1.314652953999477E-5   -1.625670483194159E-6   -8.881407544468549E-6   -2.153112210829697E-5    5.900929906473802E-1   -8.036235938340696E-1
 7.079728315054835E8     5.972810748988161E-1   -8.102243358301634E-1   -6.609455682526875E-6   -1.445771889803320E-5    6.132541175915749E-6   -9.267407495328064E-6    5.784774402698154E-1   -8.115987903384386E-1
 7.179428713858424E8     5.860306250865214E-1   -8.188615468574386E-1    4.879220237357505E-6   -1.979487132034319E-7   -1.032316709169800E-5   -1.383149874031629E-5    5.673194901822159E-1   -8.202883400141235E-1
 7.279129112662014E8     5.751282387824608E-1   -8.272457279972203E-1   -6.116413912862547E-6   -3.541127964294518E-6   -1.960932324093336E-6   -1.617052039026026E-5    5.559594657770275E-1   -8.290252684294931E-1
 7.378829511465603E8     5.638244707248550E-1   -8.360227243694579E-1    4.284880419477327E-6   -1.172058725900462E-5   -1.250096876325848E-5    1.265553848695202E-6    5.446667718566589E-1   -8.373878407872235E-1
 7.478529910269192E8     5.518447262875831E-1   -8.445683332445598E-1    3.417842811310797E-6    1.192150438212769E-5   -1.282246674246650E-6   -1.290465297064904E-5    5.335430508815119E-1   -8.451121641655628E-1
 7.578230309072782E8     5.390893229106711E-1   -8.517455997985884E-1   -5.205321669006168E-6   -4.583291576520177E-7   -3.533049478565765E-6   -6.257535905759873E-7    5.222899600145787E-1   -8.518546665623018E-1
 7.677930707876371E8     5.287673661506298E-1   -8.571846440022498E-1    6.466561809005530E-6    2.061547550020274E-6    3.854541215096446E-6   -1.888299532239980E-5    5.111201924426818E-1   -8.584033586251207E-1
 7.777631106679960E8     5.192378250876731E-1   -8.640970547976731E-1   -7.996416852386328E-6   -5.139074486840915E-6   -7.061866874213748E-6    1.354920602656643E-5    4.995655969292579E-1   -8.650198782777010E-1
 7.877331505483550E8     5.088641209671377E-1   -8.710035376462725E-1    1.982420737067460E-5   -1.219188066385682E-5   -1.444421245681072E-6   -1.632554493588231E-5    4.877152208334869E-1   -8.714970197288355E-1
 7.977031904287138E8     4.975404097428663E-1   -8.773414887942280E-1   -5.476268853333301E-6    1.216556960363099E-5   -1.544023877388002E-7   -4.555703052823527E-6    4.749481754087124E-1   -8.779135631572356E-1
 8.076732303090727E8     4.857836124356251E-1   -8.831748065544999E-1    2.272188318706870E-6    1.331500160455221E-5    5.220134451879561E-6    6.147514052409937E-6    4.621157203225080E-1   -8.841860790437751E-1
 8.176432701894317E8     4.737839370449307E-1   -8.892822710900777E-1   -2.812524039385316E-6   -1.771909827105141E-7    1.515623606608861E-5    2.756936390860586E-6    4.492197972032956E-1   -8.904288657460405E-1
 8.276133100697906E8     4.615042744120685E-1   -8.957643898300298E-1   -7.864558151762279E-6    7.592125766557998E-6   -1.646789110995792E-5    4.625394863367705E-6    4.366288351315841E-1   -8.971587707769686E-1
 8.375833499501495E8     4.489351791814519E-1   -9.021282829837167E-1    1.133694889387791E-6    1.365563299742350E-6    1.792890178542562E-5    7.561309675289939E-6    4.244020669251868E-1   -9.038435010716379E-1
 8.475533898305085E8     4.361968839396776E-1   -9.085707309007904E-1    5.899662539217905E-6   -8.347764540437420E-6   -2.001626307288130E-6   -3.359579365951981E-6    4.125278280490576E-1   -9.099653113090266E-1
 8.575234297108674E8     4.233334858075297E-1   -9.148618595965946E-1   -8.978711275539119E-6    6.002828966597396E-7    6.588629477277049E-6   -8.088517929131630E-7    4.007732729626182E-1   -9.151927873276750E-1
 8.674934695912263E8     4.104137006505516E-1   -9.214429339954622E-1   -1.075727443579648E-5   -2.245267386829004E-6    9.352124077559640E-6    4.804797590195298E-6    3.887122787420559E-1   -9.200856648108695E-1
 8.774635094715853E8     3.973831974498721E-1   -9.281411850088485E-1   -7.837130823507927E-6   -2.047044751755916E-5   -1.238008360213348E-6   -4.303280881293419E-6    3.761233916085205E-1   -9.246596516936542E-1
 8.874335493519442E8     3.843909552376609E-1   -9.327795018461346E-1   -2.781776560041489E-6   -4.304952532923326E-6   -5.052661975930015E-6   -2.047459608799692E-6    3.631394153486976E-1   -9.291681066291800E-1
 8.974035892323031E8     3.730432863163590E-1   -9.363976452597409E-1    1.462552728483215E-5    1.046434875461496E-5   -1.059386435783994E-5   -1.532069588738535E-6    3.496018000313549E-1   -9.335611350072808E-1
