#  HZ   S   RI   R     50.00 
! Rohde & Schwarz Vector Network Analyzer 
! Rohde-Schwarz,ZNB20-2Port,1311601062102128,3.60
! Created: UTC 4/29/2024, 2:52:30 PM
! freq[Hz]                re:S11                  im:S11                  re:S21                  im:S21                  re:S12                  im:S12                  re:S22                  im:S22
 1.000000000000000E5     9.979071712111128E-1    3.573711291931563E-3    1.767759167842914E-4   -1.278763081416938E-4    1.726222437212135E-5    6.769296035165538E-5    1.010511040667861      -1.113100888115802E-2
 1.007003988035892E7     9.979332089871047E-1   -1.391915705216860E-2   -4.592564478753153E-6   -1.088843017559247E-5   -1.711032450256965E-5    7.808638902863634E-6    9.957622252529823E-1   -1.455144199548221E-2
 2.004007976071785E7     9.981094957009520E-1   -2.714442051092365E-2    9.814752827511618E-6    3.508870868749291E-6    3.360733534577718E-5    9.949300102054701E-7    9.987630653574829E-1   -2.771200361332622E-2
 3.001011964107677E7     9.972222448274103E-1   -4.097205647364673E-2   -1.096205826734112E-5   -1.777243634621749E-5   -9.029359741311583E-6   -1.955848436985766E-5    9.974142456746566E-1   -4.197492863735888E-2
 3.998015952143569E7     9.967224680263579E-1   -5.307254188028490E-2   -4.682063778314420E-6   -7.863017627179756E-6   -2.128645927402190E-7   -1.896870833624127E-7    9.976073685664297E-1   -5.662968329615210E-2
 4.995019940179461E7     9.957748491917484E-1   -6.608978094847688E-2   -6.905620897924944E-6   -4.920150848011891E-6   -9.040515756014356E-6    1.131630944334629E-5    9.965667803628337E-1   -6.909447083953657E-2
 5.992023928215354E7     9.949073831206628E-1   -7.883014797460040E-2   -1.054361137515711E-5    2.130086104169425E-6    7.946054315216409E-6   -2.217897605594385E-6    9.946557777564422E-1   -8.191769662338555E-2
 6.989027916251247E7     9.940530865475032E-1   -9.184531512091804E-2   -1.831149159962744E-6    1.084305936123891E-6    1.980664134349210E-6    3.617295221314202E-6    9.933831029865845E-1   -9.465936684854245E-2
 7.986031904287139E7     9.924922667647189E-1   -1.051990239214367E-1    5.103621979446588E-6   -1.165857866619476E-5   -7.675947327626939E-6   -3.187196033465016E-6    9.924296207117692E-1   -1.078790167531233E-1
 8.983035892323031E7     9.906984788179535E-1   -1.186488115361214E-1   -2.062196250486412E-5    4.088355963956743E-6   -1.712605075003962E-5   -1.185431412088815E-5    9.907976820130079E-1   -1.209782227685687E-1
 9.980039880358922E7     9.886417380177096E-1   -1.322755634566840E-1    1.044108293602187E-5   -9.252696902257658E-6    1.296954856766522E-6    1.273176633929348E-5    9.886716104221749E-1   -1.343490583204056E-1
 1.097704386839482E8     9.870404388460952E-1   -1.456356546213707E-1    1.692605444831705E-6   -1.678023007626199E-6   -7.644876518383845E-6    1.004678659031152E-5    9.861889324929535E-1   -1.477218502070505E-1
 1.197404785643071E8     9.855254220455084E-1   -1.591006390353134E-1    8.069216392943469E-6   -8.540220348454550E-6   -3.386151402567784E-6   -1.134752052195293E-5    9.843123187648549E-1   -1.611000442974773E-1
 1.297105184446660E8     9.837654518108254E-1   -1.719323021890929E-1   -1.222698256887685E-5   -1.513669506314841E-5    3.580360358475141E-6   -5.343274927916990E-6    9.828867176476477E-1   -1.744240706867824E-1
 1.396805583250249E8     9.813594284457976E-1   -1.846521702241655E-1    2.732499291662259E-6   -6.284559333052329E-6   -4.479702480331840E-6    2.202190450470329E-6    9.808766476032227E-1   -1.875252647863536E-1
 1.496505982053838E8     9.787414931703003E-1   -1.970608675135739E-1    2.709502374405486E-6   -8.062197596321909E-6    8.475069352477313E-7   -2.823604571664849E-6    9.786018628071279E-1   -2.004660936422747E-1
 1.596206380857428E8     9.762946277969755E-1   -2.095258777397401E-1    1.076369976993182E-5   -6.921958579424270E-6   -1.729990753809978E-7    7.399593423946542E-6    9.757317418591500E-1   -2.132760835501748E-1
 1.695906779661017E8     9.734453415625466E-1   -2.223490184486157E-1    7.259131159197960E-6   -6.838643064934651E-6   -2.672967892544347E-6    5.058150391635965E-6    9.729298475132440E-1   -2.261193895306275E-1
 1.795607178464606E8     9.707384213196989E-1   -2.348415822607277E-1   -8.065761798806464E-7    5.223299318189612E-6   -6.821717318964949E-6    2.057285801694800E-5    9.701210871302253E-1   -2.379534424161525E-1
 1.895307577268195E8     9.674525018437208E-1   -2.470370117345919E-1    1.490205549957510E-6   -1.016886630427483E-6    2.124890333037816E-6   -3.079177874777487E-6    9.668391718283220E-1   -2.505205696534353E-1
 1.995007976071784E8     9.637408665576220E-1   -2.594964652165801E-1    7.751381424429029E-7   -4.041733400479988E-6   -5.229674195770698E-7    1.321300986616818E-5    9.628306273557193E-1   -2.631647527664666E-1
 2.094708374875374E8     9.606005054079968E-1   -2.724982231447728E-1   -3.748003340687992E-6    5.178485034535096E-7   -6.521850574302526E-6   -7.907494492708228E-7    9.589787462146282E-1   -2.762518939185317E-1
 2.194408773678963E8     9.572140673529644E-1   -2.850901393455195E-1   -5.578735994369508E-6   -4.814119699464569E-6   -2.216941200733675E-5    5.155872612236726E-6    9.551214018486270E-1   -2.890648051342973E-1
 2.294109172482552E8     9.534731437107400E-1   -2.974160255759847E-1   -2.646312359133872E-6    5.725406440669863E-6    9.486819771603122E-6    2.782725150478279E-5    9.509558697865860E-1   -3.017421658786003E-1
 2.393809571286142E8     9.504659276285062E-1   -3.093979952601379E-1   -2.841924836573677E-6    7.771257559034256E-6    1.412575834104089E-6   -1.227415510953471E-5    9.470652054849343E-1   -3.139913049700877E-1
 2.493509970089731E8     9.470114912110611E-1   -3.234035906605693E-1   -2.114328497185928E-6   -7.737163995784298E-6    1.375483297571466E-5    5.103226084893092E-6    9.440439084328476E-1   -3.276482527962040E-1
 2.593210368893320E8     9.427928076884839E-1   -3.354440317490782E-1    1.746642277656804E-5   -1.765107935349052E-6    1.350343408601476E-5   -9.340649925390888E-7    9.398335369259372E-1   -3.408279604090800E-1
 2.692910767696909E8     9.384143510499087E-1   -3.467579187355894E-1    7.798438417757563E-7    3.360268151921194E-6   -1.665965905239358E-5   -1.295741790337023E-5    9.355620881590951E-1   -3.528631942021473E-1
 2.792611166500499E8     9.337734653224559E-1   -3.584513438138365E-1   -1.044852832740245E-5   -1.062512013631491E-5   -2.248711081150655E-6   -2.180521823504847E-5    9.309602517602847E-1   -3.646702738910448E-1
 2.892311565304088E8     9.289438696848544E-1   -3.706354945243800E-1    6.980598433899347E-6   -1.136006760784899E-5    2.130136787798835E-5    1.436757078960687E-6    9.262282518301860E-1   -3.768084038746585E-1
 2.992011964107677E8     9.240308602928091E-1   -3.826593866295372E-1    5.725498853970296E-6    9.577976946034939E-6   -7.760198653329162E-6   -6.679466534608066E-6    9.211922293174317E-1   -3.885822094100312E-1
 3.091712362911266E8     9.188233547933097E-1   -3.949703663851363E-1   -1.099649261208916E-5    3.108979282585539E-6    7.549699674950312E-6   -1.227024779881242E-5    9.157844103927393E-1   -4.002042817400338E-1
 3.191412761714855E8     9.132792072408896E-1   -4.073972663711564E-1   -1.295270433496777E-5   -9.220829784097546E-6   -7.588221548778799E-7    7.263304295287289E-6    9.098852739795099E-1   -4.119220178025411E-1
 3.291113160518445E8     9.076043373769697E-1   -4.200466566407925E-1   -8.606233222902505E-6   -4.267325098729912E-6   -1.711548127069864E-5   -5.055387283148478E-7    9.033690400702571E-1   -4.244684510843791E-1
 3.390813559322034E8     9.019670866761661E-1   -4.328997160290924E-1    7.038836688416563E-6    8.790177368274203E-6    3.986509485880223E-6    2.804676793508170E-6    8.967735696432778E-1   -4.368941709111020E-1
 3.490513958125623E8     8.966577113556727E-1   -4.454097337585861E-1    8.311105255551434E-6    1.439737324643045E-5    6.463061770783616E-6   -2.443204331778778E-6    8.904838688146910E-1   -4.494011392195047E-1
 3.590214356929212E8     8.913929476786832E-1   -4.579799952895998E-1   -1.990628943599035E-6   -1.250682296004640E-6   -4.593773120719773E-7   -2.200184687497015E-5    8.845968857607793E-1   -4.621413607033026E-1
 3.689914755732802E8     8.859900309634824E-1   -4.700943996159353E-1    1.763657108495812E-6    1.259767837438735E-5    7.073920197066560E-6    6.683080284682523E-6    8.792061078398677E-1   -4.747566599795046E-1
 3.789615154536391E8     8.797570322778427E-1   -4.813932804541356E-1    1.588702048659296E-10  -8.960142456317688E-6    1.085690770523110E-5   -1.251398525856034E-5    8.738877730450003E-1   -4.868009895888009E-1
 3.889315553339980E8     8.740988969435173E-1   -4.920459094371958E-1   -8.680689966262121E-6    5.139421533361993E-6   -7.976755340651442E-6   -4.034718647472753E-6    8.679418937802909E-1   -4.987150560361197E-1
 3.989015952143569E8     8.673824873036999E-1   -5.027860723675491E-1    1.884617792010855E-6   -1.910225941182765E-5   -6.618894338441930E-6   -1.080920671581599E-5    8.611793699638612E-1   -5.096999402459156E-1
 4.088716350947158E8     8.601727094213105E-1   -5.136089869652812E-1    2.757907601664405E-6    3.507766484027926E-6   -3.926612200868133E-6    1.371101453232661E-5    8.542212538706775E-1   -5.206188862146717E-1
 4.188416749750748E8     8.532581727932624E-1   -5.252042716469342E-1   -1.269282900780443E-6   -1.688656607859727E-5   -1.353966500247045E-5    3.697803843704537E-6    8.477263971782436E-1   -5.315113809658767E-1
 4.288117148554337E8     8.459852767388558E-1   -5.368701598078168E-1    9.968441198163537E-6   -1.430326716369267E-6   -3.257021726078875E-6    8.046421597825904E-6    8.406583170490248E-1   -5.418657893696518E-1
 4.387817547357926E8     8.382006753584256E-1   -5.483198649784298E-1   -6.833845821054672E-6    8.162344353425956E-7    2.311905714402044E-5   -3.653112807612326E-6    8.326761151902258E-1   -5.523189807009942E-1
 4.487517946161516E8     8.305274779067472E-1   -5.601509093430475E-1   -1.042525599976353E-6   -3.898307633083531E-6   -1.640902826780872E-7    1.840723309396688E-6    8.242017402515244E-1   -5.635514895110403E-1
 4.587218344965104E8     8.235241937193285E-1   -5.720683880291582E-1    1.285888146088154E-5    4.650571069683375E-6    8.851552569728604E-6    6.094111158280284E-6    8.161130785962232E-1   -5.753210902712180E-1
 4.686918743768694E8     8.170252584052786E-1   -5.834291391679314E-1   -1.033251177195278E-5    1.242969265431581E-5   -1.923985911378414E-5    1.383554252468884E-5    8.079425251381994E-1   -5.868818002394864E-1
 4.786619142572283E8     8.099194581589553E-1   -5.942964553266884E-1   -8.177271711025832E-6    4.732763525062339E-6    1.200408180413176E-5    1.598579684767452E-7    7.993607390167887E-1   -5.981477104390744E-1
 4.886319541375872E8     8.023882794977606E-1   -6.048051964488902E-1    2.216698040566406E-6    4.126733130622820E-6   -1.757577054311177E-6    3.203689557955230E-6    7.905648378745197E-1   -6.088597999635047E-1
 4.986019940179462E8     7.939382136219680E-1   -6.154416877510718E-1   -8.499672526941871E-6   -1.259043713445027E-6   -4.369357487135035E-6    2.102276125523839E-5    7.824530002530459E-1   -6.196662380508501E-1
 5.085720338983051E8     7.856254913023548E-1   -6.245748374115668E-1    5.060101080968962E-6   -4.178434617129943E-6   -6.065207277099276E-6   -5.815215727873514E-6    7.746499665565727E-1   -6.302871481341015E-1
 5.185420737786640E8     7.782887451975806E-1   -6.336850014458874E-1   -2.039812617458241E-6    1.185185936168332E-6   -1.781198936358799E-6   -7.318789023229823E-7    7.670210510751551E-1   -6.400927322498969E-1
 5.285121136590229E8     7.700376816030955E-1   -6.432431728925728E-1   -1.232448191418738E-5    1.339144735185800E-5    7.140967588391631E-6   -8.295017803978195E-7    7.589660934864596E-1   -6.497241100327202E-1
 5.384821535393819E8     7.613909793443338E-1   -6.531462380190829E-1   -5.451935547391071E-6    1.957393888621963E-6   -1.409014437329322E-5   -4.342521159486092E-6    7.508830719236956E-1   -6.593282448790330E-1
 5.484521934197408E8     7.532497577440971E-1   -6.636909170205852E-1   -1.182633830274961E-5    8.833621556719486E-6    6.823052942125618E-6   -1.353370947650578E-5    7.424728892467158E-1   -6.692493303847190E-1
 5.584222333000997E8     7.447623853607963E-1   -6.746896445865063E-1   -6.406089980683238E-6   -1.090977354643332E-6   -1.552914974827787E-5    4.775270425146395E-6    7.334128572982905E-1   -6.792142483700747E-1
 5.683922731804587E8     7.355664624863253E-1   -6.851855523150240E-1   -3.926937868036499E-6   -7.767550128767405E-6    1.240406120189186E-5    4.624372076843523E-6    7.230703646444727E-1   -6.891789212072832E-1
 5.783623130608176E8     7.263296751363061E-1   -6.950930954690890E-1   -8.462276506901236E-6   -2.507500553213052E-6    5.130591544396805E-6   -6.573953747492056E-6    7.126101666125348E-1   -6.988809725661042E-1
 5.883323529411764E8     7.170304329027862E-1   -7.051330851379227E-1   -5.927198781870189E-6   -7.536528916126159E-6   -6.959692933107146E-6    6.138200102733598E-6    7.023162939656390E-1   -7.087932165722330E-1
 5.983023928215353E8     7.078843710806846E-1   -7.153023264490838E-1   -2.013606701305710E-6    4.795240215483904E-6    8.492810798260899E-6   -6.305330474008211E-6    6.919689527131857E-1   -7.184370923143528E-1
 6.082724327018943E8     6.984196746685409E-1   -7.251264950640849E-1    4.937240506081069E-7   -4.412192700532582E-7    2.566252462454242E-5    1.207929391774276E-5    6.817769061573841E-1   -7.278233585125400E-1
 6.182424725822532E8     6.885819547255673E-1   -7.346063272727975E-1    7.073687936134782E-6    1.553201317290276E-6    2.340963599059322E-6   -2.480893282561520E-5    6.716846140646563E-1   -7.372167643777010E-1
 6.282125124626122E8     6.780045321606537E-1   -7.439057357665925E-1   -1.118090039260921E-5   -6.382863779883653E-7    1.974540871884475E-5   -1.195658947138494E-5    6.627035137691265E-1   -7.467950315739778E-1
 6.381825523429711E8     6.682700165859079E-1   -7.511619665817996E-1   -8.741595545057950E-6   -1.885192778275063E-5   -1.035099570812837E-6    1.521981635487734E-5    6.538381130754995E-1   -7.557277009270259E-1
 6.481525922233300E8     6.594296318495805E-1   -7.597395042788242E-1   -8.080665158674224E-6   -3.937929291312993E-6    2.815004679590116E-5   -2.460125237257828E-8    6.446780385231606E-1   -7.641220527001060E-1
 6.581226321036890E8     6.497148372153539E-1   -7.686654130585959E-1    7.776889737677927E-6   -9.838495413241420E-7   -2.819730438925433E-5   -2.189190499386516E-6    6.345405165513814E-1   -7.724744532718941E-1
 6.680926719840479E8     6.397974693599349E-1   -7.773723580472253E-1    7.279276150427443E-6    1.437477129743537E-6    5.243274806275367E-6    1.565808304031085E-5    6.238925877201116E-1   -7.804041287019116E-1
 6.780627118644068E8     6.299104784166961E-1   -7.853827710571974E-1    1.943815094658175E-7    7.148937496133048E-7   -5.697178686822648E-6   -2.121752550821634E-5    6.129185581742156E-1   -7.884068193961565E-1
 6.880327517447658E8     6.195184969520589E-1   -7.936271906784640E-1   -5.276562314691949E-6    1.241092659089764E-5   -7.931386619922790E-7    7.222960796825413E-6    6.015304532488223E-1   -7.959895923931889E-1
 6.980027916251246E8     6.086199708399795E-1   -8.018654898233425E-1   -1.457389592038837E-5    1.756697157722261E-5   -1.498299769626070E-5    4.375735889113054E-6    5.900274644685283E-1   -8.037420106594837E-1
 7.079728315054835E8     5.973695477466184E-1   -8.102745451854892E-1    2.919995823065471E-6    6.244406302519069E-6    1.101060916586499E-5    7.659045336460047E-6    5.784946704149110E-1   -8.115592635495715E-1
 7.179428713858424E8     5.861126901936350E-1   -8.187927067802218E-1    7.797833693359509E-7    1.314224813044376E-5   -2.609530338387312E-6    1.012951367548372E-5    5.672239377530632E-1   -8.201211996127590E-1
 7.279129112662014E8     5.751113187019431E-1   -8.271925401276988E-1    3.591985415646433E-6   -3.999853415717069E-6   -1.208908179406603E-6   -9.532074653024422E-6    5.559643591237077E-1   -8.289666438331982E-1
 7.378829511465603E8     5.638234113934433E-1   -8.360496350451779E-1    2.224847994817831E-6    3.216258617946150E-6   -1.211830335219823E-6   -1.489062830889286E-5    5.446083519625289E-1   -8.373431219418846E-1
 7.478529910269192E8     5.518232326987188E-1   -8.445659730769378E-1    3.267844522822358E-6   -7.618664441030881E-6    3.747433006687327E-6   -9.973720812576412E-7    5.334771804746362E-1   -8.450516292887790E-1
 7.578230309072782E8     5.392382700393235E-1   -8.516794614045000E-1    2.670829435337794E-6    4.984630220123271E-6    6.675592962164177E-6    8.314882935012279E-6    5.222402869277326E-1   -8.519454730745989E-1
 7.677930707876371E8     5.288353950396553E-1   -8.570634532486839E-1    4.025974015782834E-6    7.025507352568265E-6    1.830666872015889E-6   -2.280023687007309E-7    5.109457252674424E-1   -8.582814218198190E-1
 7.777631106679960E8     5.192058858731042E-1   -8.640284878978961E-1   -7.372467514849844E-7   -3.505410875026795E-6   -2.388128452997602E-5    8.042827852435919E-6    4.994652710907266E-1   -8.648529396124411E-1
 7.877331505483550E8     5.088793033436444E-1   -8.709701637652574E-1    7.656946072893989E-6    7.077118406490876E-6   -1.401486487391707E-6    1.357742443803624E-5    4.876716675913855E-1   -8.715300560305433E-1
 7.977031904287138E8     4.976337165650905E-1   -8.773467665688236E-1    1.706084361164016E-7   -5.284422556183195E-6    2.806591576779084E-5    4.055560750557112E-6    4.749125592668698E-1   -8.780901159806331E-1
 8.076732303090727E8     4.858605776420085E-1   -8.832265775259244E-1   -6.594989572749484E-7    3.063152080229297E-6    2.816829567080329E-7   -9.620351596297625E-6    4.621121343067444E-1   -8.840222286576204E-1
 8.176432701894317E8     4.738305999633967E-1   -8.892387545039787E-1    3.166242585988668E-7   -2.052606474850125E-7    3.752324740429727E-6   -2.297530284395030E-6    4.490902419859980E-1   -8.903715745882737E-1
 8.276133100697906E8     4.614746922243440E-1   -8.956988166368639E-1    1.093626591512298E-6    1.572747347726770E-5   -6.219768212447561E-7    2.868241138534701E-6    4.366170077155954E-1   -8.970834480978777E-1
 8.375833499501495E8     4.489292480954782E-1   -9.020523908018083E-1   -9.341044092950004E-6    2.825923668776484E-6    2.371114846420001E-6    2.129615944937631E-6    4.244464517384711E-1   -9.039710262668456E-1
 8.475533898305085E8     4.361063704810250E-1   -9.085050556893852E-1    7.883145287351071E-6    1.692380833795884E-5   -7.595609871219229E-6   -5.805012383904280E-6    4.125382915595918E-1   -9.099142073347030E-1
 8.575234297108674E8     4.233518223280622E-1   -9.148377938900393E-1    1.171656901911094E-5   -4.177152469246571E-6   -2.612611882355710E-7   -3.762447794259862E-6    4.007992324604650E-1   -9.151524341750062E-1
 8.674934695912263E8     4.105649654603449E-1   -9.215577999861467E-1   -8.126203552616159E-7   -1.406986271753189E-5    8.076337335293984E-6   -5.490473694483953E-6    3.886398258544025E-1   -9.199609555383310E-1
 8.774635094715853E8     3.974547321501691E-1   -9.280552326191812E-1    1.152095773739739E-5    5.089690658418574E-6    1.882027527025348E-5   -9.100811241958696E-7    3.761345164603906E-1   -9.248120429984201E-1
 8.874335493519442E8     3.843866959330142E-1   -9.326797378196536E-1   -5.872035914203308E-6    2.521228846227424E-6    4.469556167101774E-6   -2.660702488392532E-6    3.631133023959867E-1   -9.292370172935246E-1
 8.974035892323031E8     3.730616796668437E-1   -9.363455278061695E-1   -4.557961538899218E-8   -7.142733913869349E-6   -5.103209007424020E-6   -1.257395669973442E-5    3.495660375548812E-1   -9.334797263851959E-1
