#  HZ   S   RI   R     50.00 
! Rohde & Schwarz Vector Network Analyzer 
! Rohde-Schwarz,ZNB20-2Port,1311601062102128,3.60
! Created: UTC 4/29/2024, 2:52:34 PM
! freq[Hz]                re:S11                  im:S11                  re:S21                  im:S21                  re:S12                  im:S12                  re:S22                  im:S22
 1.000000000000000E5     9.963387561470933E-1    3.625500280600585E-3    1.066733968911890E-4   -9.174006411391657E-5   -8.051906593769869E-5   -4.090315553638059E-5    1.010449520540187      -1.133820468535799E-2
 1.007003988035892E7     9.976171679851352E-1   -1.423292157451689E-2   -7.719114102664254E-6    1.571166547724162E-5   -2.035696920862150E-5   -1.546492984004533E-5    9.958671340771182E-1   -1.449395019850302E-2
 2.004007976071785E7     9.995623482859026E-1   -2.731866006718284E-2    1.025317765942284E-5    1.508306003820789E-5    5.130918819826460E-5   -5.598307444001009E-6    9.987976289632272E-1   -2.790642009380499E-2
 3.001011964107677E7     9.980068238845582E-1   -4.108804836826762E-2    8.190213219663120E-6    4.270610129415334E-6   -1.757433114531299E-6    1.363442781061239E-6    9.975026487255040E-1   -4.195918066140543E-2
 3.998015952143569E7     9.977083512426527E-1   -5.313145559099668E-2    9.963936887802701E-6   -1.397996050695667E-5    6.839102879183164E-6   -3.075570033643939E-6    9.976804601569149E-1   -5.665483227523815E-2
 4.995019940179461E7     9.961107035246098E-1   -6.592319632956503E-2    1.624287236314639E-5    3.070549324709353E-6    7.885073503874526E-6    7.341791390107061E-6    9.965356668935560E-1   -6.900332098144983E-2
 5.992023928215354E7     9.943117235098947E-1   -7.884149606434637E-2    1.149161833859107E-6    8.619639730957569E-6   -5.587071490945089E-6   -4.927160476472059E-6    9.947518646863946E-1   -8.204517541716737E-2
 6.989027916251247E7     9.933462015161595E-1   -9.178461014258082E-2    7.950063584018312E-6    2.660676755586186E-6   -8.630437756738406E-7   -4.686529401081659E-7    9.933873751485444E-1   -9.481553116270826E-2
 7.986031904287139E7     9.924927343129799E-1   -1.051779646114699E-1   -8.059873739377616E-7   -6.449460037669512E-6   -5.751721208815660E-6   -2.800621389140315E-5    9.923519278300373E-1   -1.079930425489812E-1
 8.983035892323031E7     9.915221200158381E-1   -1.187336054636258E-1   -9.798981370261532E-6   -1.095086243684023E-5    2.162773115082422E-6    5.064524384999534E-6    9.908795399181068E-1   -1.210665087703482E-1
 9.980039880358922E7     9.895343494603892E-1   -1.323156246259174E-1    1.071166602068554E-5    4.320965890921494E-6   -2.543341862057319E-5    1.125674225033808E-5    9.886309590635813E-1   -1.344051065734471E-1
 1.097704386839482E8     9.864953571876033E-1   -1.454535004683784E-1   -7.193417479190276E-6   -1.029242964810336E-5    5.508036724353879E-6    8.031300872953970E-6    9.861608212204923E-1   -1.477361449399832E-1
 1.197404785643071E8     9.849353293398219E-1   -1.588430254292371E-1    5.487568337233155E-7    5.279934102876446E-6    8.250262766131373E-6   -1.214487105475492E-5    9.843110287229764E-1   -1.611535593272599E-1
 1.297105184446660E8     9.831594697410612E-1   -1.718306011497215E-1    1.840327527979655E-6    2.055842809081950E-6    1.118039649749586E-5    5.202453297698967E-7    9.829494192716992E-1   -1.744535105586847E-1
 1.396805583250249E8     9.817534479952434E-1   -1.846985889908800E-1    1.207910969511724E-5   -4.891247904636067E-6   -1.688852841354277E-5    9.448175000154008E-6    9.809329814513270E-1   -1.874595266810789E-1
 1.496505982053838E8     9.789519154111924E-1   -1.971016559504469E-1    3.605787646992631E-6   -1.358933302744084E-5    5.906773716384557E-6   -2.811304757824799E-6    9.784093380250334E-1   -2.003954658145020E-1
 1.596206380857428E8     9.762564960824421E-1   -2.094204151260159E-1   -1.781358223257248E-5   -2.193758994094860E-6    5.635923020236722E-8    1.051313247564158E-6    9.757399018893856E-1   -2.132730927371326E-1
 1.695906779661017E8     9.733924389529780E-1   -2.224062439091056E-1    4.993841358212248E-7    1.381032763144573E-5   -1.244387444758050E-5    1.861091866785085E-5    9.728245792213748E-1   -2.261503793574963E-1
 1.795607178464606E8     9.708425666966574E-1   -2.348640421832057E-1    3.862746811771834E-6    1.752204175987813E-5    1.199718459803808E-5    1.421730482992807E-5    9.702152352107948E-1   -2.379661156737141E-1
 1.895307577268195E8     9.677009924900030E-1   -2.470564339017390E-1   -1.932772115956770E-6   -1.032525696794086E-6   -4.463743854513367E-6    5.823998754564230E-6    9.668480136340978E-1   -2.504755938070102E-1
 1.995007976071784E8     9.638464347347605E-1   -2.595329783550537E-1   -8.618025713938204E-6   -2.271593074354868E-6    4.966605174836144E-6    4.695041240566708E-6    9.627503191983724E-1   -2.631804168658236E-1
 2.094708374875374E8     9.606038505044775E-1   -2.724286657594402E-1   -1.001657054616335E-5    6.418727286972676E-6   -5.242283458590607E-6   -9.133499045479610E-6    9.588077119430188E-1   -2.761567963050397E-1
 2.194408773678963E8     9.574424818731316E-1   -2.852485637938451E-1   -8.738060744950973E-6    1.227178484111086E-5   -4.243461644814656E-6   -5.259967148067145E-6    9.550326487250598E-1   -2.891516386767956E-1
 2.294109172482552E8     9.536479513564983E-1   -2.974164615471299E-1   -4.474885452591837E-6    1.238743853502084E-5   -5.027732929805520E-7    6.033637317656062E-7    9.510218255558480E-1   -3.018184277132267E-1
 2.393809571286142E8     9.504893366823168E-1   -3.094353035775501E-1   -1.656865644501922E-5    1.304484543194095E-5   -1.223548728593713E-5    1.091278153252824E-6    9.469266112714213E-1   -3.140583353352713E-1
 2.493509970089731E8     9.469952260161828E-1   -3.232999636967673E-1    5.655582285810697E-6   -6.945475881770424E-6   -1.717475806684884E-5    3.668510517484370E-6    9.441745722774668E-1   -3.276988393507988E-1
 2.593210368893320E8     9.429183379630894E-1   -3.354231062598534E-1   -2.059634785934144E-6   -1.046336255497221E-5   -1.204320478578788E-6   -1.190902176893523E-5    9.398754215236916E-1   -3.408273387107106E-1
 2.692910767696909E8     9.385840577068191E-1   -3.468235938169905E-1   -5.053761000983278E-6   -1.945933626225731E-6   -3.358003802051902E-6   -1.286987160926077E-5    9.355469730860696E-1   -3.529351523525055E-1
 2.792611166500499E8     9.338739377026316E-1   -3.584264300074862E-1    1.827867351989527E-5   -1.893270738501752E-5    8.238958149095516E-6   -1.838135020920356E-5    9.309741614877265E-1   -3.645841336955717E-1
 2.892311565304088E8     9.291450846282117E-1   -3.706268216042718E-1    3.806307881629814E-6   -5.736860823504543E-6   -1.793466895806281E-5   -3.919524454981977E-6    9.262046734312820E-1   -3.768115428191342E-1
 2.992011964107677E8     9.243338102336724E-1   -3.827439746019885E-1   -2.625487501746890E-6    3.680620320075490E-6   -5.944572678470568E-6   -5.614334861220711E-6    9.211793275984683E-1   -3.887050583871383E-1
 3.091712362911266E8     9.189565880333764E-1   -3.949790901304663E-1   -3.689599105932763E-8   -5.452728710771165E-6    1.021450885523874E-5    1.148374030688655E-6    9.157645719080391E-1   -4.002350661254782E-1
 3.191412761714855E8     9.132192262119050E-1   -4.072604749639585E-1   -9.754070987836299E-7   -4.959575698810003E-6    5.364046929910952E-6    1.893747421284396E-5    9.097561321604299E-1   -4.119410400629350E-1
 3.291113160518445E8     9.076797416664646E-1   -4.200045294768092E-1    1.980436260741213E-5   -3.581716271226739E-6    1.084470637907569E-5   -6.500523001940955E-6    9.033593043554565E-1   -4.243941543501925E-1
 3.390813559322034E8     9.020765939126801E-1   -4.328738465765706E-1   -3.578295119385945E-6   -2.139740935697108E-6    1.075107275812063E-6   -1.375197371669944E-5    8.968308448885731E-1   -4.370007471744732E-1
 3.490513958125623E8     8.965978563649998E-1   -4.453401344417880E-1   -7.905516790256232E-6    2.670227434385874E-6   -1.006039670860879E-6    1.325900652675621E-5    8.905070127653467E-1   -4.494651645642055E-1
 3.590214356929212E8     8.913797979294354E-1   -4.578439434053059E-1   -3.358850222968266E-6    5.677540081635969E-6   -5.779777353189546E-6   -6.255620319239202E-6    8.844725687193911E-1   -4.620986154471282E-1
 3.689914755732802E8     8.858517083428783E-1   -4.700293659601748E-1    3.238065012328893E-7    7.862148131465202E-6    1.964748413448026E-5   -1.029295626088337E-5    8.791407186976679E-1   -4.747857652532763E-1
 3.789615154536391E8     8.799041746551739E-1   -4.813282494023922E-1   -6.981289028080813E-7   -7.851838535642774E-6   -3.355304964406807E-6   -1.333492590000576E-5    8.739331554674411E-1   -4.868262288327924E-1
 3.889315553339980E8     8.742695687946879E-1   -4.920613807574596E-1   -6.205707241178694E-6    6.393910599304486E-6   -4.570479217020079E-6   -1.724975770134036E-6    8.679432019040483E-1   -4.988100218486963E-1
 3.989015952143569E8     8.674245939997636E-1   -5.027166678745719E-1    2.458260039374601E-6    7.061912086820916E-6   -3.032707376610218E-6    3.752661179387569E-6    8.611177721180989E-1   -5.097117878545916E-1
 4.088716350947158E8     8.603132232102737E-1   -5.136326143524947E-1    1.743882375707647E-6   -5.187988932151168E-6    3.906762053056775E-6   -1.249677014570975E-6    8.542893539525874E-1   -5.206316747045265E-1
 4.188416749750748E8     8.533349880984465E-1   -5.251759418387545E-1    1.125137163859090E-6    4.086561284360181E-6    9.335775658575365E-6   -2.710488679079676E-5    8.475580085735402E-1   -5.315490536172909E-1
 4.288117148554337E8     8.460480538217938E-1   -5.367559798221768E-1    5.514994743533271E-6   -5.505460307815563E-6   -6.216010851508031E-6   -6.474805954729195E-6    8.405661943794089E-1   -5.418196754296792E-1
 4.387817547357926E8     8.382872378107656E-1   -5.482105054139959E-1   -7.791925005104082E-6   -2.022516679564821E-5   -1.846350761242610E-6   -1.367697754081104E-5    8.326355737746374E-1   -5.522374699554971E-1
 4.487517946161516E8     8.305233351025901E-1   -5.600237182561726E-1   -4.680475151176237E-6    1.668006273928391E-5   -1.119017790991421E-5   -1.782440614830907E-6    8.241962979536314E-1   -5.634958040304696E-1
 4.587218344965104E8     8.236177700460519E-1   -5.719006978030542E-1   -6.984552742973131E-6   -4.656306658647669E-6   -3.281088742063089E-7   -6.122446534360620E-6    8.159505193897671E-1   -5.752694732697573E-1
 4.686918743768694E8     8.170212703602011E-1   -5.833893346718360E-1    2.844048187022430E-6   -1.363465887882718E-5    5.375055322234183E-6   -1.246387961131097E-5    8.078873888959726E-1   -5.869403082369853E-1
 4.786619142572283E8     8.099697801556145E-1   -5.941948582587738E-1   -9.593967288290748E-6   -1.915538632915533E-6   -1.104668828321103E-5   -1.833261847607304E-7    7.994008902755700E-1   -5.980269953992344E-1
 4.886319541375872E8     8.024130760269578E-1   -6.046270576305471E-1   -2.665354806815512E-6   -9.817812101077982E-6    1.572622821916765E-5   -1.007829245393776E-5    7.906022751007202E-1   -6.088417992649864E-1
 4.986019940179462E8     7.940347211448252E-1   -6.153974872906497E-1    8.149221282976547E-6    1.289947718914118E-5    4.514127685300311E-6    3.440960810586826E-6    7.824156217729443E-1   -6.197750828377849E-1
 5.085720338983051E8     7.857282720583759E-1   -6.245298467743970E-1    1.173220175958909E-5    2.118862031934646E-6    5.509163706980242E-6   -3.626761874184928E-7    7.746131734586930E-1   -6.303300874068328E-1
 5.185420737786640E8     7.782929757564108E-1   -6.335550090639926E-1    2.890153814088468E-6   -1.239381741060230E-5    3.516234861482497E-6    5.898691540277581E-6    7.670119297804069E-1   -6.401427431535543E-1
 5.285121136590229E8     7.701102085917052E-1   -6.430406041911065E-1   -6.435429082371234E-6    5.792941360600901E-6   -1.723412167815613E-5    1.674433455888118E-5    7.589834262145898E-1   -6.497956753602865E-1
 5.384821535393819E8     7.615010056625054E-1   -6.532127744278533E-1   -1.290320906912608E-5    6.488950041363729E-6   -1.927632594499567E-5    1.139755860868614E-5    7.508648677837736E-1   -6.594363348338127E-1
 5.484521934197408E8     7.533320280999291E-1   -6.637257767784298E-1   -5.338170646028173E-6    1.535233383677491E-5   -6.060988339292777E-6   -3.360337240125009E-6    7.424081254304770E-1   -6.692446578676421E-1
 5.584222333000997E8     7.447558060913925E-1   -6.745412446609912E-1    1.554441165728683E-5    1.039552204395563E-5   -1.404998631689414E-5    4.103691464624930E-6    7.332317990744224E-1   -6.792646740945639E-1
 5.683922731804587E8     7.356436062174039E-1   -6.851319120417694E-1    1.549667713011592E-6    2.109648868371414E-6    1.243376222585377E-5    6.097797772957999E-6    7.231519484042251E-1   -6.892104236899753E-1
 5.783623130608176E8     7.264774981747699E-1   -6.951533434949372E-1   -4.128684847059287E-7   -1.164521263241321E-6   -1.994389754535196E-5    3.181659097153903E-7    7.125869801331456E-1   -6.989381533687485E-1
 5.883323529411764E8     7.171285947338650E-1   -7.051090790798831E-1   -8.358626210267651E-6   -9.891531440860869E-6    5.602241885070004E-6    9.021132365157904E-6    7.021572496493758E-1   -7.088271818853673E-1
 5.983023928215353E8     7.079683432223073E-1   -7.152204051275943E-1   -1.059553928119166E-5    4.863233710331354E-6   -1.941223660270270E-5    7.363774227175874E-6    6.918846179050767E-1   -7.184223253552096E-1
 6.082724327018943E8     6.984233012585795E-1   -7.249675066685729E-1    1.205333313477679E-6    4.929690809622331E-6    1.673719546131802E-5   -4.286529886882187E-6    6.816097553522317E-1   -7.278484320394240E-1
 6.182424725822532E8     6.886060715593593E-1   -7.345954386812252E-1    8.418077086200970E-6    2.822295828379541E-5   -9.771480600946796E-6    9.964078877486060E-6    6.717360159823741E-1   -7.371498362656307E-1
 6.282125124626122E8     6.778892603094475E-1   -7.439587325526015E-1   -5.925664103596063E-6    8.215718681878883E-6    1.117089677586060E-6    4.728858271116660E-6    6.627918138805260E-1   -7.467925801361083E-1
 6.381825523429711E8     6.682719890272910E-1   -7.510904046440016E-1   -2.840968928055136E-6   -8.587957246522472E-6   -5.553128862195280E-6   -8.158323248565209E-6    6.537574435235659E-1   -7.556872402844432E-1
 6.481525922233300E8     6.594064431501149E-1   -7.596730843557353E-1   -4.078119589433099E-6   -9.333745546852145E-6   -9.913812711055891E-6    2.561335730365504E-6    6.445956864595156E-1   -7.641127887128820E-1
 6.581226321036890E8     6.496672959098035E-1   -7.685561545720959E-1    2.483968609055548E-6    3.580325706274169E-6    1.180367319152125E-5   -1.153692340287398E-5    6.345397526388047E-1   -7.723990665297589E-1
 6.680926719840479E8     6.396584911379226E-1   -7.772633174692979E-1    5.811726288573855E-6    2.900892772887593E-6    7.718265147353647E-6   -1.003652659033645E-5    6.239660963916058E-1   -7.804187673125763E-1
 6.780627118644068E8     6.299227004681445E-1   -7.854665471094662E-1    1.655203097392107E-6   -1.664137980281897E-6    2.417069179606017E-6   -8.375921865689092E-6    6.129584415655690E-1   -7.884471658904830E-1
 6.880327517447658E8     6.195735646848612E-1   -7.936268111051867E-1   -3.721205016216796E-6   -8.492239672036093E-6    1.890274172858053E-7    2.611041047789608E-6    6.015449535566993E-1   -7.960829650577294E-1
 6.980027916251246E8     6.086351105205010E-1   -8.020022673947859E-1   -1.064806176437159E-5   -1.686727354617133E-5   -8.706917361736607E-6    1.639483469885859E-6    5.899445035368421E-1   -8.037034901100431E-1
 7.079728315054835E8     5.973272078946597E-1   -8.102362638529010E-1   -1.664762545659945E-5    2.061279709373264E-5   -8.000450649297374E-6    2.595891006640072E-6    5.784772350126645E-1   -8.114957635771440E-1
 7.179428713858424E8     5.860654779106343E-1   -8.187802038591570E-1    1.881752375194306E-5   -1.024809097109897E-6    5.267489680348151E-6   -1.267192882333484E-5    5.673001262517554E-1   -8.203561139205785E-1
 7.279129112662014E8     5.750718667937383E-1   -8.272619467446005E-1    1.891922377231354E-5    1.836840330653111E-6   -7.027412070716263E-6   -8.591875862146698E-6    5.560483587236144E-1   -8.289972159015401E-1
 7.378829511465603E8     5.638424600587962E-1   -8.361398374700983E-1    8.272845107372440E-6    5.520670824001598E-6   -7.168547954142186E-6   -3.767928212969937E-6    5.446361111029308E-1   -8.373997735252552E-1
 7.478529910269192E8     5.517671650992054E-1   -8.445280550396115E-1    1.028341705996302E-6    1.115577214955845E-5    7.353367346154904E-6    4.573433883766872E-7    5.333996312462591E-1   -8.450079163142301E-1
 7.578230309072782E8     5.391589152862468E-1   -8.516219324359756E-1    5.215799067178231E-6   -1.366817090140095E-5   -2.964790969647417E-6    4.602887939545297E-7    5.223302243808053E-1   -8.519107333465344E-1
 7.677930707876371E8     5.287962419888822E-1   -8.571313726310801E-1   -3.198755589864876E-6    3.695801998042843E-6    2.148488093298933E-6   -4.723438605688103E-6    5.111255264070514E-1   -8.583652479360369E-1
 7.777631106679960E8     5.192533760080843E-1   -8.640180296970749E-1   -3.635293038760539E-6    1.768750869079905E-5   -9.261543946197822E-6   -4.610774563007320E-6    4.995370654032396E-1   -8.649718944777639E-1
 7.877331505483550E8     5.088363864309402E-1   -8.709095439580835E-1    3.455407812735966E-6    3.798826822536112E-6    1.233108925484677E-5   -2.421097537552246E-7    4.877723165817325E-1   -8.715062037573077E-1
 7.977031904287138E8     4.976089419553728E-1   -8.772789527428247E-1    1.094398763295202E-5   -5.707959110409204E-6    4.148872849231832E-6   -2.758932188118185E-6    4.748798585037021E-1   -8.780092051561220E-1
 8.076732303090727E8     4.858346354838003E-1   -8.831959876305910E-1   -3.887061214732519E-6   -1.717927888912695E-5    6.828727736065053E-8   -1.995999906626624E-7    4.620891527323678E-1   -8.840028594107517E-1
 8.176432701894317E8     4.737996543267413E-1   -8.892363419560022E-1   -1.752420053916601E-7    8.237155810564926E-6    1.004477856386840E-5    2.178632225200053E-7    4.491898429372492E-1   -8.905462525525885E-1
 8.276133100697906E8     4.615032452560561E-1   -8.956366537374622E-1   -2.467433407667435E-6    5.103445298789822E-6    1.614054033132673E-6    6.064888902189538E-6    4.366104693654749E-1   -8.972132115296483E-1
 8.375833499501495E8     4.489126229954295E-1   -9.020599838084855E-1   -1.155677454647008E-5    1.222886760737652E-6    6.618568211160438E-6    1.003741941928686E-5    4.243993960241175E-1   -9.037751002586536E-1
 8.475533898305085E8     4.360982959059654E-1   -9.084086970662981E-1   -3.169081245172410E-6    2.162199372773589E-6    1.178206415223971E-5   -1.534401798770818E-5    4.124667234191857E-1   -9.098498692717755E-1
 8.575234297108674E8     4.232369021623407E-1   -9.148205510302861E-1    1.492533785258263E-8   -1.993106179985614E-6   -8.374303778320114E-6   -2.029650530816631E-6    4.007653005227964E-1   -9.152289216239671E-1
 8.674934695912263E8     4.104606985575995E-1   -9.213882664908929E-1    1.540882363272900E-7    3.221736812594319E-6   -6.517391085367838E-6    7.385666032896685E-6    3.887061732766777E-1   -9.200655794646633E-1
 8.774635094715853E8     3.974928582848040E-1   -9.281404227398178E-1    7.106012383379182E-6    5.478815859396678E-6    2.368319140211039E-6    1.912951198022287E-6    3.761544165111268E-1   -9.246606994416586E-1
 8.874335493519442E8     3.843138398470223E-1   -9.327298678695684E-1   -3.241542740998758E-6    1.108496834866633E-5   -4.494576218275667E-7    4.149740872641582E-6    3.629495387330941E-1   -9.289765642434626E-1
 8.974035892323031E8     3.729774000467935E-1   -9.362792258364051E-1    1.318888071749943E-5    5.417675333278487E-6   -1.052931575822014E-5   -9.849092865734586E-6    3.495186996189026E-1   -9.333504829433570E-1
