#  HZ   S   RI   R     50.00 
! Rohde & Schwarz Vector Network Analyzer 
! Rohde-Schwarz,ZNB20-2Port,1311601062102128,3.60
! Created: UTC 4/29/2024, 2:53:24 PM
! freq[Hz]                re:S11                  im:S11                  re:S21                  im:S21                  re:S12                  im:S12                  re:S22                  im:S22
 1.000000000000000E5     9.964622695863894E-1    3.616248758559699E-3   -1.904494898049342E-4   -6.832253784955249E-5    5.955412797361167E-5   -6.874119860689788E-5    1.010398037181970      -1.120587889087446E-2
 1.007003988035892E7     9.975215750530606E-1   -1.381129311711404E-2   -1.892196917873176E-5   -5.718696950816078E-6    4.628905865941931E-6   -1.007818821293044E-5    9.959338819895740E-1   -1.461908340904736E-2
 2.004007976071785E7     9.997001548392157E-1   -2.714521678920785E-2   -1.085046575878417E-6    2.951159756320951E-5   -1.141806653453231E-5    9.501091518682111E-6    9.989086772904222E-1   -2.780812793223937E-2
 3.001011964107677E7     9.977611410095394E-1   -4.092867863151936E-2   -1.508988443555732E-5    3.516058646918677E-5    2.581141471409773E-6   -4.404624661031360E-6    9.975672414257954E-1   -4.200226166593099E-2
 3.998015952143569E7     9.975769289406715E-1   -5.316284800759701E-2   -1.924020285549406E-5   -5.582530307878310E-6    2.259245234113857E-6    4.753220537017562E-6    9.977630068961344E-1   -5.672959975840126E-2
 4.995019940179461E7     9.960892179936467E-1   -6.601853646114184E-2    1.473278615411047E-5    9.614585797249626E-6    6.319798496716064E-6    3.037847484887121E-6    9.964756355952736E-1   -6.899715618313203E-2
 5.992023928215354E7     9.943024633103908E-1   -7.888757634138961E-2   -1.566273253859178E-5   -8.686501301436424E-6   -8.908741515989267E-6   -8.291323846375258E-6    9.945586840416759E-1   -8.195265898820514E-2
 6.989027916251247E7     9.932333937072956E-1   -9.195102329996610E-2   -1.907997211142738E-5   -1.338698798267835E-5   -2.300310758754930E-5    1.047856096850888E-5    9.934263359716460E-1   -9.466673331675333E-2
 7.986031904287139E7     9.923975220956007E-1   -1.052477114192006E-1   -1.162531504997908E-5    1.594242851231832E-5   -5.259803411926603E-6   -8.271367197047185E-6    9.923771930054067E-1   -1.079489900693626E-1
 8.983035892323031E7     9.914469101590024E-1   -1.187851003704220E-1    8.392434793022073E-6   -1.446453273967607E-5    3.607268169894226E-6   -1.809300639528065E-6    9.908749372688757E-1   -1.211191635325146E-1
 9.980039880358922E7     9.893622328624337E-1   -1.323324317822200E-1   -1.665978230153050E-5   -4.823882022852026E-6   -3.171304702279213E-6    4.351332147569945E-6    9.885493036529795E-1   -1.343833215542308E-1
 1.097704386839482E8     9.865578789733348E-1   -1.456045656840993E-1   -1.221545647850854E-6   -1.715492515820269E-5   -7.978243424610397E-6    2.634228104873314E-6    9.861397543312150E-1   -1.477546383547760E-1
 1.197404785643071E8     9.848431339442033E-1   -1.589632131527433E-1    3.536619061661722E-6    3.446265300127742E-6   -4.935994442276848E-6    2.731815468677767E-7    9.843425843364632E-1   -1.611099276907193E-1
 1.297105184446660E8     9.831427405904187E-1   -1.718915787212843E-1    3.117731091582173E-6    1.256764941332701E-5    4.418627966965141E-6   -5.175048046969140E-6    9.829100358062677E-1   -1.744073762762798E-1
 1.396805583250249E8     9.815229621099527E-1   -1.847031544708677E-1    2.067743247084616E-6   -4.996689008754996E-7   -1.872772556962845E-5    7.577205717038821E-6    9.809670608777294E-1   -1.875358208423794E-1
 1.496505982053838E8     9.790045319511874E-1   -1.971836850697326E-1    4.900089333668896E-6   -3.378065380137418E-6   -3.497969545801541E-6    8.805080556658081E-6    9.784310373933169E-1   -2.003957996962220E-1
 1.596206380857428E8     9.763240962111273E-1   -2.095144476624602E-1   -7.080214129326715E-6    2.425540018794874E-6    5.103837968225955E-6   -1.448438543142573E-5    9.756578086515211E-1   -2.133118567705738E-1
 1.695906779661017E8     9.733041361587207E-1   -2.223312169602153E-1    2.034290320114073E-5   -2.787866676358994E-6   -5.283704625512583E-6   -2.688068471048811E-6    9.729384543702249E-1   -2.261443170320413E-1
 1.795607178464606E8     9.707091780795291E-1   -2.348301342204907E-1   -7.885813478336140E-6   -1.627935884072778E-5   -4.790581867278215E-6   -7.119564958824433E-6    9.701990018272897E-1   -2.380869478006245E-1
 1.895307577268195E8     9.677559585020012E-1   -2.471029754034005E-1    7.371347242228630E-6    1.553363124600875E-7    2.231479793010126E-5    8.076758465277638E-6    9.667390255049106E-1   -2.505852572761285E-1
 1.995007976071784E8     9.639433139625536E-1   -2.596373678004360E-1   -6.975759756567876E-6   -2.750621532052946E-6   -1.940920402843741E-6   -1.221635777760522E-5    9.627841489052280E-1   -2.631828465427432E-1
 2.094708374875374E8     9.605179834264236E-1   -2.725073834281612E-1    2.252367314791606E-6    5.260066744274394E-6    7.000315434038784E-7   -3.426159364520305E-5    9.589644038861631E-1   -2.762142265816407E-1
 2.194408773678963E8     9.573097833483309E-1   -2.852222866729141E-1   -1.460352745303678E-5   -1.236381534340441E-5   -8.396440775993054E-6    8.109847302728886E-6    9.551214885291609E-1   -2.892094348395113E-1
 2.294109172482552E8     9.536405264713932E-1   -2.974990682647856E-1    2.151952736708400E-6    8.377883706130340E-6   -1.286783486308833E-5    9.744397854461028E-6    9.510108544623715E-1   -3.017377853647981E-1
 2.393809571286142E8     9.505987139755209E-1   -3.094850121114368E-1    1.016500063397753E-5    9.120546769544697E-6   -1.607718798502940E-5    1.680039497897061E-6    9.468585111336443E-1   -3.139974561653752E-1
 2.493509970089731E8     9.470651719406730E-1   -3.233449117088687E-1   -9.068149580792578E-6   -4.123751521055990E-6   -4.452137437158259E-6   -1.237238636160791E-5    9.442382879758207E-1   -3.276311068617930E-1
 2.593210368893320E8     9.427329759027808E-1   -3.353896888472613E-1    7.477328641093617E-6    1.437849228242058E-5   -1.580204160075797E-5    1.639753917038352E-6    9.398536289540843E-1   -3.409278261393405E-1
 2.692910767696909E8     9.385998589480378E-1   -3.469254053958188E-1    4.100909385948625E-6   -1.477607643983125E-5   -9.924182952894882E-6    6.353071499480496E-6    9.354257051490463E-1   -3.528881885651494E-1
 2.792611166500499E8     9.339216340726009E-1   -3.585443082537773E-1   -5.396759810883770E-6    3.151129191262979E-6   -1.424359709005228E-5   -7.697488932213876E-6    9.309667913618345E-1   -3.646312243155395E-1
 2.892311565304088E8     9.289467136150958E-1   -3.706049379802342E-1    7.246300570876646E-6    1.716450971663698E-6   -6.428362820518031E-6    1.766413802271064E-5    9.262916620098111E-1   -3.769086130527444E-1
 2.992011964107677E8     9.241245918314610E-1   -3.826716312448017E-1    6.887797406305889E-6    1.309924114048935E-5    1.952462378979286E-5    1.252217949219352E-5    9.212443072812725E-1   -3.886591734094647E-1
 3.091712362911266E8     9.188831886161785E-1   -3.950353643630192E-1    6.987003747507853E-7   -3.183758497533729E-6    1.604564211181558E-5   -4.125344916813278E-6    9.155952390965184E-1   -4.002067166789202E-1
 3.191412761714855E8     9.134268068189358E-1   -4.074257943214487E-1    5.925747777850524E-6    6.045485300482221E-6   -2.180000220855761E-5   -1.411803320665417E-5    9.096899584331332E-1   -4.119289509407602E-1
 3.291113160518445E8     9.076419140852543E-1   -4.201862511946401E-1   -1.861162209686300E-5    6.302125499173098E-6   -3.369905308463992E-8    2.058685428601489E-5    9.035492166642739E-1   -4.244186500390303E-1
 3.390813559322034E8     9.019207678637203E-1   -4.328058789825522E-1    2.209313541604627E-6    7.663505858993756E-6    7.783625464698900E-6   -2.407301927830432E-7    8.968904562405311E-1   -4.368607980111539E-1
 3.490513958125623E8     8.967355755366742E-1   -4.454492998549219E-1   -2.214557626066031E-6    1.621297852057628E-5    4.828182802600445E-6   -1.850110193198458E-5    8.903786512403952E-1   -4.493168167752491E-1
 3.590214356929212E8     8.914556390457488E-1   -4.579278792691746E-1   -1.212922378141856E-5    1.200212809708665E-7    1.105405445946867E-5    1.462465496599179E-6    8.846033503601719E-1   -4.621520701694306E-1
 3.689914755732802E8     8.859874310924952E-1   -4.701449624217793E-1    9.878494163828226E-6   -9.389071894620116E-6   -1.055128717712058E-5    9.601989325953124E-6    8.791964142177704E-1   -4.747648254024702E-1
 3.789615154536391E8     8.797841330647159E-1   -4.813286369466773E-1   -8.122081022445913E-6    9.016874496247099E-6    1.690988131714026E-5   -3.146354398589056E-6    8.739617422332683E-1   -4.868407625501946E-1
 3.889315553339980E8     8.741491929739477E-1   -4.920743669144239E-1   -1.087225380257554E-5    1.005086596416350E-6    9.626024861816630E-6   -9.394971753717976E-7    8.679818596586215E-1   -4.987643245286444E-1
 3.989015952143569E8     8.674060047878001E-1   -5.028325458380883E-1   -1.936688443134287E-6    1.251629678917192E-8    1.250914109322515E-5   -3.217062706741128E-6    8.611283519649058E-1   -5.095861959485282E-1
 4.088716350947158E8     8.602482519866423E-1   -5.137023440611127E-1    6.114664552295121E-6    3.934222052222601E-6   -1.984080087234382E-5    1.157383557303967E-5    8.541937261723601E-1   -5.207508284190400E-1
 4.188416749750748E8     8.532564302999797E-1   -5.251262392049167E-1   -1.566407976414391E-5    7.419939992533444E-6   -1.138813136805377E-5   -5.431808914676442E-6    8.476944655870459E-1   -5.315121399113738E-1
 4.288117148554337E8     8.459822540534543E-1   -5.367797346996335E-1    7.995435867171598E-6    1.733370649506872E-6    6.899657010787676E-6   -1.564685935540856E-5    8.407460893847910E-1   -5.418801859224922E-1
 4.387817547357926E8     8.381354197708865E-1   -5.481872413639068E-1   -4.225360339494879E-6   -1.291522692393759E-5   -1.376246766464205E-6   -7.991481341870101E-6    8.326541127885202E-1   -5.522724482332246E-1
 4.487517946161516E8     8.305493380964009E-1   -5.600548823330409E-1    7.381410291051706E-6   -1.163105025135002E-5    1.650884790082606E-5    1.619342458560360E-6    8.241902940211665E-1   -5.634789378365045E-1
 4.587218344965104E8     8.234799340511927E-1   -5.719144994439690E-1    2.042873078108227E-6    1.117350072504407E-8    6.506986171324373E-6    1.373374502306078E-5    8.160697126305999E-1   -5.752965884103148E-1
 4.686918743768694E8     8.169660419769849E-1   -5.834529423891187E-1   -5.457476307088628E-6   -2.941550503066713E-6    3.314008351527196E-7   -7.645230499650095E-6    8.079277945381250E-1   -5.868824533515404E-1
 4.786619142572283E8     8.097971880681161E-1   -5.941991986658490E-1   -3.365494376091913E-6   -2.529312213622016E-6    4.626957283266828E-6   -3.798648476149740E-6    7.993624607655635E-1   -5.980823628854182E-1
 4.886319541375872E8     8.022857291959578E-1   -6.046768534623165E-1   -1.020812498099597E-5    2.710586088164872E-6   -7.533404811832635E-6   -1.196614005528078E-5    7.905686754149071E-1   -6.088904234356631E-1
 4.986019940179462E8     7.939842968883807E-1   -6.154058925713809E-1   -2.988632017239728E-6   -8.081749169955897E-7   -5.261717778698338E-6   -6.332088266574514E-7    7.823840996806420E-1   -6.197467761727878E-1
 5.085720338983051E8     7.855837507168015E-1   -6.245509483605591E-1   -3.362266198688703E-6   -3.457597772338011E-6   -5.669047876023370E-6   -6.596605377811158E-6    7.746152937501660E-1   -6.302542661886830E-1
 5.185420737786640E8     7.782340737422212E-1   -6.335342767330084E-1   -6.896282719136260E-6    1.220388931752031E-6   -3.384366404380299E-7   -8.398614874618713E-6    7.668492642462292E-1   -6.400686778418551E-1
 5.285121136590229E8     7.699333338999931E-1   -6.431147483712720E-1   -8.257554132912383E-6    1.592905731807035E-5    2.737354085355969E-6    3.943922761175168E-6    7.590227707055131E-1   -6.497895292584984E-1
 5.384821535393819E8     7.613657948555153E-1   -6.531876802093941E-1   -3.872263295864408E-6    2.833967950058206E-6   -2.819413211282790E-7    9.519036354755388E-7    7.509054628941190E-1   -6.594145529771611E-1
 5.484521934197408E8     7.532484754157177E-1   -6.637556691184089E-1   -2.406686241490777E-6   -7.685098610490506E-6    9.950310327618635E-6    2.431890998257035E-6    7.424112570368021E-1   -6.692267481840343E-1
 5.584222333000997E8     7.446956536837582E-1   -6.746523957579041E-1   -2.804094087198797E-8    8.156639683906640E-6   -9.305649108357453E-7   -4.273622653187660E-6    7.331809657862849E-1   -6.791508785257007E-1
 5.683922731804587E8     7.355679593926610E-1   -6.851893581320858E-1   -4.009158416012789E-6    1.346818444972190E-5   -1.367109502759093E-5   -6.058560189578530E-6    7.232090148439871E-1   -6.891530743512171E-1
 5.783623130608176E8     7.263041797228971E-1   -6.951447693761066E-1    5.150933193292414E-6    3.363269243064740E-6    1.456609944126518E-6   -1.137915073770103E-5    7.127418515596434E-1   -6.990953232516912E-1
 5.883323529411764E8     7.171144742236061E-1   -7.052048660367095E-1    7.147691330412193E-6   -1.815506202828230E-5    2.690152015804637E-6   -1.269273716819277E-6    7.022884301570572E-1   -7.087126373303664E-1
 5.983023928215353E8     7.077832997514044E-1   -7.152226005742178E-1   -1.900787103207843E-5    2.050465748891709E-6   -4.709130032845589E-6    1.027151912216980E-6    6.919211589119419E-1   -7.183112940506317E-1
 6.082724327018943E8     6.983359418563896E-1   -7.249772304907112E-1    1.512661244636396E-5   -1.403555526992162E-6   -6.345193517751590E-6   -1.618214898500989E-5    6.815283795296837E-1   -7.278312780702173E-1
 6.182424725822532E8     6.885596471725207E-1   -7.347544362263241E-1   -1.568277845706444E-5    2.150112596716850E-6    9.505128033570343E-6   -5.098906185970679E-6    6.717594444520573E-1   -7.373247980573899E-1
 6.282125124626122E8     6.780577419167424E-1   -7.440207454844515E-1    1.393361107567799E-5    1.330035738809070E-7    2.884857466524538E-6    4.546813999561044E-6    6.626552015439486E-1   -7.468528796658689E-1
 6.381825523429711E8     6.683156611778824E-1   -7.511077777830424E-1   -7.038800889508735E-6   -3.538483444887126E-6    6.870425732450572E-6   -3.970109418499784E-6    6.537509329682590E-1   -7.556997347194053E-1
 6.481525922233300E8     6.593256320257574E-1   -7.596257643934270E-1    6.988096474855152E-6    6.404767870437421E-6   -2.684911598000935E-7    7.137801928417864E-6    6.445454574299789E-1   -7.641127438008498E-1
 6.581226321036890E8     6.496647313524245E-1   -7.685410988945213E-1   -1.094096409859947E-6    3.985011344406368E-6   -8.404387125161720E-6    4.791682921861930E-6    6.345146976465268E-1   -7.724968880712304E-1
 6.680926719840479E8     6.397592016497362E-1   -7.772677642828646E-1   -2.247227606816465E-6    1.284560472774452E-5   -4.479908267551801E-6   -5.327226194911912E-6    6.239456478565311E-1   -7.804614188988725E-1
 6.780627118644068E8     6.298631100940844E-1   -7.853704197959239E-1    1.039312729538179E-5   -5.095423323283757E-6    8.000019165719988E-7    1.449840607323686E-6    6.129921364872147E-1   -7.883980597121398E-1
 6.880327517447658E8     6.195096111488605E-1   -7.936208892041595E-1   -1.188421727195301E-5    1.293925807690806E-5    7.883682813448785E-6   -8.820393984260850E-6    6.015083328474253E-1   -7.959789655303372E-1
 6.980027916251246E8     6.086364602993899E-1   -8.017997772376938E-1    5.629647088011148E-6    5.750119195670910E-6   -1.322608634006225E-5    2.716617197419701E-6    5.898944690039748E-1   -8.035960812638893E-1
 7.079728315054835E8     5.973711481563050E-1   -8.102569221076945E-1   -1.062448284597879E-5   -1.242272408900155E-5   -4.231497901761896E-6    1.189421508862807E-5    5.784630622919430E-1   -8.116585505584746E-1
 7.179428713858424E8     5.861781619711249E-1   -8.187914186012102E-1   -1.438788749154596E-6    2.407754819021803E-6    1.013440302596066E-6    2.299626386830591E-6    5.672665474807475E-1   -8.202398484554273E-1
 7.279129112662014E8     5.751496040075127E-1   -8.271584326332365E-1   -6.743635926423990E-7    2.852815478070848E-6    2.289293086169823E-6    6.583044199028988E-6    5.559110281818319E-1   -8.289914379986854E-1
 7.378829511465603E8     5.637645543201356E-1   -8.359205810586503E-1    5.802689599251098E-6    6.470557435651003E-6    1.343038921382022E-5   -5.135314978394447E-6    5.446253034719275E-1   -8.373028271725150E-1
 7.478529910269192E8     5.518290325165620E-1   -8.444604643053341E-1   -7.661803747715003E-7    2.427016286126262E-6    2.981931329345596E-6    4.772111429633703E-7    5.334130813913899E-1   -8.450816711266999E-1
 7.578230309072782E8     5.392784314292982E-1   -8.516646837507956E-1   -4.555305084613053E-6   -7.900839140333839E-6    1.082215310818866E-5    5.387294990532071E-6    5.222907809618522E-1   -8.518641532382176E-1
 7.677930707876371E8     5.287975110701074E-1   -8.569871277774289E-1    9.578152352619646E-6    6.710018118735255E-6   -1.482036135462110E-5    7.617004906152814E-6    5.110129323228293E-1   -8.583973978229402E-1
 7.777631106679960E8     5.191632179671816E-1   -8.639647939056274E-1    3.210913787242985E-6   -6.062174337580120E-6    3.463486769537918E-6    8.464285744490869E-7    4.996046869349659E-1   -8.648824363230844E-1
 7.877331505483550E8     5.088331504918091E-1   -8.708547826315164E-1    1.560604710027919E-7   -1.483287247337859E-5    7.343635664354291E-6   -5.934629689756914E-6    4.876751423990278E-1   -8.716017204974802E-1
 7.977031904287138E8     4.976575066498945E-1   -8.773268876286100E-1   -6.650762290724700E-6    7.755033361263357E-6    2.342561629245722E-6   -1.121357730005372E-5    4.748913924948781E-1   -8.779166463144811E-1
 8.076732303090727E8     4.858997593357844E-1   -8.832073934820716E-1   -1.467714984155913E-5   -8.653231961082781E-6    4.977026385259259E-7   -1.167013900921978E-5    4.619765206578126E-1   -8.840215553401479E-1
 8.176432701894317E8     4.738765924125772E-1   -8.891754389287656E-1   -5.313167313928045E-6    2.219511880143548E-7    9.355829029349653E-6   -7.262384469068489E-6    4.491346791488177E-1   -8.903864121717735E-1
 8.276133100697906E8     4.615858571981643E-1   -8.956185237341749E-1   -2.881808566213404E-6   -9.433216290910315E-6    8.893327343816437E-6   -8.480201649354993E-6    4.366573934404733E-1   -8.971493335684456E-1
 8.375833499501495E8     4.489176341538254E-1   -9.020243145122074E-1   -6.987323465342299E-6    7.736635929102522E-7   -1.858901160588055E-6   -2.585909520269296E-6    4.243928060660127E-1   -9.038147083265359E-1
 8.475533898305085E8     4.361436038390735E-1   -9.084270467015281E-1    1.521237765755806E-7    1.348560818736323E-5    1.659937771462797E-5   -3.243735847202709E-6    4.125521766961623E-1   -9.098297252724231E-1
 8.575234297108674E8     4.233703166600729E-1   -9.148620996592032E-1   -2.715193050017886E-6    1.647528786988860E-6    7.828863033468834E-6    2.241845435555983E-6    4.007810613562220E-1   -9.151600854910579E-1
 8.674934695912263E8     4.105823234636615E-1   -9.214478110905292E-1   -1.395018114961752E-6    2.213911615299371E-5    2.103969358061461E-6   -2.607844501696937E-6    3.886148624826062E-1   -9.198861924693328E-1
 8.774635094715853E8     3.974784112429824E-1   -9.280731193680695E-1   -1.309194655316979E-5    8.148975947476504E-6   -1.708755268551204E-5    2.376646935784315E-6    3.761929962655362E-1   -9.246584784863977E-1
 8.874335493519442E8     3.844154695077305E-1   -9.325992645248218E-1   -8.615704228727163E-6   -2.618912454680358E-6   -5.602699108089342E-6   -9.894249574921468E-6    3.629923363468601E-1   -9.290621877056079E-1
 8.974035892323031E8     3.730188158811053E-1   -9.363924647437185E-1   -5.201669687809825E-6   -2.844948320544050E-7    1.079113312501464E-5   -8.150328304757210E-6    3.495449451956909E-1   -9.334078325282765E-1
