#  HZ   S   RI   R     50.00 
! Rohde & Schwarz Vector Network Analyzer 
! Rohde-Schwarz,ZNB20-2Port,1311601062102128,3.60
! Created: UTC 4/29/2024, 2:53:33 PM
! freq[Hz]                re:S11                  im:S11                  re:S21                  im:S21                  re:S12                  im:S12                  re:S22                  im:S22
 1.000000000000000E5     9.961921119116777E-1    3.776381344108413E-3    1.178042874556577E-5   -2.795793171911047E-5    2.136584058004529E-7    9.521260062347271E-5    1.010360667941612      -1.129906740870003E-2
 1.007003988035892E7     9.975310508421682E-1   -1.389250275174069E-2   -1.431346563131733E-5    1.000911880257559E-5   -8.301280825828782E-6   -2.227116692781918E-5    9.958440745281872E-1   -1.448448417031968E-2
 2.004007976071785E7     9.997317140902788E-1   -2.707059437401326E-2    2.787426746261421E-6    2.042245091901915E-5   -5.058351198253890E-6    1.084933701851409E-5    9.988644766682097E-1   -2.771406259399508E-2
 3.001011964107677E7     9.978970453018930E-1   -4.101449108051809E-2    1.094948036436044E-5    1.157544066725252E-5    4.238661604209451E-6   -9.270504625994390E-6    9.975225736509380E-1   -4.194252962567265E-2
 3.998015952143569E7     9.976020327108025E-1   -5.315285073868876E-2   -1.517935736335526E-6   -1.318641486225460E-5    1.496943015549901E-6   -1.293650608669977E-5    9.975531649317164E-1   -5.675503432561588E-2
 4.995019940179461E7     9.960697297420484E-1   -6.597780912157129E-2    2.005799628082470E-5   -1.779834663632028E-6   -3.380439788220893E-6   -8.614798670589417E-6    9.964037608135069E-1   -6.916509086446716E-2
 5.992023928215354E7     9.942569331454230E-1   -7.884312532139327E-2   -1.562505593041752E-5    1.590125999863081E-5    5.557699180129252E-6   -1.590151309920603E-6    9.945636741809952E-1   -8.196799810353361E-2
 6.989027916251247E7     9.931468526254981E-1   -9.192074546799289E-2   -3.577294072956843E-6    4.491216779318838E-6    1.121704305610246E-5    2.854458689813154E-6    9.935552808809213E-1   -9.475745503116541E-2
 7.986031904287139E7     9.924733630231944E-1   -1.052700776357956E-1   -3.875543296891442E-6    3.182625448650562E-7   -1.047375079394312E-5    3.554823229434935E-6    9.924328497303144E-1   -1.079408188629984E-1
 8.983035892323031E7     9.913890492692679E-1   -1.187178085993154E-1   -1.424083070478408E-5    5.765537186474122E-6   -1.640216147468490E-5    1.203691556778753E-5    9.907920761553581E-1   -1.211193066326901E-1
 9.980039880358922E7     9.893432020063366E-1   -1.323821306185788E-1   -7.951098712067729E-6    1.532754644570419E-6    1.301252094254921E-5   -1.855700160612486E-6    9.884611450592301E-1   -1.343692479417707E-1
 1.097704386839482E8     9.866382754328937E-1   -1.456749474247367E-1   -1.792943325163481E-6    3.459175140302744E-6    4.143492555481786E-6    1.506603916714941E-5    9.860972028100665E-1   -1.477262691356080E-1
 1.197404785643071E8     9.848753188504654E-1   -1.590534031658589E-1    7.847057938843798E-6   -1.479160381178054E-5   -2.778594230947289E-6   -7.517424654437700E-6    9.842681519239426E-1   -1.610389228390926E-1
 1.297105184446660E8     9.830893473677383E-1   -1.718355929559160E-1    1.112467041758291E-5   -4.977196506912035E-6    1.514458228399936E-6    6.416000148052481E-7    9.829146762348248E-1   -1.744238510464810E-1
 1.396805583250249E8     9.814138832131977E-1   -1.846594056509306E-1   -6.614869168319256E-6    6.277023672567214E-7    1.741640037700276E-5    7.603576406515593E-6    9.808820150850517E-1   -1.875929695876600E-1
 1.496505982053838E8     9.788941234036930E-1   -1.971117124168599E-1    2.577528551683426E-6   -1.305571031940594E-5   -6.210121450876104E-6    1.305693922756463E-7    9.784874697324417E-1   -2.003552762214380E-1
 1.596206380857428E8     9.762503691197466E-1   -2.095092086399318E-1   -2.185612336293431E-5    3.754716020242934E-6    3.290395262974720E-6    2.016672532116369E-7    9.757014628522704E-1   -2.133401439491016E-1
 1.695906779661017E8     9.731681841411616E-1   -2.222450175548845E-1   -1.263618676374319E-5   -8.803348577908762E-7    4.127877505189645E-6   -8.133480222774852E-6    9.728501521515392E-1   -2.260899463628304E-1
 1.795607178464606E8     9.705371018340302E-1   -2.347387632856952E-1   -7.049211571852717E-6    6.240080734733844E-6    1.837853275897827E-5   -2.366408121005465E-6    9.701676901623671E-1   -2.380976924383863E-1
 1.895307577268195E8     9.676283410888704E-1   -2.470164625295569E-1   -6.603557064239904E-6   -2.829746640881022E-6    5.607825418611914E-6   -2.091633764164469E-5    9.667200705781241E-1   -2.504737613026871E-1
 1.995007976071784E8     9.639371874283877E-1   -2.595814721924704E-1    2.495061010786101E-6    2.048922663722281E-6   -4.469482676961838E-6   -2.162735958913655E-6    9.627562871742359E-1   -2.631616913647682E-1
 2.094708374875374E8     9.603391455636737E-1   -2.724777622057035E-1   -4.458376781981620E-7    1.260751269226325E-5   -1.796449242511783E-5   -9.150689189358254E-6    9.589995943283310E-1   -2.761761651706435E-1
 2.194408773678963E8     9.571701702014705E-1   -2.850998607326911E-1   -1.043556223799688E-5   -1.934640944515640E-5    4.069583878182718E-7   -2.068945854309428E-6    9.551664396039276E-1   -2.891133093916372E-1
 2.294109172482552E8     9.535587099786157E-1   -2.974601921671454E-1   -1.111517333116544E-5   -7.927286480553115E-6   -1.859015176538050E-5   -1.352287981936596E-5    9.509912982184530E-1   -3.018131381864784E-1
 2.393809571286142E8     9.504783939979145E-1   -3.094306379687228E-1    7.964937277796490E-6   -6.799929981307515E-6   -9.205175128870321E-7   -1.367256832885183E-5    9.469721691684445E-1   -3.139722605062572E-1
 2.493509970089731E8     9.469570617034205E-1   -3.233518506403840E-1    1.216777314770985E-5    1.309336131044859E-5   -3.315537060337223E-8    1.887023345468686E-6    9.440347559033596E-1   -3.277213376881221E-1
 2.593210368893320E8     9.425887849001697E-1   -3.353219683655574E-1   -5.954910179687730E-6   -7.408095343703520E-6    2.194658647837547E-5    8.755053433882732E-6    9.398044285152877E-1   -3.408481430758201E-1
 2.692910767696909E8     9.384070064748816E-1   -3.468391309746457E-1   -2.290320591649480E-6   -1.774963872632616E-6    9.905961758323447E-6    1.288366993438764E-6    9.356185886455606E-1   -3.528505757663308E-1
 2.792611166500499E8     9.337967362330736E-1   -3.585455051349736E-1   -1.551981259945694E-7    6.089867070463801E-6    1.011882289126832E-5   -1.778604743674639E-5    9.309921003457087E-1   -3.647351142820275E-1
 2.892311565304088E8     9.289899257884122E-1   -3.705142543931289E-1    2.068993665999681E-6   -1.718513812957044E-5   -3.214598727538361E-5    3.817442720309663E-6    9.261735728884578E-1   -3.769077258885145E-1
 2.992011964107677E8     9.241372232981319E-1   -3.826585135496441E-1   -8.995137639722264E-6   -3.447008791406090E-6    5.332259938518912E-6   -1.103838472809168E-5    9.210353431020027E-1   -3.886707105118886E-1
 3.091712362911266E8     9.187992607606899E-1   -3.948578370490356E-1   -4.285500507031625E-6    9.096016554568525E-6   -7.346668293591779E-6    1.258511704289756E-5    9.157148044780078E-1   -4.001876221772949E-1
 3.191412761714855E8     9.132756544262692E-1   -4.073244868447379E-1    3.829000998516422E-6   -8.821731349761051E-6   -1.527619726681224E-5   -2.891383866641584E-7    9.097997975362307E-1   -4.119478904306506E-1
 3.291113160518445E8     9.075495157233343E-1   -4.200251395167383E-1   -2.602360594987548E-6    1.595488521417121E-6   -4.039979992468847E-7    9.995573091361501E-6    9.034618208635482E-1   -4.244258880555896E-1
 3.390813559322034E8     9.018890129581384E-1   -4.327192869352254E-1    2.033714645089480E-5    1.131391723228427E-5   -2.039907496349956E-6   -6.288181202409117E-6    8.968746565920668E-1   -4.370144499522696E-1
 3.490513958125623E8     8.966251020861985E-1   -4.453256008960894E-1   -4.626479778072187E-6   -4.474994044768724E-6    8.466013686906362E-7    4.364455876377681E-6    8.903975079621191E-1   -4.494100096921885E-1
 3.590214356929212E8     8.912398702342499E-1   -4.578350578914757E-1   -9.426132340800976E-6   -7.717501572946605E-6   -8.838035390072785E-6   -6.493588315294109E-7    8.845746151056997E-1   -4.620876523069125E-1
 3.689914755732802E8     8.858148935739795E-1   -4.700619360734665E-1   -1.346253898985497E-6    2.976773214379411E-7   -1.586568560855366E-5   -7.288899380150906E-6    8.791180513114326E-1   -4.747742456297171E-1
 3.789615154536391E8     8.798087887314915E-1   -4.812580237487059E-1    4.267145959703708E-6   -9.694160024963418E-6    2.473789066355686E-5   -1.022043042521103E-6    8.738184901386485E-1   -4.868849014699430E-1
 3.889315553339980E8     8.741436154111188E-1   -4.920925340862208E-1    1.161074612144009E-5   -7.594572851560278E-9   -5.994755062178034E-6    1.130135598552499E-5    8.679605100363814E-1   -4.988391668568269E-1
 3.989015952143569E8     8.673335653417227E-1   -5.027212590639324E-1   -2.486294769319828E-7   -4.640013712672913E-7    1.892204654811593E-5    1.244747531706967E-5    8.611629897364220E-1   -5.097808199342415E-1
 4.088716350947158E8     8.600895729941535E-1   -5.134828412324933E-1   -4.548200265148701E-7    1.562598265818738E-6   -1.517324018392359E-6   -1.336385548652926E-5    8.542571796137246E-1   -5.205575298600337E-1
 4.188416749750748E8     8.532314091192320E-1   -5.251910449727069E-1   -1.550799560391165E-6    1.409210455470558E-5   -1.030583954935443E-5   -3.995194549139769E-6    8.477603130842273E-1   -5.314942529558704E-1
 4.288117148554337E8     8.460559249571754E-1   -5.368118358829015E-1    6.002645561687827E-6   -2.753946525695227E-6   -2.240318822679614E-6    6.283726128039499E-6    8.406776327164043E-1   -5.418358943174120E-1
 4.387817547357926E8     8.381492413831810E-1   -5.481591422509609E-1   -1.335880073983255E-5   -5.577181435825166E-6    1.396500484983671E-5   -5.563504697210450E-6    8.325962141276484E-1   -5.522602724064842E-1
 4.487517946161516E8     8.304400817181217E-1   -5.599920061641214E-1   -2.900127391185769E-6   -1.826646587761630E-6   -1.103864164997603E-5   -1.435807214364651E-5    8.241637452628037E-1   -5.634428521432026E-1
 4.587218344965104E8     8.234901747399375E-1   -5.719362114820016E-1    8.155309836309145E-6   -5.438723143279903E-6   -3.485060323620284E-6    8.377521903607118E-6    8.160792616245565E-1   -5.753393167593556E-1
 4.686918743768694E8     8.169961349899300E-1   -5.834727156174508E-1   -1.616974759328339E-5    4.144000539628058E-6   -1.905472149550350E-5   -9.887232317665970E-6    8.078680516867681E-1   -5.869147387580508E-1
 4.786619142572283E8     8.097906819739463E-1   -5.941365424159459E-1   -4.790364532975039E-6   -5.239262673756702E-6   -1.599629237321056E-5   -1.568403742351126E-5    7.993893046204564E-1   -5.980796447125475E-1
 4.886319541375872E8     8.022089385780793E-1   -6.046779391782109E-1   -3.867163912704234E-6   -5.985163145436629E-6    1.339047398889885E-5    1.274655483202773E-5    7.904070664954733E-1   -6.089050421239823E-1
 4.986019940179462E8     7.939951060250033E-1   -6.153528929709340E-1    7.282768047076888E-6   -1.133097453029081E-5    1.052962098554709E-5    7.120704160663457E-6    7.822531384788108E-1   -6.196233237466411E-1
 5.085720338983051E8     7.856388299203961E-1   -6.245372374451257E-1    1.056083084554074E-5    1.193982517615532E-7   -1.641798523878639E-5   -1.486213204083676E-5    7.746728418019697E-1   -6.303484129458232E-1
 5.185420737786640E8     7.783330593200697E-1   -6.336539969111898E-1    1.990274301314531E-5   -3.706415642599149E-6    8.385968134044561E-6   -8.442789493060818E-6    7.670159813309460E-1   -6.401891762419422E-1
 5.285121136590229E8     7.699205590524361E-1   -6.429933845265553E-1   -5.169401122287457E-6    1.430421034996309E-7   -1.073321256052787E-5   -3.089917263549903E-6    7.590617053566268E-1   -6.496573589381893E-1
 5.384821535393819E8     7.613317414053847E-1   -6.530113930870021E-1   -1.054642612641564E-5    1.005037380432440E-5   -1.225242759531609E-5   -6.204148295868553E-6    7.508752393556679E-1   -6.593348739898206E-1
 5.484521934197408E8     7.532597714781442E-1   -6.637024722109701E-1   -1.124238540026359E-6    1.731485953860902E-5    9.139756198347713E-6   -1.484645610538931E-5    7.424055589587603E-1   -6.692076967153835E-1
 5.584222333000997E8     7.447601420856985E-1   -6.746497348919471E-1   -2.316199483284240E-6   -3.418676002808913E-6    8.609273328097331E-6    1.954417416651192E-6    7.333147792816603E-1   -6.792113855049942E-1
 5.683922731804587E8     7.356027144728858E-1   -6.851148388621613E-1   -1.295441682123724E-5    2.979396458447716E-6    5.757949433887187E-6   -2.478943621470095E-6    7.231967319294821E-1   -6.892821158463737E-1
 5.783623130608176E8     7.263229548240687E-1   -6.951095310620163E-1    2.755767480268699E-6    2.773616612655653E-6   -8.286192082993771E-6   -9.587802718880624E-6    7.127597706953095E-1   -6.990737593941557E-1
 5.883323529411764E8     7.170082820732993E-1   -7.050685044389651E-1   -1.220723480302272E-5    1.433994703550669E-5   -8.714041363616755E-6   -1.380635342870113E-5    7.022480575081776E-1   -7.085974896070525E-1
 5.983023928215353E8     7.079226319958825E-1   -7.151711373652441E-1    2.037089424392002E-6   -8.313949883655095E-6    3.322657471672262E-6    8.359448632734797E-6    6.918382541311890E-1   -7.183647477466322E-1
 6.082724327018943E8     6.984816180550288E-1   -7.249978519724612E-1   -5.108955606807456E-6    1.089403473186325E-5    2.085678312667264E-5   -1.457665220403184E-5    6.818232040573001E-1   -7.278203417843774E-1
 6.182424725822532E8     6.885231488931407E-1   -7.345837870809615E-1   -3.016623591676656E-6    1.296834113426384E-6    1.002802224299199E-5    1.285611722059406E-5    6.717585083258429E-1   -7.372281905029344E-1
 6.282125124626122E8     6.779553564356638E-1   -7.439375050305239E-1    4.277224264890229E-6    2.582437501253418E-6   -2.422617959488913E-6    8.899802525817787E-6    6.627639265821318E-1   -7.467328212584105E-1
 6.381825523429711E8     6.683441912787447E-1   -7.511037532267312E-1    2.436899900024987E-6   -3.110734637852939E-6    5.724844563593755E-6   -1.042479164356215E-5    6.536929782583291E-1   -7.556949546392633E-1
 6.481525922233300E8     6.593976808537175E-1   -7.596978003557544E-1   -1.600568530094469E-6    5.295555074055402E-6    3.266234306088760E-6    1.411784449452289E-6    6.445578673945802E-1   -7.641302723709976E-1
 6.581226321036890E8     6.496965499930566E-1   -7.686435997754589E-1    4.697332824900026E-7   -1.199269641600977E-5   -1.341575005623095E-5    1.372307601000424E-5    6.345578444667105E-1   -7.723711166298938E-1
 6.680926719840479E8     6.396973782141278E-1   -7.771875288233223E-1   -1.709595612251517E-5   -7.841975914119458E-6   -7.639189020793476E-6    6.179542631451678E-7    6.239313763413390E-1   -7.804177913848811E-1
 6.780627118644068E8     6.298569823932506E-1   -7.854590314115509E-1    1.108422362417872E-5   -8.856297050727731E-6   -1.015257614527516E-5    7.318938044684925E-6    6.129350058497840E-1   -7.884344898800711E-1
 6.880327517447658E8     6.196167330391286E-1   -7.937108558900309E-1    9.577101053886306E-6    2.748915035675032E-6    2.423057259800326E-5    1.000316538994900E-5    6.014780389561071E-1   -7.959975270435515E-1
 6.980027916251246E8     6.086362476422905E-1   -8.019219962711482E-1    4.544973041778336E-7    1.115540195915579E-6    2.348052089339208E-6    9.888127133152299E-6    5.899381045112378E-1   -8.036213851950713E-1
 7.079728315054835E8     5.972252957718458E-1   -8.102025827679283E-1   -7.661106499452523E-6    2.362691242308894E-7   -1.331865952575616E-5   -9.639391541497052E-6    5.785379589211131E-1   -8.116416903763141E-1
 7.179428713858424E8     5.860390904350093E-1   -8.186297305727851E-1    6.436218936863395E-6   -1.362004078738965E-5    2.658666372188301E-6   -1.049226822258905E-5    5.672443712461516E-1   -8.202800314965257E-1
 7.279129112662014E8     5.751265138186650E-1   -8.272332020148079E-1    5.576863205282147E-6    1.466202061383871E-5   -5.478822531347776E-6    2.084412986754491E-6    5.559480962428952E-1   -8.288843810388021E-1
 7.378829511465603E8     5.637839830273466E-1   -8.359868983148856E-1   -8.121970046595520E-6    3.705325441598000E-6   -1.280258171084569E-5    9.463500541023599E-6    5.445610451102805E-1   -8.372465284835930E-1
 7.478529910269192E8     5.518482881672253E-1   -8.445033647212714E-1    4.470549958989517E-6    1.089870411755244E-5   -8.807909409431638E-6    4.958497383779178E-6    5.334480060837867E-1   -8.449648946522831E-1
 7.578230309072782E8     5.392055129033547E-1   -8.516163233104049E-1   -2.911217776062460E-6    8.977383448795411E-6    2.973252473723643E-6    6.074088644980122E-6    5.222823576819883E-1   -8.519809532458097E-1
 7.677930707876371E8     5.287455871591812E-1   -8.570897891527229E-1   -1.585455361870134E-5    6.112814143039650E-6   -1.530709461274771E-5    8.638753577300331E-6    5.110482901047466E-1   -8.583652380661579E-1
 7.777631106679960E8     5.190323019136152E-1   -8.639529192582683E-1    1.253347400552423E-5   -4.596828009774467E-6    4.189565444947542E-6    2.241134074363913E-6    4.994527195956813E-1   -8.648264704712785E-1
 7.877331505483550E8     5.087969833937015E-1   -8.709525780052312E-1   -7.263995309197533E-6   -9.002436467828473E-6   -1.551617140494429E-5   -9.477825727929789E-6    4.876207777472552E-1   -8.714377032498205E-1
 7.977031904287138E8     4.976128391780670E-1   -8.773364726148789E-1   -1.678687753371193E-5   -2.104176461900879E-6   -5.845786333777892E-6    6.202205741381993E-6    4.749201332254220E-1   -8.780115941489149E-1
 8.076732303090727E8     4.859117589200394E-1   -8.832079735238223E-1    3.519643076789603E-6    1.672491335376751E-5   -9.601640431798957E-6   -8.526615921070451E-6    4.621358983697855E-1   -8.840983511738343E-1
 8.176432701894317E8     4.738295432678886E-1   -8.891459509467732E-1    4.673349816317028E-6    2.026992894493917E-5   -4.579985576163780E-6   -1.090221802376609E-5    4.492089004795005E-1   -8.903496054653889E-1
 8.276133100697906E8     4.614224421310210E-1   -8.955669663718987E-1    4.717168758248572E-6    7.597361514486357E-6    5.134376056561579E-6   -4.572721889399364E-7    4.364982166517436E-1   -8.971012820516644E-1
 8.375833499501495E8     4.488718285630723E-1   -9.020442371260128E-1    1.391632851787237E-5   -3.720469370545417E-6   -5.416473237126227E-6    3.107694103502296E-6    4.243600517533819E-1   -9.038267907096911E-1
 8.475533898305085E8     4.360669771792320E-1   -9.084481423981756E-1    2.214335330936881E-6    7.343371373879881E-6   -9.694230458981638E-6    3.369354563046982E-7    4.125527433076353E-1   -9.097704311714495E-1
 8.575234297108674E8     4.232478547992988E-1   -9.148283993639823E-1   -4.974531578631874E-6    1.594933701321786E-5   -1.325761305406767E-5   -1.131032751601959E-5    4.008005752455227E-1   -9.150704259736305E-1
 8.674934695912263E8     4.104417278560881E-1   -9.214298426156280E-1    2.070752404686583E-6   -1.327816414056611E-5    5.856728423844256E-6   -2.500822344911769E-7    3.888339174531343E-1   -9.200072922952579E-1
 8.774635094715853E8     3.974614406119639E-1   -9.280176933678026E-1   -6.630790616975369E-6   -5.749397576292968E-6   -7.324936254383945E-6   -6.859046149319680E-6    3.762010567618945E-1   -9.246292076582984E-1
 8.874335493519442E8     3.842908104069193E-1   -9.326920422182583E-1   -2.311558234540084E-6   -4.916366346693093E-6    1.232153512203803E-5   -7.977851219197452E-6    3.630445848617915E-1   -9.291783897810905E-1
 8.974035892323031E8     3.730045145713375E-1   -9.361666830038000E-1    1.552522538708970E-6    1.390277545088044E-5   -2.773105837678325E-6   -1.477409082617152E-6    3.495717212584966E-1   -9.333571928307685E-1
