#  HZ   S   RI   R     50.00 
! Rohde & Schwarz Vector Network Analyzer 
! Rohde-Schwarz,ZNB20-2Port,1311601062102128,3.60
! Created: UTC 4/29/2024, 2:53:40 PM
! freq[Hz]                re:S11                  im:S11                  re:S21                  im:S21                  re:S12                  im:S12                  re:S22                  im:S22
 1.000000000000000E5     9.959746842924342E-1    3.711613466709075E-3   -1.392877474530274E-4   -1.250522336207115E-4   -4.723067505909815E-5   -5.530822496824785E-5    1.010450594277452      -1.133189773677011E-2
 1.007003988035892E7     9.990524239173358E-1   -1.389740006279856E-2   -5.290657349377206E-6    5.047020079519722E-7    3.145955683231479E-5   -2.359533805230609E-5    9.958533244897644E-1   -1.462026058699547E-2
 2.004007976071785E7     9.996592029521099E-1   -2.716400178363371E-2   -4.199116597719054E-7    2.258838158292860E-6   -2.878891893937636E-5   -6.884798423954204E-6    9.987895712968435E-1   -2.761635256623492E-2
 3.001011964107677E7     9.984577911283369E-1   -4.097083628766707E-2   -1.258496970492140E-5   -6.595842520475354E-6    1.258252734217263E-5   -1.397926200785401E-5    9.974053782347720E-1   -4.204894350898454E-2
 3.998015952143569E7     9.974432747656301E-1   -5.320559082591547E-2   -8.279882960179253E-6   -1.085276078744231E-5   -1.169304965039439E-5    5.760178109314422E-6    9.975078595885166E-1   -5.666729606713351E-2
 4.995019940179461E7     9.954615371025259E-1   -6.594320665964484E-2   -3.176477182435741E-5    2.138409599912573E-5    9.440590097174491E-6    1.235734479037650E-5    9.965758793005123E-1   -6.914535780908855E-2
 5.992023928215354E7     9.940513697486760E-1   -7.878001142608715E-2    2.520464633125273E-6   -9.469110512527530E-6   -1.413187416882431E-5    1.113843128044918E-5    9.946259760205827E-1   -8.186830588620042E-2
 6.989027916251247E7     9.936218133091879E-1   -9.194271155416306E-2    1.469989755060485E-5   -6.251820834003248E-6   -6.827321915041419E-6   -4.058907251101678E-6    9.933921147506292E-1   -9.466008532364506E-2
 7.986031904287139E7     9.932215990392074E-1   -1.053311471879734E-1    1.203411903960783E-5   -3.214272263136627E-6    1.429621868714307E-5   -1.701001568895448E-5    9.923432234550077E-1   -1.078431415684994E-1
 8.983035892323031E7     9.916839551668252E-1   -1.187909857910063E-1    7.408209283019053E-7    5.729912581182751E-6   -4.338928369494344E-6    1.515589993292804E-5    9.907625702666718E-1   -1.210995326995095E-1
 9.980039880358922E7     9.890003727387416E-1   -1.322471690393887E-1    1.941338937549339E-6   -1.658519439491207E-6    6.884288604791790E-6   -5.937624744630841E-6    9.887505240251724E-1   -1.345161499549919E-1
 1.097704386839482E8     9.861709795543043E-1   -1.454235009965930E-1   -7.884434861764104E-6   -8.024496686380582E-6    9.206376926346614E-6   -7.188198962981886E-6    9.861075888714560E-1   -1.477861753916675E-1
 1.197404785643071E8     9.851546334772439E-1   -1.590738123731211E-1   -4.180746022381213E-6    4.155132903705085E-6    8.242274529269750E-6    8.991380249024539E-7    9.841791148278257E-1   -1.611084489668811E-1
 1.297105184446660E8     9.832952070889748E-1   -1.718519548437367E-1   -3.258530130436007E-6   -6.383486122970841E-6    1.543372871988194E-5   -2.760260051044587E-6    9.827612636400345E-1   -1.743622607750781E-1
 1.396805583250249E8     9.818106507631146E-1   -1.847222748511061E-1   -1.265637697635122E-5   -2.027142605105137E-6   -2.735558956780004E-6    6.909361441797100E-6    9.808660762128074E-1   -1.875646950443411E-1
 1.496505982053838E8     9.787349232327712E-1   -1.971243365043504E-1   -2.206640560352104E-7   -3.142224086829003E-6    5.231989171343652E-6    4.118151023634374E-6    9.785766559300935E-1   -2.004303375976794E-1
 1.596206380857428E8     9.760081674447970E-1   -2.094129088405933E-1   -2.130202417733148E-6   -4.501155191396403E-6   -6.330635031961348E-7    1.733197591073596E-8    9.757408567808440E-1   -2.132113773155425E-1
 1.695906779661017E8     9.734340706773605E-1   -2.223834415478075E-1    7.265851437159606E-6    3.168062694964660E-6   -1.311888083052503E-5    2.230907945976247E-6    9.728251693903617E-1   -2.260428001791003E-1
 1.795607178464606E8     9.709809815483795E-1   -2.349519611832057E-1    1.073277636423661E-5    7.580132989919969E-7    3.384509852287072E-6    6.111161791706233E-7    9.701863696013341E-1   -2.380359985427853E-1
 1.895307577268195E8     9.677093506375209E-1   -2.470296359527578E-1    3.869549575108126E-6   -1.931441818709297E-5    1.560239917137643E-6    1.486302614370568E-5    9.667949980084231E-1   -2.504731818306957E-1
 1.995007976071784E8     9.637055291557672E-1   -2.594656433527858E-1    8.302052459868476E-7   -1.737142538148527E-5   -6.675503467506916E-6   -3.352349644147945E-6    9.627648456427517E-1   -2.631599926132944E-1
 2.094708374875374E8     9.606203022010588E-1   -2.724608329714709E-1    3.066957482813691E-6    3.153455013351760E-6    6.874454030188923E-6   -1.173269753139892E-6    9.589030680502799E-1   -2.761363987491505E-1
 2.194408773678963E8     9.573969825867080E-1   -2.852073586179268E-1   -1.370344342087210E-5    1.006761412934491E-5    1.762030067426916E-6   -1.226812236796500E-5    9.551409904593483E-1   -2.890858265513340E-1
 2.294109172482552E8     9.537296660444506E-1   -2.974518804538939E-1    1.945238146575438E-6    1.286494794996706E-6   -1.317219392107524E-6   -1.548556134916864E-5    9.510646200333158E-1   -3.017553612654799E-1
 2.393809571286142E8     9.504078784318651E-1   -3.093543098945411E-1    1.270369273518619E-5    1.536001409191206E-6    6.892627565147444E-6    1.656021781280273E-6    9.470400379375737E-1   -3.139952538480674E-1
 2.493509970089731E8     9.468871421818900E-1   -3.232931119371210E-1   -4.234734771765045E-6    1.925374501126131E-5   -4.260029221309647E-6   -4.803577082809216E-6    9.439202969747541E-1   -3.276117520590382E-1
 2.593210368893320E8     9.429609068561517E-1   -3.353672621209481E-1   -6.551614494262495E-7   -3.501490883780259E-6   -3.449726282280431E-7   -1.364829607286958E-5    9.397827893471463E-1   -3.407981472653430E-1
 2.692910767696909E8     9.385368391207369E-1   -3.468876525841844E-1    9.526992591218821E-6    3.447909801703874E-6    6.269382664312444E-6   -1.276330143351918E-5    9.356211660129904E-1   -3.528499573779804E-1
 2.792611166500499E8     9.337584467412585E-1   -3.584117429328342E-1    9.406564176907938E-7    7.198044397226775E-6   -1.336668101124904E-6    2.232594082498854E-6    9.309362185144572E-1   -3.647105103549729E-1
 2.892311565304088E8     9.289854021484043E-1   -3.705893850803733E-1    1.710081499776078E-6    1.423640886467460E-6    1.573652549121900E-5    9.992510356238214E-6    9.260923374935922E-1   -3.768240811778921E-1
 2.992011964107677E8     9.242704824579248E-1   -3.828377196243946E-1   -5.929725266829332E-6   -8.291656420466816E-6    2.112442849298825E-6   -1.760703636887382E-5    9.211237879875054E-1   -3.886829266747646E-1
 3.091712362911266E8     9.188585032969778E-1   -3.949831671258378E-1    6.417907700306575E-6   -5.610892243453097E-6    2.443279042753135E-5   -1.893167458761971E-5    9.157800148424730E-1   -4.001692183901657E-1
 3.191412761714855E8     9.131508478916827E-1   -4.073262047302424E-1   -1.673119022595802E-6   -5.931246450587393E-6   -1.618758889949109E-5    6.717532691375030E-6    9.098782211719060E-1   -4.119981350373939E-1
 3.291113160518445E8     9.075947535262633E-1   -4.200831215404137E-1    2.367243553982766E-6    2.080332952636652E-5   -1.038558520960797E-6   -6.932524107105522E-6    9.034115379474140E-1   -4.243786287833498E-1
 3.390813559322034E8     9.020998724365127E-1   -4.328742912046662E-1    1.492692263285291E-5    1.215327092609865E-5   -1.109090647036345E-5    6.612356582349402E-6    8.967159152469040E-1   -4.368567829317057E-1
 3.490513958125623E8     8.967470465217878E-1   -4.453709766734540E-1   -6.469610294578642E-7    5.044050989349347E-6    9.908058655730972E-6    6.340066177365587E-6    8.904229770636640E-1   -4.494119502035296E-1
 3.590214356929212E8     8.912591304149785E-1   -4.579296041175057E-1    3.652220543027741E-6    5.087973484143605E-6    7.104278777201064E-6   -1.003316077259573E-5    8.845823412910830E-1   -4.621175020689093E-1
 3.689914755732802E8     8.859432842773163E-1   -4.700732795443070E-1    7.066617975462403E-6   -9.907908515794985E-7    1.893104230602750E-5   -8.091304994704264E-6    8.792017505213595E-1   -4.747940842418416E-1
 3.789615154536391E8     8.798384271360139E-1   -4.813077580518967E-1   -1.750281531067711E-5    9.808563472142145E-6    1.676299751834490E-5   -1.257385242055813E-5    8.737605263182378E-1   -4.867724443022096E-1
 3.889315553339980E8     8.743786967523198E-1   -4.921384651142376E-1    1.744781805890300E-5   -7.281915529537317E-6   -1.144086012893589E-5   -2.559523749862397E-6    8.679875585096024E-1   -4.987879628667844E-1
 3.989015952143569E8     8.674424951447207E-1   -5.028527141457709E-1   -3.875556749514508E-6   -1.937317581833268E-6    3.079264921122788E-5   -4.351994413859179E-6    8.611125205232156E-1   -5.096188338522816E-1
 4.088716350947158E8     8.601387126142103E-1   -5.135901902405791E-1    7.565419373264589E-6   -2.033320420912789E-5    1.838763821607024E-5   -1.203993813926687E-6    8.542675784902282E-1   -5.206408780477324E-1
 4.188416749750748E8     8.532685714222398E-1   -5.251219572269574E-1   -1.805957392695071E-6    8.370448631175710E-6    4.383782771355148E-6   -3.098781826160230E-6    8.475887105238483E-1   -5.314556252197808E-1
 4.288117148554337E8     8.461106384455030E-1   -5.368873762435192E-1    1.026702306071068E-5    3.551749388221324E-6    7.299446348067232E-6   -5.710049029466621E-6    8.404983754292925E-1   -5.418145274438252E-1
 4.387817547357926E8     8.382700851063316E-1   -5.482955905656518E-1    1.295017390068354E-5   -5.478107103991632E-6   -1.041395011012056E-5   -3.736487474386260E-7    8.325751564139274E-1   -5.523093728764139E-1
 4.487517946161516E8     8.305025190938969E-1   -5.600661814591341E-1    7.405085834731912E-6    8.107785889411164E-6    3.708279309844712E-6    4.069286605324773E-6    8.242081334964069E-1   -5.635107294018399E-1
 4.587218344965104E8     8.235944440300367E-1   -5.720062220536292E-1    5.474777264881832E-6    3.289183242481021E-6   -5.610170559538334E-6   -3.370576512641528E-7    8.160289808693647E-1   -5.752806127679260E-1
 4.686918743768694E8     8.170549159035513E-1   -5.834208818248285E-1    4.255944334893591E-6   -8.758853590087386E-6    5.298376439341636E-7   -7.477349587800243E-7    8.077973502983861E-1   -5.866987392271160E-1
 4.786619142572283E8     8.098811051321099E-1   -5.942449155461457E-1    1.077868950891250E-5    2.062636443338144E-5   -1.692860676195737E-5   -1.876704304836919E-6    7.991774157217659E-1   -5.979683787042249E-1
 4.886319541375872E8     8.022877252095255E-1   -6.047048578943151E-1    2.132421950769458E-6    1.858145834812242E-6   -3.564856942523005E-6   -7.154530121380696E-6    7.905663464167572E-1   -6.088159085073827E-1
 4.986019940179462E8     7.940231477137837E-1   -6.154228871069281E-1   -2.580848082507749E-7   -9.072580891728859E-6    2.026249842048468E-6   -1.227986871415081E-5    7.822776024878334E-1   -6.197670718818792E-1
 5.085720338983051E8     7.857364257302382E-1   -6.245379701857505E-1   -2.453441327241300E-6    4.082793015963704E-6    9.968124816953105E-7   -1.384430439363714E-5    7.746570733888751E-1   -6.302816118400243E-1
 5.185420737786640E8     7.782546319206983E-1   -6.335853227237763E-1    8.973410655802364E-6    1.283888506871476E-5    4.187678954543572E-7    2.113244745915112E-5    7.668875009112075E-1   -6.400578624142282E-1
 5.285121136590229E8     7.700041038690790E-1   -6.431018820748705E-1    2.399030640997801E-6   -2.864678664101356E-6   -1.052432356174789E-5   -8.016663278945967E-6    7.589113291914086E-1   -6.496887195955159E-1
 5.384821535393819E8     7.613866853641549E-1   -6.532087022934904E-1   -1.164069177947174E-5   -1.453218226007983E-6   -1.036702000227180E-5   -3.429418716245885E-6    7.508089181511194E-1   -6.593636243060975E-1
 5.484521934197408E8     7.533428892817025E-1   -6.637541596593652E-1   -3.853778909864079E-6   -3.619020354278220E-6    5.022533280000047E-6   -1.377334957855549E-6    7.424635456841209E-1   -6.692057506988734E-1
 5.584222333000997E8     7.447898274590128E-1   -6.747436440342400E-1   -1.273200118014996E-5   -2.673314584223596E-6   -9.709461299866800E-6   -2.260898340376417E-5    7.332843891665438E-1   -6.792184111622213E-1
 5.683922731804587E8     7.356232574962868E-1   -6.852417082813325E-1   -7.218442682494583E-7   -3.211929170777596E-6    7.485917693847490E-6    9.038828327125092E-6    7.230827467426203E-1   -6.892071511319390E-1
 5.783623130608176E8     7.262768305505092E-1   -6.951462110306877E-1    2.513217002634429E-7    5.094232927006087E-6   -1.225746336530840E-5   -2.015674505311862E-5    7.126395443726162E-1   -6.988655225171836E-1
 5.883323529411764E8     7.170931385047515E-1   -7.051571172675225E-1    1.369129417359259E-6   -7.664411908604139E-6    6.152756595033991E-6   -2.757557824767874E-6    7.021790383858709E-1   -7.086851682953080E-1
 5.983023928215353E8     7.079160362401012E-1   -7.153264981684860E-1   -8.304734697922426E-6    5.935203776269256E-6   -4.455327470048440E-6   -1.111504873849517E-6    6.919328303107348E-1   -7.184700006562370E-1
 6.082724327018943E8     6.984784767746067E-1   -7.250981818112260E-1   -5.991881298689359E-7   -6.828169753377138E-6    5.559048372126178E-6   -4.942563438575092E-6    6.817373769134534E-1   -7.277768421870964E-1
 6.182424725822532E8     6.885560284053465E-1   -7.347326799356512E-1    1.024578523036585E-5    2.130896415217600E-6    1.722507334869564E-5    9.379963017016491E-6    6.717011696816485E-1   -7.372209936600788E-1
 6.282125124626122E8     6.779847130378132E-1   -7.440039525846460E-1   -1.410621763802795E-5   -3.972028379316742E-6   -3.285813336471572E-6   -2.640127186387810E-6    6.626870384990996E-1   -7.467834654918487E-1
 6.381825523429711E8     6.682586981468225E-1   -7.510990669481088E-1   -7.551600566488411E-6    4.034328790932267E-6    1.472097433519771E-6   -1.251778416734678E-5    6.538433186695859E-1   -7.557161213350519E-1
 6.481525922233300E8     6.593238909587998E-1   -7.596656664762472E-1   -5.515284021813368E-7   -5.323251740683469E-6   -1.743699339787866E-5   -1.261608403870880E-5    6.446495512645307E-1   -7.642049582606638E-1
 6.581226321036890E8     6.496300007069531E-1   -7.686169297369412E-1   -1.027569388425947E-7   -1.522818102676625E-5   -8.130704695042820E-6    3.451404337309489E-6    6.346529201422449E-1   -7.725078530870848E-1
 6.680926719840479E8     6.397391000473197E-1   -7.772751568756306E-1    6.023165441362407E-6   -3.552704256610331E-6    3.625903831446156E-6   -5.323357312114748E-6    6.239750098313798E-1   -7.805256904321576E-1
 6.780627118644068E8     6.299174743348667E-1   -7.854004739327061E-1   -1.369729107221609E-6    4.997215807388500E-6   -6.288504261380953E-6   -2.731866290134117E-6    6.128780258524220E-1   -7.883497097396135E-1
 6.880327517447658E8     6.194703840453348E-1   -7.936724957460470E-1   -3.990311898936453E-6    1.644641921733099E-5   -4.776464140789561E-6    1.103077784177336E-5    6.015166464478027E-1   -7.959761094871288E-1
 6.980027916251246E8     6.086494473241908E-1   -8.018951810738827E-1   -2.168287547886422E-6    2.948360027430223E-6    1.289596479758340E-5   -5.540957631642420E-6    5.901818512058977E-1   -8.037498395786413E-1
 7.079728315054835E8     5.972782089318998E-1   -8.101554009901408E-1   -7.715147255373758E-6   -1.613934638925306E-6   -1.162037234723763E-5    2.723742273088959E-6    5.784972950152338E-1   -8.115677503229209E-1
 7.179428713858424E8     5.860644829766670E-1   -8.187786075717892E-1   -1.005922584015992E-5   -9.312287071313120E-6   -3.472591485692892E-6    2.079604109742636E-5    5.672730942012475E-1   -8.202792510919805E-1
 7.279129112662014E8     5.750782547051628E-1   -8.272079679987915E-1    4.270991599323456E-6    3.444312574561131E-6   -4.048767097126922E-7   -1.270868805190147E-6    5.559014445553581E-1   -8.289355972111149E-1
 7.378829511465603E8     5.638094360623460E-1   -8.360283085325110E-1    8.146356177531721E-6    4.156811195034553E-7    1.625628175153657E-5   -1.950197755536910E-5    5.446329362323992E-1   -8.374122742330342E-1
 7.478529910269192E8     5.518257868816808E-1   -8.444881202184837E-1   -2.650809916085122E-6    1.246939053076097E-5   -1.889477015021558E-6   -2.913867093417803E-6    5.333698946862923E-1   -8.449748897148399E-1
 7.578230309072782E8     5.392193114174256E-1   -8.516789285620867E-1    1.771519628152334E-6    8.899120384649488E-6    2.116859515195373E-6    5.660793493698632E-6    5.223704308892865E-1   -8.519679843853604E-1
 7.677930707876371E8     5.286871506856560E-1   -8.570006817025562E-1   -1.457442924774925E-7    4.343896624983175E-6    5.201641199443920E-6    3.185901295658032E-6    5.109249448117693E-1   -8.583594082776640E-1
 7.777631106679960E8     5.191143610670105E-1   -8.639597519907984E-1    3.849874571295113E-6    4.593209432673247E-7    1.926567828133053E-6   -1.882397721004772E-6    4.994268689638628E-1   -8.648501968340652E-1
 7.877331505483550E8     5.088738603130616E-1   -8.709562776421373E-1    1.908563487707647E-5    6.290382676420965E-6    6.798055770695451E-6    4.893108753903595E-6    4.877122306717580E-1   -8.715155723512837E-1
 7.977031904287138E8     4.976786363848326E-1   -8.774519000639623E-1    1.034900852462530E-5    4.681108282386827E-7   -5.172537434175898E-6    8.312986488529920E-6    4.748372120277470E-1   -8.780156177430183E-1
 8.076732303090727E8     4.859634371132364E-1   -8.831610930883684E-1    5.719570662628449E-6    9.504269406823240E-6    1.357046335911687E-5   -6.307281664409956E-7    4.620965070675324E-1   -8.840595168823098E-1
 8.176432701894317E8     4.738025328706148E-1   -8.891664909345609E-1    6.277394615864306E-6   -2.617714014209101E-6   -5.798208423274443E-6   -8.150244755144742E-6    4.491312987989728E-1   -8.903917980389157E-1
 8.276133100697906E8     4.614792683102371E-1   -8.956057735459874E-1    4.637681342150061E-6    9.841241000454855E-6   -2.620884236095707E-6    4.043768068250133E-6    4.365168403932493E-1   -8.969647607119924E-1
 8.375833499501495E8     4.488210415372371E-1   -9.019721246325298E-1   -5.131993162854889E-8   -5.075427056333378E-6    6.252958332350025E-6    6.794402559172906E-6    4.243794159189079E-1   -9.037329660293464E-1
 8.475533898305085E8     4.361079537694960E-1   -9.085331417267386E-1   -2.007964913375985E-6   -3.482538976272165E-6   -4.184222072395293E-7   -2.285857013227058E-6    4.125356454779773E-1   -9.098783031224407E-1
 8.575234297108674E8     4.233493841992253E-1   -9.148364049286910E-1    1.561912630583343E-5   -1.274166990733418E-6   -9.094546187124345E-6   -1.125700586528420E-5    4.008279301941914E-1   -9.151830739628360E-1
 8.674934695912263E8     4.105013401547813E-1   -9.214205010054403E-1   -5.102021015073661E-6   -2.850316762629079E-6   -2.063407254493876E-6    5.116031496105483E-6    3.886609658600618E-1   -9.200231318263502E-1
 8.774635094715853E8     3.973320804877328E-1   -9.280460898335433E-1    3.491865848835284E-6   -1.049602532737554E-5   -1.958871868685470E-5    1.268585089891348E-6    3.761020824570221E-1   -9.247397221007512E-1
 8.874335493519442E8     3.843441886966252E-1   -9.326691944720313E-1    6.790203357614591E-6    2.662627398705299E-6   -1.085854995769220E-5    7.663789570605552E-6    3.630700843740215E-1   -9.291754481061746E-1
 8.974035892323031E8     3.730601801625425E-1   -9.363442100255814E-1   -1.321592553491679E-5    1.286630402471715E-5   -6.830092167223494E-6   -1.061077522559961E-5    3.495057142983135E-1   -9.333639797451856E-1
