#  HZ   S   RI   R     50.00 
! Rohde & Schwarz Vector Network Analyzer 
! Rohde-Schwarz,ZNB20-2Port,1311601062102128,3.60
! Created: UTC 4/29/2024, 2:53:43 PM
! freq[Hz]                re:S11                  im:S11                  re:S21                  im:S21                  re:S12                  im:S12                  re:S22                  im:S22
 1.000000000000000E5     9.960950346054525E-1    3.680091417134778E-3    8.075208285687954E-5   -1.309647932405113E-4    1.426647441456350E-4   -2.522210053785795E-5    1.010278241749069      -1.150988516980623E-2
 1.007003988035892E7     9.977402225593416E-1   -1.384796289121966E-2   -7.399245375075480E-6   -5.649033365938499E-6    8.489377885718693E-6   -1.649350529688478E-5    9.959209731542538E-1   -1.452737933354013E-2
 2.004007976071785E7     9.998886538921284E-1   -2.725924054281505E-2    9.847795436394885E-6   -1.583700316461925E-5   -9.987425238093677E-6   -3.300400967379660E-5    9.989040932127018E-1   -2.765170743920829E-2
 3.001011964107677E7     9.979982589030595E-1   -4.101907881221473E-2   -3.528337448717357E-6   -2.160971465583741E-6    4.544173454052376E-6   -1.904509318224091E-6    9.975204016847127E-1   -4.205929911794246E-2
 3.998015952143569E7     9.975891719254251E-1   -5.314514376126491E-2   -9.012237793451643E-6   -1.858060315398668E-5    1.501039689237958E-5   -2.604596427475376E-6    9.977558887891290E-1   -5.671290632257761E-2
 4.995019940179461E7     9.960376634156258E-1   -6.594894823191615E-2    4.763411075813245E-6    3.681182216766043E-6   -2.255507730283389E-5   -2.566752608385243E-6    9.963668847021850E-1   -6.920550272583043E-2
 5.992023928215354E7     9.941924047286731E-1   -7.890650011316026E-2   -2.137457149385785E-5   -1.796110757748719E-5    2.002578293569344E-5   -1.506781923889679E-6    9.945310439449230E-1   -8.196861559245135E-2
 6.989027916251247E7     9.932296464850547E-1   -9.193005922283438E-2   -9.013261062071906E-6    9.709439281859318E-6    6.673094306578391E-6    8.720453558680935E-6    9.935992990069062E-1   -9.480543970138924E-2
 7.986031904287139E7     9.925006100964207E-1   -1.051918399833454E-1   -2.439847003675655E-5   -2.133229075008509E-5    2.090178755027877E-5    2.110529686494565E-6    9.925425815077886E-1   -1.078915338229353E-1
 8.983035892323031E7     9.914668317079919E-1   -1.188464529801456E-1   -9.882985311432020E-6   -2.706691011342809E-6   -8.027485046991270E-6   -9.806963668669570E-6    9.908174250369427E-1   -1.210572482277413E-1
 9.980039880358922E7     9.892303257436720E-1   -1.322956136273431E-1    1.150309860387232E-5   -3.008603217489427E-6   -3.969050811277336E-7    8.362342556174696E-6    9.884206612784361E-1   -1.343472999588720E-1
 1.097704386839482E8     9.865348791593593E-1   -1.455876915490142E-1   -5.572331839446695E-6    9.760831602498682E-6    5.947081928312392E-6    9.583990870073881E-6    9.861995223551194E-1   -1.476696812621428E-1
 1.197404785643071E8     9.850162780699404E-1   -1.589562561468363E-1    7.889837420202870E-6    8.566247224561280E-6    6.879835521435068E-6    1.302080344031237E-5    9.844006616356427E-1   -1.611740827162827E-1
 1.297105184446660E8     9.830560254725278E-1   -1.717394907792057E-1    2.478897580839519E-6   -2.338606052969779E-6    2.178676111955304E-7   -4.271573180537255E-6    9.829392960364102E-1   -1.745017652474196E-1
 1.396805583250249E8     9.815765612957064E-1   -1.846407612802581E-1   -7.766215375335770E-6    5.231107170196557E-6    4.244619843732685E-6   -9.959317079049388E-6    9.808646453715293E-1   -1.874681471291106E-1
 1.496505982053838E8     9.787984477450284E-1   -1.970926466677295E-1    1.029998027105935E-5    8.314945610835845E-6    5.786858877754530E-6    3.890954930682107E-6    9.784568099996441E-1   -2.003022531727104E-1
 1.596206380857428E8     9.761835941593137E-1   -2.095413391599748E-1   -1.734169116006825E-5   -1.271804371856778E-5    1.716967801993792E-5   -2.882389071305454E-5    9.758231748476754E-1   -2.132565380104762E-1
 1.695906779661017E8     9.732728158947140E-1   -2.223361225144546E-1   -5.361378790410664E-6   -5.323840402214514E-6   -6.967189062169535E-6    9.328054524892921E-6    9.729569277736519E-1   -2.260198966287189E-1
 1.795607178464606E8     9.707453860189815E-1   -2.348050383017923E-1    2.694184705971123E-6   -8.539950277443451E-6    1.983865672252460E-5   -2.567694506596492E-6    9.701396484915387E-1   -2.379794934635742E-1
 1.895307577268195E8     9.676957296809300E-1   -2.470903358182432E-1    1.567413513594208E-5    5.351851061809541E-7    8.712673851157549E-6    3.900679436358215E-6    9.668409594083840E-1   -2.504308096037455E-1
 1.995007976071784E8     9.638004977575353E-1   -2.595098507922562E-1    5.069646686874107E-6   -8.976276040542640E-7   -6.485677568663901E-6    7.278479043375905E-6    9.626296613789530E-1   -2.632044238163466E-1
 2.094708374875374E8     9.605238222182070E-1   -2.723606874654196E-1   -1.816071504679906E-6   -1.427164006929751E-6    1.140885876567803E-5   -9.131375660588716E-6    9.590407261230405E-1   -2.761630889834932E-1
 2.194408773678963E8     9.572766763415392E-1   -2.850722915549755E-1   -3.918012667087809E-6    1.350309138484920E-5   -1.811791335508167E-5    1.443915888485949E-5    9.551306843454354E-1   -2.890993028518583E-1
 2.294109172482552E8     9.534911584700876E-1   -2.973611266423830E-1   -1.468694785318386E-5   -1.368769553893166E-6    3.544065277076944E-6    1.797676733694602E-6    9.508998951841213E-1   -3.017937543725216E-1
 2.393809571286142E8     9.504738428101586E-1   -3.093712949779183E-1   -7.212342928284306E-6    1.103601343387965E-5   -1.824547313870193E-6   -3.814241348545136E-6    9.470176146706692E-1   -3.139411374333611E-1
 2.493509970089731E8     9.468942964295851E-1   -3.233337492994461E-1   -2.161521512766249E-6    1.184672247781029E-6    3.020585432925235E-6   -9.709656352427640E-6    9.441111921592894E-1   -3.276246295875597E-1
 2.593210368893320E8     9.427648020116745E-1   -3.354246106881665E-1   -8.501843317421285E-7    2.930494430953185E-6   -8.921201662337128E-6    5.506245491240587E-6    9.398570852214121E-1   -3.408794905761686E-1
 2.692910767696909E8     9.385052683729936E-1   -3.468748681526628E-1   -3.665171405183476E-6    1.149805711736453E-5    7.120627774043683E-6   -3.450858578754298E-7    9.355733847901574E-1   -3.528480143828517E-1
 2.792611166500499E8     9.337602123612735E-1   -3.584370840135656E-1   -3.925499111094968E-6   -7.538567023893658E-6    9.780627316826507E-6   -6.061544444807727E-6    9.309385813692186E-1   -3.645781766246753E-1
 2.892311565304088E8     9.288910294051288E-1   -3.704856153042759E-1   -4.763028322336153E-6    7.887290111602319E-6    5.030624176615915E-6    5.694784467178614E-6    9.261002344401895E-1   -3.768449248201671E-1
 2.992011964107677E8     9.241115816207252E-1   -3.826664825479467E-1   -6.215146673510509E-6    7.808737363254308E-6    2.169059949110662E-6   -1.205514325704871E-5    9.211333677950201E-1   -3.885865194854140E-1
 3.091712362911266E8     9.188071373689498E-1   -3.949647033056349E-1   -8.492311523013997E-6   -1.812632082923517E-5    6.977830711247717E-8    1.679751217810330E-5    9.156605082288745E-1   -4.001051211247303E-1
 3.191412761714855E8     9.132392714841970E-1   -4.073556425808310E-1   -9.032698451658564E-6    8.708313045880622E-6   -4.158070875883767E-6    1.290523647886960E-6    9.097483635736496E-1   -4.119017188196855E-1
 3.291113160518445E8     9.075533173451923E-1   -4.199090066032587E-1   -8.195892877644566E-6   -3.947293109160995E-7    8.247099149259540E-6    2.387741547173182E-5    9.033699364433259E-1   -4.244319371530859E-1
 3.390813559322034E8     9.019359590204555E-1   -4.328043830727070E-1    7.548907627188398E-6    7.923841528139722E-6   -3.290215450241297E-6   -4.422725944181693E-6    8.967516279401625E-1   -4.368850102921319E-1
 3.490513958125623E8     8.967338646429502E-1   -4.453506456990455E-1    7.015719846498203E-7    4.693428642288352E-6   -1.294069659588458E-5   -2.800279215656092E-6    8.904573036036808E-1   -4.494618608737817E-1
 3.590214356929212E8     8.913463219513419E-1   -4.579109470910692E-1   -5.207169537483470E-6    1.896268129026106E-6   -5.367686375815764E-7    1.252555315169799E-6    8.846517155078416E-1   -4.621281711386846E-1
 3.689914755732802E8     8.858270697151602E-1   -4.700134932876601E-1   -8.131804323700915E-6    7.301259902810484E-7   -2.552020704414273E-6    1.110907998066742E-5    8.790381656373615E-1   -4.747627289225194E-1
 3.789615154536391E8     8.796970560943588E-1   -4.812825966329011E-1   -7.495397638875172E-6   -7.305089745661053E-6    1.231836911073471E-5    4.619848011283327E-6    8.737994952152365E-1   -4.867593294246955E-1
 3.889315553339980E8     8.742353670717571E-1   -4.920212187951370E-1   -2.131696102873187E-7   -4.666486916421259E-6    9.514490016998114E-6   -6.883266977777462E-6    8.679570924151477E-1   -4.988025761968443E-1
 3.989015952143569E8     8.675065984574009E-1   -5.027608259639033E-1    9.284452107688475E-6    9.191489467753537E-6   -4.067423443040179E-6    1.165230792942008E-5    8.612074221868244E-1   -5.098606610788667E-1
 4.088716350947158E8     8.601129382758119E-1   -5.135006399862088E-1    1.212453064397870E-6   -1.084885761772323E-5   -1.046616169189929E-5    1.796595345123591E-5    8.542172456354548E-1   -5.205894086308006E-1
 4.188416749750748E8     8.531562753713828E-1   -5.250480745277167E-1    7.741108572109998E-6   -1.702078880263367E-5    1.293035433479739E-5   -9.071149305473902E-6    8.475941078269854E-1   -5.314587327729573E-1
 4.288117148554337E8     8.459946696316704E-1   -5.367679552406001E-1    4.025261445742435E-6   -5.844341204068504E-6    1.030349325735971E-5    6.028164077202246E-6    8.405713400886713E-1   -5.418715750974723E-1
 4.387817547357926E8     8.382735275002499E-1   -5.482575815115859E-1   -1.158133590546903E-5    7.843834966878954E-6    2.173449433717629E-5    3.254251261318149E-6    8.326409737569925E-1   -5.522677368559641E-1
 4.487517946161516E8     8.304748061348124E-1   -5.599583608066041E-1   -9.422659827380106E-6    2.391766102565505E-6   -6.682498150171300E-6    7.613230427548015E-6    8.242372866197326E-1   -5.634883023024072E-1
 4.587218344965104E8     8.234202820715021E-1   -5.718570749848758E-1    5.807820737654707E-6   -5.187455646511082E-7   -1.610787608432560E-5    8.179143811822298E-6    8.160582354164392E-1   -5.752849088038272E-1
 4.686918743768694E8     8.169626681278450E-1   -5.834538473917833E-1    6.947794716923755E-6    2.915805552379179E-7    3.124676386425272E-6   -1.504920892186626E-5    8.078197680061828E-1   -5.868110750911175E-1
 4.786619142572283E8     8.099882832129671E-1   -5.942941341821899E-1    1.909269803213848E-6   -5.937983138140354E-6    3.154576770591648E-6   -4.048329552566848E-6    7.993274215635556E-1   -5.981093445773282E-1
 4.886319541375872E8     8.023396143026326E-1   -6.046854096116834E-1    1.048777459564970E-6   -5.258330155310510E-6   -1.350632352897411E-5   -5.071298345836703E-6    7.905633568620416E-1   -6.088105977600667E-1
 4.986019940179462E8     7.939033292674089E-1   -6.152757631069761E-1   -9.460404343045699E-6   -6.720198183531687E-6    1.431849683564517E-5   -1.244889032183032E-6    7.822558716967016E-1   -6.196997310077194E-1
 5.085720338983051E8     7.855476723029466E-1   -6.244156740258751E-1    9.943907821368529E-8   -2.818210335574571E-6   -1.670034231974077E-5   -3.038059046997856E-7    7.747343660100685E-1   -6.302633150100350E-1
 5.185420737786640E8     7.783086971435603E-1   -6.335741447565086E-1    1.027282527201190E-6   -2.498867037468545E-6    4.752246976788700E-6   -5.081277849152404E-6    7.669493351586498E-1   -6.401089903014427E-1
 5.285121136590229E8     7.700889149915966E-1   -6.430613780200423E-1   -7.051624325475023E-6   -1.512636673726317E-6    2.986048430075246E-6    4.291521875065951E-6    7.589893361137237E-1   -6.497820087706397E-1
 5.384821535393819E8     7.613363790811427E-1   -6.531008636080462E-1    1.356219152666105E-6   -9.250058846991056E-6    4.910047324075539E-6    7.437809260786204E-6    7.508064190974908E-1   -6.593478048635620E-1
 5.484521934197408E8     7.531853702440594E-1   -6.636390631515823E-1   -7.000760185820414E-6    1.045914012634664E-5   -3.294107737713424E-6    1.267876179332358E-5    7.424159342495463E-1   -6.692476140400951E-1
 5.584222333000997E8     7.447706831486879E-1   -6.747383646732564E-1    5.267659366717320E-7   -5.551398187213243E-6    2.020220897109986E-5    5.816680640922300E-6    7.333051599304126E-1   -6.792198451400288E-1
 5.683922731804587E8     7.357500968915710E-1   -6.852886638953761E-1    5.163615827764879E-6    1.687751387612798E-5    7.086981862311357E-6   -7.968645456561697E-6    7.231679778283652E-1   -6.891887120606588E-1
 5.783623130608176E8     7.263147161347877E-1   -6.950930378098384E-1    7.313739676327200E-6    1.565668330037808E-5    3.607287104165133E-6    2.160159382776364E-5    7.126389218221749E-1   -6.989041646764395E-1
 5.883323529411764E8     7.169365874904559E-1   -7.050780747018789E-1    6.448804150650445E-7   -1.886791423157114E-6    1.238372618187822E-5   -6.918675392620028E-6    7.020975379427211E-1   -7.086841247637701E-1
 5.983023928215353E8     7.078380162786128E-1   -7.151785472976615E-1   -9.415715464697369E-6   -2.792601550156024E-6    9.736167177745325E-6   -8.492976302249818E-6    6.918304552447428E-1   -7.183787066094740E-1
 6.082724327018943E8     6.985119864834808E-1   -7.250161888651189E-1    8.225852332816215E-6   -5.914533793870054E-7   -2.118922237607367E-5    1.030979945613166E-5    6.816671865861260E-1   -7.278757586345902E-1
 6.182424725822532E8     6.885998749546729E-1   -7.347402010681107E-1   -5.674104726130142E-6   -6.951461122801893E-6   -2.318188134031126E-6    9.032246774332630E-6    6.717157680415767E-1   -7.373003934654764E-1
 6.282125124626122E8     6.779789568567119E-1   -7.439589030981515E-1   -2.100405949481831E-6   -1.638763837209911E-5    3.733865613575250E-7    6.294022464126883E-6    6.626653855424127E-1   -7.467550924964128E-1
 6.381825523429711E8     6.682001147475398E-1   -7.509903054633303E-1    3.205031440758369E-6    7.028594336439569E-6    1.025210477443110E-5   -5.761899418918747E-6    6.536840215071820E-1   -7.556535542939947E-1
 6.481525922233300E8     6.593028850805953E-1   -7.596263247316960E-1    1.226483135054526E-5   -1.497725446407197E-5    1.606879398637309E-5    1.534115567737120E-5    6.446593322539265E-1   -7.642041161865488E-1
 6.581226321036890E8     6.497680550279518E-1   -7.686325178193576E-1    1.452909306765138E-5   -4.177245662967184E-6   -9.228750363160381E-6   -5.115859761092486E-6    6.345980602239698E-1   -7.725336558408233E-1
 6.680926719840479E8     6.397430373908435E-1   -7.773262886021455E-1    7.524712925087329E-7    5.982796856168735E-7   -5.196862922633848E-6   -2.217551865946038E-6    6.238963946468034E-1   -7.804307606767786E-1
 6.780627118644068E8     6.298008815555426E-1   -7.853010621867673E-1   -7.247455945874500E-7    2.500391553147756E-6   -4.223323077176222E-6    2.159344918393974E-6    6.128602281919928E-1   -7.883561926577923E-1
 6.880327517447658E8     6.194941920869856E-1   -7.936381704514609E-1    1.612555033657484E-5   -1.714191104860103E-6    1.888812633091991E-6   -5.430758673644275E-7    6.015502345603149E-1   -7.961107793551874E-1
 6.980027916251246E8     6.086651294243147E-1   -8.019267797960288E-1   -8.047862492985443E-7    1.636246641910971E-5   -1.407495222046466E-5   -1.269692132744302E-5    5.900005372164252E-1   -8.037799764906690E-1
 7.079728315054835E8     5.974615841520078E-1   -8.102830741572600E-1   -4.967323078843107E-6    4.204401914269558E-6   -5.413280091695615E-6   -6.620062839318780E-6    5.784522215845355E-1   -8.116172341351272E-1
 7.179428713858424E8     5.861759042417158E-1   -8.188069060669483E-1    2.716941021169085E-7   -2.036532734992221E-6   -8.994425994169772E-6    4.952325862249793E-6    5.672311449120765E-1   -8.202140951032775E-1
 7.279129112662014E8     5.750997254390738E-1   -8.271285926506952E-1    4.466070006243156E-6   -1.690550449173916E-5    4.600458373627138E-6   -1.455409429181906E-5    5.559503582332018E-1   -8.288922835409956E-1
 7.378829511465603E8     5.638651295544505E-1   -8.359660488811348E-1    7.240879329775592E-7   -7.549406039246414E-6    7.581526655324040E-7   -1.916499339532487E-5    5.445543922009278E-1   -8.372961852129707E-1
 7.478529910269192E8     5.518061516043646E-1   -8.445486817499385E-1   -7.341795787247800E-6    6.558770183186786E-6   -8.259924252427869E-6   -2.246470874995408E-5    5.334247324008309E-1   -8.450695460925772E-1
 7.578230309072782E8     5.392860323433083E-1   -8.516578161362041E-1    3.049072657052527E-6    1.495844942181229E-6   -2.157046182940184E-6   -1.965971760883896E-6    5.224009343269025E-1   -8.519541447608392E-1
 7.677930707876371E8     5.288002889039881E-1   -8.570193575214552E-1   -5.653724998708872E-6    1.113716649474306E-5   -9.430204440066177E-6   -2.185801892634079E-6    5.108602634126415E-1   -8.582535064142631E-1
 7.777631106679960E8     5.190762273543007E-1   -8.638733603736238E-1    3.152137926526552E-6    1.738650341337958E-5   -1.260221915268709E-5   -1.185771835961410E-5    4.994388832058276E-1   -8.647882873723515E-1
 7.877331505483550E8     5.088396586039562E-1   -8.708048740645964E-1   -5.125945598559862E-6   -6.557826037632381E-6   -7.848427116911104E-6    1.008254151831124E-5    4.876542560179789E-1   -8.715576177168614E-1
 7.977031904287138E8     4.977216867572188E-1   -8.773099568819935E-1   -2.074783992982010E-6    2.840962296010860E-6   -2.756323550923562E-6    3.044551350551724E-6    4.750193896236030E-1   -8.780779588759906E-1
 8.076732303090727E8     4.859455865352735E-1   -8.833370363708161E-1    8.750647397424627E-6   -1.094573186842511E-5   -5.482605580315876E-8    9.109033842828198E-6    4.620307934217065E-1   -8.840117711351654E-1
 8.176432701894317E8     4.738359313743918E-1   -8.891014012953411E-1   -7.974353536158948E-6    7.530338853338610E-6   -6.384943408088574E-6    2.318476146913882E-6    4.490994841895929E-1   -8.902324322439794E-1
 8.276133100697906E8     4.614808098925157E-1   -8.955594270343958E-1   -3.193201289481673E-6    5.853480039063212E-6   -1.561412112994585E-6    4.721412125059143E-6    4.365826283533614E-1   -8.971354218821515E-1
 8.375833499501495E8     4.489013679435020E-1   -9.020152087008805E-1    1.386619685126276E-6    1.323699505106670E-5   -6.374720345683480E-8    3.562817745163908E-6    4.244548547034718E-1   -9.038888563062540E-1
 8.475533898305085E8     4.361541959266537E-1   -9.085101417359978E-1   -1.125853743846036E-5    1.229398270254553E-5   -3.886410143100166E-6    2.048966725513220E-6    4.124877432006539E-1   -9.097947496750101E-1
 8.575234297108674E8     4.233794739995799E-1   -9.148276912546018E-1   -9.185736332118160E-6   -2.010776282329898E-5   -3.201029670560731E-6    2.544180563184621E-6    4.008128138866115E-1   -9.151243187993935E-1
 8.674934695912263E8     4.105609951333409E-1   -9.214227986997291E-1    1.265204468030773E-5   -3.394173262570119E-6    5.928956591819172E-6   -5.517855136016167E-6    3.887257556532980E-1   -9.198820762504951E-1
 8.774635094715853E8     3.974180131083515E-1   -9.280399978631512E-1    5.972794457952358E-6   -2.186255461714182E-5    1.640311541032972E-5   -1.768230188120690E-6    3.761368613156338E-1   -9.246890763269652E-1
 8.874335493519442E8     3.843554841643052E-1   -9.325670619318926E-1    3.501964830286508E-6    5.306693318615868E-6    1.122132286628315E-5   -6.987688253066753E-6    3.631667185902921E-1   -9.291466790183334E-1
 8.974035892323031E8     3.730636071244638E-1   -9.363021941008023E-1    2.107416725754998E-7   -1.227511463072162E-5   -9.103999705148630E-6    9.266723475979667E-6    3.494953498253281E-1   -9.332777727897987E-1
