#  HZ   S   RI   R     50.00 
! Rohde & Schwarz Vector Network Analyzer 
! Rohde-Schwarz,ZNB20-2Port,1311601062102128,3.60
! Created: UTC 4/29/2024, 2:53:46 PM
! freq[Hz]                re:S11                  im:S11                  re:S21                  im:S21                  re:S12                  im:S12                  re:S22                  im:S22
 1.000000000000000E5     9.960523536554375E-1    3.838810849040242E-3   -3.655128318982076E-5   -8.859705242166876E-5    8.245247276109904E-6   -1.358185950472857E-4    1.010455635107767      -1.140912712394918E-2
 1.007003988035892E7     9.975918148411040E-1   -1.375066430013981E-2   -1.850914172726871E-5   -2.593465170315493E-5    8.461244521473096E-6    6.171837935228861E-6    9.959463309847980E-1   -1.449911069657854E-2
 2.004007976071785E7     9.999679574929623E-1   -2.708788504072259E-2    9.710294249901705E-6    1.889753017563768E-5   -3.406719961965186E-5   -6.612875743978908E-6    9.987489068694011E-1   -2.753207991107850E-2
 3.001011964107677E7     9.978478294535652E-1   -4.098483999640654E-2    5.881617376736231E-6    1.325122550364787E-5   -1.277150304673476E-5   -4.407549422957920E-6    9.975709973466250E-1   -4.203116583474215E-2
 3.998015952143569E7     9.977589066648822E-1   -5.307034876507520E-2   -3.323075242384967E-6    1.487227180220576E-5    9.092427319072942E-6   -2.380846007138734E-5    9.976022093907012E-1   -5.668411957096050E-2
 4.995019940179461E7     9.961905860135504E-1   -6.595971346728072E-2   -6.847324837497674E-6   -1.206783774914943E-5   -1.629158087179035E-6    1.046062896789676E-5    9.966319150426166E-1   -6.916514187323257E-2
 5.992023928215354E7     9.942007151098828E-1   -7.879329346299321E-2    9.360972606942711E-6    1.382168416794891E-6    1.421515931690903E-5   -7.469273595607752E-6    9.945954350650172E-1   -8.187281809284672E-2
 6.989027916251247E7     9.931020624801750E-1   -9.183993745353210E-2   -3.471006845660248E-6   -7.661118078577589E-6    9.135868015708725E-6    5.289556069613114E-6    9.933634505342235E-1   -9.479812517018872E-2
 7.986031904287139E7     9.924259342399245E-1   -1.052220369163096E-1   -1.154585837654273E-5    4.598028055625821E-6   -2.446079092900895E-7   -5.184502664522660E-6    9.923979152346327E-1   -1.079454078716252E-1
 8.983035892323031E7     9.914391247149259E-1   -1.187372685887923E-1   -2.797702756918845E-5    8.215549994224558E-6    8.572205276971162E-6    2.179978843405991E-6    9.908793884548363E-1   -1.210736327290586E-1
 9.980039880358922E7     9.892908487954016E-1   -1.323168929672066E-1   -1.187169196602313E-5   -8.958534438038081E-6   -2.872358289950858E-7   -4.800818946032506E-6    9.886013269262213E-1   -1.344025397395910E-1
 1.097704386839482E8     9.866329214951548E-1   -1.455814547048383E-1   -1.474096247858600E-6   -4.236592583747464E-6   -1.021399066811665E-6   -7.312881663264178E-6    9.861309383601031E-1   -1.476993657789980E-1
 1.197404785643071E8     9.847628510358869E-1   -1.590205819813588E-1    5.657554754119997E-6    8.869785166544021E-6    1.125915005797925E-7   -7.262882804600582E-6    9.842922578241138E-1   -1.612297256211314E-1
 1.297105184446660E8     9.830790493732769E-1   -1.718612430490529E-1    1.218921035818997E-6   -3.613578486878704E-6   -3.949057365362651E-7    9.738688397527146E-6    9.828138700759996E-1   -1.744486529962387E-1
 1.396805583250249E8     9.815182013961100E-1   -1.847651142921418E-1   -1.578724982711176E-6    1.426697663757745E-5    9.751410698464690E-6   -8.039436045554319E-6    9.809587831478496E-1   -1.875224277529630E-1
 1.496505982053838E8     9.790718248989498E-1   -1.970300035740029E-1    4.021693114102121E-6   -7.299801809020023E-6    2.168782459531627E-6    3.894424792074488E-6    9.784544070365175E-1   -2.003864305709263E-1
 1.596206380857428E8     9.762896482216241E-1   -2.094328609668248E-1    5.028043798008997E-7   -7.046935130113056E-7   -6.398617437389299E-6   -6.788169164826586E-6    9.757594898993953E-1   -2.132830855340531E-1
 1.695906779661017E8     9.732899777193380E-1   -2.223280739210075E-1   -9.930618603700127E-8   -8.567938868193398E-8    8.350517511931383E-6   -7.328920309322396E-6    9.727808386716452E-1   -2.261812056232606E-1
 1.795607178464606E8     9.706475495367396E-1   -2.347880458592565E-1   -6.040925698500622E-6    5.738504837063499E-6   -1.815782069892256E-5   -1.472384551734196E-6    9.701729300419892E-1   -2.379832109687745E-1
 1.895307577268195E8     9.677971577996812E-1   -2.470703891039980E-1    2.119691997741348E-5    1.231550813214150E-6    6.015166604866415E-7    9.137373803414611E-6    9.666953820390450E-1   -2.504928353236303E-1
 1.995007976071784E8     9.639352382733738E-1   -2.595538877954165E-1    3.859097814753628E-6   -8.040304760781343E-6   -1.713500161640746E-6   -5.002015443515378E-6    9.628533834798966E-1   -2.631470106855594E-1
 2.094708374875374E8     9.604682366434791E-1   -2.724029741603705E-1   -2.823577949287992E-6   -1.046374878673612E-5    6.212990584297332E-6    6.608293654014898E-6    9.589002826358362E-1   -2.760998064259995E-1
 2.194408773678963E8     9.573040888948683E-1   -2.851303277328948E-1    1.633340751725185E-5    1.731797460020931E-5    9.900710232949515E-8    1.081016076892756E-5    9.550271428957117E-1   -2.890669301103756E-1
 2.294109172482552E8     9.535739497110827E-1   -2.974584202661837E-1    1.157380909970625E-5   -2.147689695421556E-6   -1.492981361765559E-6   -1.496441999475014E-6    9.509495314394485E-1   -3.017313371641839E-1
 2.393809571286142E8     9.506182126095259E-1   -3.095053437854461E-1    3.250550725169508E-6    1.683615332520078E-5    8.513188332637391E-6   -1.029869153265124E-5    9.471124885092796E-1   -3.140667858866005E-1
 2.493509970089731E8     9.469559631868699E-1   -3.233343288702694E-1   -6.403461786856979E-6    6.607038591501946E-6    2.261919368418306E-7    1.219375124238702E-5    9.441139077433652E-1   -3.276503317781915E-1
 2.593210368893320E8     9.427362655820298E-1   -3.354347463464339E-1    3.867943030551899E-6    9.684600072735543E-8   -7.094095991005293E-6    1.847302325603096E-5    9.398294370250583E-1   -3.408392237641902E-1
 2.692910767696909E8     9.384479455240605E-1   -3.468428372951965E-1    4.428595772241410E-6   -7.253181407107074E-6   -3.961758707287372E-7   -1.920862394974692E-5    9.356504805887862E-1   -3.529012894393991E-1
 2.792611166500499E8     9.337892357555242E-1   -3.584493678542877E-1   -5.524526977472662E-6   -8.078969168979189E-6   -1.917350820167150E-6   -1.334555828614633E-5    9.309377330582561E-1   -3.646024508015827E-1
 2.892311565304088E8     9.291014466512134E-1   -3.705782389773352E-1   -9.777966097280677E-7   -6.223614111590693E-6    1.838944279390103E-5    5.835338688023130E-6    9.262047208270618E-1   -3.768695056722555E-1
 2.992011964107677E8     9.239909299473006E-1   -3.826265901718975E-1   -1.698282305633391E-5    5.841117877983220E-6   -1.731542572483455E-5    9.915087555098409E-6    9.211764242271614E-1   -3.886846128586843E-1
 3.091712362911266E8     9.188936547026361E-1   -3.949663785503534E-1    2.839066882162740E-6   -6.905456350171982E-7    2.065648197382362E-5    9.694057235688908E-6    9.157093537620169E-1   -4.001619380431607E-1
 3.191412761714855E8     9.133186018092272E-1   -4.073803671411789E-1   -1.449565323134323E-6   -1.202006246055866E-5   -7.136382244600803E-6   -1.104412707614568E-5    9.096535055163776E-1   -4.119970134701252E-1
 3.291113160518445E8     9.077081391380496E-1   -4.200893289249027E-1   -1.266915362847319E-5    3.932388403592894E-6    1.345972529097867E-5    5.130883190699352E-6    9.034006386363388E-1   -4.244127253652020E-1
 3.390813559322034E8     9.019966701076179E-1   -4.328435565687210E-1   -1.044962923789387E-5   -1.173321660592684E-5    1.437408173761216E-6   -1.395974001209637E-5    8.968222793241496E-1   -4.369680251633896E-1
 3.490513958125623E8     8.966243268622289E-1   -4.453650224580648E-1    6.008002843058490E-7    1.382927905622086E-6   -1.784855137574557E-6    5.553709618288330E-7    8.904791924119433E-1   -4.494430892811547E-1
 3.590214356929212E8     8.913970667234965E-1   -4.579369540499713E-1   -4.551571992763365E-6    1.085090892825929E-5   -1.456323159240460E-5   -4.028459431089853E-7    8.844999773787112E-1   -4.621637749817972E-1
 3.689914755732802E8     8.860274943114327E-1   -4.701203323186080E-1   -3.125031190332237E-6   -1.588585922084522E-7   -1.011315246449054E-5    1.172672934768141E-5    8.790388302032464E-1   -4.747457133763224E-1
 3.789615154536391E8     8.798983261501001E-1   -4.813069905574737E-1    7.640507197092237E-6    2.020807183224698E-5   -1.101993455541578E-5   -1.048545891933388E-5    8.738653167373460E-1   -4.867830296843135E-1
 3.889315553339980E8     8.741822997594011E-1   -4.920990018928915E-1   -6.161575679986148E-6   -1.027622280769555E-5    4.898153208711376E-6   -9.692603429052806E-7    8.680816129561831E-1   -4.989269317123275E-1
 3.989015952143569E8     8.673432880170260E-1   -5.027963617063581E-1    1.102959929665414E-5   -6.119686840650714E-6   -1.044917382804563E-5   -4.042313198372097E-6    8.610980989733741E-1   -5.097225370449880E-1
 4.088716350947158E8     8.602471150693701E-1   -5.135774878001407E-1   -1.034791475718444E-5    2.591530211574273E-6    2.077999033260796E-5    1.374534503274171E-5    8.542852014927647E-1   -5.206989895111365E-1
 4.188416749750748E8     8.533820938432526E-1   -5.252100565594282E-1    1.187246120595266E-5   -7.635123773309284E-6   -8.822765820759411E-6   -9.051038852757546E-6    8.476938090580965E-1   -5.316044506955295E-1
 4.288117148554337E8     8.459842957992805E-1   -5.368118606266313E-1   -1.149570624535611E-5   -5.086177802696029E-6    1.789524173030287E-5   -4.274377508572055E-6    8.407051826095016E-1   -5.419312611878944E-1
 4.387817547357926E8     8.382165255505674E-1   -5.481845875122423E-1    5.446509527827805E-6   -7.851174239341932E-7    1.307710815783092E-5    1.623189037386678E-5    8.326777503194407E-1   -5.523792944941911E-1
 4.487517946161516E8     8.304584729687811E-1   -5.600524412187321E-1   -9.704988559722611E-6    6.703284225410716E-6   -7.933978229046615E-6    1.984676506601026E-5    8.241008020177198E-1   -5.634881702109914E-1
 4.587218344965104E8     8.236463344554302E-1   -5.721038449002974E-1   -1.843139175932704E-5   -4.970729264822173E-6   -1.364483551368606E-5    6.878166114312031E-6    8.160761113746497E-1   -5.752556106283462E-1
 4.686918743768694E8     8.171209395785154E-1   -5.835381559269254E-1   -4.764943165325003E-6    5.428175222755560E-6    7.750004003828184E-6   -1.944057435546923E-5    8.079324967294768E-1   -5.869301455616452E-1
 4.786619142572283E8     8.098238927290328E-1   -5.942322201395561E-1   -1.132217633751200E-6    1.595104319908030E-5    1.992231536844527E-5    1.516672832223657E-5    7.992595027877705E-1   -5.980760728602711E-1
 4.886319541375872E8     8.022920639090935E-1   -6.047393848129512E-1   -4.012822665394526E-6    1.155829976757932E-5    1.291206328405156E-5    1.176534990489372E-5    7.905249634268410E-1   -6.088789521924675E-1
 4.986019940179462E8     7.940781122414331E-1   -6.154545086848462E-1   -2.265219522852054E-6    2.192846568145481E-6   -3.846933510519808E-6   -6.042821624691616E-7    7.823992003103523E-1   -6.197509967015780E-1
 5.085720338983051E8     7.856612427572990E-1   -6.246203988336764E-1   -1.274056232587490E-6   -7.776911475363442E-6    5.335456980991659E-6   -1.957843531417661E-5    7.747846503962806E-1   -6.303088278030460E-1
 5.185420737786640E8     7.782190140939412E-1   -6.335551124456246E-1    1.060819968606628E-5    1.161565140054320E-5   -2.204806151209692E-7   -3.850304410175562E-6    7.669747844632104E-1   -6.400670900707432E-1
 5.285121136590229E8     7.699530022837661E-1   -6.430181394803527E-1    1.188417682586340E-6    5.286860555554178E-6   -6.151442808374189E-6    1.334410738837366E-5    7.589496684535232E-1   -6.497634721894692E-1
 5.384821535393819E8     7.615159269441164E-1   -6.531896251019669E-1    2.926350934649994E-6    9.463357537501950E-6    1.124089239138110E-5   -4.647785831797967E-6    7.507807430097151E-1   -6.593530543690079E-1
 5.484521934197408E8     7.532920402059904E-1   -6.637904515223265E-1    1.644374455010685E-5    8.175020168243105E-6   -1.498268393108102E-5    2.068880062499711E-6    7.424741827366698E-1   -6.692384706430766E-1
 5.584222333000997E8     7.446880172689808E-1   -6.746457215658797E-1    3.957666120668734E-6    6.440257857266517E-6    3.024618595535162E-6    2.515347080853811E-6    7.333153193362646E-1   -6.792822702648792E-1
 5.683922731804587E8     7.355019803683338E-1   -6.851591771559555E-1    7.593702592785036E-6   -2.463989943949817E-6    1.819442658963236E-5    1.083451592567995E-5    7.230700107431092E-1   -6.891390883086195E-1
 5.783623130608176E8     7.263109228926151E-1   -6.950933060420001E-1    1.293123613288521E-6   -4.146518594453437E-6    9.640587479213482E-6   -1.308891849637353E-5    7.126025784173932E-1   -6.988842522435275E-1
 5.883323529411764E8     7.171211912636988E-1   -7.051986485688893E-1   -9.334955670749821E-6   -1.960601018286059E-5    6.572384779019881E-6    4.643875597515886E-6    7.021739771433703E-1   -7.087386184379639E-1
 5.983023928215353E8     7.077823542659145E-1   -7.152352763197082E-1   -2.966951554596009E-6   -5.427112091652299E-7    1.987871272229624E-5   -1.578716539743141E-7    6.918860535231407E-1   -7.183944540581342E-1
 6.082724327018943E8     6.983774744192079E-1   -7.250105438927995E-1   -7.752294779222695E-6    3.742652009852094E-7   -3.077221119128500E-6   -2.587831933441147E-6    6.816484980345722E-1   -7.279412557350012E-1
 6.182424725822532E8     6.885530315226505E-1   -7.346898684519587E-1   -2.086296936866204E-6   -7.834685035158849E-6   -1.419260418324049E-5    6.546841313139679E-6    6.716560944486838E-1   -7.372028351420451E-1
 6.282125124626122E8     6.782185532548023E-1   -7.441387448829846E-1    1.551068508256480E-6   -2.019950153805587E-6   -2.452016085447451E-5    2.902081660266890E-5    6.626297415130171E-1   -7.467601793987659E-1
 6.381825523429711E8     6.683698479589024E-1   -7.511080698631045E-1   -7.855722256717331E-6   -7.564792889175691E-6   -9.922870590357911E-6   -7.476806912180803E-6    6.537484219166104E-1   -7.556733550029557E-1
 6.481525922233300E8     6.593200013935379E-1   -7.596369256655280E-1    1.544349038084019E-5   -3.278587630328625E-6   -4.378870710619076E-6   -4.575521489240197E-6    6.445583629443877E-1   -7.642093951953872E-1
 6.581226321036890E8     6.495856336798261E-1   -7.685902654262904E-1   -1.588712389787401E-6   -1.596283304101977E-5   -1.020650502413595E-5    1.023956010755209E-5    6.345705116100204E-1   -7.725225909987042E-1
 6.680926719840479E8     6.398350672539890E-1   -7.773229555046729E-1    2.181980396493710E-6   -3.373782034312647E-6   -1.874637275664313E-6    7.857186061979701E-7    6.239291344112132E-1   -7.804899400456464E-1
 6.780627118644068E8     6.300521238462797E-1   -7.854251255347985E-1   -1.776622722434797E-6   -1.073657346640874E-5    3.467715821675330E-6   -3.805042829799613E-6    6.128325933333939E-1   -7.882979650279579E-1
 6.880327517447658E8     6.195631524806179E-1   -7.936741978611696E-1    1.193129488251146E-5    2.859098555255483E-6    1.659937663613145E-5    4.550356900250098E-6    6.016001769057449E-1   -7.960390564078823E-1
 6.980027916251246E8     6.085568069804950E-1   -8.017892181936380E-1   -9.633209554445020E-6   -3.018308961941310E-7    4.575456403862052E-6    1.557937139384552E-5    5.900247423509611E-1   -8.037054570324106E-1
 7.079728315054835E8     5.973146627776529E-1   -8.102014886347685E-1    4.399997410143840E-6    1.568135414962909E-5   -1.886621470221314E-5    1.717826706623334E-5    5.785994849296228E-1   -8.116891439637747E-1
 7.179428713858424E8     5.860927232233374E-1   -8.188480476383977E-1    1.128583024430051E-5   -1.196365573521599E-5    2.489680588255851E-5   -1.670864764920662E-5    5.672124397432546E-1   -8.202233236578294E-1
 7.279129112662014E8     5.751563729430293E-1   -8.272853282687798E-1   -6.219445431748431E-6   -1.218156264918808E-5    1.002103583958466E-5   -9.068374898249041E-8    5.560293051482039E-1   -8.288698499549639E-1
 7.378829511465603E8     5.637454787587320E-1   -8.360257432685053E-1   -1.155654500278567E-5   -1.226220182679871E-6   -5.520699332128250E-6   -2.617425731387118E-6    5.445324258707515E-1   -8.373439666332030E-1
 7.478529910269192E8     5.518050201810922E-1   -8.444823375573893E-1    7.855452484894034E-6    9.927089441539014E-6   -4.168247900080507E-7    1.991165894886277E-5    5.334660247755536E-1   -8.450668319801674E-1
 7.578230309072782E8     5.392006236879684E-1   -8.516716347545825E-1    1.094115013602837E-5   -4.798333121674345E-6    4.982413864452642E-6    7.044763508767976E-6    5.222726879469344E-1   -8.518912543031394E-1
 7.677930707876371E8     5.288500609676549E-1   -8.570640019261682E-1    5.689770954643627E-6   -9.223439755153048E-6   -1.588206976179020E-5   -2.677769713639002E-6    5.109203494872747E-1   -8.583215757089074E-1
 7.777631106679960E8     5.192182695844634E-1   -8.639615351603708E-1   -8.834792532503255E-6    6.344905724196329E-6    1.497367108256426E-5   -6.543001293269233E-6    4.994907179953193E-1   -8.648715831176791E-1
 7.877331505483550E8     5.088159253519565E-1   -8.708003436353657E-1    6.991297799485471E-6    6.939540935465375E-6   -1.595017401342410E-5   -2.983631870507044E-6    4.876461245041800E-1   -8.715076523837432E-1
 7.977031904287138E8     4.976071662372304E-1   -8.772597483255349E-1    1.572826225064693E-5   -3.774054296102009E-6    2.533493189486620E-6   -4.958071660029696E-6    4.749290446852786E-1   -8.779509192909618E-1
 8.076732303090727E8     4.859212347711371E-1   -8.831920656424971E-1    1.532282587905630E-5   -7.720553576679900E-6    7.662847399063855E-6    3.910539664098305E-6    4.620351660881078E-1   -8.839011789400949E-1
 8.176432701894317E8     4.738134975781966E-1   -8.892859357936466E-1   -6.085490424358665E-6    7.374034058622392E-6    5.946159493748186E-6   -6.886957622759502E-6    4.491571202593262E-1   -8.903965920624449E-1
 8.276133100697906E8     4.615850430546518E-1   -8.956650846700668E-1    9.592014050298596E-6   -4.446536120138655E-6    4.866881549849510E-6   -6.231812638493382E-6    4.365778223589176E-1   -8.970713835555614E-1
 8.375833499501495E8     4.489572881441659E-1   -9.020567414567441E-1    1.587784774653317E-5   -6.588452492917175E-6    6.681106239980811E-6   -5.601675133977228E-6    4.243852527555999E-1   -9.037675863393022E-1
 8.475533898305085E8     4.360962441879376E-1   -9.083796901632895E-1    9.783098457889803E-7   -1.004802011770552E-5    4.358177494249188E-6   -4.295174899738641E-6    4.125275204723701E-1   -9.097744236100230E-1
 8.575234297108674E8     4.233492958934802E-1   -9.148181354180591E-1   -1.529373691824083E-5   -2.045758287231245E-6    8.345641268042581E-6   -1.850575964278992E-5    4.007385761964349E-1   -9.151784980598608E-1
 8.674934695912263E8     4.106314781082678E-1   -9.215376814377790E-1    1.387601449990641E-5   -5.749760997475335E-7   -8.032925150185469E-6    1.939209576626066E-6    3.887258211801293E-1   -9.199353309539595E-1
 8.774635094715853E8     3.975181875326103E-1   -9.280227368275809E-1   -1.796092757170283E-6   -1.041069484196294E-5   -8.579154058011992E-6   -3.285912315750575E-6    3.762247044841819E-1   -9.247257117596270E-1
 8.874335493519442E8     3.843392784632952E-1   -9.326559745628926E-1    5.775432594419216E-6   -5.590314910860695E-6    2.547723172290387E-6    9.173933460607236E-6    3.630329574343585E-1   -9.291472070406420E-1
 8.974035892323031E8     3.730501241217012E-1   -9.362681549338137E-1    6.183965605966057E-6    3.703623023105485E-6    1.501107729845423E-5    6.946292405523287E-6    3.495002505914907E-1   -9.334611829186192E-1
