#  HZ   S   RI   R     50.00 
! Rohde & Schwarz Vector Network Analyzer 
! Rohde-Schwarz,ZNB20-2Port,1311601062102128,3.60
! Created: UTC 4/29/2024, 2:53:49 PM
! freq[Hz]                re:S11                  im:S11                  re:S21                  im:S21                  re:S12                  im:S12                  re:S22                  im:S22
 1.000000000000000E5     9.963657309291295E-1    3.705559582532554E-3   -6.874769628178318E-5    1.216456075167705E-4   -1.250873577010158E-4    4.485563027950021E-5    1.010385110208180      -1.151988948710113E-2
 1.007003988035892E7     9.976355390588637E-1   -1.382597043675188E-2   -3.151383727589892E-5    8.372287066578535E-6   -1.910538465183380E-6    3.129470393606069E-6    9.957662176613817E-1   -1.450877053026290E-2
 2.004007976071785E7     9.999278714640638E-1   -2.725992257468744E-2    3.697839933570525E-5    1.466400327783268E-5   -9.646648239558412E-6   -2.927662622610666E-5    9.987099596551126E-1   -2.778114311647934E-2
 3.001011964107677E7     9.979631798992147E-1   -4.103040163825009E-2   -6.837830071107549E-6    2.170826259113975E-5    9.542919931422481E-6   -3.161118544868641E-6    9.974087734460843E-1   -4.194848961372667E-2
 3.998015952143569E7     9.977177989299796E-1   -5.309857270456693E-2    2.106577805365569E-5   -2.238656959459804E-5   -2.029450364586466E-5   -1.126607132740371E-5    9.975642871361743E-1   -5.666151306974922E-2
 4.995019940179461E7     9.961614128795707E-1   -6.594448774402634E-2    1.122277338600464E-5   -5.913337113691423E-6    9.213406183982661E-6   -1.162949135767271E-5    9.965309409567593E-1   -6.913339967978745E-2
 5.992023928215354E7     9.943436637397420E-1   -7.892330491225495E-2   -8.272955912316786E-6    7.189721086477192E-6   -8.008806109495022E-6   -1.130963840919572E-6    9.946046414937205E-1   -8.188663401282038E-2
 6.989027916251247E7     9.930999845974946E-1   -9.192657397967692E-2    5.086402151979074E-6   -2.509479706789481E-6   -8.335542233541437E-6   -1.183771953252123E-5    9.933231414155280E-1   -9.470270270234346E-2
 7.986031904287139E7     9.925206919397493E-1   -1.052307985895851E-1    1.208861198186608E-5   -1.071447279703245E-5    1.419613182668919E-5    6.630132217953467E-7    9.922478016305257E-1   -1.078191514759340E-1
 8.983035892323031E7     9.915273334217130E-1   -1.187934744226441E-1    9.895430355008283E-6    1.412262813937311E-5    7.632684346444777E-6    3.948636600917689E-6    9.908003476521149E-1   -1.210769920744395E-1
 9.980039880358922E7     9.893812162798422E-1   -1.323572013710811E-1    1.399841291693341E-5    1.237235505617536E-5    8.481526776170723E-6    1.960533816773895E-6    9.885451961527052E-1   -1.344651886271942E-1
 1.097704386839482E8     9.864829805233811E-1   -1.455283896141970E-1   -1.017698004037965E-5   -1.752821950746692E-6    1.265911764527408E-6   -1.334920007106782E-5    9.862215441942386E-1   -1.477662378170936E-1
 1.197404785643071E8     9.849275041686640E-1   -1.589592541524722E-1    1.235070855575348E-5    9.736177414062681E-7    3.010042842579067E-6    4.166608000365918E-8    9.844883664463400E-1   -1.611308254583131E-1
 1.297105184446660E8     9.830539250085811E-1   -1.718068124515331E-1    7.332911015479895E-6   -1.972348687634306E-6   -4.431332796608023E-6    2.330794416342627E-6    9.827520901650821E-1   -1.744741349373442E-1
 1.396805583250249E8     9.816552480614673E-1   -1.846843581132871E-1    6.115665770122588E-6   -5.743458781194754E-6    3.663230036747732E-6   -1.248545055845686E-5    9.809013467139830E-1   -1.874958329326955E-1
 1.496505982053838E8     9.790404407591498E-1   -1.971460766746680E-1    1.097963821145574E-5    3.956378795682791E-6   -9.103025195493934E-6   -2.671156591003691E-6    9.783680148630742E-1   -2.004300433795286E-1
 1.596206380857428E8     9.762246175633081E-1   -2.094946799637190E-1    9.800821579191451E-6   -3.514997167203815E-6    7.469117764930728E-6   -7.769538097741984E-6    9.757061959150821E-1   -2.132645320045898E-1
 1.695906779661017E8     9.732879754359550E-1   -2.222953972224230E-1   -5.982402351027441E-7   -4.085936909551510E-6   -4.156507662526497E-6   -2.272752772667597E-6    9.729786741196427E-1   -2.261394538001300E-1
 1.795607178464606E8     9.707655436395531E-1   -2.348585303695974E-1   -8.589486153836298E-7   -1.151706305179605E-5   -1.232567062053957E-5   -2.001818391867820E-5    9.702473560378719E-1   -2.380346226579959E-1
 1.895307577268195E8     9.677627265392803E-1   -2.471418787653515E-1    2.486663394894803E-6    2.198632911471730E-6   -2.302559865851734E-5    7.616527181005885E-6    9.666955057527468E-1   -2.505897888104978E-1
 1.995007976071784E8     9.639620908721648E-1   -2.596337923823482E-1   -1.794367433750776E-5   -5.842810202014731E-7   -4.394349701987755E-6    5.894714102283687E-6    9.626674835887583E-1   -2.631693434017606E-1
 2.094708374875374E8     9.604610516424258E-1   -2.723985172265921E-1   -1.320608237436344E-5   -1.126032820344183E-6   -5.032796953950231E-6   -7.009468770590406E-7    9.589112925414289E-1   -2.761962790230421E-1
 2.194408773678963E8     9.573401391096860E-1   -2.851206257641298E-1   -1.246130197194411E-5    1.031813156330952E-6    2.070439020921828E-5    1.267609820728829E-5    9.551075810668963E-1   -2.891180737731797E-1
 2.294109172482552E8     9.537321341689462E-1   -2.974528495546121E-1   -1.835901820474288E-6    5.732987956843796E-6    6.341560954602257E-7   -7.246104531317056E-6    9.509151315184955E-1   -3.017764868924129E-1
 2.393809571286142E8     9.506211522064496E-1   -3.094990938934654E-1    1.186476527713563E-5    1.778797572484217E-5   -7.473083655187028E-6    9.794622551164052E-6    9.469407956169543E-1   -3.139351202967144E-1
 2.493509970089731E8     9.469995951591526E-1   -3.233939620316775E-1    1.504235251976791E-5    1.049157880790686E-5    7.614858475625491E-6   -1.555450088749609E-5    9.441092773891943E-1   -3.275516876138205E-1
 2.593210368893320E8     9.426602312266054E-1   -3.354078528882055E-1    4.643365651693293E-6   -1.628943016272628E-6   -4.225392471777916E-6    9.982734241300760E-6    9.399077959505713E-1   -3.408919156085229E-1
 2.692910767696909E8     9.385848430799708E-1   -3.468691321938960E-1    2.627562427006648E-5   -4.815458565788862E-6   -6.731465975311179E-6   -9.738042524791365E-6    9.354535677345146E-1   -3.529038757490884E-1
 2.792611166500499E8     9.339627177076125E-1   -3.585020449523353E-1   -1.218400279512502E-5    6.891757890117530E-7    1.806003784236683E-6    2.775807415167923E-5    9.308754478029981E-1   -3.647355333111790E-1
 2.892311565304088E8     9.289659969703251E-1   -3.705111183961599E-1    9.237296483194862E-6   -8.629050605431685E-7   -2.201888049580505E-6   -1.486747934748565E-5    9.262322029269964E-1   -3.768726262583952E-1
 2.992011964107677E8     9.241587621523766E-1   -3.827574793945124E-1    6.288430790325247E-7    2.099274816050496E-6    7.994489487146362E-7    2.099559913573317E-6    9.212436747030381E-1   -3.887074895533868E-1
 3.091712362911266E8     9.190085863851154E-1   -3.949941316990698E-1   -9.693140127977352E-6   -9.117859429565760E-6    6.011957111031375E-6    3.232734485154186E-6    9.156532563098123E-1   -4.001186649219822E-1
 3.191412761714855E8     9.133619666903882E-1   -4.073692650951241E-1   -1.389356774326832E-5    6.031527520445447E-6   -1.562831162967585E-5   -1.321390145643217E-5    9.096725368458342E-1   -4.119266134340352E-1
 3.291113160518445E8     9.076235128494807E-1   -4.201150700967362E-1    6.719840918736982E-6    1.534143812315215E-5   -8.883373635718274E-7    4.452672164241096E-6    9.033689999200502E-1   -4.243254747821775E-1
 3.390813559322034E8     9.018578398991387E-1   -4.328124656945591E-1   -7.971146338863218E-6    1.691622375192492E-5    2.603406224705246E-5    1.632315078902756E-6    8.969031754953336E-1   -4.369910018536451E-1
 3.490513958125623E8     8.967096842580813E-1   -4.453756351562110E-1    1.456309016619506E-6   -2.769742651845149E-6    7.972638384381289E-6   -8.462160011956216E-6    8.904434021384822E-1   -4.493492494411234E-1
 3.590214356929212E8     8.913957517246626E-1   -4.578692747204400E-1    1.084596139532245E-5    4.192700258567450E-6   -9.798047471150873E-7   -9.992766184048070E-7    8.845064578105181E-1   -4.621074298789257E-1
 3.689914755732802E8     8.859620246984968E-1   -4.700620957901680E-1    1.844074744583538E-5   -8.468878106462561E-6   -1.267054949941377E-5   -9.230718689194877E-6    8.789887395637156E-1   -4.746878532772758E-1
 3.789615154536391E8     8.797577477723056E-1   -4.813401767252178E-1    3.514631547529154E-6    8.242108310327699E-6   -8.150173538793905E-8   -5.926330405733092E-6    8.738889418471513E-1   -4.868566456498127E-1
 3.889315553339980E8     8.741567927179075E-1   -4.920571326797172E-1   -2.563792341500781E-6   -1.338313313485209E-6    1.533738745594505E-5    9.249450963667729E-6    8.679915634476284E-1   -4.987335817382740E-1
 3.989015952143569E8     8.674811641127232E-1   -5.027837914166747E-1    2.693991228220245E-6    9.532897136192127E-6   -2.758909099502058E-6    1.509703573815318E-5    8.610800324816020E-1   -5.097329699665497E-1
 4.088716350947158E8     8.601984484679625E-1   -5.136057752524423E-1    2.119338357772583E-6    8.255136751658018E-6   -2.106849569600504E-5   -2.467484934918357E-5    8.541644324281555E-1   -5.206780932859586E-1
 4.188416749750748E8     8.532120546829407E-1   -5.251154514211599E-1   -1.993259166622988E-6   -4.998550862483820E-6    7.103918395893300E-6   -8.673031608388327E-6    8.475497446242124E-1   -5.314597720733598E-1
 4.288117148554337E8     8.460033027799617E-1   -5.367804061235164E-1   -8.803081419567932E-7    2.349227560612897E-6   -5.520203416258263E-6    1.455346106109397E-5    8.405736963903994E-1   -5.418391798454719E-1
 4.387817547357926E8     8.381747930094036E-1   -5.481755160783970E-1   -3.414131113027782E-7    5.882252591217930E-6   -1.431867334264038E-6    5.386773598095289E-6    8.326484231121272E-1   -5.523333248573185E-1
 4.487517946161516E8     8.305400970736435E-1   -5.601026153722585E-1   -9.769768023203558E-6    7.977242010269575E-6    1.257044954518040E-5   -7.342181481530664E-6    8.242144601286795E-1   -5.634875090984948E-1
 4.587218344965104E8     8.236306424105624E-1   -5.720247683607492E-1   -8.851564208890211E-7    1.002848058669875E-5   -1.981811740754572E-6   -2.770577314939617E-6    8.159508907179316E-1   -5.751993790459389E-1
 4.686918743768694E8     8.169153203327293E-1   -5.834107861297241E-1    4.962967353094747E-6    1.424219793578823E-6   -2.760911546627124E-6   -2.056450837274254E-5    8.077585616859290E-1   -5.868369564296779E-1
 4.786619142572283E8     8.098193466790136E-1   -5.942042164360797E-1   -4.939208147945541E-6   -1.461391895273015E-5    6.474857431459365E-6    1.291575335695208E-5    7.994172375941513E-1   -5.981007353586500E-1
 4.886319541375872E8     8.023253429246517E-1   -6.046459853527364E-1   -1.628502967573026E-5    3.754075932009488E-6    1.823253055898262E-5    1.733752039267220E-5    7.906549895374237E-1   -6.088478507035495E-1
 4.986019940179462E8     7.940465202604562E-1   -6.154858811688444E-1   -2.118145172183255E-6    6.800678726958018E-6    1.857827621493855E-5   -5.267772378999749E-6    7.822973326937321E-1   -6.196059632264045E-1
 5.085720338983051E8     7.856256185666886E-1   -6.245656053548758E-1   -2.192194046844858E-6   -7.663292194390228E-7    9.988987187987806E-8    3.249307983205281E-6    7.746509989536366E-1   -6.302872260299358E-1
 5.185420737786640E8     7.781542191836225E-1   -6.335351782424431E-1   -5.353469488564480E-6    5.966752360632342E-6   -1.083241357528133E-5    1.271849046617198E-5    7.670152104888912E-1   -6.401866749806472E-1
 5.285121136590229E8     7.699305373840177E-1   -6.430175139167654E-1    6.628148780146325E-6   -8.803803351622887E-6   -2.343773298876256E-7   -1.021541269433212E-5    7.590047694019474E-1   -6.497877369184627E-1
 5.384821535393819E8     7.614477580559710E-1   -6.532595592750028E-1    8.727661172302132E-6    1.280134757487926E-6    9.326282463550647E-6   -1.662618095164283E-5    7.508573400611553E-1   -6.593598920802174E-1
 5.484521934197408E8     7.532784508588195E-1   -6.637737960584560E-1   -3.211991194562103E-6    3.103633748404330E-6    8.497742541263276E-7    4.910439239252157E-6    7.423998118016144E-1   -6.691850002989000E-1
 5.584222333000997E8     7.446756764553754E-1   -6.746357213371960E-1    4.299022980239413E-6    1.102496853638139E-5   -1.521690965626692E-5   -1.645535076587737E-6    7.332666288529029E-1   -6.792266339166781E-1
 5.683922731804587E8     7.356193280219299E-1   -6.851622755620471E-1   -4.353649905024712E-6   -1.254247045511525E-5    1.166051296973744E-5    6.586527045348966E-6    7.231722366645872E-1   -6.892224996001686E-1
 5.783623130608176E8     7.263631650187227E-1   -6.952332802316881E-1   -1.256216975094171E-5   -7.826564223280634E-7    1.738353495471100E-5   -2.801679526141955E-6    7.126293526105327E-1   -6.988889492994962E-1
 5.883323529411764E8     7.170877245979064E-1   -7.052117035124340E-1   -3.720176877591809E-6    8.527218613578986E-6    4.513286964176348E-6   -7.493872149091563E-7    7.021981010490954E-1   -7.087142517952635E-1
 5.983023928215353E8     7.079383045575970E-1   -7.153806151685764E-1   -1.007475412813607E-6   -1.103230805084412E-5   -2.714895141847949E-5    4.238364404443295E-7    6.919089633983987E-1   -7.184228243392727E-1
 6.082724327018943E8     6.984472214519712E-1   -7.251193945873891E-1   -1.961009946849435E-6   -7.129312411640516E-7   -1.059089296126507E-5    1.611054725194018E-5    6.817170116625301E-1   -7.279274845476903E-1
 6.182424725822532E8     6.885267843593863E-1   -7.346542675357092E-1    2.272628719018170E-6    2.010952399359099E-6   -8.376527292225322E-6    8.167028179275684E-6    6.717314893825547E-1   -7.373514573118164E-1
 6.282125124626122E8     6.778912901635951E-1   -7.439619526137796E-1   -2.647518343955354E-6    1.437884109229667E-6   -1.161458211545340E-5    1.011190848742753E-5    6.627820270032369E-1   -7.467571472241332E-1
 6.381825523429711E8     6.682829173664577E-1   -7.511468749357948E-1    8.455342583648547E-6    9.727052291643204E-8   -1.093511702896498E-5   -3.312419437365601E-6    6.536979546238281E-1   -7.555294457988657E-1
 6.481525922233300E8     6.594022960403744E-1   -7.596708071664670E-1    1.743061953717109E-6   -2.182411720035016E-6    1.056304613953222E-5    8.118987123623648E-6    6.446284275072376E-1   -7.640755704752235E-1
 6.581226321036890E8     6.496870725303169E-1   -7.685760345779207E-1    2.325529382179267E-6    1.010861876497245E-5    1.907349975013935E-6   -1.048124473466143E-5    6.345126889722584E-1   -7.725199345193208E-1
 6.680926719840479E8     6.396976609455937E-1   -7.771953205982756E-1    2.151615254586220E-6   -1.016705666747263E-5    2.151752524562254E-5   -1.381402479320608E-5    6.238784549396270E-1   -7.803440799450647E-1
 6.780627118644068E8     6.298912036286375E-1   -7.853770078203927E-1   -6.738373194571915E-6    5.442351255137914E-6    1.804527027094172E-5    1.387975999116089E-5    6.128837997942416E-1   -7.883565443162651E-1
 6.880327517447658E8     6.195661619110840E-1   -7.936556315610760E-1   -6.874327955794155E-6   -1.345343737069367E-5   -5.386791085986646E-6   -1.446501097214218E-5    6.016122387986613E-1   -7.960060360618607E-1
 6.980027916251246E8     6.086738224939210E-1   -8.019287948664848E-1    1.527485937294251E-5    2.679375419508637E-6   -2.224687503082859E-6   -1.025573974047570E-5    5.899723574128135E-1   -8.036243437300343E-1
 7.079728315054835E8     5.972268540671626E-1   -8.102648501265949E-1   -5.611953555041382E-7   -8.035854658300010E-6    9.524077005202852E-6   -9.536109491835159E-6    5.784454554318715E-1   -8.115028437506514E-1
 7.179428713858424E8     5.859945274261060E-1   -8.186646196935891E-1    5.667537798407728E-6    3.292538716248975E-6   -1.393597361038776E-5    4.047370138375107E-6    5.673137202055536E-1   -8.202030990338781E-1
 7.279129112662014E8     5.750663891023862E-1   -8.271974742389925E-1   -6.824104389000968E-6    2.006120973806062E-6   -5.408399390150165E-6   -5.431338354749837E-6    5.558908485852669E-1   -8.289812133965523E-1
 7.378829511465603E8     5.638751952979093E-1   -8.361486911444241E-1    1.034588801862762E-5    9.683294518205751E-7   -1.530614883944952E-6    8.954428873225351E-6    5.445911971150077E-1   -8.372812534228957E-1
 7.478529910269192E8     5.518745293175916E-1   -8.446354097542894E-1   -6.796591225235952E-7   -1.716949446167712E-6   -1.410547290658936E-5   -9.079699348794064E-6    5.333119758279969E-1   -8.449196616015133E-1
 7.578230309072782E8     5.392339125410832E-1   -8.516609040602833E-1   -4.908195416422338E-6    1.246486348038279E-5   -8.222327759776295E-6   -6.752307824620386E-6    5.222135448636516E-1   -8.518749863459446E-1
 7.677930707876371E8     5.286926815405187E-1   -8.570561024518492E-1    1.278426306712042E-5   -1.588893643158382E-5   -1.427779161337855E-5    3.028007461593209E-7    5.109692149549100E-1   -8.583787273545984E-1
 7.777631106679960E8     5.191049564310736E-1   -8.639523439297614E-1    8.189419536735329E-6    1.093710583927157E-6   -1.829326297225105E-5   -3.546449578559986E-6    4.995522331272077E-1   -8.648133215847589E-1
 7.877331505483550E8     5.088679756170408E-1   -8.709675231581613E-1   -2.520991158146933E-6    1.252448865182812E-5   -7.183570061357580E-6    2.240880258559998E-6    4.876998910060215E-1   -8.714907700452682E-1
 7.977031904287138E8     4.977027375881761E-1   -8.774261079619278E-1    4.308990385206969E-7    1.850472493080774E-6   -3.678570142190509E-6    1.094074186334794E-5    4.748207696995565E-1   -8.779243658451826E-1
 8.076732303090727E8     4.858323577149782E-1   -8.831854555026004E-1   -2.478824323485356E-6   -1.259899412110774E-5   -1.088908435908784E-5    5.944373055089659E-6    4.620438339345982E-1   -8.840152386776481E-1
 8.176432701894317E8     4.737502321548847E-1   -8.890879118547516E-1   -2.029768447468274E-6   -5.453363423689035E-6   -7.210792954670705E-6    1.075525289260219E-5    4.491483505117216E-1   -8.903839120650620E-1
 8.276133100697906E8     4.615395661113446E-1   -8.956566759023082E-1   -1.326254490479778E-6    4.378868349647707E-6   -5.740848139940310E-6    7.713049559591576E-6    4.366538251894758E-1   -8.970795973433963E-1
 8.375833499501495E8     4.489462394307696E-1   -9.021971982137804E-1   -1.133509373638309E-5    5.001476087530321E-6   -5.801967942580878E-6    3.856801856981121E-6    4.243688141743960E-1   -9.037896230827585E-1
 8.475533898305085E8     4.361151632405653E-1   -9.084778158192968E-1   -3.504762914341032E-6   -3.719249107792761E-6    2.677162442033778E-5    2.625612528760274E-6    4.125744650017686E-1   -9.096700750581413E-1
 8.575234297108674E8     4.233158844235129E-1   -9.147966189290114E-1   -1.043397304949063E-5    2.046186340318043E-5    2.770404223398200E-6    9.857015489525258E-6    4.007600517890974E-1   -9.151014008022161E-1
 8.674934695912263E8     4.104252070021554E-1   -9.213879595870949E-1   -2.372869402354638E-6   -2.338579126175042E-6   -1.621582905670906E-5   -1.365630702935496E-5    3.887275334202172E-1   -9.200277320759552E-1
 8.774635094715853E8     3.973796345563599E-1   -9.280379412626195E-1    1.121591090046760E-5    6.403814367243749E-6    8.002093530795765E-6   -3.316162931076045E-6    3.761214851482884E-1   -9.246587180241987E-1
 8.874335493519442E8     3.843552301234126E-1   -9.327435430071913E-1   -1.657636619747895E-5    6.051306723742004E-6   -7.503553152516554E-6    8.685778528406560E-6    3.630495509564818E-1   -9.289652094628006E-1
 8.974035892323031E8     3.730610603655400E-1   -9.364439129049913E-1   -4.593400950471488E-6    4.111670155598338E-6    4.407724370737504E-6    1.806463321834761E-7    3.495559182451445E-1   -9.332378800659611E-1
