#  HZ   S   RI   R     50.00 
! Rohde & Schwarz Vector Network Analyzer 
! Rohde-Schwarz,ZNB20-2Port,1311601062102128,3.60
! Created: UTC 4/29/2024, 2:54:41 PM
! freq[Hz]                re:S11                  im:S11                  re:S21                  im:S21                  re:S12                  im:S12                  re:S22                  im:S22
 1.000000000000000E5     9.963515248444818E-1    3.783023605276383E-3    1.458835709650632E-5    2.012597650711960E-5    8.497713870225392E-5    2.704010400587607E-5    1.010634834747688      -1.144939268720353E-2
 1.007003988035892E7     9.974330445345564E-1   -1.426860907552517E-2   -3.352400882621914E-6   -1.546509331391457E-5   -1.987300449206603E-6    1.359357633031972E-5    9.958082273659052E-1   -1.434378246887299E-2
 2.004007976071785E7     9.994821387870718E-1   -2.721527178906891E-2   -1.957196696685819E-5   -9.178468381641093E-7    1.143950684076564E-5   -1.811527867590464E-6    9.988323029276625E-1   -2.747408635819778E-2
 3.001011964107677E7     9.979038519759769E-1   -4.094610329634505E-2   -8.738547700047474E-6    2.331643952862556E-6   -7.496308632177311E-6    6.838046473112322E-7    9.974979663396756E-1   -4.203751618466544E-2
 3.998015952143569E7     9.976464370697044E-1   -5.301647680308472E-2    4.381783945684396E-6   -2.585982135210376E-5    3.500308169153420E-6   -2.932807339521772E-6    9.976601211547484E-1   -5.671164859065411E-2
 4.995019940179461E7     9.961585766566107E-1   -6.594908715371470E-2    3.927076594968561E-6    2.716153780631113E-6   -1.922749911315485E-6   -9.544810974237258E-7    9.965755234291369E-1   -6.911347915440100E-2
 5.992023928215354E7     9.943304586136475E-1   -7.883380092795231E-2    4.273006389307055E-8    1.001811073367228E-5   -1.346442639542266E-5    6.171874020298183E-6    9.946435663931892E-1   -8.189973276703590E-2
 6.989027916251247E7     9.931791290426568E-1   -9.180939528753011E-2    7.190005558097142E-6   -2.151152683609692E-6    8.135764734088777E-6   -1.689100125929107E-8    9.935372763125727E-1   -9.466894128871639E-2
 7.986031904287139E7     9.925013044667435E-1   -1.051424780804525E-1   -4.236786062981537E-6   -1.672143854787960E-5   -5.604187436262973E-6    6.895660950788149E-6    9.923501178113751E-1   -1.079531857658390E-1
 8.983035892323031E7     9.915097546364159E-1   -1.187127632573097E-1   -3.700810694947958E-6   -7.876250582090348E-6    1.025734710787516E-5   -9.544965918874245E-6    9.908609565921003E-1   -1.210564525164435E-1
 9.980039880358922E7     9.894392215223993E-1   -1.323063985233754E-1   -3.686980331072434E-6   -6.506537517096866E-6    4.469004348971178E-6   -5.194626851940920E-6    9.885385541298932E-1   -1.344810596192288E-1
 1.097704386839482E8     9.867049259804874E-1   -1.455170819191139E-1   -8.056861533434580E-6   -1.764251089613268E-5   -2.691647458946245E-5   -1.256257719886402E-6    9.859705987667952E-1   -1.477794922848491E-1
 1.197404785643071E8     9.849867645554179E-1   -1.589202690452688E-1    2.172935975042063E-6   -3.712164890548107E-7   -1.702736809454551E-5   -4.727181671153670E-6    9.842512232795145E-1   -1.611862389016845E-1
 1.297105184446660E8     9.832657963440551E-1   -1.717949073453973E-1    8.863393294539251E-6    1.187155419261505E-5   -1.067398588778022E-5    1.177070050768199E-6    9.829283723557809E-1   -1.744489200987488E-1
 1.396805583250249E8     9.815655217359942E-1   -1.845947086307803E-1    5.625454837602373E-6   -8.363990226810260E-6   -8.308441514776415E-6   -2.057014656737713E-6    9.808963084332262E-1   -1.875969015547764E-1
 1.496505982053838E8     9.791303350778886E-1   -1.970478594628231E-1   -9.736266961461532E-6    6.000880074948854E-6   -7.499191311711792E-6    1.667554926317143E-5    9.784778394843362E-1   -2.004481479841340E-1
 1.596206380857428E8     9.763724763971604E-1   -2.094481317082456E-1   -5.249974011240161E-6    4.149784618631528E-6   -1.188493714908627E-7   -1.103435907785893E-5    9.757803884728994E-1   -2.132402523566531E-1
 1.695906779661017E8     9.732716065889282E-1   -2.222974253137715E-1   -2.155151146806641E-7   -5.812486214027156E-6    2.081705427587452E-6   -6.969393711606531E-6    9.728509672223191E-1   -2.260996599593660E-1
 1.795607178464606E8     9.706845984630158E-1   -2.348450100554328E-1   -2.438089645110168E-6   -4.853614557915270E-6   -1.603320018293604E-5   -1.157445514782561E-5    9.702111372591367E-1   -2.380446115388928E-1
 1.895307577268195E8     9.677708961304877E-1   -2.470961098675176E-1    6.816613751436057E-7    2.332248200521414E-5    1.016470862858603E-5   -2.671707489675544E-6    9.666786237526726E-1   -2.505112425034945E-1
 1.995007976071784E8     9.640128863093458E-1   -2.595323963277718E-1    4.345762813918169E-7    7.971480601945628E-6    5.046754925861646E-6    1.164206397227220E-5    9.627094262872742E-1   -2.631378857733185E-1
 2.094708374875374E8     9.605307301327779E-1   -2.723835599610380E-1   -1.472149545503194E-5   -7.970423938817526E-6   -4.580494222776054E-6   -9.094289154248788E-6    9.589007522736215E-1   -2.761964414685728E-1
 2.194408773678963E8     9.573979140376151E-1   -2.851423545704048E-1   -6.497282735672302E-6    4.689776656968109E-6   -5.335387408768347E-7   -6.512848267831561E-6    9.551261172528535E-1   -2.891365200875942E-1
 2.294109172482552E8     9.537486736209838E-1   -2.973644698085161E-1   -1.846736292057999E-7   -9.293914157978703E-6    8.471113884823407E-6   -4.626156284201501E-6    9.509752668729103E-1   -3.017725527221151E-1
 2.393809571286142E8     9.506021783570776E-1   -3.094398674061004E-1   -1.202336693056433E-5   -7.144076327748384E-6    1.547420970882946E-5   -9.753264462485641E-6    9.469497871038220E-1   -3.140049814347257E-1
 2.493509970089731E8     9.469575730517329E-1   -3.232921712802156E-1   -1.898386587100044E-6    2.785598067642991E-6   -9.007448999809936E-6   -2.571893889269706E-6    9.440221046462537E-1   -3.275928107829464E-1
 2.593210368893320E8     9.427303112973892E-1   -3.353072297940473E-1   -5.027771671423692E-6    4.311591728553523E-6    1.254403835892731E-5    6.200784409346453E-7    9.399507819268824E-1   -3.408160608262618E-1
 2.692910767696909E8     9.386274187557256E-1   -3.468072045459973E-1    5.053501693597905E-6    2.136210163988397E-6    6.978758040487423E-6   -1.658244546323507E-6    9.355908008902165E-1   -3.528754085849535E-1
 2.792611166500499E8     9.337865226991093E-1   -3.584051564311492E-1   -6.830625424163400E-6   -1.533094787380634E-5   -3.309332752408002E-8   -2.272696351662097E-5    9.307979124947938E-1   -3.646283080712507E-1
 2.892311565304088E8     9.291612910963570E-1   -3.705734086506059E-1    1.169129780748085E-5   -9.467879407006032E-6   -1.778198660277212E-5   -1.435841598350652E-5    9.260774181568606E-1   -3.768282509934792E-1
 2.992011964107677E8     9.242145793699598E-1   -3.827266270346211E-1    7.703002092127053E-6    1.053748371539122E-5    1.026979195848105E-5   -1.363628112139261E-5    9.212302116092318E-1   -3.886371934085902E-1
 3.091712362911266E8     9.188163569313115E-1   -3.948786629147998E-1   -1.030259258589322E-5   -3.852529607008761E-6    1.816455695331750E-5   -9.769733739728927E-6    9.156989014084088E-1   -4.000485303922962E-1
 3.191412761714855E8     9.133048432476554E-1   -4.073824057871029E-1   -2.904016662550178E-6    1.390518089805355E-5    1.739363093972753E-5   -4.752176218205739E-6    9.098189818602350E-1   -4.119848810796878E-1
 3.291113160518445E8     9.076863045409124E-1   -4.200452343291861E-1   -6.589488008504179E-6    8.356801455418445E-6   -1.164232760534076E-5    1.386783372644794E-5    9.033646884125202E-1   -4.243532261878645E-1
 3.390813559322034E8     9.020852889154578E-1   -4.329475359343534E-1   -9.088760915808520E-6    6.011053907763163E-6   -1.723588454542768E-5    3.287637809275942E-6    8.968071651890843E-1   -4.369224481603072E-1
 3.490513958125623E8     8.967352037070331E-1   -4.453753203678141E-1   -6.641721083509568E-6   -8.626976751282451E-6    7.456437332625511E-6   -9.256766151548837E-6    8.904653054720882E-1   -4.494569108242171E-1
 3.590214356929212E8     8.913387600150130E-1   -4.578204903130916E-1    4.297595026616371E-6   -2.525771431469456E-6    9.773202112097167E-6   -2.922042247748293E-6    8.845002575312892E-1   -4.621036354636657E-1
 3.689914755732802E8     8.859908416689320E-1   -4.700695141630145E-1    5.905920181832265E-6    8.186669268903397E-6   -8.575008230673726E-6   -7.427828614287957E-6    8.790496053847093E-1   -4.747670225816577E-1
 3.789615154536391E8     8.800711929291376E-1   -4.813338368441161E-1   -9.125458769611925E-8    6.351924708251427E-6   -8.791975974491300E-6   -1.034418705807346E-5    8.738034892075542E-1   -4.868482701703080E-1
 3.889315553339980E8     8.742834876126320E-1   -4.920088824843721E-1   -1.146059319305913E-6    8.891536962527892E-6    5.772879044642176E-6   -1.443325941416266E-5    8.678145824214786E-1   -4.988505606004976E-1
 3.989015952143569E8     8.674578815026615E-1   -5.027455521916306E-1   -6.312811272198518E-6   -1.432279656299692E-7    9.589814933069051E-6   -6.981213087139313E-6    8.610843668511911E-1   -5.097070141956509E-1
 4.088716350947158E8     8.602271656969381E-1   -5.135631625706971E-1   -1.419462364479004E-5   -9.338347719222772E-6    2.249204275205487E-7    9.615722865459839E-6    8.542140951867482E-1   -5.205937824400063E-1
 4.188416749750748E8     8.533990159789542E-1   -5.251343415841104E-1    3.699936968690600E-6    9.941271361985374E-7    4.497075376317001E-8   -1.519755127166155E-5    8.475154189789297E-1   -5.314235585082019E-1
 4.288117148554337E8     8.459974122623256E-1   -5.368206041393300E-1    6.053257462036862E-6   -8.147052999071416E-6   -7.060089287290778E-6   -3.094343075048982E-6    8.405316662624632E-1   -5.417690554796505E-1
 4.387817547357926E8     8.382954610292689E-1   -5.481715160643377E-1   -2.920275644824260E-6    4.067052242040781E-7    9.669285132670125E-6    9.867758413862245E-6    8.326075713340865E-1   -5.523264335951702E-1
 4.487517946161516E8     8.305261122465981E-1   -5.600083886348807E-1    8.215887557988341E-7    1.535099224549415E-6   -9.840560073489701E-6   -1.064940506307610E-5    8.241238633712610E-1   -5.634323244179782E-1
 4.587218344965104E8     8.236497830737466E-1   -5.720140153240698E-1    6.829867662276849E-6    1.275609965387373E-7   -1.430944485283117E-6    1.261724077362602E-5    8.160018740634893E-1   -5.751973806335322E-1
 4.686918743768694E8     8.170186181191860E-1   -5.834232907940863E-1    3.265748674194824E-6   -1.307233564117495E-5   -6.548101291699318E-7    4.953197024121976E-6    8.078228249766275E-1   -5.867726629597378E-1
 4.786619142572283E8     8.099604212230053E-1   -5.941935828286242E-1   -2.113724136255356E-6    3.203162504158756E-6    1.736149515314022E-5   -1.019981401207291E-5    7.990907366616933E-1   -5.980411546041103E-1
 4.886319541375872E8     8.023631624583527E-1   -6.046326737828345E-1   -1.264703189243694E-5   -4.664407481912589E-6    8.462069766598510E-7   -6.291064726536024E-6    7.904539245669994E-1   -6.088559669144320E-1
 4.986019940179462E8     7.940605783556823E-1   -6.154105862352377E-1    7.868104768202445E-7   -1.602815222576820E-6   -9.935429390692655E-6    3.816681780627554E-6    7.822603432825977E-1   -6.197426299245563E-1
 5.085720338983051E8     7.856855595667175E-1   -6.245174987448698E-1    3.840014792942459E-6   -1.074976933474857E-6   -7.069499741056062E-6    6.676998269538758E-6    7.745875807545430E-1   -6.303601470179875E-1
 5.185420737786640E8     7.783665318082792E-1   -6.336450905723854E-1   -4.725757222870765E-6    1.057817117085095E-5   -5.233839038730556E-6    1.218037684029261E-5    7.669274776574360E-1   -6.401433335600099E-1
 5.285121136590229E8     7.700620367210919E-1   -6.431013123752795E-1   -6.833055512492994E-7    9.547732701538299E-6   -1.018020297745185E-5    1.507028700021329E-5    7.589483470095296E-1   -6.497572340032906E-1
 5.384821535393819E8     7.614322361699765E-1   -6.531033140112228E-1    1.678103397912554E-5    6.853291219439474E-6   -2.591188416800394E-6    1.488855833231475E-5    7.507880912527869E-1   -6.593734838116069E-1
 5.484521934197408E8     7.532736668181653E-1   -6.637470211369122E-1    1.088386191126634E-7   -7.740056900807171E-6    9.115769523440309E-7   -9.140422721346746E-6    7.424518574516014E-1   -6.692997566537410E-1
 5.584222333000997E8     7.447607742071194E-1   -6.746334790111811E-1    1.460531939048406E-6    1.728852649868717E-5    3.585824855811874E-6   -3.731101002518862E-7    7.333055109100980E-1   -6.791673179408778E-1
 5.683922731804587E8     7.356484049559122E-1   -6.851423585748395E-1    6.491695278956402E-6    2.555194699533692E-7    3.931454296248771E-6    8.402975667810495E-6    7.230203840998967E-1   -6.891470053608433E-1
 5.783623130608176E8     7.263776012636179E-1   -6.951516204972475E-1    4.700406808571877E-6   -1.465045740760580E-6   -2.036353155082361E-5   -4.418244209433363E-6    7.126660931805213E-1   -6.988773084924146E-1
 5.883323529411764E8     7.170474560952999E-1   -7.051289695901346E-1   -4.382566725949935E-6   -5.851953173774637E-6    9.659157683380747E-6   -8.299829175932581E-6    7.022153482451342E-1   -7.088018501224341E-1
 5.983023928215353E8     7.079448908286846E-1   -7.152245748474643E-1    1.663132592508838E-5    1.592279622950038E-5   -1.422979668574493E-7   -1.316108173255358E-5    6.919526126504895E-1   -7.184655444171091E-1
 6.082724327018943E8     6.983513184452258E-1   -7.249280168553284E-1    2.604679185433026E-6   -4.456853147872472E-6    9.621499498089227E-7    2.244257396123089E-6    6.816402147461913E-1   -7.278225613840903E-1
 6.182424725822532E8     6.886144688099046E-1   -7.346330363136595E-1   -7.373399568961853E-6    1.528594623176414E-6    1.423590297320740E-5   -3.696688699235192E-6    6.716834188820692E-1   -7.372150062815028E-1
 6.282125124626122E8     6.780072411753135E-1   -7.439866699089535E-1   -1.823069021037139E-8   -6.632875152142237E-6    3.930656408583549E-6    1.242418522649754E-5    6.626709320255744E-1   -7.468103972891740E-1
 6.381825523429711E8     6.683965554924077E-1   -7.511406634737191E-1    8.256300276734415E-6    1.186864238159330E-5   -1.061453907624195E-5   -5.334469430832648E-6    6.537824334365029E-1   -7.557229276397694E-1
 6.481525922233300E8     6.594210637243269E-1   -7.596731982668461E-1   -6.209966905170442E-6   -7.301756919126151E-6   -1.249266222617856E-5    8.160423482124168E-6    6.446141580174836E-1   -7.641671208036720E-1
 6.581226321036890E8     6.497283942390699E-1   -7.686281262813337E-1   -1.753854243931712E-5    9.802476820185168E-6   -9.735582126237811E-6    3.625809782178238E-6    6.346307327709169E-1   -7.725117229732515E-1
 6.680926719840479E8     6.396676309033499E-1   -7.772589452987687E-1   -1.572464925601204E-6   -8.322525486709189E-6    3.710502494962859E-6    5.543701124020403E-7    6.239238728538149E-1   -7.805133490021589E-1
 6.780627118644068E8     6.299317741404707E-1   -7.854148871457882E-1    5.626472290033120E-6    1.858384650896869E-6    1.286625061563633E-5    2.730827659550300E-6    6.128990108721933E-1   -7.883740277416670E-1
 6.880327517447658E8     6.195204441880001E-1   -7.936930244709833E-1    1.552694641350308E-6    8.936574995773792E-6   -2.767920299302929E-6   -2.764804064301515E-6    6.014964567396329E-1   -7.960523572088168E-1
 6.980027916251246E8     6.087636072070766E-1   -8.018850633274062E-1   -7.982822465787976E-6    1.130033927602030E-5    1.143772012187992E-5   -5.615198658478547E-6    5.898592399621394E-1   -8.035865071111243E-1
 7.079728315054835E8     5.974328650707156E-1   -8.102523988681758E-1   -1.309719399074736E-6    2.542313667273685E-6   -1.238343069904241E-6    4.901571548886933E-6    5.785336103495080E-1   -8.115579455101863E-1
 7.179428713858424E8     5.862020619502661E-1   -8.188242941467007E-1    1.000132841832518E-5   -9.299349575694905E-7    2.742646448222844E-6    1.589576317960366E-5    5.672629419413991E-1   -8.202504186352655E-1
 7.279129112662014E8     5.751975608824536E-1   -8.272461468280140E-1   -5.346485337752854E-6   -8.125799505596983E-6    9.439535988409072E-7    4.054098646290418E-6    5.559307265621015E-1   -8.290291598911410E-1
 7.378829511465603E8     5.638394345111591E-1   -8.360409119683015E-1   -1.549087852143991E-6    3.180435262102015E-6    2.581644832513034E-5    1.899994742509423E-6    5.445826186535397E-1   -8.373964819253243E-1
 7.478529910269192E8     5.518388679712815E-1   -8.445499349275655E-1    2.024101407340671E-7   -2.949307845200214E-6   -1.546465488029709E-5    9.377875141003124E-6    5.334847054472566E-1   -8.450044479515826E-1
 7.578230309072782E8     5.393316675301523E-1   -8.517619694265119E-1    1.033494318914308E-5    1.036225427090108E-6    5.895940439226717E-6    6.505495145548530E-6    5.221688798551203E-1   -8.518555245613761E-1
 7.677930707876371E8     5.288895906659645E-1   -8.571217020333116E-1    2.798938608301822E-5   -8.365384271084584E-7   -9.056592644402031E-6    4.650114543156735E-6    5.109686151671283E-1   -8.583602045774704E-1
 7.777631106679960E8     5.192546286461601E-1   -8.639620459436199E-1   -8.023846592132665E-6   -9.163213391011895E-6    3.965981987451716E-6   -1.068575208593958E-5    4.994399652512834E-1   -8.648067253386741E-1
 7.877331505483550E8     5.088928352247973E-1   -8.709064754478071E-1    5.308322696878781E-6    9.941125017122711E-6   -2.399745027847357E-5   -1.492685015222568E-5    4.876811760902631E-1   -8.714243983219012E-1
 7.977031904287138E8     4.977103088881081E-1   -8.773583203729912E-1    1.004186108735787E-6    2.193882388154519E-6   -9.486218430166345E-6    8.377101132031014E-6    4.749872351099225E-1   -8.780000206143853E-1
 8.076732303090727E8     4.859115476236195E-1   -8.831722700862308E-1    3.524230731436810E-6   -1.030625783698357E-5   -5.376426552552389E-6   -9.695444534509312E-6    4.620239347842823E-1   -8.840462653609168E-1
 8.176432701894317E8     4.738580006586213E-1   -8.892442169358565E-1    1.171715348122071E-6    1.523526857819858E-6   -9.517528944664987E-6    2.086582116177648E-5    4.491440518675371E-1   -8.904146672850584E-1
 8.276133100697906E8     4.615416657242151E-1   -8.956593224836007E-1   -5.844650281463437E-6   -1.084282271798138E-6   -5.529712972339961E-6    7.660937782567770E-7    4.365456183916873E-1   -8.970777575911250E-1
 8.375833499501495E8     4.488799043063652E-1   -9.021139075934982E-1    6.974289851603155E-8   -4.026614951076597E-6    1.886317695011336E-6   -3.979297557869819E-6    4.243504137013001E-1   -9.037553085651827E-1
 8.475533898305085E8     4.361105941784959E-1   -9.085456230223585E-1    1.501323036838574E-5   -1.092077179407333E-5    1.249330181238925E-5   -3.162261296340896E-6    4.125076277643306E-1   -9.097846307689658E-1
 8.575234297108674E8     4.233801684935887E-1   -9.148920724769850E-1    5.694247507170244E-6   -8.174412451040500E-6   -3.629325575159826E-6    7.691028531039012E-6    4.007854376032129E-1   -9.150401933312146E-1
 8.674934695912263E8     4.105507230229360E-1   -9.215172687592073E-1    6.783269465983367E-7   -4.886087644741778E-7    1.381749028267817E-5    5.454774659949173E-6    3.886586986182154E-1   -9.201167738014854E-1
 8.774635094715853E8     3.974031564597937E-1   -9.280464400071543E-1    1.179298183820077E-5   -8.338504215128140E-7   -5.758703168130124E-6   -5.506615059881363E-7    3.761398419784352E-1   -9.246446395949076E-1
 8.874335493519442E8     3.843385414325209E-1   -9.327176946252480E-1    3.404765418022346E-6   -8.763591233481240E-7   -3.527761263783955E-6   -5.140473957178752E-6    3.630696080182712E-1   -9.290870451356487E-1
 8.974035892323031E8     3.730517773376743E-1   -9.363793502618151E-1   -3.064042139508553E-6    1.584306489379968E-6    1.097542200720321E-6    4.519888442026845E-6    3.495054449201642E-1   -9.333755574604159E-1
