#  HZ   S   RI   R     50.00 
! Rohde & Schwarz Vector Network Analyzer 
! Rohde-Schwarz,ZNB20-2Port,1311601062102128,3.60
! Created: UTC 4/29/2024, 2:54:47 PM
! freq[Hz]                re:S11                  im:S11                  re:S21                  im:S21                  re:S12                  im:S12                  re:S22                  im:S22
 1.000000000000000E5     9.958608540948045E-1    3.730308992465722E-3   -6.123398885722160E-5   -1.419274760121262E-4    1.892300140880913E-4    1.080562586657456E-5    1.010569328630008      -1.138717584548989E-2
 1.007003988035892E7     9.990273321359313E-1   -1.398271710823757E-2    1.121448675211118E-5    5.884143213171422E-6   -1.016543876930190E-6    2.685077713835229E-6    9.958051284718998E-1   -1.451368347432854E-2
 2.004007976071785E7     9.994621143896972E-1   -2.710676699692929E-2   -1.467699724523847E-5    5.914264653034766E-6   -1.314682926856220E-5   -3.636219732857784E-7    9.986757701178739E-1   -2.768475436628857E-2
 3.001011964107677E7     9.983316166091842E-1   -4.095450850254315E-2   -1.797482668909676E-6   -8.237622462979480E-6    1.957497338342677E-6   -2.024261866611022E-6    9.974836165555856E-1   -4.205771384370205E-2
 3.998015952143569E7     9.973131586031532E-1   -5.311445485626495E-2    1.943563061284442E-6   -5.818390538602207E-6    5.277511171427563E-6   -1.037655775433700E-5    9.975333206571932E-1   -5.672039348768427E-2
 4.995019940179461E7     9.954552712539390E-1   -6.594943829975865E-2    9.730176117413693E-6   -4.108890283078626E-6    1.521390978831385E-5    6.800403054614037E-6    9.966240034885546E-1   -6.908389990953842E-2
 5.992023928215354E7     9.939577295278653E-1   -7.878755765009890E-2    1.037130989433697E-5   -9.359105219137979E-6    2.068795685924905E-5    1.711978469602468E-5    9.946475094266110E-1   -8.190879966609906E-2
 6.989027916251247E7     9.933238335954967E-1   -9.194513665371144E-2    1.501345099178145E-6   -2.526927401099057E-6    4.187811913226977E-6    9.670223695615202E-6    9.935259722732899E-1   -9.475194903179605E-2
 7.986031904287139E7     9.930363587068801E-1   -1.053204161488192E-1   -6.802319239025292E-6    2.701323323351108E-6    6.069725994657637E-6    6.459790262114352E-6    9.923620467298614E-1   -1.079032205122433E-1
 8.983035892323031E7     9.917504668135895E-1   -1.188867303848204E-1   -2.017464893581547E-5    7.843928476598467E-7    2.426543974404919E-6    7.794091023542419E-6    9.907886246884553E-1   -1.210479519461828E-1
 9.980039880358922E7     9.890385443265023E-1   -1.323148143911407E-1   -3.786539557162324E-6    8.651183667625893E-6    4.626537388110194E-6   -1.310920665263173E-5    9.886318307218500E-1   -1.344398416911023E-1
 1.097704386839482E8     9.861939491500959E-1   -1.455332115065072E-1    7.188790847694847E-6    5.754487490114298E-6   -2.878837675779990E-6   -1.343664268092636E-5    9.861134254071252E-1   -1.478089708072598E-1
 1.197404785643071E8     9.851263187036220E-1   -1.589322350635941E-1    1.389644729591461E-6    4.944436303123552E-6    1.651817097937590E-5    9.994188469642859E-6    9.843775980574619E-1   -1.611166165251314E-1
 1.297105184446660E8     9.832282326257776E-1   -1.718237630612930E-1   -1.095856047935840E-5    1.264620150111871E-5    8.390960293751640E-6    1.568913585977759E-5    9.828495013129345E-1   -1.744397827958934E-1
 1.396805583250249E8     9.819005635155709E-1   -1.847326958151214E-1   -5.921367917173208E-6    1.506765339613470E-6   -1.273361560077773E-5    2.795511698558513E-5    9.809787674703204E-1   -1.875171607225350E-1
 1.496505982053838E8     9.787505834616220E-1   -1.971894733517252E-1   -2.054156548230541E-6   -7.413590510211730E-6   -1.638721453928453E-6    9.040049170267459E-7    9.784380559953937E-1   -2.004622485631445E-1
 1.596206380857428E8     9.759348511911067E-1   -2.094376478138418E-1   -6.654170403417692E-6    4.278033282084656E-6    9.412992622690446E-6    8.447241860333374E-6    9.756359765069259E-1   -2.133027822933151E-1
 1.695906779661017E8     9.733178503736298E-1   -2.223661770785519E-1    1.095775692329665E-5   -2.299423896905055E-6    1.455593177453826E-5   -2.321197927475579E-6    9.729032358840912E-1   -2.261392465458057E-1
 1.795607178464606E8     9.709554313976637E-1   -2.348277885657667E-1    1.278012854251283E-5   -5.143456750395003E-6   -1.567479760532818E-5   -4.941206286125869E-6    9.701716351825985E-1   -2.380843371502508E-1
 1.895307577268195E8     9.675764042778175E-1   -2.470357681790885E-1   -3.075829635499092E-6    2.834645336975558E-6   -8.531928771971935E-6    2.101561432600677E-6    9.667525237876756E-1   -2.505479909039893E-1
 1.995007976071784E8     9.637071010690297E-1   -2.593997296230993E-1    4.702766469953049E-6   -4.943773939180464E-7   -1.030202717719703E-5   -7.917593993248291E-6    9.627236887892581E-1   -2.631930444650959E-1
 2.094708374875374E8     9.605490154913174E-1   -2.724996090767264E-1   -3.251764492563643E-7   -9.026789798405329E-6    1.658843178805575E-5   -6.512933491357694E-7    9.589476646583865E-1   -2.761310820655727E-1
 2.194408773678963E8     9.574203328676758E-1   -2.851805785349895E-1    1.203232552369422E-5   -1.144200193196976E-5    8.316421984639928E-7   -1.199119092648856E-5    9.550670623473633E-1   -2.890993646509984E-1
 2.294109172482552E8     9.535624771368458E-1   -2.974177753370738E-1    1.029351027799344E-5    1.272893214073577E-5    5.822159399025669E-6    1.210705689464142E-5    9.509562615793242E-1   -3.017783146200515E-1
 2.393809571286142E8     9.504655402941922E-1   -3.093683716884683E-1   -1.689728291997088E-5   -6.835664221622658E-6   -1.099160814551304E-7   -8.890919868874293E-6    9.470564802463978E-1   -3.139421690098537E-1
 2.493509970089731E8     9.470103900135056E-1   -3.233559905965072E-1   -7.446555471851334E-6   -6.476663266386243E-6   -1.581077650123714E-5   -3.094934614450183E-6    9.441956777620654E-1   -3.276402689948780E-1
 2.593210368893320E8     9.426229367486461E-1   -3.353824820604659E-1   -1.011832867076509E-5   -1.594185145904498E-6   -9.073837042094162E-7   -3.481675781121521E-6    9.397449476403247E-1   -3.408363858408157E-1
 2.692910767696909E8     9.384031333847593E-1   -3.468014684596137E-1   -6.300763092983247E-6    5.896827258209326E-7   -8.363338485669933E-6    7.124743670100740E-7    9.354894639926675E-1   -3.528106858420898E-1
 2.792611166500499E8     9.337921831133161E-1   -3.583859496907149E-1    3.675741328148622E-6   -5.009660765315004E-7    1.672972817813284E-5   -1.017709567393586E-5    9.310506700747677E-1   -3.647094850992204E-1
 2.892311565304088E8     9.291105528771419E-1   -3.705281750119710E-1   -4.106518878596415E-6    8.094299033890937E-6    1.010714734209015E-5    1.349205765881986E-5    9.262176764338850E-1   -3.767955746171807E-1
 2.992011964107677E8     9.242585632109455E-1   -3.826927702250425E-1   -4.495754304225387E-6    5.763899156157383E-6   -9.034853877325209E-6    1.095919132317380E-5    9.211743205634452E-1   -3.886998966733787E-1
 3.091712362911266E8     9.187592045687339E-1   -3.949178824811008E-1   -5.312013089537058E-6   -1.792029661705931E-7   -3.905781293196191E-6   -4.237653308988349E-6    9.155747656758871E-1   -4.001508005691110E-1
 3.191412761714855E8     9.132664786408525E-1   -4.072784689898089E-1    5.509585882150039E-6   -3.052566629510285E-7    8.485073319856890E-6    4.416719800520789E-6    9.097740949229647E-1   -4.120428957923036E-1
 3.291113160518445E8     9.075117416068057E-1   -4.199768998512714E-1    1.153905350266682E-5   -1.245710422517566E-5   -1.356442673694667E-5   -4.539222806643158E-6    9.034416545754256E-1   -4.243591031381511E-1
 3.390813559322034E8     9.019713841647998E-1   -4.327986416060590E-1    1.088321762852170E-6    2.721830513488302E-6    6.262758779852134E-6   -1.623841251115652E-5    8.967840658771550E-1   -4.369104574668979E-1
 3.490513958125623E8     8.966955990612306E-1   -4.453344626200743E-1   -6.926171352104809E-6   -1.612111243568831E-5   -1.395674412235115E-5   -4.396802004567455E-6    8.903900543933472E-1   -4.494072826277647E-1
 3.590214356929212E8     8.912396504252815E-1   -4.577823363063860E-1   -7.064320320592032E-6    3.933493249956477E-6    9.234402929656888E-6   -1.340946191123785E-5    8.846470208076830E-1   -4.621332055245119E-1
 3.689914755732802E8     8.859202166460733E-1   -4.700507492062780E-1    7.445709924855453E-6    6.990596654324600E-6    4.500310562681895E-6    5.061157333507615E-6    8.792033604654600E-1   -4.748016775499703E-1
 3.789615154536391E8     8.797857536024842E-1   -4.812845575359558E-1    4.486846316271134E-6   -3.434686324777291E-6    6.584815359122630E-6   -1.994108896480879E-6    8.738394468397132E-1   -4.868020075360003E-1
 3.889315553339980E8     8.740752518702406E-1   -4.920679126879050E-1    5.819809856875630E-6    1.004018687451588E-5   -4.173238386776149E-6    5.112509256623953E-6    8.678952387094442E-1   -4.987287052492931E-1
 3.989015952143569E8     8.672838710752931E-1   -5.027451438060261E-1    3.150306241414550E-6   -5.575267992858409E-6   -2.787193533671016E-6    8.555280881846529E-6    8.611037333321305E-1   -5.096449211791448E-1
 4.088716350947158E8     8.601586551520649E-1   -5.135147429142368E-1    1.886471492849295E-6   -7.009883145895838E-6    1.140126367592458E-5   -1.655625633792154E-5    8.543002893142408E-1   -5.206988947878242E-1
 4.188416749750748E8     8.532713307110690E-1   -5.251302500067089E-1    3.841310255863830E-7    4.313793574724492E-7   -2.517442578237461E-5    8.493434665484280E-6    8.475117660568900E-1   -5.314212726677289E-1
 4.288117148554337E8     8.459434936391622E-1   -5.367753467533832E-1   -8.828076458874514E-8   -9.079009834403403E-6    7.743235062510655E-6    4.976132284449194E-6    8.405916877929948E-1   -5.417582931481639E-1
 4.387817547357926E8     8.382472571485677E-1   -5.481541837833147E-1    5.016623944149229E-6   -7.570631658984144E-6   -8.997001160177903E-6    4.410710803720190E-6    8.326194736976037E-1   -5.523846974033610E-1
 4.487517946161516E8     8.305221865665339E-1   -5.599992364940500E-1    3.178111965640380E-7   -3.170651257009474E-6   -8.697799055024965E-6    5.991446201069376E-6    8.242628329078463E-1   -5.634980754387425E-1
 4.587218344965104E8     8.235829327024035E-1   -5.718969432691029E-1    2.970178442231162E-6    7.286818700810519E-6   -5.531405458681118E-7   -1.354036688451616E-5    8.160141046304115E-1   -5.752466661737412E-1
 4.686918743768694E8     8.169873672468430E-1   -5.833373517396779E-1    7.626477577066435E-6    9.832122289654401E-6   -9.471173217241289E-6   -1.279982577782012E-5    8.077842835170971E-1   -5.868583124580330E-1
 4.786619142572283E8     8.099180625721264E-1   -5.941741225287632E-1   -9.330204859394077E-6   -5.083793497654019E-6   -4.728918394050920E-6    3.815063917872390E-6    7.992864046945979E-1   -5.980353176632315E-1
 4.886319541375872E8     8.022959523840656E-1   -6.046724424766934E-1    7.990397159759142E-6   -1.360298507958571E-5    5.732705392424371E-6   -5.575053878845142E-6    7.905905367672847E-1   -6.088494676414926E-1
 4.986019940179462E8     7.938871300204621E-1   -6.153273939991547E-1    8.863391031992278E-6    3.434140780448764E-6   -1.781548871031201E-6   -1.507668305020117E-5    7.824095902904727E-1   -6.196509861468321E-1
 5.085720338983051E8     7.855889454599490E-1   -6.244509213246121E-1    4.055454766062082E-6    1.550283785580026E-6   -1.184599813619361E-5   -1.593953505042155E-6    7.745082018468338E-1   -6.302822837748568E-1
 5.185420737786640E8     7.782736694713512E-1   -6.335115586066814E-1   -1.958961549366177E-7   -1.206509306523028E-5   -2.399266974075504E-5    3.513135062223680E-6    7.668634076205411E-1   -6.401231765240691E-1
 5.285121136590229E8     7.700261099715496E-1   -6.430995104794559E-1    6.638859787108388E-7   -1.309248109998890E-5   -1.901003045808902E-5    1.803935175683175E-5    7.589537525864869E-1   -6.496923091314466E-1
 5.384821535393819E8     7.614913471525943E-1   -6.531005226446716E-1    4.940955048369364E-6    1.024292203831789E-5   -7.822337883318537E-6    5.587907136030946E-6    7.508776240787117E-1   -6.593976739034610E-1
 5.484521934197408E8     7.533389190242273E-1   -6.636747698379949E-1   -1.374519084703073E-5   -5.079809265368874E-6   -1.549508069290398E-5   -1.238554518128100E-5    7.425115640201383E-1   -6.693084484123231E-1
 5.584222333000997E8     7.447577205109043E-1   -6.746274241038195E-1   -3.637192969198395E-6   -7.058867922754894E-8   -6.579196431593069E-6   -7.348372618182519E-7    7.332726498176158E-1   -6.791784593029461E-1
 5.683922731804587E8     7.355600384737701E-1   -6.850609400889200E-1   -8.578978231881822E-6    1.096660867205033E-5    2.847347106152688E-6   -5.299787460167413E-6    7.231496949934827E-1   -6.890609169446816E-1
 5.783623130608176E8     7.263226005835254E-1   -6.950446585378426E-1    2.838232125252982E-6   -1.190618244853626E-5    1.718383696259821E-6    9.558157331160390E-6    7.125659302592552E-1   -6.989162271801540E-1
 5.883323529411764E8     7.171610395852257E-1   -7.050422424146122E-1   -3.842779386214366E-6   -7.155537047209837E-6    1.562928035918027E-6   -6.063352178167089E-6    7.023821526865635E-1   -7.088961366034937E-1
 5.983023928215353E8     7.078947782788477E-1   -7.152275617153785E-1    4.231069859244644E-6   -8.755498614025885E-6   -2.093831993779092E-5   -4.883437045540617E-6    6.920809549701252E-1   -7.184060750334980E-1
 6.082724327018943E8     6.984576471695119E-1   -7.249132598224579E-1   -5.239719161952061E-6   -3.793222982860446E-6   -9.657379485171369E-6   -3.921380277148418E-6    6.815607124756932E-1   -7.277926020492669E-1
 6.182424725822532E8     6.884512589696330E-1   -7.344599389762194E-1    5.373807564039086E-6   -3.433748698963021E-6    6.926961596908052E-6   -1.530093011879965E-5    6.715489894567823E-1   -7.371995376418599E-1
 6.282125124626122E8     6.780656168498473E-1   -7.439104857962657E-1   -5.778839154406865E-6   -6.515627833683851E-6    1.046123997266050E-5    1.683790940313050E-6    6.626790792814600E-1   -7.467751664741608E-1
 6.381825523429711E8     6.683192554298576E-1   -7.511048257560345E-1   -6.834166588414969E-6   -7.084929038285050E-6    3.529733339558694E-6   -8.351629575656436E-6    6.537616244850819E-1   -7.556026363351326E-1
 6.481525922233300E8     6.594141089660650E-1   -7.596002878438048E-1    2.401490355655390E-6   -2.987629013753142E-6    4.208102255451653E-7   -1.726137941369036E-5    6.445800104976378E-1   -7.641591580933144E-1
 6.581226321036890E8     6.496681963952836E-1   -7.685562318946618E-1    5.281121185646662E-6    5.910940948585270E-6   -2.620442321394557E-5    4.909676002388818E-6    6.345156788062429E-1   -7.723958469570661E-1
 6.680926719840479E8     6.398030253444503E-1   -7.772084585330432E-1    1.168451322777887E-5    3.064484854404382E-6    7.449648936632524E-6    4.779763178853499E-6    6.238461075920122E-1   -7.803177466687564E-1
 6.780627118644068E8     6.299756708506330E-1   -7.854251702060260E-1   -1.851225282599093E-5    8.588747557208639E-6   -6.475112329918682E-6    7.340397241307219E-6    6.128092962689662E-1   -7.882857390305139E-1
 6.880327517447658E8     6.196177037394459E-1   -7.937071885603084E-1    3.985082116064224E-6   -1.430213501206831E-5   -9.560814009128931E-6   -8.564318280389875E-6    6.016598810488759E-1   -7.959364519049271E-1
 6.980027916251246E8     6.086876645355446E-1   -8.017992973574404E-1   -1.138092070570447E-5    7.146328899872110E-6   -2.174665652797064E-6   -1.047248604249696E-5    5.900725649300358E-1   -8.036324375842329E-1
 7.079728315054835E8     5.974610424576723E-1   -8.103020672789553E-1   -1.389577627121810E-6    6.528763724880219E-6   -7.293410126695860E-6   -1.192038146745500E-5    5.784621795707839E-1   -8.115005225016336E-1
 7.179428713858424E8     5.861454745090792E-1   -8.186929277155087E-1    2.310251971464414E-6   -4.894102563580995E-6   -8.454188539386564E-6    2.298145279609613E-5    5.672834744924119E-1   -8.202385686277960E-1
 7.279129112662014E8     5.751735585319629E-1   -8.272102137216611E-1    1.020154630299214E-5   -1.271673025401337E-5   -1.453854705390523E-5   -7.364772936201449E-6    5.559557993078506E-1   -8.287955849549514E-1
 7.378829511465603E8     5.639222137734632E-1   -8.360825386771394E-1    7.041433575359751E-7    5.199553751486531E-7    8.842870772219345E-7   -1.389709865766102E-5    5.446711519007866E-1   -8.372855650228404E-1
 7.478529910269192E8     5.519021215989681E-1   -8.444030822161146E-1    3.446198881147464E-6    1.433669528324423E-6    1.410142434307615E-5    6.440077114525961E-6    5.334859214504624E-1   -8.450341008151935E-1
 7.578230309072782E8     5.392310804620389E-1   -8.515675076756437E-1    1.027406390799205E-5    1.800353037673961E-6   -7.662344543729605E-6    2.328742752068770E-6    5.223181843670673E-1   -8.519376266048541E-1
 7.677930707876371E8     5.288810206773563E-1   -8.569786671315511E-1    4.489424717979602E-6   -3.083638149273530E-6    6.224721359874104E-6    2.042760245233122E-5    5.110034231960836E-1   -8.584327896631520E-1
 7.777631106679960E8     5.191716433311940E-1   -8.639443083883604E-1   -7.784687045887000E-6   -4.623370176671503E-7   -1.319308278113315E-6   -5.293036462085741E-6    4.994231247788264E-1   -8.647730419148716E-1
 7.877331505483550E8     5.088688574902983E-1   -8.708926880458840E-1   -1.740474374577418E-6   -9.793925159352884E-6    8.277999085311469E-8   -3.080667390542310E-7    4.876476774458129E-1   -8.715124586616543E-1
 7.977031904287138E8     4.976680939620569E-1   -8.773275514063605E-1    9.048800627086091E-6   -5.837624848654141E-6    8.235169907286416E-6    1.040503365650472E-5    4.749162816918344E-1   -8.780426094801057E-1
 8.076732303090727E8     4.858480549610057E-1   -8.831336931774213E-1   -5.245506741190614E-6    6.195466013283995E-6   -1.444513428221418E-5    3.613328590277848E-6    4.621406264144194E-1   -8.841183222798815E-1
 8.176432701894317E8     4.738860910463509E-1   -8.891667056456898E-1    1.407363668096220E-6    3.987380998788357E-6    3.429686028285491E-6   -1.022407883618817E-5    4.491728743474896E-1   -8.902918408901072E-1
 8.276133100697906E8     4.616077101558421E-1   -8.955411734876840E-1   -7.554032655204782E-6    7.618134117924122E-7    1.668311089543263E-6   -4.982288800839877E-7    4.365643675205276E-1   -8.970528116877506E-1
 8.375833499501495E8     4.490052822832626E-1   -9.020846442026460E-1    6.525124751479832E-6   -4.118340416836917E-6    1.324376616468021E-5   -1.257008109283513E-5    4.243667879738470E-1   -9.037698064330644E-1
 8.475533898305085E8     4.362005290642563E-1   -9.084970916877478E-1   -5.562989902512596E-6    4.202446129405556E-6    1.125878749807166E-6   -7.001192493280535E-6    4.125471669269201E-1   -9.098657184276350E-1
 8.575234297108674E8     4.234456640047481E-1   -9.148506599021582E-1   -1.405871887131155E-6   -1.672983547098414E-6   -1.337079256869773E-6   -3.143361391036395E-6    4.007722318620425E-1   -9.151194715300429E-1
 8.674934695912263E8     4.105128817290917E-1   -9.214346157430897E-1    5.666823267711251E-7    3.792040371480079E-6    1.153142110087184E-5   -3.780045806120727E-6    3.887157824987898E-1   -9.199811365291678E-1
 8.774635094715853E8     3.975415530788761E-1   -9.280169725381521E-1   -2.267742891440297E-7   -9.292576756706110E-6   -1.582296963091735E-5   -2.320666686275190E-5    3.760669872482857E-1   -9.246305352981972E-1
 8.874335493519442E8     3.844683294972479E-1   -9.327329279808975E-1    5.281601511899439E-6   -1.294222495516676E-5   -2.702260630515710E-6    1.285809011210526E-6    3.630420005137204E-1   -9.291505813673203E-1
 8.974035892323031E8     3.731256318295305E-1   -9.364009137310293E-1   -6.253078790406212E-6    1.084443795909265E-6    1.785364273130431E-5    1.723349953646365E-5    3.496319593405997E-1   -9.334156873009818E-1
