#  HZ   S   RI   R     50.00 
! Rohde & Schwarz Vector Network Analyzer 
! Rohde-Schwarz,ZNB20-2Port,1311601062102128,3.60
! Created: UTC 4/29/2024, 2:54:36 PM
! freq[Hz]                re:S11                  im:S11                  re:S21                  im:S21                  re:S12                  im:S12                  re:S22                  im:S22
 1.000000000000000E5     9.961123852592533E-1    3.673860733748329E-3   -1.159757723468162E-5   -2.978223325798654E-5   -2.013191561558930E-5    3.953209635378219E-5    1.010513241023437      -1.144731848225694E-2
 1.007003988035892E7     9.977702411204734E-1   -1.390034376137896E-2   -7.514851140433600E-6    3.763528297008599E-6    4.222465383510454E-6    8.702018195775642E-6    9.957506757877527E-1   -1.449938730325861E-2
 2.004007976071785E7     9.998769815047449E-1   -2.711984011275318E-2    1.489807101573618E-5    2.647568136620648E-6   -2.222593675539133E-5    1.897447987633508E-5    9.987429836460293E-1   -2.761967654103550E-2
 3.001011964107677E7     9.979874693371887E-1   -4.102583490908720E-2    4.038924607935368E-6    1.014596690664553E-5   -2.014537115629027E-6   -4.604240066198712E-6    9.975608279203714E-1   -4.201689007182382E-2
 3.998015952143569E7     9.976014558240860E-1   -5.312812401547743E-2    1.139174544686550E-5   -6.032561983654540E-6   -4.070568472527350E-6   -8.441139706541880E-6    9.975879071447863E-1   -5.661812165121481E-2
 4.995019940179461E7     9.958908133453832E-1   -6.594960664795217E-2   -1.026074680833905E-5    8.699200591788120E-6    1.361223373466331E-5    1.668232983096307E-5    9.966558976388999E-1   -6.916751326928672E-2
 5.992023928215354E7     9.940406471842510E-1   -7.883620515969940E-2    7.338809073917578E-6    1.651187836966674E-5    1.212437327183427E-5    1.230928794587412E-5    9.945698816316942E-1   -8.182127810332390E-2
 6.989027916251247E7     9.932419699833309E-1   -9.194284679388479E-2    1.021199271636640E-5   -1.865286620681478E-6   -9.568666197473140E-6   -6.861271488726124E-7    9.934268797207627E-1   -9.473069721151146E-2
 7.986031904287139E7     9.926382884629215E-1   -1.052643839183193E-1   -6.023788653084625E-6    4.552349183383028E-6   -1.139323167650952E-5   -7.194897506588372E-6    9.923712297204035E-1   -1.079624097444261E-1
 8.983035892323031E7     9.915101042046678E-1   -1.187503214846322E-1    5.889517005555116E-7    1.527134459368685E-5    7.926590352613337E-7    1.460334247251252E-5    9.908865269697323E-1   -1.209920339894617E-1
 9.980039880358922E7     9.892059902133108E-1   -1.323078083296584E-1    1.423407385925278E-6   -2.618897770981461E-6    1.277231426927204E-5   -7.204691444938773E-6    9.886035800909891E-1   -1.344257194369842E-1
 1.097704386839482E8     9.864816082192235E-1   -1.455162579634719E-1   -1.813330160990957E-5   -9.481698269916206E-7   -1.185291488530849E-5    1.121042868011700E-5    9.862251457966136E-1   -1.477953626365484E-1
 1.197404785643071E8     9.848059184818625E-1   -1.589327919941559E-1   -1.689943580183432E-5   -8.247098144976767E-6    6.178666897084308E-6   -1.389313645458523E-5    9.842690407318175E-1   -1.611991439344334E-1
 1.297105184446660E8     9.830316060153295E-1   -1.716594114351061E-1    1.259168916464975E-6   -1.397080157791712E-5   -1.071598008366289E-5    8.374262797501213E-6    9.828173503153096E-1   -1.744239276711246E-1
 1.396805583250249E8     9.815209078321270E-1   -1.846363340368175E-1   -1.815615744283433E-6   -6.232986039822255E-6    1.686647159512852E-5   -6.171961461554264E-6    9.808145699468382E-1   -1.875721342770126E-1
 1.496505982053838E8     9.789143533055812E-1   -1.970171500934018E-1    1.023174351960305E-5    7.200360345620487E-6   -8.810541443983785E-6   -2.551390280237819E-6    9.785292210222353E-1   -2.002539701338747E-1
 1.596206380857428E8     9.761118851658713E-1   -2.094625043036905E-1   -8.108708295758563E-6    3.770237816640152E-6   -1.015068169473260E-6   -1.187192683463126E-5    9.758830579041566E-1   -2.133356427349012E-1
 1.695906779661017E8     9.731600177031225E-1   -2.223417669672857E-1    9.103990897663344E-6    1.275385253874994E-5   -8.892605914400287E-6    8.232821848291149E-7    9.727435459463285E-1   -2.261321321264718E-1
 1.795607178464606E8     9.707193322758702E-1   -2.347882495233810E-1    4.377193483906074E-6    1.420111125973718E-6   -7.792429920515096E-6   -1.177064603030106E-6    9.701451053625457E-1   -2.379602563880935E-1
 1.895307577268195E8     9.677459021731488E-1   -2.470555805022332E-1    8.799584531056353E-7   -2.172108591468936E-6    1.382111927580219E-7    1.099146062229622E-5    9.668449680806303E-1   -2.504937764104413E-1
 1.995007976071784E8     9.638499074199736E-1   -2.594292932832398E-1    6.488677642886561E-6    1.288783103862070E-6    7.815447498384054E-6   -7.208966100211403E-6    9.627469694884562E-1   -2.631699977993436E-1
 2.094708374875374E8     9.604451760888633E-1   -2.723178901297699E-1   -9.144787928115541E-6    1.188058621345682E-5    7.701566988326862E-6    2.695518856945577E-6    9.588883277006823E-1   -2.762218358429313E-1
 2.194408773678963E8     9.572839497814699E-1   -2.851235906265233E-1    6.001537744462366E-6   -5.192282561566042E-6    1.511797705728435E-5    3.921151912371453E-6    9.552145075610924E-1   -2.892050770863418E-1
 2.294109172482552E8     9.536900203179823E-1   -2.974463258203248E-1   -6.825264250372616E-6   -1.523271326726416E-5    1.506703240078193E-5    1.879379219798706E-6    9.509947318343936E-1   -3.018471097178950E-1
 2.393809571286142E8     9.505941609085690E-1   -3.094994230474833E-1    6.236380957099863E-6    1.183400363647881E-5   -2.011975423813271E-6   -2.000262892984350E-5    9.469773798736174E-1   -3.140359682241791E-1
 2.493509970089731E8     9.468630477106086E-1   -3.233375989128264E-1    5.808902401240828E-6   -3.153865097784619E-6   -1.267945848807768E-5   -3.680382337321026E-6    9.441601473150006E-1   -3.276282301891602E-1
 2.593210368893320E8     9.427079729090687E-1   -3.353513699114571E-1   -4.894585973532520E-6   -9.548002031085656E-6   -3.132683265114503E-6   -1.098890340984183E-5    9.399077747612429E-1   -3.409026260671274E-1
 2.692910767696909E8     9.385606136094922E-1   -3.468106663353897E-1   -5.505882366926713E-6    1.518290636193707E-5    7.820531659582669E-6    8.742638646107319E-7    9.355634926699942E-1   -3.528110450266045E-1
 2.792611166500499E8     9.338340271278558E-1   -3.584723756070617E-1    1.620627522392368E-6    1.178708696708702E-5   -1.647846613745044E-5    7.337745689466686E-6    9.309545609907948E-1   -3.647026515094894E-1
 2.892311565304088E8     9.288772233576520E-1   -3.704546439975009E-1    1.782525037171262E-6   -8.297923019395381E-6   -7.329742352345262E-6    5.507534282505219E-7    9.261963429587569E-1   -3.767956598996136E-1
 2.992011964107677E8     9.240719432679073E-1   -3.826561963738380E-1    2.950109973859303E-6    1.103143724576245E-6    3.050573781952556E-6    1.899420481150636E-5    9.212305575569663E-1   -3.886095804906625E-1
 3.091712362911266E8     9.188987418076925E-1   -3.949083246351469E-1   -1.097589230918971E-5    1.737650947494007E-7   -1.504730499417236E-5   -6.931165776874242E-6    9.157396076054103E-1   -4.001783069650385E-1
 3.191412761714855E8     9.133102531607035E-1   -4.073280544095870E-1   -1.297762632081035E-6   -6.227078364272879E-6   -5.362294569773740E-6    9.647318230421248E-6    9.097271024053524E-1   -4.119427792817941E-1
 3.291113160518445E8     9.075295269677277E-1   -4.198819676284736E-1   -1.478741224023217E-6   -2.719091506464123E-6   -3.404240667681644E-6    2.258711295505896E-6    9.033522601439445E-1   -4.243613954152251E-1
 3.390813559322034E8     9.019998419340234E-1   -4.327641512985391E-1    9.774449806895898E-6    1.074311443784052E-5    1.332348955159027E-5    8.986810717924654E-6    8.969034742437625E-1   -4.369582234791105E-1
 3.490513958125623E8     8.968203963559930E-1   -4.454360427589628E-1    4.505781914792515E-6    6.469109935375885E-6   -1.362510496276790E-5    1.444559267557499E-6    8.905683432995988E-1   -4.495170444386579E-1
 3.590214356929212E8     8.913683445227691E-1   -4.578322576264591E-1    6.347660165752058E-6   -6.847734371426397E-6   -4.860144715127974E-6   -1.663310021163916E-6    8.845917585110851E-1   -4.621528403926882E-1
 3.689914755732802E8     8.858673484240071E-1   -4.700358752211168E-1    2.828448133791275E-6   -1.810243232383001E-5   -7.985334079721546E-6   -9.367738087021708E-6    8.790474384474113E-1   -4.747800859777164E-1
 3.789615154536391E8     8.797620110760173E-1   -4.812812926851849E-1    6.034052987935617E-6    1.547185223585723E-6   -3.639300539478796E-6   -1.473119758200121E-5    8.737856185900623E-1   -4.867789619741324E-1
 3.889315553339980E8     8.742996794466565E-1   -4.920671882895055E-1    4.970445918804580E-6   -7.886195998860827E-6    1.173818243338841E-5   -2.426266907081809E-5    8.680377474564402E-1   -4.987472775472758E-1
 3.989015952143569E8     8.675254180165968E-1   -5.027826932092351E-1    2.620805755442294E-7    2.524992485366701E-6    1.082300640118688E-5   -5.839914500615533E-6    8.613377598180046E-1   -5.097534920724630E-1
 4.088716350947158E8     8.602305357379814E-1   -5.135403877214741E-1   -2.754476846007408E-6    1.722827690773560E-5    2.090530109885963E-6    1.337257568084984E-5    8.542595608887109E-1   -5.207700383706243E-1
 4.188416749750748E8     8.532055057786935E-1   -5.250241111838565E-1    3.024777922276855E-6    1.126967915794473E-5    1.315340966930468E-5   -7.383212491729962E-6    8.474990914705048E-1   -5.314548430409944E-1
 4.288117148554337E8     8.461601736424437E-1   -5.368197740184109E-1   -1.458297264375750E-6    6.146990418947232E-6    5.497237154910034E-6    4.167364630747597E-6    8.404760451827139E-1   -5.418416643252023E-1
 4.387817547357926E8     8.383260897981282E-1   -5.481946048412067E-1   -1.270955567788563E-5    1.169843724454503E-5   -1.291761756975950E-5    6.235276852577342E-6    8.327732675074500E-1   -5.524346412361824E-1
 4.487517946161516E8     8.305512075685246E-1   -5.600680434063036E-1    9.418545745410152E-7   -1.026358486185644E-5    8.221850808327904E-6    5.605139239716751E-6    8.243680028049397E-1   -5.636223422142308E-1
 4.587218344965104E8     8.236357981082731E-1   -5.719722378771471E-1    1.007934622891803E-6    1.117052877552866E-7   -1.027253795128578E-5    1.042563121323452E-5    8.160511070686842E-1   -5.753202297867833E-1
 4.686918743768694E8     8.169920130784364E-1   -5.833718115016004E-1   -9.333406326119620E-6   -1.746292442890168E-7   -2.694921158784597E-5    2.254366399727625E-6    8.076673191161371E-1   -5.866880216042054E-1
 4.786619142572283E8     8.098698072673514E-1   -5.941861535662134E-1    1.596782159963094E-7    3.044962243581724E-7   -3.368584186461542E-6   -2.328839542846273E-5    7.994115189498072E-1   -5.980735738464140E-1
 4.886319541375872E8     8.024597368414647E-1   -6.047253534425397E-1   -4.263448288699293E-6   -6.204205114810325E-6   -5.129785016221175E-7   -1.623509858258954E-6    7.906674095624402E-1   -6.089492286614446E-1
 4.986019940179462E8     7.940519550321026E-1   -6.153921646731225E-1   -3.635088022538976E-6   -2.319665178273527E-6    2.053206291667025E-5    7.707645567506710E-6    7.824107645534883E-1   -6.196382940467461E-1
 5.085720338983051E8     7.854801832837374E-1   -6.244514290532389E-1   -9.027661459544356E-6    5.549258443636221E-6    4.831121870129373E-6   -2.313203947413411E-7    7.746043914711931E-1   -6.301549820284421E-1
 5.185420737786640E8     7.782622806894742E-1   -6.335773428981574E-1   -5.774375302073060E-6    1.630351972689293E-6   -2.555232929012184E-6   -6.971418471187277E-6    7.668915128468018E-1   -6.401407181239783E-1
 5.285121136590229E8     7.700203104557527E-1   -6.431524926710149E-1   -1.963149887602905E-5    1.882437238569191E-5    1.420454582068624E-6   -1.364600995442152E-5    7.589959939946782E-1   -6.498276578310491E-1
 5.384821535393819E8     7.614620328514747E-1   -6.531746915664178E-1   -4.217484450680029E-6   -1.072075669318622E-5   -8.003726656147029E-6   -3.228806743722608E-6    7.509019771148271E-1   -6.593275704298983E-1
 5.484521934197408E8     7.532827545521393E-1   -6.636860574844650E-1   -7.352473872166665E-6    3.188613958290424E-6   -5.389678002456333E-6    1.334733289410574E-6    7.423670006834702E-1   -6.692542259226988E-1
 5.584222333000997E8     7.446845818323297E-1   -6.746040550518442E-1   -3.556172879305908E-6    5.956063316759126E-6   -4.176160410295770E-6    1.576382764634948E-5    7.332963464190536E-1   -6.791535456345987E-1
 5.683922731804587E8     7.355840259287280E-1   -6.850839876130275E-1    1.397680563213694E-5    4.129172476550033E-6   -4.030340576020480E-6   -9.729476738070305E-6    7.231519147450647E-1   -6.893193623871878E-1
 5.783623130608176E8     7.263922767681997E-1   -6.950948875143343E-1    6.106263646641532E-6   -7.343340283237595E-6    8.944663487367056E-8    2.265990000258031E-5    7.127780231304482E-1   -6.990495377969170E-1
 5.883323529411764E8     7.171650121019656E-1   -7.050741825456246E-1    1.936187290661066E-7   -1.465918777206953E-6    1.914728754576725E-6   -1.520656154644090E-5    7.022178299222953E-1   -7.085090789904385E-1
 5.983023928215353E8     7.078357683210119E-1   -7.151529445793863E-1    9.010331390783282E-7    6.644978019431038E-6   -4.902224996969748E-6   -6.165957214879028E-6    6.918810589215554E-1   -7.182933477556638E-1
 6.082724327018943E8     6.983620161575224E-1   -7.249411452145028E-1   -1.390434961588228E-5   -3.880193985508104E-6   -2.858725643177045E-6    1.843981567894282E-6    6.816745290138596E-1   -7.278847996525678E-1
 6.182424725822532E8     6.886416033092561E-1   -7.347494916049907E-1   -7.870483265841286E-6    5.319155553148257E-6   -2.616863998316369E-5    5.379289738670336E-6    6.718913434405897E-1   -7.373314188082948E-1
 6.282125124626122E8     6.780087093762619E-1   -7.440402655460691E-1    1.039091312243433E-5    7.042560025025294E-6    5.372239190365845E-6    2.992361374242650E-6    6.628144042400822E-1   -7.468854075926710E-1
 6.381825523429711E8     6.682740267623629E-1   -7.511668818102570E-1   -4.422173311089898E-6    1.906161782725013E-6    8.945410635178452E-6   -1.170965036170115E-6    6.537252681750222E-1   -7.556838978456116E-1
 6.481525922233300E8     6.593992558948891E-1   -7.596572125732841E-1    1.096784577409344E-6   -2.808404919162038E-6    1.071937608177055E-5   -2.747833313226352E-5    6.445910783025135E-1   -7.641793596838486E-1
 6.581226321036890E8     6.496814201620270E-1   -7.685328060883050E-1    8.054980219210760E-6   -1.259443951830087E-5   -3.132661584117347E-6    7.086719479065297E-6    6.345475508806974E-1   -7.724641735947131E-1
 6.680926719840479E8     6.396792273889805E-1   -7.772722213875265E-1   -2.583842200193982E-6    1.235669689429925E-7    4.751324374777027E-6    6.688624669490088E-6    6.238829883915233E-1   -7.804256131587608E-1
 6.780627118644068E8     6.298751522325171E-1   -7.854630208650401E-1    5.221486583666203E-6    1.841280004574604E-5   -3.354076031793139E-6    1.591562843348662E-5    6.129713541301295E-1   -7.883741636235796E-1
 6.880327517447658E8     6.195635018985309E-1   -7.937877901800960E-1   -6.057727253527828E-6    7.228158883398263E-6   -8.231209035010158E-6    1.277238269399626E-5    6.015387263614976E-1   -7.960359280131812E-1
 6.980027916251246E8     6.086472796560145E-1   -8.018391383435655E-1   -4.715589501470828E-6    1.582853719960220E-5    1.652605437881989E-5    1.395161644355623E-5    5.900095828047812E-1   -8.036317884857670E-1
 7.079728315054835E8     5.972097082992199E-1   -8.101462234398142E-1    1.354320377315724E-5    1.823160084825042E-6    8.110542331369946E-6   -4.478214118167244E-6    5.785615426980618E-1   -8.115204141061860E-1
 7.179428713858424E8     5.861142964077720E-1   -8.186526060412559E-1    2.377826804425697E-6   -6.617388181668042E-6   -2.112008369340943E-5   -9.701335638581423E-6    5.672812685873332E-1   -8.202568691087434E-1
 7.279129112662014E8     5.750981272977382E-1   -8.272024514610883E-1    6.600147243942821E-6    3.924240360591012E-6    7.624876836185913E-6    9.742374154342833E-6    5.558589656492449E-1   -8.289630724487304E-1
 7.378829511465603E8     5.638355585879505E-1   -8.360673222465003E-1   -1.794787805503936E-5   -9.782398647032274E-6    1.060867486882685E-5    9.941354007418239E-6    5.445411777042256E-1   -8.372793281946682E-1
 7.478529910269192E8     5.517996281008994E-1   -8.445458445120502E-1    3.738766590194770E-6    6.075440470649180E-6   -6.330115785301511E-6    1.377654099168199E-5    5.334697473613556E-1   -8.450014264940956E-1
 7.578230309072782E8     5.391721245419447E-1   -8.515906098599925E-1   -3.868943255283400E-6   -9.618720782617760E-6    1.156669580542686E-6    7.959357317447942E-7    5.222687173997858E-1   -8.518885764083353E-1
 7.677930707876371E8     5.287687352481586E-1   -8.570755499931704E-1    4.501776511352656E-6   -1.655913240447678E-5   -5.877966011970618E-6   -4.235545232158761E-6    5.110146218956791E-1   -8.583742211898453E-1
 7.777631106679960E8     5.192382313360829E-1   -8.640258003784318E-1   -1.087401393443832E-5   -6.332823754209289E-7   -1.801693036378765E-5   -5.177128292145029E-6    4.994746147264822E-1   -8.648983067564969E-1
 7.877331505483550E8     5.088821303092900E-1   -8.709400794890405E-1    4.338733872202160E-6   -1.383812684992902E-6   -1.848328799179570E-8   -1.935043241223680E-5    4.878220894781302E-1   -8.713857142458922E-1
 7.977031904287138E8     4.976796608651471E-1   -8.773868333082635E-1    6.299175483479280E-6   -5.804145482428554E-7   -8.705699021253970E-6   -5.202742660103701E-6    4.748553632675884E-1   -8.778843741744247E-1
 8.076732303090727E8     4.858695015276613E-1   -8.831767945424831E-1   -1.343314707904512E-5    1.492571606872777E-6    1.182129631337157E-6    1.170703119706583E-7    4.620585292858570E-1   -8.840089561993890E-1
 8.176432701894317E8     4.738432157808768E-1   -8.891697870632082E-1   -1.236103206017044E-5    4.740539975184617E-6   -1.479256660571332E-6    5.954359540685988E-6    4.492266122371179E-1   -8.904086904610555E-1
 8.276133100697906E8     4.614978287669209E-1   -8.956631415611099E-1    1.252096886075057E-6   -3.931152769453467E-6    4.673802191917008E-6   -1.723328435049755E-6    4.366575252022905E-1   -8.971552437794562E-1
 8.375833499501495E8     4.489589146205595E-1   -9.021027665836012E-1   -9.344080754003923E-6   -9.891017649863510E-6   -1.611879147439088E-6    9.602703678465874E-6    4.244266458513869E-1   -9.038492501436570E-1
 8.475533898305085E8     4.361348587000425E-1   -9.084737070548389E-1    9.156498472551867E-6    4.624947645884234E-6    2.354925309954725E-6   -2.722885618885343E-6    4.125490799810914E-1   -9.097867812501561E-1
 8.575234297108674E8     4.232613347810665E-1   -9.147847671141107E-1   -2.468620820898273E-6    4.247416404871165E-6   -6.591941657627120E-6   -8.024098918245617E-7    4.006929101978412E-1   -9.151132674507375E-1
 8.674934695912263E8     4.105378191936233E-1   -9.214828190158069E-1    1.232431340477484E-5   -2.667654355742786E-7    1.637122447860473E-6   -4.234917155530038E-6    3.887028292795256E-1   -9.199908162869077E-1
 8.774635094715853E8     3.974383684803394E-1   -9.281315937418027E-1    7.688668444592743E-6    8.191859152826431E-6   -4.760226295346384E-6   -6.329024712479447E-6    3.761511386794442E-1   -9.248293114371982E-1
 8.874335493519442E8     3.843596417667023E-1   -9.326971636931204E-1    8.921688100449036E-6   -7.901708947293423E-7    8.326563435616757E-6    2.944135270534400E-6    3.630887888689319E-1   -9.291694322666573E-1
 8.974035892323031E8     3.730174012867357E-1   -9.363455944136473E-1    1.941303138530522E-6    3.958030362530541E-7   -2.648962340326545E-6    1.523626666300271E-5    3.495429398148890E-1   -9.334226486988746E-1
