#  HZ   S   RI   R     50.00 
! Rohde & Schwarz Vector Network Analyzer 
! Rohde-Schwarz,ZNB20-2Port,1311601062102128,3.60
! Created: UTC 4/29/2024, 2:54:53 PM
! freq[Hz]                re:S11                  im:S11                  re:S21                  im:S21                  re:S12                  im:S12                  re:S22                  im:S22
 1.000000000000000E5     9.962866195600603E-1    3.664173880424130E-3    8.299218646170727E-5   -6.800441287414880E-5    3.872688216358553E-5    1.927428867298909E-4    1.010452852086355      -1.142843795356571E-2
 1.007003988035892E7     9.974571733140609E-1   -1.380456790018252E-2   -5.933213281691410E-6    1.651583088201073E-5   -4.930532178467162E-6    1.223120981408222E-5    9.958333705188107E-1   -1.444887311581715E-2
 2.004007976071785E7     9.997970594715355E-1   -2.715352259264624E-2    1.880861430153878E-6   -2.231505074803232E-5   -8.419161469211386E-6    2.397450927824179E-6    9.985475537359694E-1   -2.756742337462153E-2
 3.001011964107677E7     9.978226882054080E-1   -4.107085791798841E-2   -3.193189227957425E-7   -6.438082623076922E-6    7.315567892919315E-6    2.225091452724161E-6    9.973799130572235E-1   -4.202487553686197E-2
 3.998015952143569E7     9.976052169339674E-1   -5.313829169801684E-2    6.888707176735413E-6    5.775592684693552E-6    1.136994368103684E-5   -5.736187880766850E-6    9.975245449305166E-1   -5.665646224825843E-2
 4.995019940179461E7     9.960742546056529E-1   -6.600845215654623E-2   -2.703793694510875E-7    7.596942474024583E-6   -5.360247307404693E-6   -1.078097812062244E-6    9.964732963831013E-1   -6.908516405071240E-2
 5.992023928215354E7     9.941949153521406E-1   -7.878854705966744E-2   -3.856673001667274E-7    2.166320660575991E-6   -2.156264334953684E-5    1.474985532195574E-5    9.947024958243115E-1   -8.190880445967531E-2
 6.989027916251247E7     9.931565789907236E-1   -9.178493897791799E-2    4.517099388610628E-6   -1.881041035684756E-6    1.050096561423553E-5    1.315414778655189E-5    9.933691240785395E-1   -9.472242339416592E-2
 7.986031904287139E7     9.925184091809962E-1   -1.051643619439141E-1    7.347562220621842E-6   -1.566117762304989E-6   -2.939939872379037E-6    8.560628181179830E-6    9.921557431469276E-1   -1.078995194381171E-1
 8.983035892323031E7     9.914149916961044E-1   -1.187961271246482E-1   -5.282292523323193E-7   -8.618331116219393E-6   -7.927348341228189E-6    1.911805729180148E-5    9.906877253729184E-1   -1.210103296131066E-1
 9.980039880358922E7     9.893085111994573E-1   -1.323199385770706E-1   -1.736521536587335E-5   -1.177649143732882E-5   -3.808970647436047E-7    9.836274250989030E-7    9.885911072456727E-1   -1.343518900001754E-1
 1.097704386839482E8     9.866399298508728E-1   -1.455217049411339E-1   -6.349412571762047E-7    1.024855644359505E-5   -1.505685281046611E-6   -4.839023625177528E-6    9.861848746306859E-1   -1.477130809692449E-1
 1.197404785643071E8     9.848104393542267E-1   -1.589606299391968E-1   -1.327786217030577E-5   -5.089832030763206E-6   -3.736252512328373E-6    6.371830289665263E-6    9.842614044838027E-1   -1.610563672929899E-1
 1.297105184446660E8     9.831702240669100E-1   -1.717827688097186E-1    8.829859809656585E-6    7.640684853988171E-6   -1.639172441073301E-6    1.534062292838625E-5    9.828151923662169E-1   -1.743504378901416E-1
 1.396805583250249E8     9.814744963132241E-1   -1.846596343791263E-1    3.383024504928385E-6    1.970375463848012E-6   -3.822656914658309E-6   -1.056859226229803E-6    9.807903874036128E-1   -1.875049485798345E-1
 1.496505982053838E8     9.788962751784547E-1   -1.971481709449193E-1   -6.940837215969246E-6    1.243215819546207E-6   -8.126034713959265E-6    1.322473499052740E-5    9.785432525750358E-1   -2.004172340057484E-1
 1.596206380857428E8     9.763687115149710E-1   -2.094916103138473E-1    9.941514338281376E-6   -1.706535903435605E-6   -8.905363929776299E-6   -5.970555102321325E-6    9.757981672952719E-1   -2.132900019083305E-1
 1.695906779661017E8     9.732927977201514E-1   -2.224469591391048E-1    8.495579402400403E-6   -1.129870471534124E-5    8.110613930567771E-6   -8.972624033022882E-6    9.729345069580162E-1   -2.259550448509323E-1
 1.795607178464606E8     9.705292177641432E-1   -2.348051320556684E-1    3.484951786855824E-6   -2.902815702219612E-6   -3.034815856091499E-6   -2.695445892105286E-6    9.701123962149608E-1   -2.380770011995963E-1
 1.895307577268195E8     9.676041084478759E-1   -2.469939645752300E-1   -1.608439896605311E-6   -6.360615553283364E-6    4.328558378577518E-6   -6.149715646203315E-6    9.667725672016678E-1   -2.506124289378576E-1
 1.995007976071784E8     9.639206201818732E-1   -2.595190542298701E-1   -8.377965219033612E-6   -5.171113377456262E-6   -5.060787744228132E-7    1.152532726806550E-5    9.627933164374789E-1   -2.631762643163396E-1
 2.094708374875374E8     9.605402658171298E-1   -2.724044773607225E-1    5.856222484047142E-7   -1.044135645489199E-5   -8.303586244604831E-6   -1.371208521603652E-5    9.589291057073819E-1   -2.761622366945476E-1
 2.194408773678963E8     9.572985381551841E-1   -2.850808607130833E-1    1.448578612303719E-5   -2.389489980652699E-6   -9.948896058644893E-7    1.318628825189448E-5    9.550381122867141E-1   -2.891158159157239E-1
 2.294109172482552E8     9.534733794706504E-1   -2.973773347303281E-1    1.708788373979901E-6    5.230402306008219E-6   -5.999438775198706E-6   -2.573532026549174E-6    9.509923472704611E-1   -3.017756677604731E-1
 2.393809571286142E8     9.505966635074673E-1   -3.094328434910081E-1    1.254506210873791E-5    1.119940158039367E-5   -7.055216896864319E-6    3.351883437615475E-6    9.469822631134488E-1   -3.139872181880325E-1
 2.493509970089731E8     9.469627901082321E-1   -3.233131976324841E-1   -1.161748392413574E-5    1.226875521078516E-5    1.145198220835627E-5    2.064356660843478E-6    9.439886504798213E-1   -3.276006133136575E-1
 2.593210368893320E8     9.426896686627120E-1   -3.353808603722443E-1    5.316986467059245E-6   -3.665012361241182E-7   -1.935387842752878E-5   -3.390769599498726E-6    9.398297041132142E-1   -3.408075249906184E-1
 2.692910767696909E8     9.384639097410985E-1   -3.467734205041071E-1   -3.205362564722060E-6    1.443735433522946E-6    7.161633653736757E-6    1.034019006239614E-5    9.356054738077844E-1   -3.528949717690454E-1
 2.792611166500499E8     9.338871942087161E-1   -3.584804829119944E-1    1.034085482663298E-5   -1.105608501145538E-5   -2.389779899434970E-6   -3.627930029983641E-7    9.309184623083181E-1   -3.646355669484428E-1
 2.892311565304088E8     9.290498497560052E-1   -3.705843549933880E-1   -2.228949640050570E-6    2.941111008351733E-6   -1.187157401178980E-5   -5.178541661679859E-6    9.261959020983179E-1   -3.768517457382731E-1
 2.992011964107677E8     9.240321336094889E-1   -3.826584685658238E-1   -3.885218509194640E-6   -5.615580149085147E-6   -6.097208561951326E-7   -9.469659986238509E-6    9.212654704926099E-1   -3.886965659462173E-1
 3.091712362911266E8     9.187599276350308E-1   -3.949004810956331E-1   -1.348335445697616E-6    1.545577136821955E-5   -8.085834663161167E-6    1.689160513746349E-5    9.157558205448615E-1   -4.001943903524399E-1
 3.191412761714855E8     9.132543612256238E-1   -4.073197173478426E-1   -1.701572073750914E-5    4.466130198325944E-7    1.623914905629502E-6    2.499979747647052E-6    9.098097756744002E-1   -4.118901087236031E-1
 3.291113160518445E8     9.074879108863023E-1   -4.200143344249269E-1    1.226845010305646E-5    6.490937408637944E-6   -3.925652735899650E-6    5.937867854484624E-6    9.033123623160112E-1   -4.244003014891034E-1
 3.390813559322034E8     9.019964728074293E-1   -4.328400209518701E-1    3.389890873459449E-6   -1.220850653103709E-5    4.512290369369849E-6   -9.359866136665512E-6    8.967586057268939E-1   -4.369550551802243E-1
 3.490513958125623E8     8.967324722502833E-1   -4.453286517350006E-1   -1.172146591826308E-6   -3.942142335163060E-6   -3.311132685961716E-9    4.138263485480633E-6    8.905291761258368E-1   -4.493889110328760E-1
 3.590214356929212E8     8.912801100010860E-1   -4.578857778053763E-1   -8.788455780847804E-6   -4.486716916588308E-6   -1.250743807406756E-5   -7.633919910582726E-6    8.845378704350332E-1   -4.621376935835835E-1
 3.689914755732802E8     8.859254020621729E-1   -4.701062274407812E-1   -1.255408511139235E-6    4.028314160336174E-6   -7.352374801010049E-6    1.821957614454932E-5    8.790610653432386E-1   -4.748070948738434E-1
 3.789615154536391E8     8.798369800054158E-1   -4.813098593698407E-1   -6.461687270231309E-6   -2.748732005562203E-6   -7.507601589958028E-7   -4.443703661554552E-6    8.738393536569603E-1   -4.868685453926189E-1
 3.889315553339980E8     8.742000858317637E-1   -4.920778428333411E-1   -7.406252175633079E-6    6.403702850067018E-6    1.791859459506310E-5   -8.123472015419856E-6    8.678637028220166E-1   -4.988367843295191E-1
 3.989015952143569E8     8.673659315845480E-1   -5.027510811203912E-1   -1.233255453804399E-5   -3.079783343537038E-6    6.721620800705272E-6   -4.794060343798912E-6    8.610575824255607E-1   -5.097262933055615E-1
 4.088716350947158E8     8.602077013368024E-1   -5.135211000755535E-1   -4.141523172168559E-6    8.374844264436946E-7    7.482303347652638E-6   -3.350991002716084E-6    8.542081657363999E-1   -5.206033107793445E-1
 4.188416749750748E8     8.531611823063049E-1   -5.250701158438543E-1    2.020844977370575E-6    5.231540484525765E-6   -5.245995112540755E-6   -6.394550955752791E-6    8.475883555417247E-1   -5.314545046200506E-1
 4.288117148554337E8     8.459743098321993E-1   -5.368008547788908E-1    4.260215108496591E-6   -4.679728392123623E-7    2.230654662526468E-6   -1.498750268823962E-5    8.405949164922528E-1   -5.418938133772099E-1
 4.387817547357926E8     8.382766165951701E-1   -5.482433626556721E-1   -6.385047485003743E-6    1.134893620592388E-6   -8.138623595050242E-6   -4.124392472724327E-6    8.326928457865230E-1   -5.522799644880422E-1
 4.487517946161516E8     8.304736597170489E-1   -5.600014125521271E-1   -1.726188982394812E-6    1.537382874943022E-5   -9.418696451725462E-6   -9.477982885933659E-6    8.241416217270083E-1   -5.634688296607223E-1
 4.587218344965104E8     8.235102504920065E-1   -5.719467977424927E-1    1.301966100191640E-6    5.112152309815919E-6    5.295800568317293E-6    1.345393225408446E-5    8.160414242244217E-1   -5.752277454953280E-1
 4.686918743768694E8     8.169684983567321E-1   -5.834626012409405E-1   -7.760263748879882E-6    6.828603686430819E-6    2.421584536903054E-6    1.936325674443469E-6    8.078004986901713E-1   -5.868408153383862E-1
 4.786619142572283E8     8.099915157761552E-1   -5.942228116038764E-1   -4.978345087962948E-7    4.225804707235308E-6    1.534288092996152E-7   -6.323762957804531E-6    7.991796704869955E-1   -5.980019414426847E-1
 4.886319541375872E8     8.022996544935228E-1   -6.046410081488469E-1    2.176368575475721E-5   -1.429432215398988E-5   -2.088506532994741E-6    4.763143393814752E-7    7.906504959285411E-1   -6.089610290404611E-1
 4.986019940179462E8     7.939057729788849E-1   -6.152382973510371E-1   -1.588823830431945E-5    1.266044980469933E-5    9.165794555010080E-6    1.633074920205329E-5    7.822299552552339E-1   -6.196613712232709E-1
 5.085720338983051E8     7.855884183679602E-1   -6.244802878575262E-1    1.077518399279615E-5   -9.521136635903908E-6    6.715885402317535E-7    7.128819721488697E-6    7.745794558765361E-1   -6.302436706273670E-1
 5.185420737786640E8     7.783592609525102E-1   -6.336123611728158E-1   -8.800269427139042E-6   -1.855790061481923E-6   -2.210186341120419E-5   -1.562955099700888E-5    7.669852399566360E-1   -6.401347754130954E-1
 5.285121136590229E8     7.700236328010879E-1   -6.431315790260299E-1    1.879345652115904E-5    1.018231717206347E-5    4.589376765852860E-6    1.496103617838104E-5    7.589766700298372E-1   -6.497404761020661E-1
 5.384821535393819E8     7.613902859311318E-1   -6.530900536313258E-1    3.399994253263717E-6    8.822543389814081E-6    1.905591037420653E-6   -1.299232409528083E-5    7.508568405156024E-1   -6.593570305092937E-1
 5.484521934197408E8     7.533150777141285E-1   -6.637380902821748E-1   -2.932633057096773E-7   -1.528511352522273E-6   -2.764492003564890E-5    8.876141017064223E-6    7.423843550910728E-1   -6.692464842632806E-1
 5.584222333000997E8     7.447682281462028E-1   -6.746194269529379E-1    4.957827135358517E-6    5.580436019209816E-6   -1.790927121860882E-5    1.476158433671033E-5    7.332655747958922E-1   -6.792524540600412E-1
 5.683922731804587E8     7.356247773773180E-1   -6.851123765257283E-1    4.044299272315221E-6   -5.609208821518615E-10   5.991040878897522E-6    6.389207449466255E-6    7.232025758468797E-1   -6.891890114982653E-1
 5.783623130608176E8     7.262859130359940E-1   -6.950015854193252E-1   -1.577162258356844E-5    1.084310145778173E-6   -6.663225385702447E-6   -8.672738300397311E-6    7.125108467118834E-1   -6.989451322603276E-1
 5.883323529411764E8     7.171052045269103E-1   -7.050839912026813E-1    1.363796060325399E-5   -1.029051159813796E-5   -3.881173100234847E-6   -7.711226846194618E-6    7.020776062488839E-1   -7.086300181504043E-1
 5.983023928215353E8     7.079160658350171E-1   -7.152025707841057E-1    2.381018186679533E-5   -1.096491975945173E-5   -1.940284663825431E-5    2.269106889706787E-6    6.918854362869507E-1   -7.183736161650932E-1
 6.082724327018943E8     6.983998981009782E-1   -7.249720073348191E-1   -1.288141381953913E-5    3.586735710504715E-6    6.387382730303028E-6    2.696026971750392E-5    6.816169790007061E-1   -7.278977362288513E-1
 6.182424725822532E8     6.886693071028869E-1   -7.346649064561316E-1    3.744638331775696E-6    1.356061984029556E-5    1.848587519294154E-5    1.189351448620692E-5    6.717229658929214E-1   -7.372371569322251E-1
 6.282125124626122E8     6.780233233932988E-1   -7.439368104124591E-1    4.384385616862386E-6   -2.100072490053002E-6   -6.385280413803833E-7    1.801387739272195E-5    6.626842041039208E-1   -7.468222447311185E-1
 6.381825523429711E8     6.683435949731367E-1   -7.511401834640624E-1   -8.740725846222074E-7    3.228440227167539E-6    1.033055418903031E-6    7.912151914791630E-6    6.537518276949589E-1   -7.557825054872479E-1
 6.481525922233300E8     6.594030552183238E-1   -7.596474072866217E-1   -8.432923649141434E-6   -7.063654856404253E-6    1.183556866821259E-5    7.523486236482886E-6    6.446078889542876E-1   -7.642234440275826E-1
 6.581226321036890E8     6.496675794611219E-1   -7.685785658790163E-1   -3.293977885224747E-7    2.191531931534193E-6   -7.169150059308293E-6   -6.432672650616347E-6    6.345340845897166E-1   -7.724817298916068E-1
 6.680926719840479E8     6.397187595424322E-1   -7.772550755201294E-1    8.677827297520322E-6    1.638493084974029E-5   -5.964979270892205E-7    4.319318117986382E-6    6.238510584705188E-1   -7.804579063584345E-1
 6.780627118644068E8     6.300443734536895E-1   -7.854393857160153E-1   -8.291944781745636E-6    2.676816596566049E-7   -1.116639699588619E-5    2.493155765649465E-7    6.128399193821952E-1   -7.884032445688975E-1
 6.880327517447658E8     6.195181346528970E-1   -7.936452980549203E-1    6.081552346495933E-6   -3.151866450287489E-7    3.400655789288266E-6    1.370821583702580E-5    6.015667472612588E-1   -7.961577688777324E-1
 6.980027916251246E8     6.086557627086036E-1   -8.017700905992441E-1    1.342683958914718E-6    1.109723657499330E-6    1.141064137623103E-5    2.012107248854187E-5    5.900527236241663E-1   -8.037279109120101E-1
 7.079728315054835E8     5.972902431980008E-1   -8.101998634981331E-1    5.916698207633966E-6    6.267558446394925E-6    1.346422589725006E-5   -1.195723055490942E-5    5.784593703355453E-1   -8.115342342898193E-1
 7.179428713858424E8     5.861777091664201E-1   -8.187128260888755E-1    3.121621940843956E-7    6.339817176370991E-6    1.203052545819412E-5    1.487368324983504E-5    5.671989924447439E-1   -8.201356850269272E-1
 7.279129112662014E8     5.751456159367671E-1   -8.271995030068197E-1   -1.227136208507215E-5    7.002526494608373E-7   -6.177498131466685E-6    1.131859257587251E-6    5.559176510940806E-1   -8.289785349344717E-1
 7.378829511465603E8     5.638934889048606E-1   -8.360090626542542E-1    1.006219745271218E-5    1.351689722687633E-5   -1.440848716078760E-5   -1.418592497105543E-6    5.446173157353117E-1   -8.372893147142252E-1
 7.478529910269192E8     5.518613268639164E-1   -8.445087136911394E-1   -6.598593125568498E-7   -6.532489848859703E-7   -2.095329325247945E-5   -4.107609424706561E-6    5.334493409736580E-1   -8.450664383971785E-1
 7.578230309072782E8     5.392513471431108E-1   -8.516636567573020E-1    1.453274639190340E-5   -3.180099953334359E-6    7.989050740438173E-7   -9.399553059715181E-6    5.222716468886680E-1   -8.519348146029312E-1
 7.677930707876371E8     5.288925372340489E-1   -8.570351869186129E-1    8.998097829414013E-6   -3.886201263478609E-7   -2.004196964218434E-5    1.730456471900439E-6    5.109464512396266E-1   -8.583568762512704E-1
 7.777631106679960E8     5.191510424395196E-1   -8.639126939058369E-1    3.408772136266571E-6   -3.786960133018395E-6    2.401988312861433E-6    1.398565683103351E-5    4.994470014621405E-1   -8.649231167772128E-1
 7.877331505483550E8     5.088105494078510E-1   -8.708167465497937E-1    6.580538347490924E-6   -4.762749234998292E-6   -4.932813783721839E-6   -1.302892184519821E-6    4.877668725715730E-1   -8.715659080597097E-1
 7.977031904287138E8     4.976779361054429E-1   -8.773381243310234E-1    1.037759174998993E-5   -1.613212855510804E-6    1.736944855233534E-5    1.187426239100838E-5    4.748359218714130E-1   -8.778608833211636E-1
 8.076732303090727E8     4.859125441873976E-1   -8.833271415773625E-1   -3.513873406214018E-6    7.106241762854716E-6    9.226843543422336E-6    1.290629909443214E-5    4.620193885243123E-1   -8.840464093823324E-1
 8.176432701894317E8     4.739094461148883E-1   -8.891488625083652E-1    2.175230861637477E-6    9.991106041778795E-6   -8.671082190487103E-6   -9.595207160906900E-6    4.491234764338321E-1   -8.903904762714215E-1
 8.276133100697906E8     4.615267478818411E-1   -8.955164234329869E-1   -2.001784731645674E-6    1.759816253022296E-6    7.457968258420514E-6   -6.476347091570731E-6    4.364482020920886E-1   -8.971566348612912E-1
 8.375833499501495E8     4.489232769713764E-1   -9.020298097637878E-1    2.526248440832519E-6    7.617813106957602E-6    1.282630112016479E-6   -3.266720311856516E-6    4.243336066962324E-1   -9.038381421385324E-1
 8.475533898305085E8     4.361702609550863E-1   -9.084688330487181E-1    7.537513499965659E-7    1.392184311277526E-5   -1.444671605006260E-6    9.891922027101586E-6    4.124921402300915E-1   -9.097783658118710E-1
 8.575234297108674E8     4.234137594141167E-1   -9.148525746928715E-1    2.921938394551417E-6   -2.041318595455037E-5   -1.291794321823876E-6    4.174990417575962E-7    4.008184143218076E-1   -9.151421114104040E-1
 8.674934695912263E8     4.105256835878951E-1   -9.214154475829602E-1    4.242611336315813E-6    5.739745631751953E-6   -1.086486662333605E-5    1.224095775508293E-5    3.887664421014002E-1   -9.199195678655891E-1
 8.774635094715853E8     3.974382085374863E-1   -9.279951272897452E-1   -5.956329976804328E-6    4.183847068142733E-6   -5.225946558331338E-6    8.932528385507288E-6    3.760976828786357E-1   -9.247587883574014E-1
 8.874335493519442E8     3.844109465656452E-1   -9.326555189388015E-1    2.541972563294702E-6   -3.615779729290396E-6    8.473496157864246E-6   -1.018706585086579E-5    3.630228469383454E-1   -9.291167713934169E-1
 8.974035892323031E8     3.730639258549886E-1   -9.363109176516685E-1   -6.981626246887906E-6    4.041826076584746E-6    9.112030568929828E-7    2.144973909863372E-6    3.494767749274473E-1   -9.335467316229286E-1
