#  HZ   S   RI   R     50.00 
! Rohde & Schwarz Vector Network Analyzer 
! Rohde-Schwarz,ZNB20-2Port,1311601062102128,3.60
! Created: UTC 4/29/2024, 2:54:39 PM
! freq[Hz]                re:S11                  im:S11                  re:S21                  im:S21                  re:S12                  im:S12                  re:S22                  im:S22
 1.000000000000000E5     9.964433448202561E-1    3.597376429926284E-3    3.605688029982890E-5    2.166110142581167E-5   -8.286466163990658E-5    6.101313159371758E-5    1.010453591415209      -1.153216968170166E-2
 1.007003988035892E7     9.975977431041377E-1   -1.378982164954375E-2    1.030442949783206E-5    1.184797112298731E-5   -1.041346193647388E-5    2.876840081999364E-6    9.958909048760128E-1   -1.444650535032074E-2
 2.004007976071785E7     9.998635510552184E-1   -2.717898410709776E-2    1.686701583860030E-5    8.827520116532873E-6   -5.283889252458853E-6   -3.132236907707042E-5    9.986027321607128E-1   -2.762297758134255E-2
 3.001011964107677E7     9.977437321959660E-1   -4.104438610237764E-2    1.026718794292405E-5   -3.908955615488762E-6    1.134827222288543E-6    5.258172755681043E-6    9.975887231313969E-1   -4.197898580329365E-2
 3.998015952143569E7     9.976130911641035E-1   -5.310106736720048E-2    6.579339114638335E-6   -1.671098386431838E-5   -1.295503317367013E-5    2.528870377748734E-5    9.976539044249861E-1   -5.659845669273068E-2
 4.995019940179461E7     9.960424782850584E-1   -6.599540273783040E-2   -9.851575507921839E-6    5.978920224857821E-6    1.887610436228610E-5    4.791899713833789E-7    9.964803951875166E-1   -6.903451837367065E-2
 5.992023928215354E7     9.942661869584063E-1   -7.867024383091063E-2   -1.346486629178751E-5    3.813909671945642E-6   -5.529354871064826E-7    1.346081555202185E-5    9.946524675150760E-1   -8.183590938455201E-2
 6.989027916251247E7     9.931180895323080E-1   -9.173648545519335E-2    8.951569974519636E-8   -1.030348330737602E-5    7.358262014391610E-6    1.824343819183030E-6    9.933670032975248E-1   -9.474088837786260E-2
 7.986031904287139E7     9.924362819850119E-1   -1.051924971386148E-1    7.877652320824504E-6   -1.294128756656302E-5    1.708906577298569E-5    1.504051061949195E-5    9.924029375348047E-1   -1.078724458903425E-1
 8.983035892323031E7     9.914295447982653E-1   -1.187380180426230E-1    5.768748162197563E-6   -1.762216151766897E-6   -3.258522201168267E-6    1.424052006317500E-5    9.907971733735138E-1   -1.210418397354089E-1
 9.980039880358922E7     9.894002568796701E-1   -1.323765278058079E-1    1.008048596674212E-5   -9.124440287000241E-6    3.503618522308517E-6   -1.902977411240610E-6    9.885343200410226E-1   -1.344385256690545E-1
 1.097704386839482E8     9.865320851633637E-1   -1.454596836082360E-1    5.103627881796969E-6    3.059069772238458E-6   -1.292520747308947E-5   -1.077287085910803E-5    9.860517364081518E-1   -1.477575627282504E-1
 1.197404785643071E8     9.848695133577522E-1   -1.589635911052106E-1   -1.004400393503245E-5   -3.841369135542411E-8    4.408270988819266E-6   -1.075861332885741E-5    9.843136136965910E-1   -1.611003222110558E-1
 1.297105184446660E8     9.830254207068235E-1   -1.717552061848942E-1   -1.114410044631727E-5    1.234949198026159E-5   -1.336305917823899E-5    3.879842194481142E-6    9.829353926668658E-1   -1.744353563354259E-1
 1.396805583250249E8     9.815144960965223E-1   -1.845779899407270E-1    1.258744753027864E-5    8.269802846107591E-6    4.679967714889386E-6    1.726077524182550E-6    9.809029528999303E-1   -1.876021818166962E-1
 1.496505982053838E8     9.788511277371116E-1   -1.970095151865389E-1   -1.370496105790594E-5    1.433563624389417E-5   -1.219077115490915E-6    1.172850949669622E-5    9.783827375478199E-1   -2.004317035659215E-1
 1.596206380857428E8     9.761329792700258E-1   -2.094599199440643E-1   -9.549019877996591E-6   -2.670746020658215E-6   -9.234682273443700E-6   -1.115162998375787E-5    9.757158018792699E-1   -2.132665322790182E-1
 1.695906779661017E8     9.731210603038446E-1   -2.223310207232907E-1    9.546626166957716E-6    1.894067294375026E-5   -1.551718821470868E-6   -6.490878626942334E-6    9.728782397591136E-1   -2.262217727310620E-1
 1.795607178464606E8     9.706463844487485E-1   -2.348177306851684E-1    3.213106251480981E-6    1.006588201682411E-5   -1.680772132721859E-5    9.750975930179451E-7    9.701915639095499E-1   -2.379760569806718E-1
 1.895307577268195E8     9.676104103264760E-1   -2.470006059017556E-1    7.964916070239739E-7    6.459573848884440E-6    6.638528620241126E-6    3.492281222948723E-6    9.666722544425940E-1   -2.505443837858689E-1
 1.995007976071784E8     9.638537499267420E-1   -2.594715343531237E-1   -6.207624050776473E-6    9.020708342211036E-6   -1.356719658813127E-5   -1.795433347913079E-6    9.626795670629237E-1   -2.631705985461680E-1
 2.094708374875374E8     9.604011159772328E-1   -2.723296620279196E-1    4.599170320342467E-7   -1.109530623695765E-6    9.574475996952413E-6   -1.520078889169764E-6    9.589353094084946E-1   -2.761703317051862E-1
 2.194408773678963E8     9.571213793966464E-1   -2.850655902529731E-1   -9.991174250312651E-7    4.487356167038794E-6    1.336276291075023E-5   -7.192679392362620E-6    9.551112314283081E-1   -2.890779547776549E-1
 2.294109172482552E8     9.536260135691674E-1   -2.973405414453532E-1   -6.474759546848505E-6    8.442997936902713E-6    1.209460807327592E-6    1.174639781078519E-5    9.510271056793009E-1   -3.017604990558787E-1
 2.393809571286142E8     9.504436628202825E-1   -3.093143868328653E-1   -6.472033447879937E-6   -6.414904717860665E-7    4.544239373584575E-6    4.018622260007767E-6    9.470151390404966E-1   -3.139473439156565E-1
 2.493509970089731E8     9.468444048037448E-1   -3.232732124866360E-1   -2.734001036746190E-6    7.791601931783662E-6    1.224710986484964E-5   -7.663566495859167E-6    9.441507995040903E-1   -3.276720989644445E-1
 2.593210368893320E8     9.426314330254891E-1   -3.353193044382690E-1    4.259035628224323E-6   -1.777199808962168E-5    6.294887251071638E-6    4.316592293405700E-6    9.397257234098385E-1   -3.408555204300721E-1
 2.692910767696909E8     9.383982345756680E-1   -3.467495929184931E-1    3.181525030523518E-6    1.484697893365301E-5   -1.240461106103519E-5   -9.397295247379711E-6    9.354467401416139E-1   -3.528259908494293E-1
 2.792611166500499E8     9.337155785048282E-1   -3.583414624603605E-1   -9.197137104171530E-6   -1.147341901614389E-5    1.062323800197003E-5   -8.413270235932355E-7    9.309894960397548E-1   -3.647080104615763E-1
 2.892311565304088E8     9.287750029267228E-1   -3.704621409813406E-1   -1.634074177042122E-5   -8.822080022168984E-7    8.618691431468920E-6    9.591098646254661E-6    9.262026320004355E-1   -3.768657786455056E-1
 2.992011964107677E8     9.240996895587467E-1   -3.826112358334346E-1   -1.697046766190131E-5    2.627497431518893E-5   -1.410066531396544E-5   -9.263562978607417E-6    9.211017346558786E-1   -3.885765916286828E-1
 3.091712362911266E8     9.188290997435240E-1   -3.948639139568703E-1   -1.187829132527228E-5    2.985483238138796E-6   -4.077584333840438E-6   -3.863216664203185E-6    9.155738741477001E-1   -4.001076995736103E-1
 3.191412761714855E8     9.131060787845642E-1   -4.072758431873888E-1   -1.865933436736718E-6    6.828894164496191E-6   -1.125935823004618E-5   -6.130696316844154E-6    9.098985805284806E-1   -4.119950996660597E-1
 3.291113160518445E8     9.075451548970525E-1   -4.199689548569671E-1   -1.100534715645495E-5    1.659598528364737E-5   -1.790907505120223E-5   -7.394550491384531E-6    9.033550689314451E-1   -4.244588746221308E-1
 3.390813559322034E8     9.018682745542744E-1   -4.327083081903421E-1    8.748014081694174E-6    2.365370123164957E-6   -5.291296823663436E-6    4.055664094174008E-6    8.967755827628503E-1   -4.369360188218691E-1
 3.490513958125623E8     8.966687098311419E-1   -4.453569059228097E-1   -4.688811892709690E-6   -2.074466434020623E-6   -5.912095707616176E-6    1.266465033387098E-7    8.903910313139777E-1   -4.493799850813310E-1
 3.590214356929212E8     8.912409361407062E-1   -4.578465429736969E-1    5.676395111592320E-7    5.993477152703832E-6   -3.942333658861126E-6    1.942289041680279E-5    8.846068121130909E-1   -4.621793339437062E-1
 3.689914755732802E8     8.858142668651192E-1   -4.700092882725443E-1   -3.948020699716537E-6   -3.085112958592238E-6   -2.102579885933962E-5   -8.196872613677199E-6    8.790071223459609E-1   -4.747698223303360E-1
 3.789615154536391E8     8.798447481512210E-1   -4.812746744034211E-1   -1.712604951522082E-6    7.640400042953397E-7    8.580737730794120E-7   -1.471755593430825E-5    8.738300336149314E-1   -4.867743166789466E-1
 3.889315553339980E8     8.741274420412901E-1   -4.919944289736582E-1   -3.415217859943676E-6   -5.966865061249607E-6   -2.546698208078989E-6    6.268311017410661E-6    8.679493898997455E-1   -4.987425037135124E-1
 3.989015952143569E8     8.673598708459122E-1   -5.026555460022455E-1    7.140437805197861E-7    1.144651088472959E-5    1.962757365072199E-6   -2.512202585348931E-6    8.611913637076878E-1   -5.096955988609796E-1
 4.088716350947158E8     8.600923798966132E-1   -5.134526124801410E-1   -8.078185746912447E-6   -4.711121472079760E-6    3.479362325958932E-6   -3.611093867419099E-6    8.543826839092276E-1   -5.207225808127477E-1
 4.188416749750748E8     8.532446700836060E-1   -5.250621994598053E-1   -9.816915236759318E-7    5.081493248476139E-6    2.434448276741683E-6   -8.614958445930073E-6    8.476374712683914E-1   -5.314589367279935E-1
 4.288117148554337E8     8.460580535957422E-1   -5.368024915912476E-1    5.080758833790093E-8   -3.042745619428958E-6    6.960683794495262E-6   -3.684310288757427E-6    8.405678907891880E-1   -5.417458668275393E-1
 4.387817547357926E8     8.382420765553161E-1   -5.481469801647710E-1   -6.796308377946035E-6    7.927744331862858E-6   -3.347691779375736E-6    1.658841860721240E-6    8.325907090202150E-1   -5.523308002881919E-1
 4.487517946161516E8     8.304773961449428E-1   -5.599644641251601E-1    1.880547552654124E-6   -6.188160946608939E-6    2.218073800441867E-6   -1.139387823228957E-5    8.242446897856808E-1   -5.635464988142663E-1
 4.587218344965104E8     8.234102246523352E-1   -5.718746335200389E-1    1.895033605208324E-6   -4.337880376289323E-7   -2.861169884736912E-6   -1.081840626479691E-5    8.159316835101580E-1   -5.752674962796069E-1
 4.686918743768694E8     8.168776507934683E-1   -5.833596316071538E-1   -2.240860952923024E-6    7.429532230147028E-7   -2.252579274466770E-6    2.442738103463956E-8    8.078006515944827E-1   -5.868224803779711E-1
 4.786619142572283E8     8.099266635762457E-1   -5.941589367540931E-1    1.286392228016032E-5   -3.998747292443652E-7   -1.079894369226056E-6    4.852227499134472E-6    7.991813158356035E-1   -5.979641972789344E-1
 4.886319541375872E8     8.023016997966980E-1   -6.046674598919749E-1   -5.010268449799145E-6   -1.800875852832484E-6    5.743614424268003E-6    1.007226007550576E-5    7.906097185777398E-1   -6.088846555110299E-1
 4.986019940179462E8     7.939535982108102E-1   -6.152539706740436E-1   -9.630403646144679E-6    4.186999797555997E-6   -9.275978103788311E-6   -2.419608551289785E-6    7.823713373245247E-1   -6.196129584926348E-1
 5.085720338983051E8     7.854465825382246E-1   -6.243668156588202E-1    7.225377206693796E-6   -4.955619937710884E-6    1.113858367840491E-5    3.051658341663554E-6    7.745910966706895E-1   -6.302258729403168E-1
 5.185420737786640E8     7.782343573749447E-1   -6.334748887613357E-1    7.647677665620969E-6   -8.097933962618129E-6    8.986526315559966E-7   -6.254824027258756E-6    7.668861498114569E-1   -6.400998695156377E-1
 5.285121136590229E8     7.700076837213505E-1   -6.431009441819798E-1   -1.416684077450689E-5   -1.075449191012061E-5    1.197458731953586E-5   -4.119821647760689E-6    7.589517006595490E-1   -6.497221307433073E-1
 5.384821535393819E8     7.614086259242594E-1   -6.531123865926729E-1   -5.283942925659350E-6   -1.041151307883108E-5    1.378702933397184E-7    2.922284007888101E-6    7.508986102063901E-1   -6.594498794659442E-1
 5.484521934197408E8     7.532121601665829E-1   -6.635821766244996E-1   -2.664956484581036E-6   -3.209260627391947E-6    7.562955739703619E-7    2.722072582766417E-6    7.423910028186266E-1   -6.692245792752566E-1
 5.584222333000997E8     7.446387291989724E-1   -6.745349737071257E-1    8.917337207344802E-6   -8.274197786536266E-6    8.699328428624790E-6    5.255173055138831E-6    7.332515056798105E-1   -6.791522924018152E-1
 5.683922731804587E8     7.356396482688555E-1   -6.852059884309286E-1    2.900003727833671E-6    1.040303262141512E-5    1.893249609414492E-7    1.196056730416903E-5    7.230822612833337E-1   -6.891678118986654E-1
 5.783623130608176E8     7.262764185354880E-1   -6.952127237649028E-1   -1.213816337920357E-5   -3.494366798433246E-6    2.699398722760751E-8    1.409149801340466E-5    7.126439085501092E-1   -6.989054661918309E-1
 5.883323529411764E8     7.169681073220643E-1   -7.050730260855798E-1   -8.685643452100840E-6    1.562223292191116E-5    6.316108748771620E-6   -1.378502406112810E-5    7.021853901062143E-1   -7.086782287961628E-1
 5.983023928215353E8     7.076714338881516E-1   -7.150531650035107E-1   -8.099449411443591E-6    1.830023399388442E-5   -2.728137860766588E-5    1.400588971783465E-5    6.918862747288407E-1   -7.183801162451691E-1
 6.082724327018943E8     6.984022929584314E-1   -7.249142610898230E-1   -1.044647546712182E-5   -7.900754000558909E-6   -1.215693598215803E-5   -1.558819113117203E-5    6.815865905276505E-1   -7.276990976821589E-1
 6.182424725822532E8     6.886689111928131E-1   -7.346785465598301E-1   -2.823573598939513E-5    4.603756226846295E-6   -1.304375882856997E-5   -7.347150006592484E-6    6.716995891388434E-1   -7.373028023663770E-1
 6.282125124626122E8     6.779665528829530E-1   -7.439049870361345E-1    1.373040986894619E-5   -8.786552304872161E-6    5.268399992342453E-6   -2.249047160135218E-5    6.627176324438080E-1   -7.468258750300234E-1
 6.381825523429711E8     6.682511146194090E-1   -7.509467779060831E-1    2.297800277710336E-6    2.028864437885043E-5   -1.381642687368932E-6    1.526436617246300E-5    6.537827187402671E-1   -7.558110406892626E-1
 6.481525922233300E8     6.593580070098540E-1   -7.595089332007653E-1    6.694119160642232E-7   -1.330690893916207E-5   -3.215485893647332E-6    1.108063666390639E-5    6.445312282900034E-1   -7.641758280568891E-1
 6.581226321036890E8     6.497046264416644E-1   -7.685599105059386E-1   -3.160845710361813E-6   -1.968883485349424E-6   -1.152424705276385E-5    2.055807902988823E-6    6.344354428816722E-1   -7.725107419810954E-1
 6.680926719840479E8     6.397843414718495E-1   -7.772441919268508E-1   -1.622909535404817E-5    5.438332024014217E-6    4.449483350736603E-6   -1.936729856574827E-5    6.238776021468411E-1   -7.804111769743181E-1
 6.780627118644068E8     6.298732509444835E-1   -7.852763953323318E-1   -4.440135431110694E-6    1.615293658467128E-6    3.579588258183551E-6    9.068411114317159E-6    6.128577628584049E-1   -7.883908228708150E-1
 6.880327517447658E8     6.195768916091504E-1   -7.935149077867616E-1   -2.721952724480523E-6    5.978730429792387E-6   -5.406334185551784E-7    2.904248676293603E-5    6.015218780384881E-1   -7.960081095802662E-1
 6.980027916251246E8     6.086527900058883E-1   -8.017055092474507E-1   -1.963299395867235E-6   -1.567962984612380E-6   -1.702485436831542E-5    4.749825952720079E-6    5.899510008413185E-1   -8.036781795710124E-1
 7.079728315054835E8     5.973269896257128E-1   -8.101990174342916E-1   -2.490479932977858E-6    4.668967996859229E-6   -4.943272456595928E-7   -3.287560858166596E-6    5.784179728127411E-1   -8.116019820297720E-1
 7.179428713858424E8     5.862085698686780E-1   -8.187273547421635E-1   -1.781487849239833E-6    9.091001470032090E-6   -7.541959946708517E-6    1.284365934827829E-5    5.672828570323358E-1   -8.202075850686964E-1
 7.279129112662014E8     5.751382738309078E-1   -8.271107375147398E-1    1.120909329356585E-5   -6.676528539647983E-6   -7.205035016896930E-6   -1.176164291446891E-5    5.559659230358704E-1   -8.289666023219540E-1
 7.378829511465603E8     5.639234733246410E-1   -8.359506421944982E-1    1.135536306319102E-5   -6.459092868680779E-6   -1.290515128248879E-6    8.654535199963241E-7    5.446372923069628E-1   -8.374168914525322E-1
 7.478529910269192E8     5.519043176935672E-1   -8.445058895427004E-1    3.266401672752950E-6   -1.554600823178505E-6    5.185023667658704E-6   -2.404563054455912E-6    5.334548304411169E-1   -8.450415478663948E-1
 7.578230309072782E8     5.393523501762409E-1   -8.516283339417280E-1   -3.116095818119575E-6   -7.062641915143237E-6    1.509348373070962E-5   -5.726524226788017E-6    5.222465185673844E-1   -8.517959372960442E-1
 7.677930707876371E8     5.288382120251663E-1   -8.570461443526024E-1   -2.912702685943897E-6    1.239492338353497E-6   -3.316946719113495E-6   -2.824688541689750E-6    5.110131691591321E-1   -8.582929050294198E-1
 7.777631106679960E8     5.191930700354808E-1   -8.638765997427434E-1    2.570979754539323E-6    5.624594120596205E-6   -1.480841731700305E-5    1.039829125570252E-5    4.994385346779628E-1   -8.648336514749978E-1
 7.877331505483550E8     5.089722307008142E-1   -8.708186347816489E-1    3.384019051149602E-6    9.037902001798301E-6    1.078374585465894E-5    6.350553533805649E-6    4.877206432835015E-1   -8.714173295543566E-1
 7.977031904287138E8     4.976654270829108E-1   -8.771869327700250E-1   -9.610012811767388E-6   -9.735806213586880E-6   -1.029656958471134E-5    1.342648566563750E-5    4.748480552604835E-1   -8.779783135877406E-1
 8.076732303090727E8     4.859434941385786E-1   -8.831630366666592E-1    3.902396565287617E-6    7.122110026107857E-6    3.484507665559715E-6    1.987521472780263E-5    4.620822555956053E-1   -8.840799333437308E-1
 8.176432701894317E8     4.738803533627247E-1   -8.892278962959014E-1    1.120313880938205E-5   -6.719325203078843E-6    1.514126918011893E-6    4.769329086311286E-7    4.491123767856856E-1   -8.903940625130045E-1
 8.276133100697906E8     4.615888259992167E-1   -8.956150917763972E-1   -9.878629774785311E-6    3.480827864186120E-6    3.164698133528379E-6    7.174125425805471E-6    4.365316884401941E-1   -8.970633978507949E-1
 8.375833499501495E8     4.489140810176526E-1   -9.019408611019430E-1   -7.865331780892463E-6    1.087971309512926E-5    1.943332528895801E-6    7.654779196116033E-6    4.244519608591247E-1   -9.037594086043363E-1
 8.475533898305085E8     4.361775330288415E-1   -9.083304182318669E-1   -4.079246671466366E-6    9.607188319187482E-6    5.715543372426186E-6    1.248004061748194E-5    4.125848920398031E-1   -9.099114380986169E-1
 8.575234297108674E8     4.234361545288474E-1   -9.148178028789301E-1   -6.684845996647698E-6    1.124295356569916E-6   -1.394451227431416E-6   -1.399543396677665E-6    4.008132644417570E-1   -9.150542326276557E-1
 8.674934695912263E8     4.105725040370037E-1   -9.213816991189377E-1   -1.477091094165210E-5    5.665283740355989E-6    4.854236753702083E-6    6.844067404845431E-6    3.886470606933490E-1   -9.199403210757475E-1
 8.774635094715853E8     3.974349693946448E-1   -9.279632766149177E-1    5.714278459969157E-6   -7.035878770395958E-6   -5.891730275029968E-6    4.280900263854009E-6    3.761737273977889E-1   -9.245897961416166E-1
 8.874335493519442E8     3.843772043355504E-1   -9.326194551106649E-1    1.077039107081071E-5    3.238811952883385E-6   -1.639077211858267E-5   -3.328506085871610E-8    3.630388741922829E-1   -9.291386294473871E-1
 8.974035892323031E8     3.731149728074666E-1   -9.362867540517498E-1    9.444899072927391E-6    1.660907408455746E-6   -7.745421438514057E-6    4.113210338717475E-6    3.496632545028387E-1   -9.334081432397453E-1
