#  HZ   S   RI   R     50.00 
! Rohde & Schwarz Vector Network Analyzer 
! Rohde-Schwarz,ZNB20-2Port,1311601062102128,3.60
! Created: UTC 4/29/2024, 2:54:50 PM
! freq[Hz]                re:S11                  im:S11                  re:S21                  im:S21                  re:S12                  im:S12                  re:S22                  im:S22
 1.000000000000000E5     9.963202140599737E-1    3.828722705823688E-3    1.345213431257076E-4   -1.329800113309192E-5    1.758236234869182E-5   -5.173298355021736E-5    1.010306584029807      -1.159433964847666E-2
 1.007003988035892E7     9.976475410442660E-1   -1.380985623532262E-2    2.101305848303131E-5    8.476023606721002E-6   -9.925786807884220E-6   -1.233524293733807E-5    9.958946647829389E-1   -1.439733129805955E-2
 2.004007976071785E7     9.998920967716417E-1   -2.717566785508235E-2    4.323464535180225E-7    7.543772413327234E-6    2.423910502474211E-6   -6.101510185912775E-6    9.988507912616814E-1   -2.766414292867887E-2
 3.001011964107677E7     9.980083075569127E-1   -4.107119875538452E-2   -7.448440799782068E-7   -5.253283749412021E-6    1.452988085007940E-5   -3.600240646290790E-6    9.975057417331009E-1   -4.196652732168826E-2
 3.998015952143569E7     9.976354355686926E-1   -5.312785382889391E-2   -7.731900364448751E-6   -2.665019171334248E-6   -3.075797637124945E-6    2.939792195599669E-6    9.975563498150635E-1   -5.672318916216542E-2
 4.995019940179461E7     9.960300010275983E-1   -6.596071680805207E-2    1.772480288379003E-5    9.925689296085341E-6   -3.533879973602129E-6    6.491208024120092E-6    9.965786295011472E-1   -6.910987857386833E-2
 5.992023928215354E7     9.942961084185165E-1   -7.886738096428204E-2    5.670988736573851E-6    1.148617783019717E-5    5.284997248103274E-6   -7.294376358455312E-7    9.946107013454873E-1   -8.187711245771329E-2
 6.989027916251247E7     9.930989867299131E-1   -9.187740922094466E-2   -1.643980696968803E-6    3.475033454818379E-6   -4.042042655643434E-6   -1.152821770120736E-5    9.934705960227816E-1   -9.476710014966869E-2
 7.986031904287139E7     9.924273679793228E-1   -1.052551891689186E-1    1.477137812172214E-7   -5.250645078977451E-6    5.514753044035135E-7   -8.648407675833581E-6    9.924124782929449E-1   -1.079527362384988E-1
 8.983035892323031E7     9.915797181392485E-1   -1.188336154180668E-1    6.083700328800933E-6   -1.852400360067831E-5   -5.687550718337781E-6    2.125776795133169E-6    9.907571741778034E-1   -1.211008713344747E-1
 9.980039880358922E7     9.894501565126476E-1   -1.324223879854458E-1   -7.800343726506603E-6    2.107959897450813E-6    3.960142129335594E-6    6.755060118170232E-6    9.885863609925450E-1   -1.344374101990735E-1
 1.097704386839482E8     9.865982269143213E-1   -1.455737141459290E-1    1.501436833608314E-5   -4.513949069824441E-8    2.837151630573602E-6   -3.229966808052602E-6    9.860918954693674E-1   -1.477814410159783E-1
 1.197404785643071E8     9.849392202206969E-1   -1.589717446300356E-1   -1.077303994799035E-5   -3.504439779450286E-6    2.642388904207924E-6    2.916432882829491E-5    9.843651774910459E-1   -1.610910539776966E-1
 1.297105184446660E8     9.830949984339034E-1   -1.717769167294857E-1   -1.265917319731906E-5   -9.287753281910474E-6    1.420625618908584E-6   -4.419216448662697E-6    9.828345861469989E-1   -1.743965253434618E-1
 1.396805583250249E8     9.817194201722997E-1   -1.846902227791629E-1    7.087721263530002E-6    1.610808558196157E-5   -7.267898282026721E-6    1.120752801576663E-5    9.807358410915643E-1   -1.875371537858071E-1
 1.496505982053838E8     9.789105534265851E-1   -1.971042821281705E-1   -4.191707368397263E-6   -3.162349368348600E-6   -2.938666219232646E-6   -5.069653952802065E-6    9.783402747696018E-1   -2.003050977833910E-1
 1.596206380857428E8     9.760645655620551E-1   -2.094767268819609E-1   -4.561529918795059E-6    1.045920548154160E-5   -5.686951638298937E-6   -3.592201994722435E-7    9.758009515549343E-1   -2.133070272644138E-1
 1.695906779661017E8     9.732553561163207E-1   -2.223621365267653E-1   -8.446407496449263E-7    1.488751502854048E-6   -3.429102772941073E-6    3.458145910809378E-6    9.729778592025319E-1   -2.261322313218788E-1
 1.795607178464606E8     9.709615156533365E-1   -2.347751199267813E-1    1.393024373444090E-6    1.326488342082910E-5   -4.780137630582847E-6   -5.246848012577471E-7    9.701174153534839E-1   -2.380006147192617E-1
 1.895307577268195E8     9.677552691864870E-1   -2.469984890897934E-1    2.776740539647199E-6   -3.700994313484740E-6   -1.117661092647831E-5    1.280540679693461E-5    9.666851642619084E-1   -2.504882484121403E-1
 1.995007976071784E8     9.637917975188909E-1   -2.594940739100624E-1    9.476349407332963E-7    2.580176958877232E-8   -8.522258656072264E-6    1.281771649437968E-5    9.627210642488528E-1   -2.631241077784407E-1
 2.094708374875374E8     9.604445037971020E-1   -2.723839509145780E-1   -4.365495494951847E-6    2.737511212117675E-6   -5.277218926353006E-6   -4.448053053441295E-6    9.589115130243274E-1   -2.761253266524032E-1
 2.194408773678963E8     9.574768200522789E-1   -2.851932399338140E-1   -2.023884739320637E-7    1.285058188150372E-5    3.434945184360203E-6   -1.434785048120844E-5    9.550300662824928E-1   -2.889619282992356E-1
 2.294109172482552E8     9.537790478709132E-1   -2.974178084566595E-1    3.202282345771753E-6   -3.818290888574226E-6   -1.412084335538603E-6   -9.644902072253437E-6    9.508883060456158E-1   -3.016369764651945E-1
 2.393809571286142E8     9.505947938804867E-1   -3.094464001922230E-1    6.702888210994108E-6    7.235391206589903E-7   -4.342802199537324E-6    5.729972896839467E-6    9.469395291092354E-1   -3.139228309342478E-1
 2.493509970089731E8     9.468430498567655E-1   -3.233176186390838E-1    6.231591150270644E-6    3.990787745432008E-6    5.382166489948512E-6   -8.038446855655065E-6    9.440984951895657E-1   -3.276347988331972E-1
 2.593210368893320E8     9.427219753227146E-1   -3.353755022606373E-1   -2.503054677783546E-6    5.303869841423926E-6   -7.631307765001377E-6    8.308612683990494E-7    9.397582224340657E-1   -3.408213840273180E-1
 2.692910767696909E8     9.386709764730644E-1   -3.467903162642733E-1   -1.802429496090481E-6    2.037629583877284E-6   -9.157374949914908E-6    1.640486901783600E-5    9.354097226449333E-1   -3.528639482114991E-1
 2.792611166500499E8     9.338665703741729E-1   -3.585109867814809E-1    9.885313482199747E-6   -2.943021123333311E-6   -1.052591974757270E-5    2.063755732335479E-6    9.309396786255822E-1   -3.646512374780262E-1
 2.892311565304088E8     9.288678742466379E-1   -3.705280501998537E-1    3.082833688806228E-6   -4.466378711015177E-6    1.364624912049343E-5   -9.708695783472119E-6    9.262350813772326E-1   -3.768334867408774E-1
 2.992011964107677E8     9.242599320318146E-1   -3.827955136332077E-1    1.681769305269690E-6   -6.521226873558784E-6    1.851871439220604E-5   -1.357896735967697E-7    9.211649305834338E-1   -3.885550552698709E-1
 3.091712362911266E8     9.189644074750303E-1   -3.949812850865336E-1    8.088726318013914E-6    1.623059873681581E-5   -6.059197840475228E-6   -6.331005409520899E-6    9.155285722945179E-1   -4.001424123669610E-1
 3.191412761714855E8     9.132916486819259E-1   -4.074031197421875E-1   -6.444083802639520E-6   -9.634111422674906E-6    2.409811354042665E-5    1.518701022905209E-6    9.097063791263765E-1   -4.119077282863665E-1
 3.291113160518445E8     9.075565242042511E-1   -4.199528279421257E-1    1.490839006296005E-6    1.008007664831162E-5   -9.559382946908811E-6   -1.077969901638790E-5    9.034323573792815E-1   -4.243994763042965E-1
 3.390813559322034E8     9.020147162491284E-1   -4.327926217992921E-1   -1.086311577007326E-5   -1.177994149671092E-6    7.766491477574424E-6    2.124485192597914E-5    8.968772093174702E-1   -4.369704416465490E-1
 3.490513958125623E8     8.968190376924116E-1   -4.453992751803178E-1    6.888461009109729E-6   -4.663564997658564E-6    1.385056397648554E-6   -3.059687123798767E-6    8.904726889929240E-1   -4.493726016871442E-1
 3.590214356929212E8     8.913907468457780E-1   -4.578575703580461E-1    1.495366567688914E-5    6.864969838453620E-6   -2.454487888118173E-5    8.427328096866767E-6    8.845015231771255E-1   -4.621564701007753E-1
 3.689914755732802E8     8.858646942549316E-1   -4.700052954592437E-1    8.242137877623960E-6   -6.487314284472431E-6   -1.191317448564488E-5    1.097012290535165E-5    8.789777550924511E-1   -4.746775597725154E-1
 3.789615154536391E8     8.797955792568783E-1   -4.813174846085534E-1    3.087674892363973E-7   -4.265059293871230E-6   -5.999633098720387E-6   -6.535678812868920E-7    8.738186705219639E-1   -4.868115285624239E-1
 3.889315553339980E8     8.742615610144460E-1   -4.920974755309384E-1    8.751901375802250E-6   -9.874606132756877E-6    1.206233069091937E-5    9.083248983605815E-6    8.679216078287090E-1   -4.987102706113197E-1
 3.989015952143569E8     8.674093348438644E-1   -5.027964459240115E-1    2.663192197546596E-6    2.291638362664801E-6    4.684230303080695E-6   -1.960837176552664E-6    8.610171879164382E-1   -5.097600406326530E-1
 4.088716350947158E8     8.602263843483758E-1   -5.135758140793621E-1   -1.426210912721912E-5   -1.119927637515666E-5   -2.053689586766836E-5   -2.033754206920431E-5    8.542716048974399E-1   -5.206675919512365E-1
 4.188416749750748E8     8.532875275420050E-1   -5.251367455928877E-1    2.606546699643637E-6    2.882155059523105E-6    5.278049623512204E-6   -3.261366914474786E-6    8.476635334612641E-1   -5.314966167348231E-1
 4.288117148554337E8     8.460735982063251E-1   -5.368228126437270E-1    3.285483759123899E-6    9.157382875146492E-7   -9.008065346030742E-6    1.317030449755094E-5    8.405433254633951E-1   -5.418159643112557E-1
 4.387817547357926E8     8.382656759640426E-1   -5.481903102152224E-1   -2.943834705122495E-6   -2.877705522761187E-6   -4.753081745907722E-6   -6.011237847969086E-6    8.326648307205923E-1   -5.523331500131360E-1
 4.487517946161516E8     8.305664695363342E-1   -5.600824392189007E-1    2.008576169759749E-6   -4.443949991114822E-6    5.488285465582564E-8   -4.448317247832462E-6    8.242542830133870E-1   -5.634757361015762E-1
 4.587218344965104E8     8.235659993374470E-1   -5.719756443958499E-1   -5.955077689682483E-6    1.518097659943612E-5   -2.397615406671850E-5   -1.224625915087781E-5    8.160428018172478E-1   -5.752306747541943E-1
 4.686918743768694E8     8.170798394476039E-1   -5.834782273290040E-1   -3.250723408958936E-6    1.906262120412603E-6   -2.154798028565232E-6   -1.077065316640454E-5    8.078418162192940E-1   -5.868729923636848E-1
 4.786619142572283E8     8.099325753290246E-1   -5.941400280761084E-1   -3.271469136164149E-6    1.640042362612434E-6    1.411514416451361E-5   -8.581751641898400E-6    7.993442426878405E-1   -5.980737479125716E-1
 4.886319541375872E8     8.023296451819295E-1   -6.046368935972720E-1    9.339871890411323E-6    1.556620848329608E-6    5.715630113595933E-6   -7.607077657054665E-9    7.904432799609878E-1   -6.089167408025927E-1
 4.986019940179462E8     7.940165677931785E-1   -6.153222442711592E-1    3.722054322026521E-7    6.154329909089232E-6   -1.345083125621891E-5   -1.239535898520112E-5    7.824136794705240E-1   -6.197675064955035E-1
 5.085720338983051E8     7.856766976389452E-1   -6.245367580184518E-1   -1.033038884350661E-5   -2.812032437983223E-6    1.522699505724124E-5   -1.967708734359133E-5    7.745186672517025E-1   -6.302111459231103E-1
 5.185420737786640E8     7.782856674352849E-1   -6.335899792768953E-1    7.566656954898107E-6   -2.316802203963697E-6    4.568933252869501E-6   -2.140156812879591E-5    7.669336860831564E-1   -6.400061037777586E-1
 5.285121136590229E8     7.700012450343848E-1   -6.431167288433549E-1   -3.842597907397278E-6    2.627973725848468E-7   -1.579928951273264E-5   -7.873629635852276E-6    7.590675618694528E-1   -6.498067802219983E-1
 5.384821535393819E8     7.614638015626158E-1   -6.531525044888363E-1    8.474367351550787E-6   -8.771615723674196E-6   -2.183899250256717E-6    6.487587917796346E-6    7.508667139475284E-1   -6.593911386045238E-1
 5.484521934197408E8     7.532871795209045E-1   -6.637270210641514E-1    6.849647733238878E-6    6.553438857719564E-6    8.996343501652969E-6   -2.526319130451776E-6    7.424099314960141E-1   -6.691107258716215E-1
 5.584222333000997E8     7.448048057918807E-1   -6.746536065839153E-1    8.445504635706133E-6   -3.124487615877665E-7    2.799047942104217E-7   -2.573973659128285E-6    7.332984582600588E-1   -6.790820320422556E-1
 5.683922731804587E8     7.356432349140917E-1   -6.850925236133627E-1    1.204664441161853E-6   -6.344998960369271E-6   -2.496099168521124E-6   -8.822135107275310E-6    7.232087715295691E-1   -6.892375971460905E-1
 5.783623130608176E8     7.263653916769918E-1   -6.950705176034970E-1   -4.682803400948753E-6   -6.644170246791867E-7   -4.844065551335151E-6    6.150677561932918E-7    7.126495193922343E-1   -6.989634574952535E-1
 5.883323529411764E8     7.170079114717339E-1   -7.050774961199427E-1   -8.361770797200843E-6    8.269959194041660E-8    1.186620901711659E-6    3.441571885043466E-6    7.021626717162596E-1   -7.086218393489283E-1
 5.983023928215353E8     7.079357193945138E-1   -7.151908407006344E-1   -1.616879247617727E-5    9.088470188877376E-6    3.327772989597591E-6   -2.589309483859843E-6    6.918469744536349E-1   -7.182906712877539E-1
 6.082724327018943E8     6.984778051839261E-1   -7.249259562176265E-1   -8.967427225671091E-6   -2.219636133140369E-6    3.915676821354303E-6    2.150814891809791E-5    6.815310684484298E-1   -7.277924178756129E-1
 6.182424725822532E8     6.886692405649011E-1   -7.346321409501533E-1    4.709779134761314E-6   -3.317308173494537E-6   -1.472020799331430E-5   -1.094097095013610E-5    6.718246744927243E-1   -7.373330569694609E-1
 6.282125124626122E8     6.780250691540177E-1   -7.439408446303509E-1    6.001994950509932E-6    6.698071673744981E-6   -1.255954254412283E-5    5.865911766914394E-6    6.627370885438935E-1   -7.467896768675176E-1
 6.381825523429711E8     6.683351226637916E-1   -7.510380121626758E-1   -1.113913250584896E-6   -8.059299094936220E-6    1.394952884025722E-6    1.150997571290029E-5    6.537044852404582E-1   -7.557280567088641E-1
 6.481525922233300E8     6.593230667846190E-1   -7.596438033488375E-1    7.530706897027821E-6    1.159289886338734E-5    6.424851944025419E-6   -1.681386082338685E-6    6.446266358708075E-1   -7.641181478049970E-1
 6.581226321036890E8     6.496857963774851E-1   -7.684966152578341E-1   -3.932098340840644E-6   -8.097226651696462E-6    4.456493540930255E-7   -1.269526773234717E-5    6.345744641222004E-1   -7.724549119686849E-1
 6.680926719840479E8     6.397221863386560E-1   -7.772236379070969E-1    4.104035296823089E-6    4.935291912991575E-6   -1.306059768286630E-5    4.353368387971562E-6    6.239038326236032E-1   -7.804091087493507E-1
 6.780627118644068E8     6.298768578215796E-1   -7.854171574155314E-1    1.480741780495368E-5   -1.258906670075266E-5    1.290977411849159E-6   -5.009498592362938E-6    6.128217081389579E-1   -7.883523834348105E-1
 6.880327517447658E8     6.196158350656856E-1   -7.937574139787805E-1    1.739558182192535E-5   -3.033088450604646E-6   -5.417901009223900E-6    7.379744919103140E-6    6.015481093539387E-1   -7.959181209220001E-1
 6.980027916251246E8     6.086171754800976E-1   -8.018025522220427E-1   -1.034083523167390E-5    1.822532789132459E-6    2.449392738235281E-6    6.267088051205062E-6    5.899808804305096E-1   -8.036581814597714E-1
 7.079728315054835E8     5.973823391172426E-1   -8.101202652409210E-1   -8.765082850832965E-6    3.608318542573102E-6    4.930904987900874E-6   -3.957543339217673E-6    5.784459553095712E-1   -8.115618059907272E-1
 7.179428713858424E8     5.861989854960274E-1   -8.187715303296101E-1   -7.529006392602732E-6    1.073178608853118E-5    5.355765817104823E-6    2.189572739954641E-6    5.672733017267370E-1   -8.201291319636179E-1
 7.279129112662014E8     5.751770506193242E-1   -8.272173801156993E-1    4.675073504575839E-6   -1.050437620225434E-5   -1.163398112820799E-5   -9.046749516723180E-6    5.559265850037278E-1   -8.289450118272299E-1
 7.378829511465603E8     5.638731129954139E-1   -8.359378856402117E-1   -4.054084869463432E-6    4.773395871644401E-6   -7.493521379165509E-6    2.244356015037349E-6    5.446277519804930E-1   -8.372888611270662E-1
 7.478529910269192E8     5.517971657395312E-1   -8.444314865185946E-1    3.510557456055727E-6    3.515789584110510E-6   -1.051237938610941E-5   -3.512625821750129E-6    5.334382067224508E-1   -8.449775581225343E-1
 7.578230309072782E8     5.392253866745904E-1   -8.517029456950836E-1    5.492243817085544E-7   -6.787606571836114E-6   -4.150195665111439E-6   -4.881302139294641E-6    5.222341778498978E-1   -8.519466454808503E-1
 7.677930707876371E8     5.288115541184012E-1   -8.570920024583982E-1   -2.075242694213508E-6   -2.214441168876930E-6   -3.819441253871895E-7    1.620015838164185E-5    5.110519047281010E-1   -8.583661053458486E-1
 7.777631106679960E8     5.192980967545857E-1   -8.640327933132479E-1    2.115467031523236E-6    3.179956679744529E-6    3.804981401238172E-6    1.975650337897711E-6    4.995379757483815E-1   -8.648004229642678E-1
 7.877331505483550E8     5.088164363247825E-1   -8.707742259831933E-1   -4.401721578342804E-6    1.059152691325659E-5   -4.266544172748056E-7   -1.013352352433879E-5    4.876771010701969E-1   -8.715691590256772E-1
 7.977031904287138E8     4.976129886612651E-1   -8.772408765834249E-1    8.131546059627244E-6    7.465850402567715E-6    2.485752558582251E-6   -4.676534712532177E-6    4.749665403449188E-1   -8.780172045945726E-1
 8.076732303090727E8     4.858763924728514E-1   -8.830237982893762E-1   -1.683063916193435E-5    2.129318810732225E-6    9.014474700674370E-6    1.312213144575181E-5    4.620065067698125E-1   -8.839846535821990E-1
 8.176432701894317E8     4.738407204670918E-1   -8.890868563485842E-1   -8.746376959745593E-6   -9.988550454940047E-6   -9.986564468436787E-6    3.879574378076754E-6    4.491520826308501E-1   -8.903864851818282E-1
 8.276133100697906E8     4.615681087608859E-1   -8.956918342555041E-1    2.740903589349460E-6    8.810760744483091E-6   -8.214017838997049E-6   -6.372794126163223E-6    4.366145204559347E-1   -8.971196111427056E-1
 8.375833499501495E8     4.489494861554478E-1   -9.020179747517880E-1    1.411819511829330E-5   -5.309484993116334E-6    2.346838719837751E-6    1.150481842838728E-5    4.244651767666535E-1   -9.038755404482453E-1
 8.475533898305085E8     4.361160109746008E-1   -9.084892374647424E-1    4.021986323434148E-6   -1.507994114482173E-7    3.930229504718190E-6    2.036838562173338E-6    4.125560766464189E-1   -9.098420747689817E-1
 8.575234297108674E8     4.233723547877170E-1   -9.146745853770293E-1    2.618288762976124E-6   -5.862139689362758E-6   -2.293293263224198E-6    8.163539495371729E-6    4.006928822712147E-1   -9.151114267887474E-1
 8.674934695912263E8     4.105405530930368E-1   -9.214999773843299E-1   -8.090801322894938E-6    1.558102349803276E-5   -4.555795826028163E-6   -7.662912822038089E-6    3.886684926673148E-1   -9.200218007633874E-1
 8.774635094715853E8     3.974969648773621E-1   -9.281109446335860E-1    6.513605284378537E-6    1.216995713028341E-6    4.629749135022723E-6    8.237018178611297E-6    3.761952199144096E-1   -9.247107761133851E-1
 8.874335493519442E8     3.843006039972302E-1   -9.326413156834630E-1    1.012085519334606E-6    1.032174569491537E-5   -6.549980658760956E-6    8.043326954118096E-6    3.629732424737138E-1   -9.291643776270441E-1
 8.974035892323031E8     3.730470865455929E-1   -9.362186817844722E-1    1.111531752838193E-5    4.827350586674042E-6    1.139020623828941E-5   -2.039115741108457E-6    3.495270614949019E-1   -9.333819060679599E-1
