#  HZ   S   RI   R     50.00 
! Rohde & Schwarz Vector Network Analyzer 
! Rohde-Schwarz,ZNB20-2Port,1311601062102128,3.60
! Created: UTC 4/29/2024, 2:54:33 PM
! freq[Hz]                re:S11                  im:S11                  re:S21                  im:S21                  re:S12                  im:S12                  re:S22                  im:S22
 1.000000000000000E5     9.962722143660458E-1    3.651103253737911E-3   -1.096396197130780E-4   -2.225263546506638E-5    3.175346149338498E-5    1.097115087709084E-4    1.010623961746905      -1.128954566507885E-2
 1.007003988035892E7     9.978061927185651E-1   -1.420506110272224E-2    9.994830820259715E-6    1.274776979289346E-5   -3.030635326486495E-6   -1.222799826405115E-5    9.958219260271552E-1   -1.446352205557678E-2
 2.004007976071785E7     9.998105311971919E-1   -2.740189903944748E-2    5.877262146204458E-6   -4.535880065323417E-6    4.611402304738549E-6    7.125321345789478E-6    9.987757398214019E-1   -2.762354220746037E-2
 3.001011964107677E7     9.980704806350171E-1   -4.108498445597941E-2    4.833307370241353E-6    1.720008532492796E-5    1.902406382698450E-5   -3.103590284095325E-6    9.973663223558220E-1   -4.199281626100203E-2
 3.998015952143569E7     9.977593340749465E-1   -5.303998926110583E-2   -7.741406117367655E-6   -2.940337422786560E-6   -1.399593253325043E-5   -2.415900267985033E-6    9.975544981437163E-1   -5.656225388978127E-2
 4.995019940179461E7     9.961911064179838E-1   -6.608182528978056E-2   -1.397024782625767E-5    3.273107630680435E-7    9.304975679565109E-6   -7.896922795392090E-6    9.965630466091216E-1   -6.907927444275763E-2
 5.992023928215354E7     9.943315204080178E-1   -7.872432451312664E-2   -5.433472775936634E-7   -1.935077327192899E-5   -1.110406302549302E-6   -6.539691264707197E-7    9.946485991160782E-1   -8.191102584442861E-2
 6.989027916251247E7     9.930511407189233E-1   -9.179668636867108E-2    8.339155412133955E-6    1.999011955055328E-5   -5.678786819006162E-6    9.120593198969450E-6    9.934756860730521E-1   -9.478179498272608E-2
 7.986031904287139E7     9.925313022794052E-1   -1.052036307772263E-1    7.624051422841149E-6   -1.515840216718917E-5    1.350228851511059E-5   -1.943959654934579E-5    9.922910246127458E-1   -1.079666085761093E-1
 8.983035892323031E7     9.915507225169484E-1   -1.187241611476828E-1   -1.053418055031727E-5   -8.537875656703245E-6    3.358692859814078E-6    1.485264766903445E-6    9.907177578264365E-1   -1.210111455920710E-1
 9.980039880358922E7     9.895168751428395E-1   -1.323100558805756E-1    1.011030681755543E-7   -3.192557986762599E-6    1.122048649870306E-6    3.122671570378884E-7    9.884466939307716E-1   -1.345347947555596E-1
 1.097704386839482E8     9.866953725266515E-1   -1.455695527659661E-1   -1.175922468325022E-5   -3.572424151948198E-7   -8.360518649340596E-7    5.655648234464919E-6    9.863223587575227E-1   -1.478569549809772E-1
 1.197404785643071E8     9.849375786385740E-1   -1.588653053587107E-1   -1.729407865328365E-5    1.506880920337356E-5   -9.482673851018503E-6   -2.979061621279509E-6    9.843447664991857E-1   -1.610282929195178E-1
 1.297105184446660E8     9.832065628934703E-1   -1.718333566236190E-1   -4.384640277705641E-6   -3.337746900928182E-6    3.994780152943272E-6    1.899931907543170E-5    9.829486521984310E-1   -1.744444951546582E-1
 1.396805583250249E8     9.816822030549442E-1   -1.846806865785275E-1    2.834179578348525E-6   -2.238369831893439E-8   -1.123270680460444E-5   -1.867194282130428E-5    9.808941887556228E-1   -1.875392440409152E-1
 1.496505982053838E8     9.790218758004150E-1   -1.971049444879591E-1   -8.073246232127309E-6   -3.409900902682608E-6   -6.042569149109886E-6   -5.477354740241245E-6    9.785025295813448E-1   -2.003217912516151E-1
 1.596206380857428E8     9.762908681033854E-1   -2.095359884709803E-1    3.695620905825748E-6   -3.249592396028944E-6    3.413510329420899E-6    1.335487964513566E-6    9.758348102888043E-1   -2.133454263208906E-1
 1.695906779661017E8     9.733794169164612E-1   -2.223662795970709E-1   -3.870263330480755E-6   -1.663589215893411E-6    1.337752923062812E-5   -1.082937023776057E-5    9.729229292356559E-1   -2.261350482912800E-1
 1.795607178464606E8     9.707200896249714E-1   -2.347939558720602E-1   -1.664162190746285E-5   -1.529809109682461E-5   -1.220294434028676E-5    4.051641954162476E-6    9.701296630343085E-1   -2.380095073484079E-1
 1.895307577268195E8     9.677789049190435E-1   -2.471482697063001E-1    7.787682139205342E-7   -4.794440642770675E-6   -1.789758424522699E-6   -4.792180935566032E-6    9.665704282601605E-1   -2.505354997314966E-1
 1.995007976071784E8     9.639638802762575E-1   -2.595956511768897E-1    1.504663173656900E-5   -9.507030224297194E-6    1.000893091722094E-5   -3.270865360201993E-6    9.629101340164516E-1   -2.631593556780554E-1
 2.094708374875374E8     9.604749223744964E-1   -2.724640439301222E-1    5.168192930966240E-6   -1.218737577639964E-5   -1.422895592880936E-5   -9.855284050671962E-6    9.589516357137599E-1   -2.761632707626626E-1
 2.194408773678963E8     9.573174463904461E-1   -2.851384740104197E-1    1.918543058430867E-5    5.805767086362251E-6   -1.251021946192073E-5   -2.461107226044751E-5    9.551833776654469E-1   -2.891193483298047E-1
 2.294109172482552E8     9.537590913266610E-1   -2.974462654946040E-1    1.064793015600375E-5   -1.389686084171363E-6   -4.975797390552163E-6    2.637142532885991E-6    9.507886759352460E-1   -3.016689036514197E-1
 2.393809571286142E8     9.506911217414457E-1   -3.094817756833954E-1    1.239611802397049E-6   -1.240572168078392E-6    4.972977393911915E-6   -4.928105460007249E-6    9.470158332940063E-1   -3.139376739861958E-1
 2.493509970089731E8     9.469833481202455E-1   -3.233497102596609E-1   -2.392013000583066E-6    9.930382365721466E-6    1.439573512530779E-5   -2.068717633895752E-5    9.441630030899015E-1   -3.276543610243137E-1
 2.593210368893320E8     9.426986515718560E-1   -3.353749548272961E-1   -2.532983113256339E-6    1.449340008923534E-5   -7.488538230242702E-7    2.878545009741882E-6    9.398547049607839E-1   -3.407609662759186E-1
 2.692910767696909E8     9.385607816530624E-1   -3.468254873072734E-1   -3.688470154018943E-6   -1.517601912137424E-5    7.229648312593297E-6   -4.014159758343698E-6    9.354472229137208E-1   -3.528219471523754E-1
 2.792611166500499E8     9.338961412303723E-1   -3.585055926353944E-1    2.285147015866617E-6    1.092921970049730E-5   -8.634582566500939E-6    2.438897084622374E-5    9.308611291348420E-1   -3.646500449481115E-1
 2.892311565304088E8     9.289972576015900E-1   -3.705697023718946E-1    8.800083418564654E-6   -3.150689524927312E-6   -4.187174182489873E-6   -4.465557582733459E-6    9.263142703133617E-1   -3.769178310740140E-1
 2.992011964107677E8     9.241606423038524E-1   -3.826351057639928E-1   -1.008907601452876E-6   -1.050105642660543E-5   -5.796214851947161E-6   -7.784936738513792E-6    9.212414980716565E-1   -3.886856430343288E-1
 3.091712362911266E8     9.189829749896226E-1   -3.949905964812671E-1   -2.329376825811970E-5   -9.097828014572827E-6    3.408428494177132E-6   -2.433948790861017E-5    9.155679187586826E-1   -4.000817304034623E-1
 3.191412761714855E8     9.134379185925362E-1   -4.073862061387393E-1   -2.771276037420631E-6   -1.199710626763224E-6   -1.053007892310732E-5    4.997235198896577E-6    9.096359403365919E-1   -4.119301859169279E-1
 3.291113160518445E8     9.075344624988350E-1   -4.199239765872649E-1    7.596714257067924E-6    1.060296767534496E-5    1.235514596770677E-6   -2.000745417255879E-5    9.034031704775490E-1   -4.244047584678669E-1
 3.390813559322034E8     9.019575844953376E-1   -4.327621715998700E-1    5.618620633549515E-6   -3.330493151779159E-6    5.384981983968999E-6   -8.140302424689766E-6    8.968601793932925E-1   -4.369982056048061E-1
 3.490513958125623E8     8.967658306399110E-1   -4.453682129128384E-1    3.346619043858250E-6    1.498398915154096E-6    1.221628426250845E-5    8.351913692615655E-6    8.905197440402567E-1   -4.494739298563935E-1
 3.590214356929212E8     8.913763174103755E-1   -4.578085874483171E-1    7.735834220858568E-6    1.573201815915913E-5    1.684463178492507E-6    6.301330723140960E-6    8.845194100046196E-1   -4.620487912591290E-1
 3.689914755732802E8     8.859629196274074E-1   -4.700589219568756E-1    1.583774586279979E-6   -6.562119823141566E-6   -3.218052990802584E-7   -2.303430927694796E-5    8.790744321975867E-1   -4.747475702017197E-1
 3.789615154536391E8     8.798191529734954E-1   -4.812481322454049E-1    5.092694031000887E-7    1.243077689258714E-5    1.949897213118498E-6   -1.984629200703933E-5    8.739249763632040E-1   -4.867961500878681E-1
 3.889315553339980E8     8.741690484488603E-1   -4.920033431975859E-1    8.510854227656923E-6   -7.341307756521677E-6    2.999730610775991E-6    2.416641116839900E-5    8.680035721366702E-1   -4.987781129776773E-1
 3.989015952143569E8     8.674898070923629E-1   -5.027679502704120E-1    1.550679993686975E-5   -1.484101275412674E-6   -9.463089265379687E-6   -5.803089848058123E-6    8.610361342839999E-1   -5.096955332643448E-1
 4.088716350947158E8     8.602636644756502E-1   -5.135618704226631E-1   -1.613945876624631E-5    1.203168327124787E-5   -7.237835263149263E-6   -2.781146964769311E-6    8.541349002554081E-1   -5.205833837383917E-1
 4.188416749750748E8     8.532295869922057E-1   -5.250668838482233E-1    2.107149880350566E-6    3.871660760685444E-6   -8.112285468327269E-6   -8.154789525650526E-6    8.475893636070335E-1   -5.314264116044672E-1
 4.288117148554337E8     8.459874766363489E-1   -5.367377137431435E-1   -3.156095626985906E-6    6.563770365077406E-6   -6.523226707531611E-6   -9.076247852045253E-6    8.406630822399146E-1   -5.419454916375289E-1
 4.387817547357926E8     8.382884916181237E-1   -5.482282402970021E-1    6.589686268413992E-7   -3.226959883026328E-6   -6.642283726568315E-6    1.491672704407885E-5    8.326590186982896E-1   -5.523254384878356E-1
 4.487517946161516E8     8.305834284347643E-1   -5.600850735936360E-1    7.280323011724910E-6    2.918949791190487E-6   -1.191372017780070E-5    1.316950400053188E-5    8.241902836253145E-1   -5.634362471602523E-1
 4.587218344965104E8     8.236307165024628E-1   -5.719129852269066E-1    4.305301713081319E-6   -1.379829062833721E-5   -8.031420567638402E-6    3.648551080381347E-6    8.160527461267890E-1   -5.752357955700522E-1
 4.686918743768694E8     8.171336149080700E-1   -5.833673888430603E-1    6.436054454794674E-7    6.951020310909413E-6    1.434901857221416E-5   -7.679754643309771E-6    8.078870590760100E-1   -5.868206318305113E-1
 4.786619142572283E8     8.098926296051400E-1   -5.942002553918361E-1    4.903895720934451E-6   -6.946631858678362E-6    5.132383692309993E-6   -1.917188092574330E-5    7.993070392783679E-1   -5.980592465930098E-1
 4.886319541375872E8     8.024187788649121E-1   -6.046675126330793E-1    3.621269549282572E-6    7.841924059982729E-6    1.310694170730534E-5   -1.031439024439237E-5    7.905468907861860E-1   -6.089234249774558E-1
 4.986019940179462E8     7.942539034346856E-1   -6.154293998324896E-1   -4.909678421069916E-6    1.740731915896331E-5   -6.930792542639750E-6   -9.401655644235733E-6    7.823739259824439E-1   -6.196652807827467E-1
 5.085720338983051E8     7.857445161758188E-1   -6.244871989860701E-1   -3.809505710839284E-6    6.326544689807106E-6    1.089998263156716E-5    1.563364359655519E-5    7.746764609488719E-1   -6.303495898038045E-1
 5.185420737786640E8     7.783069173285970E-1   -6.334727949807079E-1   -8.042357641625237E-6    1.557187501413804E-6    6.827601379840007E-6   -7.289048176190411E-7    7.670243669140006E-1   -6.400908523569607E-1
 5.285121136590229E8     7.700635088681752E-1   -6.431519362197858E-1    8.721845006117397E-6    4.027570237867261E-7   -1.049721209239090E-5   -5.089709648545600E-6    7.589346257651762E-1   -6.497055614217211E-1
 5.384821535393819E8     7.615726295034807E-1   -6.531364143320214E-1   -5.024057888413092E-6    9.706633449352456E-6    4.654627840386910E-6   -1.782260540350823E-5    7.508617847106299E-1   -6.594339498263667E-1
 5.484521934197408E8     7.533493804799486E-1   -6.637593994412376E-1    5.264730494880584E-6    3.992155788789025E-6    8.776023925822734E-6   -1.395504144596542E-5    7.424271497251279E-1   -6.691885810339312E-1
 5.584222333000997E8     7.447660438174731E-1   -6.746384006692288E-1    2.577403326310344E-6   -1.607690394302270E-5    1.206246293133484E-5   -2.386791025243524E-5    7.333392091490724E-1   -6.792687105590929E-1
 5.683922731804587E8     7.357527470040947E-1   -6.851336897052419E-1   -1.291666174573915E-5   -2.390101988846885E-6   -5.364399795080566E-6   -1.736091804806729E-5    7.230706512534641E-1   -6.891548211123553E-1
 5.783623130608176E8     7.263643189405417E-1   -6.950794759630617E-1    2.656155519138362E-6   -1.924912890220154E-5   -2.486907136527409E-5    4.746713021771771E-6    7.126486955455921E-1   -6.989145559977775E-1
 5.883323529411764E8     7.172373394113550E-1   -7.051848044139519E-1    2.176638676829438E-6   -7.333665845542471E-6   -1.760502099868623E-5   -4.047321652167405E-6    7.020720435579395E-1   -7.086235029197088E-1
 5.983023928215353E8     7.079339683204967E-1   -7.152507139386600E-1   -1.063463784109844E-5   -1.647758950256064E-5   -4.851461334196670E-6   -1.135656511421172E-5    6.918376623275003E-1   -7.182726504633741E-1
 6.082724327018943E8     6.984468410501576E-1   -7.248677790670994E-1    2.175778871181064E-5    7.998048417115509E-8    6.108262402198397E-6   -9.428800974408754E-6    6.817338657139851E-1   -7.278276912820939E-1
 6.182424725822532E8     6.886460723884509E-1   -7.345349538520854E-1    1.006917156561480E-5   -3.392418737079161E-6    2.909121193130516E-6   -2.340742403043567E-5    6.718559171722422E-1   -7.371896160030426E-1
 6.282125124626122E8     6.779308122823037E-1   -7.440009426082682E-1   -6.119866427722389E-6    1.998215933540291E-6   -1.074884838045528E-5   -2.618556800079967E-6    6.627630969148470E-1   -7.467468918427194E-1
 6.381825523429711E8     6.682968223442248E-1   -7.511178060141279E-1    7.470498813847965E-7   -9.218194656768072E-7    6.556163265216902E-7   -4.868694161783310E-6    6.537990543335094E-1   -7.557415366932531E-1
 6.481525922233300E8     6.594196683846105E-1   -7.596760206716884E-1    1.603423213252126E-5   -4.625672597754557E-6    2.004991038532655E-5   -4.206704834043928E-6    6.446150179060539E-1   -7.640739503216726E-1
 6.581226321036890E8     6.497408839721903E-1   -7.685616957254112E-1    3.530902221772325E-6   -1.293342550408584E-5    1.660011547319669E-5    1.077549281433199E-5    6.345221699091586E-1   -7.724984381419531E-1
 6.680926719840479E8     6.398054876086585E-1   -7.772792403015628E-1    3.446308482246614E-6   -2.419883002969038E-6   -8.794388597727769E-7   -1.388680845109029E-5    6.239902853417898E-1   -7.804968544700175E-1
 6.780627118644068E8     6.299179659258114E-1   -7.853955147845386E-1   -1.113713010387178E-5    2.003999259992372E-7    1.654317412904109E-5    9.065294298262860E-6    6.128897117067174E-1   -7.883548999164666E-1
 6.880327517447658E8     6.195466990801020E-1   -7.937069657213408E-1   -4.335305827135395E-7    1.173712373422464E-5    8.216557016824576E-6    6.163868589792222E-6    6.015551110216423E-1   -7.961149957066983E-1
 6.980027916251246E8     6.085450976560942E-1   -8.018499887778864E-1    5.407731911455249E-6   -6.057270667217858E-6    1.647654488533273E-5   -1.123492648573982E-5    5.899991930289957E-1   -8.035871068175378E-1
 7.079728315054835E8     5.973525763229128E-1   -8.102701997095575E-1    9.917366482094287E-6    3.735370130435547E-6   -7.634511595319360E-6   -3.635830259126380E-6    5.784841701399841E-1   -8.116208849098652E-1
 7.179428713858424E8     5.861049573254548E-1   -8.187774529715021E-1    1.256567832918223E-6   -3.083092419562088E-6   -4.570248232782087E-6   -8.150555690540478E-6    5.673704264042068E-1   -8.201772285865933E-1
 7.279129112662014E8     5.750725791715759E-1   -8.272579513425526E-1   -5.749038261063503E-6   -8.262815011138054E-6    7.527492872069255E-6   -2.665095320276312E-6    5.559523143995259E-1   -8.289885570491414E-1
 7.378829511465603E8     5.637556463152219E-1   -8.359891207861528E-1    8.593300701225490E-6   -2.947605160565919E-6    3.716057940664903E-6   -4.793290863571974E-6    5.445308881013371E-1   -8.372629419480202E-1
 7.478529910269192E8     5.517734494342608E-1   -8.445650816012402E-1    4.099575521369465E-6    2.988614738660673E-6    3.965360239262366E-6    8.426009003023743E-6    5.334589703130138E-1   -8.449675956561429E-1
 7.578230309072782E8     5.391753331493774E-1   -8.516617058908914E-1   -2.073828141836316E-6   -1.218411889455577E-5    9.874450055522254E-6    9.074109393350748E-6    5.222404114144996E-1   -8.519211793215072E-1
 7.677930707876371E8     5.287533980193416E-1   -8.570901358477182E-1   -5.939754356839540E-6    6.622157546347734E-6    2.727881648495483E-6   -6.860459047349444E-7    5.110320395877318E-1   -8.583773925445018E-1
 7.777631106679960E8     5.191846487439270E-1   -8.639712897644989E-1   -4.067127543267731E-6   -3.160771923092176E-6    2.110250443538364E-7   -9.299005883652041E-6    4.995224530358108E-1   -8.649300372394751E-1
 7.877331505483550E8     5.088689617137248E-1   -8.709291288733360E-1    2.414020512308004E-5    1.052477239421886E-5   -1.169812297589264E-6   -7.956646925554811E-6    4.875484194219727E-1   -8.714271220871319E-1
 7.977031904287138E8     4.975977405702876E-1   -8.773116240331478E-1   -3.961639005399538E-6    6.395676156727837E-6   -3.304794598673408E-6   -3.015671249101048E-6    4.749349826551748E-1   -8.779240816029475E-1
 8.076732303090727E8     4.858699349273372E-1   -8.832048532903548E-1   -1.731321492122023E-6    9.779839880088322E-6   -1.770448724488170E-6    6.522047815119156E-6    4.620067424077407E-1   -8.840407861212966E-1
 8.176432701894317E8     4.738247208803306E-1   -8.891591804344382E-1    5.851748973434041E-6    1.459528261003129E-6    3.826694072637678E-6    1.151086694897999E-5    4.492258202486429E-1   -8.904408492787269E-1
 8.276133100697906E8     4.614800661213068E-1   -8.956530522153621E-1    4.280966935264025E-6   -6.609945928123301E-6    6.691161652515278E-6    2.630630168950352E-6    4.365595572054194E-1   -8.969900258191762E-1
 8.375833499501495E8     4.489934559510103E-1   -9.020621818900022E-1   -7.775521214537719E-6   -2.191272849001938E-6    6.197576799109193E-6    3.380861582737777E-6    4.243323245705833E-1   -9.036654402498367E-1
 8.475533898305085E8     4.360609183569225E-1   -9.084326422308140E-1   -7.868084175174634E-6   -3.681254222043668E-6    2.674597344875405E-6    9.390852665791041E-6    4.125270299050366E-1   -9.097554180109335E-1
 8.575234297108674E8     4.233372763434919E-1   -9.148821150220068E-1   -1.662430068625797E-6    5.703185907649545E-7   -1.799528865485451E-6   -5.907839919553312E-6    4.008241637002126E-1   -9.152127951932696E-1
 8.674934695912263E8     4.105031645619595E-1   -9.214830611546720E-1   -1.125476411814411E-5    5.052613280866434E-7   -1.482273738235543E-5    1.348398731213855E-6    3.887867451740564E-1   -9.199976624483210E-1
 8.774635094715853E8     3.974537119095657E-1   -9.280255042356698E-1   -1.995084182423646E-6   -5.036255606736401E-6   -4.383951069387982E-6   -1.108175350745555E-6    3.761368697691171E-1   -9.245384039474419E-1
 8.874335493519442E8     3.842970498045630E-1   -9.326635309049843E-1    1.486282795394317E-5   -6.496648845148398E-6   -4.047322587242522E-6    8.639845306451209E-6    3.630533925211288E-1   -9.290648460090348E-1
 8.974035892323031E8     3.730009943989060E-1   -9.362815754278938E-1   -1.150034577816535E-5   -6.515002201282082E-6   -8.833763207895410E-6   -1.931126311744714E-6    3.495074818356303E-1   -9.334354304709185E-1
