#  HZ   S   RI   R     50.00 
! Rohde & Schwarz Vector Network Analyzer 
! Rohde-Schwarz,ZNB20-2Port,1311601062102128,3.60
! Created: UTC 4/29/2024, 2:40:43 PM
! freq[Hz]                re:S11                  im:S11                  re:S21                  im:S21                  re:S12                  im:S12                  re:S22                  im:S22
 1.000000000000000E5     9.960258036514125E-1    3.522478519746196E-3    7.964435849520955E-5   -5.565135619880328E-5   -8.460601874832309E-5    1.859324056257017E-4    1.010205544052436      -1.137193887546464E-2
 1.007003988035892E7     9.979196298246678E-1   -1.387704068815577E-2    5.933539859189152E-6    1.807021600888639E-5    1.714280892926024E-5   -5.327049385144838E-6    9.956194471531724E-1   -1.459825796067296E-2
 2.004007976071785E7     9.999388721489848E-1   -2.715196214173613E-2   -1.328368415309620E-5    1.253025782919679E-5    7.183440471460432E-6   -4.740821815094170E-6    9.986237009198846E-1   -2.764171621277596E-2
 3.001011964107677E7     9.980836840562793E-1   -4.099672383809751E-2   -5.393346833978537E-6   -1.393887446357497E-5   -8.515142419078693E-7   -6.979475384094179E-6    9.975102567415988E-1   -4.199381342461116E-2
 3.998015952143569E7     9.976245942708060E-1   -5.306523462199004E-2   -6.062539101669676E-6    1.206550786926804E-5    2.724280486908147E-6    3.440013518798885E-6    9.976055491988922E-1   -5.663742874983416E-2
 4.995019940179461E7     9.959378348588861E-1   -6.600012108612206E-2    8.282142632383726E-6   -8.443107734278232E-6    5.411279940688778E-7   -5.777304884870259E-6    9.966107378560960E-1   -6.907421537306579E-2
 5.992023928215354E7     9.940431070520307E-1   -7.883523341100929E-2    5.784785061813190E-6   -3.046162306346738E-6    2.093091386916440E-5   -1.431698096376157E-5    9.947122198044831E-1   -8.191350150106419E-2
 6.989027916251247E7     9.929079270581140E-1   -9.195670194994904E-2   -1.352249240753416E-5    3.371393296916087E-5   -1.497963553044986E-5   -7.937950242204197E-6    9.934265417209479E-1   -9.472029627172221E-2
 7.986031904287139E7     9.926039731547249E-1   -1.052373227603886E-1    1.307465282549691E-5    1.740705794124124E-5   -1.060909943868611E-5   -2.502284632920103E-6    9.923583167650928E-1   -1.078449324604162E-1
 8.983035892323031E7     9.916038264365731E-1   -1.188393489701375E-1   -7.204423156235305E-6    1.552854021018751E-6    2.316683902583721E-5    4.717873640351812E-6    9.908502723598318E-1   -1.209966018402393E-1
 9.980039880358922E7     9.893640292009580E-1   -1.324729934992258E-1    2.555582068376032E-6   -1.411364093347404E-5   -1.152485960648546E-5    6.261063697137306E-6    9.886414505280495E-1   -1.343891599618655E-1
 1.097704386839482E8     9.863985123839863E-1   -1.455286514354145E-1   -5.214253634929969E-6    2.077904677357909E-5    9.709325319969959E-6   -1.122004161843882E-5    9.862444682129988E-1   -1.477782259661488E-1
 1.197404785643071E8     9.847189762145623E-1   -1.588558203046902E-1   -1.018039193186443E-5    6.953942860464789E-6   -7.701160008835366E-6    5.887050733885687E-6    9.843704557297551E-1   -1.611470388058833E-1
 1.297105184446660E8     9.830825949630628E-1   -1.718824881738393E-1    7.110207271049546E-6   -2.219037620613339E-6   -6.396950099197245E-6    7.542530375679167E-7    9.828512289429960E-1   -1.744601496088724E-1
 1.396805583250249E8     9.817817827410663E-1   -1.847002197922462E-1   -1.609017823748208E-6   -2.810495680659693E-6    1.010512557126729E-5    9.798670105459193E-6    9.808425722987766E-1   -1.874657181119690E-1
 1.496505982053838E8     9.790102282389294E-1   -1.972141284745426E-1    4.604963139639386E-6   -1.829977778385907E-6    7.399758403623909E-6   -5.588097908373373E-6    9.784234393504281E-1   -2.004083145338048E-1
 1.596206380857428E8     9.761914557959075E-1   -2.095230884460246E-1    7.490535524526729E-7    3.299055340372776E-6   -1.144848012421716E-5    8.946561105885458E-6    9.757887449601291E-1   -2.133526591092730E-1
 1.695906779661017E8     9.732639482424572E-1   -2.223942494193396E-1    3.460349474951493E-6   -8.105739352714361E-6    2.468160664558193E-6    9.089308709287431E-6    9.728945171443014E-1   -2.261110532333473E-1
 1.795607178464606E8     9.707977621666360E-1   -2.349453781105671E-1   -1.023851622595345E-5   -1.107540853155871E-5    4.518066910884978E-6   -2.182715611715296E-5    9.701072623848490E-1   -2.380774036526879E-1
 1.895307577268195E8     9.677358405604481E-1   -2.471861675100805E-1    6.628516669177404E-6    2.077119122435041E-5   -5.616092287990862E-6   -1.093617719019011E-5    9.667861271133195E-1   -2.505171434451540E-1
 1.995007976071784E8     9.638595569323971E-1   -2.596199720060573E-1    9.044552733760026E-6   -1.537573902078127E-5   -1.937952471075543E-5    3.345449022824712E-5    9.627439059667079E-1   -2.631587257802248E-1
 2.094708374875374E8     9.603213034597967E-1   -2.725009891045762E-1   -1.995777150281417E-5   -2.774384784981396E-6    8.479483295110530E-6   -2.298980111605073E-6    9.589456123980488E-1   -2.761430289772547E-1
 2.194408773678963E8     9.573647169872659E-1   -2.852147738569266E-1   -1.970293695245935E-6    2.482440567542330E-5   -1.269100071299300E-7   -3.223948239646323E-6    9.551227531900099E-1   -2.891803420159439E-1
 2.294109172482552E8     9.537049808338456E-1   -2.976067298198042E-1    1.651111920618793E-5   -1.218329448137201E-5   -5.899938326023745E-6    4.724836028005848E-6    9.509439383227505E-1   -3.018468131900752E-1
 2.393809571286142E8     9.505925327974816E-1   -3.095984097413534E-1   -2.395235911452938E-5   -6.676104945602290E-7    9.646214209751136E-6   -6.087494588191733E-6    9.471371717602176E-1   -3.140704990798803E-1
 2.493509970089731E8     9.467268853725268E-1   -3.234302803382122E-1   -1.549576683771376E-5   -1.356820231552825E-5   -2.216072306453009E-6    1.766357854616915E-5    9.441675211492555E-1   -3.277134933108947E-1
 2.593210368893320E8     9.426857967523228E-1   -3.355156351426576E-1   -8.426134497685793E-7    2.704081454200747E-6    2.057510275164293E-6   -2.390440891485248E-6    9.396469793983055E-1   -3.408778701192577E-1
 2.692910767696909E8     9.385764696499280E-1   -3.469324551514292E-1    3.979177787255232E-6   -2.321161148091114E-6   -1.268264972626514E-5   -1.271447295124063E-7    9.354897067913079E-1   -3.528446039202379E-1
 2.792611166500499E8     9.338777088634768E-1   -3.586522588744444E-1   -2.388687561090936E-6   -2.330064592554864E-6   -6.977983240142466E-6    1.152830957789483E-5    9.309832278852509E-1   -3.646726343431628E-1
 2.892311565304088E8     9.289451023641770E-1   -3.706380992733150E-1   -1.879450224189080E-5    1.311127447182231E-5   -1.507498832602803E-5    9.543118718209688E-6    9.260980302310136E-1   -3.768385907610244E-1
 2.992011964107677E8     9.239416032161607E-1   -3.827162372002035E-1    3.089108022342108E-6    7.221511606933342E-7    8.096014549585419E-6   -1.241688428715171E-6    9.210109632119055E-1   -3.886267399566023E-1
 3.091712362911266E8     9.188039634241015E-1   -3.951398338243111E-1   -6.405072712016202E-6    3.206554140673574E-6    4.437298032464504E-7   -6.835200678155438E-6    9.157309130434007E-1   -4.001926030921855E-1
 3.191412761714855E8     9.132846002574583E-1   -4.073994071929412E-1    3.427336959866953E-6   -9.843958834992639E-6    2.500889222073772E-6   -1.380625199587764E-5    9.096986505054555E-1   -4.119671356638393E-1
 3.291113160518445E8     9.074269357166923E-1   -4.200337070043460E-1    5.300090777184509E-6   -3.427783264998248E-7    1.752330578684816E-6    1.708768276694127E-6    9.034980484772150E-1   -4.244832901854174E-1
 3.390813559322034E8     9.017964940977058E-1   -4.327955159582661E-1    8.673475246442055E-6   -8.389981404116565E-6    1.163825676831859E-5    2.128190089132456E-6    8.969324573345910E-1   -4.369540853655289E-1
 3.490513958125623E8     8.966828415231948E-1   -4.454002753240472E-1   -9.223484754540406E-6   -9.524771903500536E-6    2.171444659263358E-5    1.218740320014355E-6    8.904716812120235E-1   -4.494230776727042E-1
 3.590214356929212E8     8.912719412879802E-1   -4.579615155045965E-1    1.645893574170573E-6   -1.077878908623744E-5    1.176135330803746E-5   -5.752392981400945E-6    8.845166974167955E-1   -4.621844810182539E-1
 3.689914755732802E8     8.859209359838566E-1   -4.701924701439711E-1   -1.940975301839182E-6   -3.181973623203673E-6    5.877171517565290E-6    2.967315584509428E-7    8.791989932329235E-1   -4.748367796397897E-1
 3.789615154536391E8     8.798255346865638E-1   -4.813911293808470E-1   -1.040066876045308E-5    6.985933624699475E-6    5.814060793934820E-6    3.572893501887085E-6    8.738951149792937E-1   -4.868231605886155E-1
 3.889315553339980E8     8.741237038675628E-1   -4.921692311437137E-1    7.396366182515176E-6   -6.494154822749584E-7   -6.318109924440635E-6   -4.781922406696908E-6    8.679482429732287E-1   -4.988192951534846E-1
 3.989015952143569E8     8.673639228109533E-1   -5.028303430143708E-1   -1.204421788515335E-5   -1.309486921711494E-5   -7.764184785413700E-6   -6.828931642160103E-6    8.610396295197194E-1   -5.096625584791532E-1
 4.088716350947158E8     8.601522689914545E-1   -5.137198506238949E-1   -5.844681440291743E-6   -3.016006891193450E-6   -1.619651196958885E-6   -1.062199938339272E-6    8.543087474224784E-1   -5.207347055095332E-1
 4.188416749750748E8     8.533051214596921E-1   -5.251939136457521E-1    4.207552649215733E-7   -4.329021932203899E-6   -7.383159132306687E-6   -1.999111063682918E-5    8.476912734852716E-1   -5.315333666312499E-1
 4.288117148554337E8     8.459926659129077E-1   -5.368278941009231E-1   -5.405189518616864E-6   -7.647329774208224E-6    1.195655300704900E-5    8.653587342027409E-6    8.405316118757483E-1   -5.419185768444196E-1
 4.387817547357926E8     8.382069219873454E-1   -5.482043613289869E-1    2.778417184683441E-6   -9.420544132454678E-7   -4.185670878861432E-7   -8.471650634613221E-7    8.325807020991677E-1   -5.523363264466199E-1
 4.487517946161516E8     8.305036038296144E-1   -5.600444938454439E-1    8.512288101604257E-6   -5.949013594282296E-6    2.580608155113416E-6   -8.855034442324702E-6    8.240716152923663E-1   -5.635172370679687E-1
 4.587218344965104E8     8.235764943366501E-1   -5.720824757777110E-1   -6.996734294685262E-7   -8.036316017574965E-6   -3.831799525344447E-7    3.036052528464572E-5    8.160735718808845E-1   -5.754564618917695E-1
 4.686918743768694E8     8.170355161175058E-1   -5.835213971137300E-1    1.035875802479204E-7    1.309154588309991E-6   -1.135440683689827E-5    1.397658592483797E-5    8.079115607725461E-1   -5.869147963972119E-1
 4.786619142572283E8     8.098223632900502E-1   -5.942645055063122E-1    4.029655463990184E-6    3.831367880091715E-6   -2.586055987995102E-6   -9.717944635057361E-6    7.992185107463614E-1   -5.980369835105876E-1
 4.886319541375872E8     8.022326278647203E-1   -6.046840923769388E-1   -1.266122377638242E-5    1.822178826377369E-6    1.121349646253818E-5    1.220443191342384E-5    7.905219598242033E-1   -6.089099278019832E-1
 4.986019940179462E8     7.939515441950138E-1   -6.154464023063071E-1   -6.886107789698513E-6   -1.092568513249331E-5    2.974788073014119E-5    3.611185391277100E-6    7.824009888027653E-1   -6.197533489785902E-1
 5.085720338983051E8     7.856348157739901E-1   -6.246188416082403E-1   -3.612080026209362E-6    1.677726207361381E-6    2.677554768128229E-6    1.366716042818666E-6    7.746506907504663E-1   -6.302659888423577E-1
 5.185420737786640E8     7.782282682243322E-1   -6.336754870754300E-1   -1.464386997392340E-5    2.779832354319293E-6   -4.224100428700537E-6    5.581909794998941E-6    7.669304903698045E-1   -6.400916524363116E-1
 5.285121136590229E8     7.698706967286277E-1   -6.430039770936301E-1    1.073836195488047E-5    7.239196312069225E-6    1.022375963364606E-5    5.969570516127552E-6    7.589762451038837E-1   -6.497829472314256E-1
 5.384821535393819E8     7.612847638727815E-1   -6.531709751814915E-1    2.870057282695843E-6   -1.510743528454874E-5    4.878125672305534E-6   -1.197425764209097E-5    7.508365979368884E-1   -6.593746083512358E-1
 5.484521934197408E8     7.532987604902666E-1   -6.637014419806826E-1    2.076485877567060E-5   -5.816355772529877E-6    9.033851070306968E-7    1.386678038800501E-5    7.424284874136708E-1   -6.692781320351313E-1
 5.584222333000997E8     7.447287660158886E-1   -6.746841882255685E-1   -1.190664747559372E-5    7.172833379659258E-6    1.816971669490672E-5   -2.474356884577696E-5    7.333026368752573E-1   -6.793018580990697E-1
 5.683922731804587E8     7.355743211007770E-1   -6.851623831501343E-1    1.417327515913760E-5    8.967748034447900E-6   -1.056997340256001E-6   -1.286427659162746E-5    7.231661281693499E-1   -6.892781614349145E-1
 5.783623130608176E8     7.261549526056084E-1   -6.950280540621673E-1   -1.041709734897781E-5   -8.563441228591378E-7    6.350336819576986E-6   -1.998107806795202E-6    7.127108945561486E-1   -6.990439672454205E-1
 5.883323529411764E8     7.169671017290454E-1   -7.050618065221803E-1   -1.031344006460818E-5    1.676882756848476E-5    3.868314709450762E-6   -1.386213974864760E-5    7.021420186966181E-1   -7.087029901747091E-1
 5.983023928215353E8     7.078663011015141E-1   -7.152841021002885E-1    2.233580347034839E-6   -7.633945196421609E-6    9.656671047752757E-6    6.938616231427581E-6    6.919651378816897E-1   -7.185679904377875E-1
 6.082724327018943E8     6.983065989396521E-1   -7.249501305637885E-1   -2.199763198577498E-5    5.409979828228885E-6    1.242898621154114E-5    2.749781610761648E-5    6.817018406535593E-1   -7.278443300311839E-1
 6.182424725822532E8     6.884282461304662E-1   -7.346087159878656E-1   -8.147349756796088E-6    1.738116595673395E-5   -2.576278177598335E-6   -3.947976378900737E-6    6.718365709119700E-1   -7.373849257980700E-1
 6.282125124626122E8     6.779179267619854E-1   -7.439524990192232E-1   -4.399669723290252E-6   -1.025423624392091E-6   -4.650417331564004E-6   -4.946521758699046E-6    6.626363941550174E-1   -7.467954617777700E-1
 6.381825523429711E8     6.682678798221215E-1   -7.511252742191664E-1    2.959168467089706E-6   -9.654747785421610E-6    6.029247408745425E-6    1.700217878177984E-5    6.537517814037384E-1   -7.556547365343055E-1
 6.481525922233300E8     6.593266215833515E-1   -7.597048831221878E-1    5.374590084559901E-6   -5.060399340806736E-6   -1.093734095133414E-6    1.219870817403811E-5    6.446890385938803E-1   -7.642377285725437E-1
 6.581226321036890E8     6.496182040218174E-1   -7.685967641169767E-1   -7.681247442695335E-6   -1.180112320344580E-7    8.967424009366753E-6    6.598130337671419E-6    6.345307075110670E-1   -7.725746748775916E-1
 6.680926719840479E8     6.397160984115124E-1   -7.772904479365786E-1    4.110847803634028E-6    1.244370362975034E-6   -8.087216412480671E-6    1.152719157242643E-5    6.238609149319801E-1   -7.804405910285420E-1
 6.780627118644068E8     6.298050185610432E-1   -7.853236530270777E-1   -1.514002568555073E-5    1.241970265568924E-6    2.643355608436714E-6   -1.705892938677156E-5    6.127570508929534E-1   -7.882588227601214E-1
 6.880327517447658E8     6.195568122403781E-1   -7.936103252605730E-1   -2.432901425375620E-6   -1.012852690398029E-5   -2.230601170830043E-6    7.031846740607497E-7    6.015057553790359E-1   -7.960176756000195E-1
 6.980027916251246E8     6.085690770377267E-1   -8.018578178220447E-1   -6.436363981963846E-6    1.956373070068599E-5   -3.545235103441355E-6   -4.069227925014323E-6    5.899846049401870E-1   -8.037865733858813E-1
 7.079728315054835E8     5.972125948573529E-1   -8.102141681384318E-1    8.074694598257498E-6    9.533416967219566E-6   -3.369330117540432E-6    7.533486008637189E-6    5.785865995500220E-1   -8.118072875646404E-1
 7.179428713858424E8     5.860577891913362E-1   -8.187196149474769E-1    1.393000415847318E-6   -3.221233608093962E-6    5.971675454848267E-6   -2.876384603888307E-7    5.672340311113172E-1   -8.202332822923839E-1
 7.279129112662014E8     5.749912745547505E-1   -8.270234774636710E-1   -1.091206484271341E-6   -9.751053292178113E-6    1.087860918016711E-6    1.706781137647823E-5    5.558620815130986E-1   -8.290078201183508E-1
 7.378829511465603E8     5.637342220547896E-1   -8.360187958650073E-1   -2.456510085480575E-6    3.615953123408151E-6   -1.207466968883280E-5   -1.333982433499703E-5    5.445452316590902E-1   -8.375021264627228E-1
 7.478529910269192E8     5.517791442601742E-1   -8.445279069637529E-1    1.003177871361017E-5   -1.535773225081743E-6   -7.376048637206399E-6    1.895254511269347E-5    5.335063803143103E-1   -8.451505174657038E-1
 7.578230309072782E8     5.391648587056226E-1   -8.516558768865340E-1    2.598527591234100E-6   -6.488700876720015E-6   -3.394929258743893E-6   -6.386730179885309E-7    5.223022462083544E-1   -8.520958993204353E-1
 7.677930707876371E8     5.287286529400466E-1   -8.569779112557162E-1   -7.705859478488283E-6   -8.188480854066548E-6   -4.935600852864278E-6   -1.682778501488427E-6    5.109461171330271E-1   -8.585270494913407E-1
 7.777631106679960E8     5.191754903330937E-1   -8.639238031324237E-1    1.149523741679075E-5   -3.765771050532280E-8    2.262902533950907E-6   -1.346056454033718E-5    4.993438237438975E-1   -8.648921589456809E-1
 7.877331505483550E8     5.087826606630116E-1   -8.708518105918691E-1   -3.669185862612647E-6   -1.931110612737473E-5   -8.003466596974329E-6    1.349570936684423E-5    4.876043319907934E-1   -8.715539495329832E-1
 7.977031904287138E8     4.975679079067758E-1   -8.772829333932559E-1    4.141801032492874E-6   -7.256752896662624E-6   -1.093166677372992E-5   -6.924970472433906E-6    4.749994443268562E-1   -8.781070369860194E-1
 8.076732303090727E8     4.858495811894016E-1   -8.831972801083784E-1    3.233241171714918E-6   -1.341687065538563E-5    8.640903151567442E-6    4.761064083189831E-7    4.620203059315173E-1   -8.842699947056065E-1
 8.176432701894317E8     4.737791712378359E-1   -8.890995103885134E-1   -1.649281190134213E-6    1.491731910669698E-5    6.815577721114263E-6   -5.545761552870086E-6    4.491872490026723E-1   -8.904163612454283E-1
 8.276133100697906E8     4.615041146789893E-1   -8.955903127840157E-1   -5.473944339566550E-6   -6.035125875457336E-8    1.363891955523595E-6    6.256807333611574E-6    4.365036547863177E-1   -8.970993231173550E-1
 8.375833499501495E8     4.488057202865713E-1   -9.020088123082144E-1    1.150559896370312E-5    1.236033937694787E-5   -2.234231058715400E-6   -1.368366580449484E-5    4.243445571750532E-1   -9.039244435196623E-1
 8.475533898305085E8     4.360588664987695E-1   -9.083375591900530E-1    6.371971044692650E-6    1.451397161633392E-5    3.620883285631249E-6   -1.436137432124938E-8    4.125165520260844E-1   -9.099463193370827E-1
 8.575234297108674E8     4.232952718660730E-1   -9.147525654083950E-1    9.873850496107585E-6   -4.708308028535897E-6    1.140741931419736E-6    3.052120734487979E-6    4.007405013482416E-1   -9.152513245058499E-1
 8.674934695912263E8     4.104567929918775E-1   -9.214132650796504E-1    7.026215261995489E-6   -5.675541047080904E-6   -9.912258595504776E-6    3.517124887537746E-6    3.886699473093961E-1   -9.200482216301168E-1
 8.774635094715853E8     3.973976296342100E-1   -9.280071341288046E-1    1.651212586171365E-6    6.622434082515098E-6   -3.577962067439898E-6   -6.677995729715830E-6    3.759835719093687E-1   -9.246488918134557E-1
 8.874335493519442E8     3.842455783722917E-1   -9.326085171903616E-1    3.849341718299579E-6    1.632905422607484E-5    8.612922560584743E-6    6.497385957507192E-7    3.630418409842160E-1   -9.292192139239625E-1
 8.974035892323031E8     3.729703432261923E-1   -9.362391318144457E-1    4.131850061043600E-6   -1.891202752567881E-5   -5.298309646989313E-6    5.349744512880395E-6    3.495293448018578E-1   -9.336689269759159E-1
