#  HZ   S   RI   R     50.00 
! Rohde & Schwarz Vector Network Analyzer 
! Rohde-Schwarz,ZNB20-2Port,1311601062102128,3.60
! Created: UTC 4/29/2024, 2:40:31 PM
! freq[Hz]                re:S11                  im:S11                  re:S21                  im:S21                  re:S12                  im:S12                  re:S22                  im:S22
 1.000000000000000E5     9.963068970486666E-1    3.471446723039469E-3    1.187941974763915E-4    3.670350278212628E-5   -3.244870249495658E-5    2.168525657105989E-5    1.010276237602417      -1.139633799878663E-2
 1.007003988035892E7     9.974846999827707E-1   -1.390546853516421E-2    6.535561773230216E-6    1.228872547075335E-5    6.967810455695222E-6    7.628715381841549E-6    9.958529500654423E-1   -1.453520629621648E-2
 2.004007976071785E7     9.998206428589884E-1   -2.715501423188883E-2    8.858966758812443E-6    1.462753982456756E-5    1.633820483298324E-5    8.334323505806109E-6    9.987228467043812E-1   -2.766143410314234E-2
 3.001011964107677E7     9.977352665267666E-1   -4.104204198882903E-2    1.244283580594787E-5    1.387954572394147E-5   -9.138000736535768E-6    1.442728372794126E-5    9.974137498989292E-1   -4.199604312614430E-2
 3.998015952143569E7     9.975997071243979E-1   -5.305300463650905E-2   -5.274160353544512E-6   -1.222803638828975E-5   -5.925027079072575E-6    1.974286054754889E-6    9.976264273669090E-1   -5.669573740648917E-2
 4.995019940179461E7     9.961944408735730E-1   -6.597477889911774E-2    3.101503386131865E-6   -6.133698772817934E-6    1.774652411913258E-5    1.585425666613960E-5    9.966242703287854E-1   -6.908250335537075E-2
 5.992023928215354E7     9.944524041199759E-1   -7.882159491732674E-2    1.614564479617115E-6   -3.191158988539719E-6   -1.476687059189145E-5   -6.613015993040619E-6    9.945737083241010E-1   -8.196258835530866E-2
 6.989027916251247E7     9.931171898311006E-1   -9.175366197250757E-2   -5.253672461526299E-6    6.820030950119614E-6   -3.570158715641199E-6    3.869197385433420E-6    9.934442477383219E-1   -9.475661650322911E-2
 7.986031904287139E7     9.923674039073147E-1   -1.052046991994745E-1    1.299268448066662E-5    1.631466300256866E-5   -1.552379786734587E-5   -7.099553170317835E-6    9.924342121664589E-1   -1.078555474133789E-1
 8.983035892323031E7     9.913715174251985E-1   -1.187606361650343E-1   -1.692685153507487E-5    6.781293251274323E-6   -1.109976086860762E-5    9.202097908901523E-7    9.909361578439866E-1   -1.210411144083488E-1
 9.980039880358922E7     9.893352566996306E-1   -1.323570471597231E-1    9.007993390714911E-6    9.221290706636891E-6   -1.938987530591573E-5   -4.285625320490603E-6    9.886056199583709E-1   -1.343797093611692E-1
 1.097704386839482E8     9.867785649453965E-1   -1.455717217628224E-1    6.311236619202187E-7   -4.929902500727969E-6   -3.034981540529007E-6   -5.278906184019223E-6    9.862340119460403E-1   -1.477574938247142E-1
 1.197404785643071E8     9.848751106616638E-1   -1.589073551481904E-1    1.116300833733994E-5    1.433801532901151E-8    7.732612109227042E-6   -7.217187261484838E-7    9.843846068777153E-1   -1.611906803196082E-1
 1.297105184446660E8     9.831474715002527E-1   -1.717785172318783E-1   -2.916525834346208E-6   -9.046618183495282E-6   -2.004626250969956E-6    2.598150528693642E-6    9.829265155919324E-1   -1.744424809670510E-1
 1.396805583250249E8     9.814998378438543E-1   -1.847144109073364E-1    7.048633950075980E-7    1.802973628517521E-5    1.451862300550199E-5    8.036506403099213E-6    9.809030301103971E-1   -1.875252628929729E-1
 1.496505982053838E8     9.790877258553200E-1   -1.971984507673913E-1    1.598893162119288E-6   -5.463584702994957E-6    7.823535773169870E-6    1.027902209885807E-5    9.785286439197717E-1   -2.004575494969338E-1
 1.596206380857428E8     9.763272927671415E-1   -2.095217092274546E-1    1.711056955149228E-5   -3.589237616996967E-7   -7.762791867563535E-6   -2.819164910364985E-6    9.757937039462287E-1   -2.132412788879421E-1
 1.695906779661017E8     9.732364754184717E-1   -2.223451149591220E-1    1.086702824798622E-6    1.139556491557228E-5   -7.030517059262529E-6    1.360654343472206E-7    9.728614382044001E-1   -2.260963201734257E-1
 1.795607178464606E8     9.707341370828556E-1   -2.348212637627446E-1    4.039024536493109E-7    1.961567622591582E-6    9.877003755245864E-6   -7.152527514663496E-6    9.701465444775604E-1   -2.380724167028652E-1
 1.895307577268195E8     9.676946918153948E-1   -2.470788380777718E-1    6.099163894467862E-6    5.214283986208129E-6   -6.902297255220374E-6    3.115822342756942E-6    9.668340572640484E-1   -2.504855819187572E-1
 1.995007976071784E8     9.639209420218623E-1   -2.595681974259949E-1   -1.971807672536213E-5   -9.767970305161349E-6   -5.046695617310143E-6    5.149117901690488E-6    9.628528101355543E-1   -2.631540626078539E-1
 2.094708374875374E8     9.604637714835593E-1   -2.723969358881788E-1    5.036517118794274E-7    1.134424700078247E-5    1.356319614875184E-5    1.867250018097217E-6    9.589471244857822E-1   -2.761757559141761E-1
 2.194408773678963E8     9.571627619817253E-1   -2.851427115522989E-1    1.084990206737076E-5   -2.523803219589947E-5    1.795310919153294E-5   -5.419801318151509E-6    9.551983033664205E-1   -2.891081844895106E-1
 2.294109172482552E8     9.535945824015004E-1   -2.974663804985543E-1   -3.579391089724773E-6    5.407805896759786E-6    2.294973263548678E-6    2.559891164730540E-6    9.510735224016535E-1   -3.018574452209941E-1
 2.393809571286142E8     9.505649256453315E-1   -3.095688349913873E-1   -5.286869617816622E-6    2.187860462928253E-6   -3.361078642767699E-6   -1.123744259944313E-5    9.471096380027401E-1   -3.140421782378653E-1
 2.493509970089731E8     9.469798155024669E-1   -3.234566510441629E-1   -1.300634733451053E-5    1.342227529343294E-5   -1.838082021866486E-5    3.589897090274210E-6    9.441438108015736E-1   -3.276899751979656E-1
 2.593210368893320E8     9.427499781849695E-1   -3.355131117677917E-1   -4.785602435712317E-6    3.105778515171016E-6   -2.765342257516214E-6    9.474543477724456E-6    9.397505093824537E-1   -3.408719008868657E-1
 2.692910767696909E8     9.386363376243686E-1   -3.468774733188957E-1   -6.213777771894339E-6   -1.234264928844200E-5    2.553771038574528E-6    6.002115844776188E-6    9.355258389439947E-1   -3.527916601635814E-1
 2.792611166500499E8     9.338191079167819E-1   -3.586054244557477E-1   -1.132779036488452E-5   -9.446499599281056E-6    6.433449406506108E-6    1.640405539956994E-5    9.310067122263158E-1   -3.646576473692322E-1
 2.892311565304088E8     9.289456431737456E-1   -3.706006304251772E-1    6.453592862682363E-6   -5.370517792771918E-6   -1.345722283310962E-5    6.960030612666611E-6    9.262527046727299E-1   -3.768982846223283E-1
 2.992011964107677E8     9.241146093489614E-1   -3.827037968428343E-1   -1.847257470102006E-6   -1.854070775938416E-6   -1.646463271185714E-5   -8.625334591462473E-6    9.210880722501268E-1   -3.886503441992365E-1
 3.091712362911266E8     9.189234417847991E-1   -3.950536605625550E-1    3.239676806162179E-6   -4.761766113843096E-6    2.156007468222700E-5   -3.006061610150765E-6    9.158165056791906E-1   -4.002802391819927E-1
 3.191412761714855E8     9.132667863863747E-1   -4.073845536019022E-1    1.774849901834389E-7   -5.954377273547443E-6    8.518035763268819E-7   -2.660962616203796E-7    9.098035698185476E-1   -4.119654948563709E-1
 3.291113160518445E8     9.075054711386358E-1   -4.200030686625766E-1    1.627260914520117E-5   -1.503313349167669E-5   -4.532677217810160E-6    7.191290717108153E-6    9.033476376126787E-1   -4.243495000750907E-1
 3.390813559322034E8     9.020823890821531E-1   -4.328720644397505E-1    2.676562610128771E-6   -2.668974035582480E-6   -3.453905605377236E-6   -1.259376462822070E-5    8.967581660719431E-1   -4.369851860170763E-1
 3.490513958125623E8     8.967460634429751E-1   -4.454409924229358E-1    4.143067116555329E-6    7.227491812776758E-6   -4.240489760952254E-6   -1.699305919167118E-6    8.905836741525515E-1   -4.494366117244032E-1
 3.590214356929212E8     8.914261937876582E-1   -4.579468230744307E-1    1.516292171269738E-5    1.479686201118671E-5    5.527317444287982E-6   -1.909693296996236E-6    8.846155773606035E-1   -4.622296680870354E-1
 3.689914755732802E8     8.858203109915713E-1   -4.701472694277182E-1    5.968510162692772E-6   -1.014974123781082E-5   -3.639344638364620E-6   -5.018530892211145E-6    8.790813619098379E-1   -4.747348193613954E-1
 3.789615154536391E8     8.797248055064717E-1   -4.813050070031951E-1    1.936188911540274E-6    1.006905464479962E-5    9.707143539513976E-6    1.624626095942188E-5    8.739209732636409E-1   -4.867797767633287E-1
 3.889315553339980E8     8.742679387832269E-1   -4.920991425325567E-1    1.829904270051580E-6    1.179566071262085E-6   -2.361315243013658E-6   -3.063090253529483E-6    8.681093911184942E-1   -4.987916729873029E-1
 3.989015952143569E8     8.674655626831570E-1   -5.028344504084079E-1   -1.067941727951444E-5   -5.669621444184478E-6    1.808062791816449E-5   -1.072743555363423E-5    8.611421208445446E-1   -5.097725707449819E-1
 4.088716350947158E8     8.601155967592775E-1   -5.136303894381875E-1   -8.274594351401189E-6    9.088494962736433E-6   -1.149593660010384E-5   -2.713867366327994E-5    8.541746192988966E-1   -5.205858323473878E-1
 4.188416749750748E8     8.532269616952278E-1   -5.250505840033617E-1   -6.205288529304372E-6   -6.939549530541804E-6   -1.276648673731256E-5   -5.520457897388658E-6    8.476171038946684E-1   -5.315179367876683E-1
 4.288117148554337E8     8.459773524451736E-1   -5.367774981950345E-1    4.192730795006988E-6   -1.598835284726632E-6   -2.587718477184584E-6   -8.370284409090119E-7    8.406299940862535E-1   -5.418251687390268E-1
 4.387817547357926E8     8.383241939916249E-1   -5.483354611574262E-1   -4.572520542347057E-6   -9.320734635259388E-6    4.351822842095146E-6    1.942121558166486E-6    8.326796999583855E-1   -5.523618603257974E-1
 4.487517946161516E8     8.305735740955267E-1   -5.601213683838258E-1   -4.422229615636198E-6    1.096620710080551E-5    8.966012256145428E-6    4.136086757760508E-6    8.241927107201674E-1   -5.634858487197669E-1
 4.587218344965104E8     8.235031320184905E-1   -5.719089030686993E-1    5.651747832844065E-6   -2.677667226142841E-6   -1.035121434238374E-5   -5.447538918426748E-6    8.159492623515144E-1   -5.752248168430001E-1
 4.686918743768694E8     8.169447774164867E-1   -5.833822505652737E-1   -1.282940762982696E-5   -1.158021770314008E-6    8.232086903919536E-7   -1.871531590326750E-5    8.079074452167682E-1   -5.869056130173522E-1
 4.786619142572283E8     8.098840319809367E-1   -5.942504166996255E-1   -1.586603400236272E-6    7.242191162998298E-6    2.824067785284131E-6    3.260088301197059E-6    7.993468217644484E-1   -5.980926469841709E-1
 4.886319541375872E8     8.023106389040664E-1   -6.047511723947036E-1   -5.500531261210754E-6    5.563246123101168E-6    2.838143961631352E-6    5.644852191308676E-6    7.906812323151754E-1   -6.089808150565810E-1
 4.986019940179462E8     7.939035170058942E-1   -6.154095764614992E-1    4.862326683438463E-6   -1.314326757286820E-5   -4.896780935432157E-6    1.115949871621955E-5    7.823504607606953E-1   -6.197254449840486E-1
 5.085720338983051E8     7.855914547066620E-1   -6.245185782391293E-1    8.181773654906742E-6    1.507148961639701E-5    1.021587687730731E-5    4.218790541176222E-6    7.747966538679280E-1   -6.304158529957191E-1
 5.185420737786640E8     7.782760359519548E-1   -6.335556580521817E-1    1.094485428402631E-5    1.204847684927260E-5   -2.222011686537173E-6    2.818085616226558E-6    7.669690362698582E-1   -6.402572513269507E-1
 5.285121136590229E8     7.700319888334755E-1   -6.431717377663108E-1   -5.638866500434633E-6    1.285096860028903E-5   -8.173450969536429E-6   -5.484610385988481E-6    7.589964005415163E-1   -6.497426630866227E-1
 5.384821535393819E8     7.614047096997809E-1   -6.532340596962498E-1    4.853437827499199E-6   -3.875370476718072E-6   -1.540706556713005E-6   -8.402661301028164E-6    7.508553620247185E-1   -6.593928413615027E-1
 5.484521934197408E8     7.533278274284844E-1   -6.637274571691694E-1   -1.786379811398681E-6   -6.626915991145773E-7   -5.796528807294501E-6   -1.795925603239825E-5    7.424559550154303E-1   -6.691716710938796E-1
 5.584222333000997E8     7.447700197072770E-1   -6.746519783961248E-1    1.711305220876176E-5    2.786854125200069E-6    5.321403034478371E-6   -1.674189089319652E-6    7.333413270601991E-1   -6.792416040166326E-1
 5.683922731804587E8     7.355411664833956E-1   -6.851572970984825E-1   -1.483991286015758E-5   -6.795081234297550E-8    3.952668257363081E-6    6.232112257900876E-6    7.231570060854974E-1   -6.892197579152750E-1
 5.783623130608176E8     7.263174932250757E-1   -6.951627005185229E-1    1.228098902365536E-5    1.198522398184985E-5   -1.468505899372952E-5   -4.014371016012618E-6    7.126401282475248E-1   -6.989165195597116E-1
 5.883323529411764E8     7.171006938405047E-1   -7.051580088130688E-1   -1.351959881550641E-5   -8.486797053331249E-7    1.948148613268615E-5    9.287002118771315E-6    7.021110960226520E-1   -7.085955246822602E-1
 5.983023928215353E8     7.078497467316692E-1   -7.152692476069207E-1    6.999940578756265E-6   -1.180794936132390E-5    7.120047658468853E-6   -1.511614268752177E-5    6.919538369734908E-1   -7.184790278286037E-1
 6.082724327018943E8     6.983514839852512E-1   -7.249554937950509E-1   -9.488867200198613E-6    8.261207339520835E-6   -7.552998724262059E-6    8.055392828834628E-6    6.817412049748038E-1   -7.278253869389065E-1
 6.182424725822532E8     6.884277327799757E-1   -7.347372118548053E-1   -1.080909625234352E-5   -9.953429860059707E-6    2.321624009630526E-5    1.176002202748399E-6    6.717195041744404E-1   -7.372278834367508E-1
 6.282125124626122E8     6.780271266745352E-1   -7.440294552680449E-1    1.843363502192602E-5   -3.626205048032136E-6   -1.526806676306197E-5   -2.378889103175508E-5    6.627348613894798E-1   -7.467836362352066E-1
 6.381825523429711E8     6.682717502060437E-1   -7.511291241890341E-1    2.017160187411972E-6    9.043262283082378E-6    6.473659582981164E-6    1.884208750675821E-5    6.537811104785204E-1   -7.557247088475637E-1
 6.481525922233300E8     6.592490337413159E-1   -7.596527296677661E-1   -9.502605746967085E-6    1.426573585466934E-6   -1.008779573522119E-5   -9.147180042073034E-6    6.446378072575911E-1   -7.642158303801757E-1
 6.581226321036890E8     6.495680071717564E-1   -7.685067374749026E-1   -3.273312625692036E-6   -1.837448031834113E-5   -1.672228958691417E-5    5.542056685986186E-6    6.345775866422392E-1   -7.725652556946001E-1
 6.680926719840479E8     6.395830872757197E-1   -7.771998167721406E-1    1.195477372456850E-5    2.281945012181184E-6    3.810078455859596E-6   -1.016393839781719E-6    6.238841531537689E-1   -7.804645293022107E-1
 6.780627118644068E8     6.298919930982643E-1   -7.853868816842396E-1   -5.931716108935804E-6    1.050796370982876E-5    1.050886534065059E-5   -1.573312892286124E-5    6.128748441094996E-1   -7.882817478959233E-1
 6.880327517447658E8     6.194441903295067E-1   -7.936849835791222E-1   -8.533995079453489E-6   -8.515115396035389E-6    2.752687557391531E-7    1.505033529169844E-6    6.015662789451856E-1   -7.961261735679194E-1
 6.980027916251246E8     6.084884126680148E-1   -8.017771497335104E-1    3.262412069773518E-6   -5.116072616626055E-6    6.688177864731177E-6   -6.129360198368807E-6    5.900493237201128E-1   -8.038843251056814E-1
 7.079728315054835E8     5.972127246368968E-1   -8.102016267469458E-1   -1.322363283944369E-5   -6.092711725499630E-6   -1.891506968686446E-6    5.323493421243857E-6    5.785948874787069E-1   -8.116171139489428E-1
 7.179428713858424E8     5.860469481535814E-1   -8.187934571004990E-1   -7.354388123515419E-6   -5.316097976331772E-6    1.257494114413863E-5   -4.536886460110055E-6    5.672705296357020E-1   -8.202066224543918E-1
 7.279129112662014E8     5.750600132634696E-1   -8.273063353332898E-1   -1.298533812032725E-5   -5.768560916496815E-6   -6.271334371390504E-6    1.445869359389600E-5    5.559088151525960E-1   -8.290054970574990E-1
 7.378829511465603E8     5.637258384444910E-1   -8.359665442940432E-1   -4.655875067327438E-6    7.370629919413174E-6   -7.905047973720075E-6   -3.507437068477597E-6    5.446100302706101E-1   -8.373460511560831E-1
 7.478529910269192E8     5.517096255949604E-1   -8.444907487255464E-1   -9.911386871078329E-6   -1.842584772473232E-5    1.106231006035102E-5    1.218196862410230E-5    5.334192713707616E-1   -8.450862281032315E-1
 7.578230309072782E8     5.391440723581405E-1   -8.516418772383031E-1    8.396989438493276E-7    3.089246717223801E-6   -1.223332167178098E-5   -1.299021849678687E-5    5.223006225755370E-1   -8.521180192539182E-1
 7.677930707876371E8     5.287737412312927E-1   -8.569736608615335E-1   -2.902471426735954E-6   -6.814764046996582E-7    9.988175368045277E-6   -1.336099961333014E-5    5.109849035861975E-1   -8.584247277094519E-1
 7.777631106679960E8     5.191338530334725E-1   -8.639485177471855E-1    8.892307211712643E-6   -5.828390926156692E-6    1.616739492743386E-5    6.793082366229668E-6    4.994325118080257E-1   -8.649221670822966E-1
 7.877331505483550E8     5.087784744226139E-1   -8.708764533612531E-1    1.397603788352573E-5    7.194108183510104E-6    4.043000473147682E-8    1.409689989358699E-7    4.875491412384655E-1   -8.715419402237082E-1
 7.977031904287138E8     4.975191436824718E-1   -8.772815046917244E-1   -2.388771915211650E-7    9.977366826754368E-6   -2.931989344083822E-6    3.851398876364191E-6    4.749027490721412E-1   -8.780574065017747E-1
 8.076732303090727E8     4.857470430530178E-1   -8.831145038832673E-1    5.924750458278834E-6   -1.046311730212316E-6   -1.150203792955739E-5    7.389927995228213E-6    4.620151390454205E-1   -8.842205706861131E-1
 8.176432701894317E8     4.738073289274505E-1   -8.891717237492868E-1   -1.430450454965082E-5    1.422673219045171E-5    4.538656192262748E-7   -2.026028644770171E-6    4.490992532796569E-1   -8.904803881326158E-1
 8.276133100697906E8     4.614702289795177E-1   -8.956800654999529E-1   -9.948107577236311E-6   -9.802362838590657E-6   -5.609635346215814E-7    5.039502197264724E-6    4.365483322652527E-1   -8.971370805217034E-1
 8.375833499501495E8     4.488013079097680E-1   -9.020051748385856E-1    1.014176451577043E-5    1.330791073128859E-6    3.157165785985085E-6    6.215911794802959E-6    4.243003892089610E-1   -9.037701930106797E-1
 8.475533898305085E8     4.360286239876031E-1   -9.084371292921851E-1    4.936794185313073E-6    9.684871629520787E-6    1.300369162816067E-5    4.034891977005184E-6    4.125929017823338E-1   -9.099299700938706E-1
 8.575234297108674E8     4.233079606329659E-1   -9.147623472831150E-1   -8.875120660720562E-6   -9.315716483018048E-6   -1.202060600548987E-5    8.646751731863417E-6    4.008132033960958E-1   -9.152873505048007E-1
 8.674934695912263E8     4.104822584818453E-1   -9.214279510670423E-1   -9.076605427602560E-6    8.593779094641090E-6   -3.145007786410133E-6    1.179267141716434E-6    3.886915687874520E-1   -9.201005295004955E-1
 8.774635094715853E8     3.973727101617255E-1   -9.279928872191370E-1   -1.707667532832751E-6   -8.652158556018121E-6    6.234050373155384E-6    5.482983989909537E-6    3.760171205223578E-1   -9.246811885671944E-1
 8.874335493519442E8     3.842984312000859E-1   -9.327042506010752E-1   -2.996987541709031E-6    7.755638196288211E-6   -2.296270443516711E-6    6.560102905002401E-6    3.629499252263376E-1   -9.290958104743400E-1
 8.974035892323031E8     3.729858497535721E-1   -9.362149592389154E-1    3.834907143197593E-6    9.260325159639627E-6   -3.230349167840515E-6   -4.443009966518449E-6    3.494977278585978E-1   -9.335793059616077E-1
