#  HZ   S   RI   R     50.00 
! Rohde & Schwarz Vector Network Analyzer 
! Rohde-Schwarz,ZNB20-2Port,1311601062102128,3.60
! Created: UTC 4/29/2024, 2:40:35 PM
! freq[Hz]                re:S11                  im:S11                  re:S21                  im:S21                  re:S12                  im:S12                  re:S22                  im:S22
 1.000000000000000E5     9.962705483546561E-1    3.364031410868509E-3   -5.117782600183782E-5   -2.606508730821040E-5   -1.169711739062828E-4    8.583178183495835E-5    1.010316445900664      -1.132010140123445E-2
 1.007003988035892E7     9.976199440802497E-1   -1.381756839912136E-2    8.433708132268715E-6    1.159606676937492E-5    1.834759651208231E-6    1.717474489149333E-5    9.959241247081739E-1   -1.453863483177264E-2
 2.004007976071785E7     9.998629951857044E-1   -2.712107383323268E-2   -5.359489177441471E-6    5.222521122680592E-6   -1.774251470923923E-5    2.428816428695944E-5    9.989177607430597E-1   -2.758463731073169E-2
 3.001011964107677E7     9.976829028025906E-1   -4.114608718294557E-2   -1.115246878440014E-5   -1.780660138759572E-6    2.102892119955828E-5    1.344331079047659E-5    9.976001466914118E-1   -4.201943724735425E-2
 3.998015952143569E7     9.976677039078979E-1   -5.309457439133283E-2   -2.881330411728127E-5    1.763336057077513E-5    4.266128455001661E-6   -5.484381957526191E-6    9.975720432739587E-1   -5.668735218771354E-2
 4.995019940179461E7     9.961025863765477E-1   -6.599216203772458E-2   -1.368873665395626E-5   -1.965744524785761E-5    2.737522198182905E-5    2.565454668190237E-5    9.965156021370746E-1   -6.912186392417195E-2
 5.992023928215354E7     9.942036709506745E-1   -7.885990808066563E-2    7.635662173121325E-6    5.544569357177982E-7   -1.105872101868798E-5   -2.732751221967113E-6    9.946568575878190E-1   -8.185954781620047E-2
 6.989027916251247E7     9.929568519193347E-1   -9.181570791250017E-2   -6.477479310383103E-7   -1.170431550355427E-5   -1.810680231292755E-5   -9.269569808281197E-6    9.933703437330121E-1   -9.474732335568667E-2
 7.986031904287139E7     9.922280497922880E-1   -1.052419084698449E-1   -4.355676578739358E-6    1.033895846234060E-5   -3.364872772839507E-6   -1.518052363461156E-5    9.923985184196441E-1   -1.078646747079212E-1
 8.983035892323031E7     9.913124284143267E-1   -1.188394352718179E-1   -8.332353007261483E-7    3.840711395501873E-6   -6.458400782566360E-6   -9.185108000367986E-6    9.907906016449733E-1   -1.210852344663191E-1
 9.980039880358922E7     9.893740210523551E-1   -1.323881261882975E-1   -2.288163944807432E-5    1.155013857292199E-5   -1.761764160239527E-5   -1.686264376145886E-5    9.886271482089237E-1   -1.344038934690003E-1
 1.097704386839482E8     9.864539849932638E-1   -1.456026868783714E-1    8.197403938674840E-6   -3.600170101268985E-6    2.649482957563156E-6    1.211683530828611E-5    9.860685586734195E-1   -1.477236763120373E-1
 1.197404785643071E8     9.846347203123202E-1   -1.588963009621723E-1   -1.235063229667854E-5    6.419719572993233E-6    1.396506804210143E-5    5.959356382307516E-6    9.843298883796445E-1   -1.610728919348847E-1
 1.297105184446660E8     9.830787341846438E-1   -1.718493300504371E-1    7.240064288475563E-6   -2.759554844513413E-6    8.857393432739914E-6   -5.427207885490518E-6    9.828142860633756E-1   -1.744136448341376E-1
 1.396805583250249E8     9.815482528118779E-1   -1.847266159662302E-1    3.529131866311007E-7    8.615089378068331E-6    3.095925500416280E-6    7.569577094123834E-6    9.808436733455561E-1   -1.875404885519831E-1
 1.496505982053838E8     9.790354232227569E-1   -1.971571416935386E-1    5.650557656688257E-6    3.951526351484472E-6    4.486159354352204E-6    6.973756191181772E-6    9.785530818452628E-1   -2.004161921809010E-1
 1.596206380857428E8     9.762087976286415E-1   -2.094939342262360E-1    1.902518940995390E-6   -1.071546725217688E-5    1.078897349840636E-5    1.028355922545284E-6    9.756985159969792E-1   -2.132506318918198E-1
 1.695906779661017E8     9.731009142166626E-1   -2.223039330836778E-1   -8.729345474654451E-6   -5.923953267855035E-8   -1.881119378552653E-6    1.460369569054196E-5    9.727834498944748E-1   -2.260206243958489E-1
 1.795607178464606E8     9.706101350866162E-1   -2.348474728862322E-1    2.374337387868675E-6   -2.746546275826562E-7    7.178390197182331E-6    3.925204979561179E-6    9.701449979967377E-1   -2.379956183561907E-1
 1.895307577268195E8     9.677422258386361E-1   -2.470654849018138E-1    7.883108467770253E-6    9.787475108452847E-6   -1.835511349118453E-7    2.656114223987607E-6    9.667498048855103E-1   -2.504565205742363E-1
 1.995007976071784E8     9.639550160938214E-1   -2.595932208182339E-1   -8.886876403068935E-6    4.875117620738821E-7   -5.543566709811361E-6    7.876603444761671E-6    9.626346282315709E-1   -2.631769363641474E-1
 2.094708374875374E8     9.603132657884268E-1   -2.723993891288238E-1   -1.462126120408498E-5    6.477139719728453E-6    3.197880024090585E-6    7.969832055000331E-7    9.588253593108739E-1   -2.761729323576521E-1
 2.194408773678963E8     9.571632006900561E-1   -2.851765986369921E-1    5.085887186595793E-6    9.199909420640371E-6    8.916915678107126E-6    2.393120673886767E-5    9.551516352970965E-1   -2.890976619555763E-1
 2.294109172482552E8     9.535768957860755E-1   -2.975520163923076E-1    4.199502713346419E-6    6.740287673397660E-6   -7.822949217702590E-6    1.220896206574067E-5    9.509953711903687E-1   -3.017416087592452E-1
 2.393809571286142E8     9.504437599044585E-1   -3.095060564519180E-1    6.878600287089552E-6    4.854477287026126E-6    1.145248622101007E-5   -5.880679229590798E-7    9.469036692469671E-1   -3.140837719168492E-1
 2.493509970089731E8     9.468098283624832E-1   -3.234303829305050E-1   -4.443084280998027E-6   -6.407704378203325E-7    2.041002883910857E-5    3.553891099463874E-5    9.441488020317074E-1   -3.276750755946107E-1
 2.593210368893320E8     9.426356017668563E-1   -3.354580483777097E-1    5.911056857118960E-6    1.907358299581641E-6    7.344169368783116E-6    2.356072355289266E-7    9.398429376153704E-1   -3.407603954699454E-1
 2.692910767696909E8     9.385127781386274E-1   -3.468828389532835E-1    6.034964330671987E-6    3.817072214547472E-6   -9.752915876786525E-6   -4.607416230541264E-6    9.355385411892557E-1   -3.529398311008308E-1
 2.792611166500499E8     9.336476583564230E-1   -3.585107744664043E-1   -1.546350446121408E-5   -7.095394503790865E-7   -3.819850174382119E-6    7.515192662936703E-6    9.308258598273841E-1   -3.646876041021887E-1
 2.892311565304088E8     9.288398775311336E-1   -3.705823106102095E-1   -2.221819960133364E-6    5.156790112320651E-6   -8.773716089380013E-6   -8.770019562521122E-6    9.261436203238523E-1   -3.768647875625626E-1
 2.992011964107677E8     9.240904128147066E-1   -3.826978985518223E-1    3.687457515491952E-7    1.700685260711130E-5   -1.639887544041548E-5    3.671303321362641E-6    9.211670451000994E-1   -3.886627381161820E-1
 3.091712362911266E8     9.187205962624229E-1   -3.949303935330425E-1    3.361505467850366E-6   -6.324527384198074E-6   -4.510884330789165E-6    7.649493029974413E-6    9.156117741332215E-1   -4.001350774600809E-1
 3.191412761714855E8     9.131705096255107E-1   -4.074003797263208E-1    1.605647633320029E-5   -6.923727040305295E-6   -1.928511545409036E-5   -2.058618007726325E-5    9.096487251887055E-1   -4.119426712535004E-1
 3.291113160518445E8     9.074368125130668E-1   -4.199757486412477E-1    7.030634713309193E-6   -2.243858581654262E-6    3.137335267628607E-6    2.231682641816789E-6    9.034443819455042E-1   -4.244136760323339E-1
 3.390813559322034E8     9.018619319519099E-1   -4.328147719579927E-1   -8.637633311257603E-6   -7.137718208105571E-6   -6.558664664435436E-7   -1.205792507783205E-6    8.968242962346621E-1   -4.369291413305161E-1
 3.490513958125623E8     8.966792261092087E-1   -4.453968312707213E-1    1.429801694547356E-6   -5.476649252522315E-6    1.179603389295215E-5    7.284163376402360E-6    8.904788397058367E-1   -4.494160831464372E-1
 3.590214356929212E8     8.912213597255445E-1   -4.579301036726183E-1   -1.501934673127651E-6   -2.468968374065963E-6   -1.303335952784138E-5   -5.634155617654084E-6    8.844425984241087E-1   -4.621122868817344E-1
 3.689914755732802E8     8.858298025339250E-1   -4.701051583416192E-1    8.568908875488154E-6   -4.140557112055921E-6   -3.732099461830040E-6   -3.053499698023323E-6    8.790726458328760E-1   -4.747122350163078E-1
 3.789615154536391E8     8.797445252468514E-1   -4.813429019753548E-1   -6.244686034308975E-6    2.157785601261328E-6    1.420788348428376E-6   -1.035699517799286E-5    8.738191728750976E-1   -4.868404434352952E-1
 3.889315553339980E8     8.740809541859795E-1   -4.921290278116323E-1    5.169990877161082E-6   -1.261713827628982E-5   -4.054716946535535E-7   -1.546063767711682E-6    8.680039192428994E-1   -4.987740494760737E-1
 3.989015952143569E8     8.673065883459191E-1   -5.026864067828611E-1   -5.476421577088283E-6    3.149317485242184E-6    6.249928204569505E-6   -1.981274059087874E-5    8.610673871437631E-1   -5.096360352969894E-1
 4.088716350947158E8     8.601483238056450E-1   -5.135573983070273E-1   -4.089279002821476E-6   -3.529003809669357E-6    7.677874448409585E-6    3.032653159730413E-5    8.541361179104858E-1   -5.206405189027020E-1
 4.188416749750748E8     8.531272446485434E-1   -5.251090398329094E-1   -3.305772723049778E-6    5.154525884437181E-7    9.961498754756362E-6    3.739204041282903E-7    8.475658772038976E-1   -5.314195595754349E-1
 4.288117148554337E8     8.458522789430591E-1   -5.368298249442700E-1   -1.504585755952331E-6   -4.827668386588202E-6   -1.007383870208765E-5    8.120738958140154E-6    8.406996425116853E-1   -5.418433320836570E-1
 4.387817547357926E8     8.381121351146879E-1   -5.481027998722018E-1    7.432162765285971E-6   -7.352569090944465E-6   -2.145646199314157E-5   -7.605599036925066E-6    8.326854498212265E-1   -5.523495260235041E-1
 4.487517946161516E8     8.304527886733083E-1   -5.599888607646478E-1   -1.735413442881615E-5    2.135515205052959E-6   -3.095169517039999E-6    2.934794514740524E-6    8.240619101929869E-1   -5.634816349913624E-1
 4.587218344965104E8     8.235470331592621E-1   -5.720213168469565E-1    3.618375087395636E-7   -1.357897403102918E-5    7.359939800591692E-6   -6.471190668227312E-6    8.160254903414040E-1   -5.752782962260888E-1
 4.686918743768694E8     8.168621506069762E-1   -5.833881355199770E-1   -1.026058041279551E-5    6.012449112758599E-6   -2.282577649095937E-6   -1.561076313047479E-5    8.079031433849374E-1   -5.869098703363261E-1
 4.786619142572283E8     8.096705911579747E-1   -5.942267626691291E-1    3.018171720328625E-7    6.169688340347036E-6    1.346537400502246E-5    7.055920294986749E-6    7.994085927860055E-1   -5.981632260364839E-1
 4.886319541375872E8     8.022086422457857E-1   -6.047497286229980E-1   -1.368493869263438E-5    5.697882941733082E-6   -1.746309729177324E-5   -5.325460675040688E-6    7.904616383967671E-1   -6.089011409798304E-1
 4.986019940179462E8     7.938747588693763E-1   -6.153805246698193E-1   -1.682763752637171E-5   -8.269964669318508E-6    1.458774247283930E-5   -2.698638472605372E-6    7.822126639196807E-1   -6.196657246620969E-1
 5.085720338983051E8     7.855396268604530E-1   -6.245724271452440E-1    1.639823499481359E-6   -6.689970370628912E-6   -5.895286699450862E-6   -4.592980721592260E-6    7.746084596353524E-1   -6.302687329946793E-1
 5.185420737786640E8     7.780147482474080E-1   -6.335021900418036E-1    1.419976315630641E-5    6.879223492755950E-7   -9.148270365921250E-6    6.132682474481462E-6    7.669778742256489E-1   -6.400875013415674E-1
 5.285121136590229E8     7.698724362262075E-1   -6.430455941985916E-1    1.526031970895988E-5    1.511359983225745E-6   -1.320468541395597E-5    9.906942704111057E-6    7.589650504456997E-1   -6.497321354442439E-1
 5.384821535393819E8     7.613721101715213E-1   -6.531303672858016E-1    9.809169670821999E-6    8.918075158737180E-6    9.920599352696371E-7    1.691789040807494E-5    7.508345762205920E-1   -6.594208043298238E-1
 5.484521934197408E8     7.532413345892962E-1   -6.636430249154182E-1    2.243291452877078E-6    1.084469845446540E-5    1.308213971391390E-6    1.794039915642994E-5    7.424335310218604E-1   -6.692803479967883E-1
 5.584222333000997E8     7.447135282698660E-1   -6.746442716543968E-1    1.661791487359529E-5    3.436544923208619E-6    1.550433927623795E-6    1.282067961198765E-5    7.333484524976052E-1   -6.792438794505673E-1
 5.683922731804587E8     7.354740936170656E-1   -6.851491013230956E-1   -2.076903686573761E-6   -1.040103828674604E-5   -4.100185439327875E-6    7.340985344036628E-6    7.230611044324499E-1   -6.891844806988381E-1
 5.783623130608176E8     7.261433455157708E-1   -6.950566043060578E-1   -1.509148505920305E-6   -1.798833119016019E-5    3.642572221467104E-6   -1.346391342009522E-6    7.125920311165831E-1   -6.989710828236214E-1
 5.883323529411764E8     7.170072743455823E-1   -7.052011285441619E-1   -6.368415603825564E-6   -2.073803700802537E-5    2.105932832780350E-7    1.140884862938159E-5    7.022204160381713E-1   -7.087424946779474E-1
 5.983023928215353E8     7.077851277736046E-1   -7.152364526771361E-1   -2.699009766407805E-6   -6.072885171212775E-6   -8.498131934783396E-6    1.910347835662623E-6    6.920388450416406E-1   -7.184589897506591E-1
 6.082724327018943E8     6.982189413796670E-1   -7.248977332826496E-1    3.032227621276734E-6   -3.761454429990674E-6   -2.818966112502912E-7   -6.332812484023357E-6    6.816400406800013E-1   -7.277868640440455E-1
 6.182424725822532E8     6.885204363058411E-1   -7.346937561578710E-1    5.540536863351628E-6    1.708431000746019E-6   -6.514822706762825E-6   -1.708147546335589E-6    6.717689463043752E-1   -7.371926700668479E-1
 6.282125124626122E8     6.779116338761051E-1   -7.440144787913190E-1    5.860148589065392E-6   -4.354821685091514E-6    1.005698330945339E-5   -2.190271846307747E-6    6.627250367831666E-1   -7.468581011408648E-1
 6.381825523429711E8     6.681635302892830E-1   -7.510074789300776E-1    7.418480287740052E-7    8.517196574100865E-7   -1.424686797945508E-5   -1.969442522569593E-6    6.537611190688297E-1   -7.556936072801228E-1
 6.481525922233300E8     6.592891786065075E-1   -7.596808317555716E-1   -6.786830890387281E-6    7.978897143033766E-6   -1.294197209039705E-5   -1.790970220071773E-6    6.445985626644303E-1   -7.641468888565939E-1
 6.581226321036890E8     6.495930933933786E-1   -7.685089152572712E-1   -2.740152462381685E-6    1.444844238772175E-5   -4.345481162681948E-6    4.279872781707736E-6    6.345784207964543E-1   -7.725312277093646E-1
 6.680926719840479E8     6.396510141508281E-1   -7.772719114872356E-1    1.707607271547458E-5    4.940931446065434E-6    1.805185389886004E-5   -1.406323084035471E-5    6.239803530044803E-1   -7.804656828415465E-1
 6.780627118644068E8     6.298762406822815E-1   -7.853437716610543E-1    2.921206409784440E-6    8.703188230288415E-6    1.566448140111218E-5    9.800215617170175E-6    6.127933612850572E-1   -7.884093817092560E-1
 6.880327517447658E8     6.194605807498503E-1   -7.935710784273071E-1    2.970896147586699E-8   -6.747726128115839E-7    6.009744428499135E-6    1.151562066044336E-5    6.015516785316913E-1   -7.959603144892585E-1
 6.980027916251246E8     6.085447211410820E-1   -8.017540993777312E-1   -9.734936927862141E-6   -1.600577322018468E-5    3.756871107443017E-6   -2.804155411227106E-5    5.899949538692928E-1   -8.037009046461518E-1
 7.079728315054835E8     5.972205692213122E-1   -8.101332643713723E-1    1.326269464314525E-6   -1.295150832654488E-5   -8.195312194960781E-6   -8.766333256972931E-6    5.784633593871120E-1   -8.116412070170337E-1
 7.179428713858424E8     5.860707172269595E-1   -8.187365236086301E-1    1.687477481132617E-5    1.573641180986307E-5    5.730500767216193E-6   -7.721441157267878E-6    5.671869754563136E-1   -8.202300020031693E-1
 7.279129112662014E8     5.750087268424883E-1   -8.271297081383336E-1   -1.204463471159047E-6   -7.818632772740827E-7   -2.785007899161391E-6    7.961868048807089E-6    5.559031322941224E-1   -8.289736960539652E-1
 7.378829511465603E8     5.637211673909636E-1   -8.359545291250449E-1    6.299340677687244E-6   -2.154242942798642E-6   -1.077970580045464E-5   -5.396908476198139E-6    5.445072935675499E-1   -8.374037198327446E-1
 7.478529910269192E8     5.517972146575848E-1   -8.443897636651312E-1    6.271922687363147E-6   -2.114829610960804E-6    8.968454908903927E-6   -3.457651732738859E-6    5.334270742617220E-1   -8.450774726195718E-1
 7.578230309072782E8     5.391474494698097E-1   -8.516333792650160E-1    7.336441000046817E-6   -6.756937522284653E-6   -6.649557484627867E-8   -1.304950026729498E-5    5.222175467721879E-1   -8.519541344280064E-1
 7.677930707876371E8     5.287566223811307E-1   -8.570815310815071E-1   -3.874595689530887E-6    4.221772922646078E-6    7.400106823317440E-6    9.425728355593325E-6    5.110570133161210E-1   -8.584047825139502E-1
 7.777631106679960E8     5.190942123142024E-1   -8.638674761760150E-1    4.693520029951689E-6    7.932380899562938E-6   -4.342017470203911E-6   -7.098626540907465E-6    4.994715919656222E-1   -8.648884567725027E-1
 7.877331505483550E8     5.086895187046965E-1   -8.706989459967313E-1   -1.835867964023412E-5    2.721657020512830E-6    2.891734229242635E-6   -1.958267527043326E-5    4.875394015819035E-1   -8.715015947688701E-1
 7.977031904287138E8     4.975184309284203E-1   -8.771389306165190E-1   -4.194678507058965E-7   -1.958711029158790E-8   -7.774653162336746E-6    1.405702470176854E-6    4.748558640245025E-1   -8.779248095088017E-1
 8.076732303090727E8     4.858449767252259E-1   -8.832585157302987E-1   -1.450288629556838E-5   -1.204502830243964E-5    3.061058267773209E-6    2.269542775516497E-5    4.619710586253656E-1   -8.840916371942021E-1
 8.176432701894317E8     4.737837223813408E-1   -8.890616014907538E-1   -3.414089415374453E-6    6.978531554590906E-6    2.727480880290622E-6    5.840050433170621E-6    4.492182755040649E-1   -8.904617292009552E-1
 8.276133100697906E8     4.613302881173578E-1   -8.955149888567410E-1    2.268396030452615E-6   -8.113195480641412E-7    7.813897884843929E-6    8.959506605844762E-6    4.364336122506970E-1   -8.972157548769096E-1
 8.375833499501495E8     4.488434340675523E-1   -9.019012701285527E-1   -4.081868463687120E-7   -1.347321702580877E-5    3.093263838404368E-6   -1.080265920120437E-6    4.243581337110626E-1   -9.038679975148197E-1
 8.475533898305085E8     4.359992082079159E-1   -9.084093798548700E-1   -4.363990037920096E-6    2.313545118710595E-6   -3.537670071402757E-6    6.987173041993589E-6    4.124371532185768E-1   -9.096771325099645E-1
 8.575234297108674E8     4.232331917038292E-1   -9.146519401007338E-1   -1.195021194966165E-5   -3.671835294331837E-6   -8.782748332800368E-6    5.015005916175753E-6    4.007850668087427E-1   -9.150925759685000E-1
 8.674934695912263E8     4.104151704454771E-1   -9.213649666799413E-1   -6.147476257825233E-6   -4.811068334113217E-6    1.476385166634453E-5   -2.230844100480325E-5    3.887185111602502E-1   -9.200990156419009E-1
 8.774635094715853E8     3.973542374206405E-1   -9.279853709629305E-1   -1.334880905302753E-5   -8.995285786508594E-8   -8.157998354001339E-6    8.713730621729151E-6    3.761004815158885E-1   -9.247092511970462E-1
 8.874335493519442E8     3.842289342427661E-1   -9.325145486891572E-1    1.976512473059909E-6    1.093060899362507E-5    6.146462039532941E-6    5.963722947448962E-7    3.629164240668242E-1   -9.290788549748182E-1
 8.974035892323031E8     3.729064359217721E-1   -9.362730558440865E-1    7.545518137129075E-6   -9.988888521771615E-6   -2.932567195550418E-6   -2.346047962943581E-7    3.494805002863723E-1   -9.335004438703145E-1
