#  HZ   S   RI   R     50.00 
! Rohde & Schwarz Vector Network Analyzer 
! Rohde-Schwarz,ZNB20-2Port,1311601062102128,3.60
! Created: UTC 4/29/2024, 2:42:03 PM
! freq[Hz]                re:S11                  im:S11                  re:S21                  im:S21                  re:S12                  im:S12                  re:S22                  im:S22
 1.000000000000000E5     9.959817707279379E-1    3.313871640177996E-3    2.010954523683704E-6    5.106338237606891E-5   -4.703700654648742E-5   -3.986023217333506E-5    1.010147988035154      -1.177499531952649E-2
 1.007003988035892E7     9.984370833051880E-1   -1.389510002749213E-2   -1.156256904431046E-5    4.962013764129645E-6    7.229076873295598E-6   -5.071846895878021E-6    9.961594122082404E-1   -1.447456503297158E-2
 2.004007976071785E7     9.999915330222766E-1   -2.716913161233408E-2    7.148163987016519E-6   -1.343649101536526E-5    1.937386980278275E-6   -2.787165142714328E-6    9.989209628669753E-1   -2.774453557084208E-2
 3.001011964107677E7     9.982043604015997E-1   -4.102888364647803E-2   -1.157079241035648E-5   -1.532729094583830E-5    2.886085181514414E-6   -2.295751217492065E-5    9.976963054803278E-1   -4.201464258508170E-2
 3.998015952143569E7     9.976188876238115E-1   -5.308237695976771E-2    9.888771949953273E-6   -1.665053124126517E-5    1.169221829203776E-5   -6.032113181279681E-6    9.977578644677499E-1   -5.661627143091738E-2
 4.995019940179461E7     9.957285909937915E-1   -6.597767077732193E-2    1.016003182831323E-5   -1.744015107708564E-5   -2.839750327033109E-6    8.638117478277433E-6    9.964568656547043E-1   -6.900435409447347E-2
 5.992023928215354E7     9.939282199084536E-1   -7.882637069437212E-2   -9.431869969322728E-6   -6.796801830475997E-6    1.095586496272207E-5   -5.848110128715712E-7    9.947838936386962E-1   -8.197833312841882E-2
 6.989027916251247E7     9.932093735115157E-1   -9.186802935975133E-2    9.489919832145333E-6   -3.087516287397873E-8    1.639314452646416E-5    2.078938145580525E-6    9.935399143270227E-1   -9.475807350594811E-2
 7.986031904287139E7     9.927658772746765E-1   -1.052699683657966E-1   -5.322149457931920E-6   -5.745716189483934E-6   -2.195199242677223E-6    1.482896410949652E-5    9.924156658312046E-1   -1.078682835953394E-1
 8.983035892323031E7     9.916890551692392E-1   -1.188156310508427E-1    5.062355975520861E-6   -5.019302134327520E-6    3.486411994976226E-6   -4.209089952119108E-6    9.910003990612151E-1   -1.210688232574953E-1
 9.980039880358922E7     9.891249031849846E-1   -1.323320927634254E-1    1.228499900719645E-5    5.056990818993108E-6   -6.467148339220238E-6    4.000792737612603E-6    9.886768491332280E-1   -1.344662030637265E-1
 1.097704386839482E8     9.861458122970528E-1   -1.454590913244479E-1    3.697531883013600E-6    7.754981349209090E-6   -4.639968000063055E-6    3.524646001813932E-6    9.860485382996517E-1   -1.477411060221272E-1
 1.197404785643071E8     9.847661839460669E-1   -1.589651260971771E-1    7.348035796177689E-6    1.114519430878468E-6   -5.420038953171046E-6    3.551380698424231E-7    9.844561075068360E-1   -1.611702594787721E-1
 1.297105184446660E8     9.829722091324846E-1   -1.718211551246039E-1    1.695072590952845E-6   -3.646943182313534E-6    4.370775233561337E-6   -6.417926728400428E-6    9.828349403712686E-1   -1.744545321597405E-1
 1.396805583250249E8     9.818101698225223E-1   -1.847185754092562E-1    1.697890951655378E-5    6.373291983709659E-8   -8.979631155911265E-6    5.266727337008880E-6    9.809511396687833E-1   -1.875337364083147E-1
 1.496505982053838E8     9.788252700903058E-1   -1.971655029382037E-1    1.221550033126088E-5    1.134005642425892E-5   -6.524340303809859E-6    1.067789880300575E-5    9.786656681463755E-1   -2.004585544768322E-1
 1.596206380857428E8     9.759046913965256E-1   -2.094767009069751E-1   -5.551634400150534E-6    9.633603670869650E-7   -1.232468229406012E-5    1.193297791265958E-6    9.759029799173371E-1   -2.133153577209047E-1
 1.695906779661017E8     9.732495104265001E-1   -2.223188255702583E-1   -1.374961403536496E-5    1.465133982392497E-6    1.160921062674507E-5    1.105896092177635E-6    9.728567169242561E-1   -2.262064323880286E-1
 1.795607178464606E8     9.709278175087327E-1   -2.348938899222272E-1    1.085736441905780E-6   -6.940245974342883E-6   -1.719549916476277E-6    4.198309711147503E-6    9.703102612348089E-1   -2.380171753853951E-1
 1.895307577268195E8     9.676592432863634E-1   -2.470438222482185E-1   -4.143299257672669E-6   -7.648254260195460E-6    8.571761655652587E-6    9.626599932953502E-6    9.669395488847369E-1   -2.505312888716180E-1
 1.995007976071784E8     9.637312274798309E-1   -2.594474456868184E-1   -7.508854767465754E-6    6.861308593907034E-6   -1.015208457960753E-5    8.071250111391990E-6    9.629155180884709E-1   -2.632422432276369E-1
 2.094708374875374E8     9.604112637528064E-1   -2.723588903023331E-1    6.448084327528307E-6   -3.448555571156487E-6   -8.604282853376490E-6    3.036003232939133E-6    9.590507714960385E-1   -2.762331026720200E-1
 2.194408773678963E8     9.575349643686886E-1   -2.852083733939934E-1    9.210647646617801E-7    1.215150997138281E-5    1.030130152635279E-5    5.127032383929376E-6    9.552236413704336E-1   -2.892155452998426E-1
 2.294109172482552E8     9.536727567983824E-1   -2.974933241661676E-1   -3.830961760539041E-6    9.820220612726376E-6   -2.629683331258440E-6    5.647680323588387E-6    9.510099648745176E-1   -3.018393747202079E-1
 2.393809571286142E8     9.504467365728921E-1   -3.094124478104483E-1   -4.451989814915244E-6   -2.809352725062229E-6    1.860158578693575E-5    1.559389354476908E-5    9.471109686206398E-1   -3.140430376489977E-1
 2.493509970089731E8     9.467830362747410E-1   -3.233659439500452E-1   -4.417364597111498E-6    7.761002600532757E-6   -3.808238754445901E-6   -2.959059484465771E-6    9.442210940932516E-1   -3.277145063539113E-1
 2.593210368893320E8     9.427906868630475E-1   -3.354328635504162E-1    9.619463162170257E-6    4.321266488643704E-6   -1.920786384229219E-5   -2.299340048846585E-6    9.397995101523829E-1   -3.408404261074877E-1
 2.692910767696909E8     9.386875447841417E-1   -3.468855181046859E-1   -1.905294912951672E-6   -1.468309290158057E-5    1.714858652973073E-6    2.138495755195321E-6    9.355829246040164E-1   -3.528732211719349E-1
 2.792611166500499E8     9.337059221367091E-1   -3.585460069595430E-1    4.640224707140380E-6    1.576682346225039E-6    2.094157889451421E-6    1.039828674566128E-5    9.309888331682360E-1   -3.647024901281405E-1
 2.892311565304088E8     9.289342960990000E-1   -3.705105781626393E-1    5.923373079047838E-6   -2.391901252897032E-6    4.960297806426748E-6    1.396642920122841E-5    9.262916109801913E-1   -3.768879458530134E-1
 2.992011964107677E8     9.242733067599296E-1   -3.827456400285499E-1    4.067587188722861E-6   -1.646180385441227E-5   -5.766924118019664E-6    3.559251530672346E-6    9.212778431328741E-1   -3.887634211955944E-1
 3.091712362911266E8     9.188106621156001E-1   -3.949521214677607E-1    1.302074788375844E-5   -3.353578522826746E-7   -1.460550094524487E-5    1.533692880140262E-6    9.157013076959827E-1   -4.001778621278586E-1
 3.191412761714855E8     9.131536568635743E-1   -4.073183435178440E-1    7.295414564788378E-6   -5.488912925622909E-6    2.606278768956976E-6   -1.838717500254895E-5    9.098338323113953E-1   -4.120581835101739E-1
 3.291113160518445E8     9.075596501343731E-1   -4.200662815546253E-1   -1.267516119999151E-5   -2.187213241824625E-6    1.646659489729530E-5    1.161867047257898E-6    9.034261985093162E-1   -4.245616015395562E-1
 3.390813559322034E8     9.019903661651384E-1   -4.328809993234853E-1    4.651402229930529E-7   -1.052249172816628E-5   -4.013493412866129E-6   -2.142440588602751E-6    8.968287105597793E-1   -4.370377363448405E-1
 3.490513958125623E8     8.967689423746411E-1   -4.453736332781579E-1   -4.324957852412622E-6    8.851657054348722E-6    2.400197322473365E-6    8.381870899158755E-6    8.904872023686481E-1   -4.495080806789827E-1
 3.590214356929212E8     8.912413898427801E-1   -4.578777764641584E-1    3.833128534587564E-8    7.134961184226595E-6    2.045446607293642E-6   -3.305909378577104E-5    8.845775409135385E-1   -4.622373758167989E-1
 3.689914755732802E8     8.858551915890471E-1   -4.700675815703503E-1    1.170439812188401E-5   -9.935089395836654E-6   -4.389594631437684E-6   -1.072413620359648E-5    8.791585210505369E-1   -4.748459694107676E-1
 3.789615154536391E8     8.797852679519246E-1   -4.814443891453821E-1    3.625969229047460E-6   -4.271287940755363E-6   -3.754176777789355E-6   -2.579280475565786E-6    8.738262141121486E-1   -4.867917320364079E-1
 3.889315553339980E8     8.741830323779921E-1   -4.921233564126921E-1   -6.253964023589793E-6   -1.613438486606781E-6   -4.569826086254235E-6   -2.319301692743447E-6    8.679987660300862E-1   -4.988240465255647E-1
 3.989015952143569E8     8.674217576097190E-1   -5.028268836871035E-1    7.422188600382055E-6    6.469503807393383E-6   -2.884130815239024E-6   -2.157656723527034E-6    8.611829621571576E-1   -5.097708014339837E-1
 4.088716350947158E8     8.601199258568712E-1   -5.135559921695533E-1    2.889647251593883E-6    5.088214162529381E-6    1.066521407486564E-5   -5.482196112335546E-6    8.544082228851944E-1   -5.207804204172006E-1
 4.188416749750748E8     8.531708005082250E-1   -5.251343680637789E-1   -1.257842279586100E-6   -2.373022077031155E-6   -2.825875209936837E-5    5.805501267694108E-6    8.477292000074543E-1   -5.315513994482477E-1
 4.288117148554337E8     8.459808999092011E-1   -5.368585453064774E-1    3.893400402580549E-6    1.165598409845526E-5    1.930969600595312E-5    2.479922714061283E-6    8.406490255620778E-1   -5.419759035597481E-1
 4.387817547357926E8     8.382369643857613E-1   -5.482692343330617E-1    3.773196854561325E-6   -3.679206335095035E-6   -8.875848223442140E-6    1.125345681482566E-5    8.326841810032859E-1   -5.523922137697563E-1
 4.487517946161516E8     8.305177780039292E-1   -5.600378190010363E-1    5.586902249015451E-6   -9.593810592635061E-7    8.741778926585478E-6    5.561984792930862E-6    8.242773192873556E-1   -5.635324646090561E-1
 4.587218344965104E8     8.234676103548866E-1   -5.719261295679844E-1   -6.279915182718682E-6    3.000546542069247E-6    1.728808668918681E-5    1.303325072912022E-6    8.161044637167615E-1   -5.753838895493615E-1
 4.686918743768694E8     8.170234078190568E-1   -5.834690017207792E-1    4.172535347428239E-6    1.372181993028727E-5   -3.731132677202379E-6    4.031622973925089E-6    8.078753199019130E-1   -5.868894989541773E-1
 4.786619142572283E8     8.098569321720859E-1   -5.942493451182577E-1   -3.914051456037729E-6    1.343630555038482E-5    1.917316563062439E-5   -2.366415653170580E-6    7.993503850849866E-1   -5.981601633217832E-1
 4.886319541375872E8     8.022500910069067E-1   -6.047466939013633E-1   -2.065691070903309E-6    7.135854231363007E-6   -6.367938249908378E-7    3.275482926218284E-6    7.907245425662282E-1   -6.089733159286629E-1
 4.986019940179462E8     7.939107204126760E-1   -6.154156179396791E-1    4.712683412172886E-6   -1.131904354762246E-5   -1.942990937140525E-6   -7.610802641079507E-6    7.823547860407137E-1   -6.197196583022276E-1
 5.085720338983051E8     7.855280142407466E-1   -6.245304375189474E-1   -1.081074105435085E-5   -1.296361354666394E-5   -1.320017591683676E-5    3.460478033682118E-6    7.746705090299899E-1   -6.304239662261464E-1
 5.185420737786640E8     7.781563483103583E-1   -6.336396284129817E-1   -1.777329117693169E-5    7.398850230927256E-6   -5.051029753931642E-6    1.492353773364951E-5    7.670422184257816E-1   -6.402881126721535E-1
 5.285121136590229E8     7.699639110584250E-1   -6.431440524183720E-1    1.548699626354355E-5   -8.022506660035328E-6    1.104563458941060E-5   -2.199595158830721E-6    7.590115761286225E-1   -6.497856128344144E-1
 5.384821535393819E8     7.613660623824858E-1   -6.532005045176456E-1   -1.610623446968428E-6   -1.004092484348505E-5   -9.690474780731733E-6    6.068212057438180E-6    7.508746271688065E-1   -6.594016575904976E-1
 5.484521934197408E8     7.532405343473118E-1   -6.636671947739849E-1   -2.548923233751967E-6   -1.068785812955634E-5   -4.047117031999321E-6   -5.030793398046559E-7    7.424136867192727E-1   -6.692574191099669E-1
 5.584222333000997E8     7.446829476766638E-1   -6.747186734640416E-1    1.096886208274976E-5    3.496111410272797E-6   -1.894520920236849E-6   -9.269797372727218E-7    7.333869400636145E-1   -6.792960769629104E-1
 5.683922731804587E8     7.355857107316377E-1   -6.851728629571143E-1    4.659019398184574E-6    9.806398423965961E-6    4.803043030604611E-6   -1.067425998231672E-5    7.231177056046092E-1   -6.892550598104367E-1
 5.783623130608176E8     7.261542230019209E-1   -6.950191066893167E-1    5.907431432456352E-6    2.563759040326306E-6   -1.791201662401018E-6    2.679251610795835E-6    7.127067602213218E-1   -6.990799731996524E-1
 5.883323529411764E8     7.169239855591467E-1   -7.050100926622600E-1    1.830619250086058E-6   -8.533324715091329E-6    1.095595562118881E-6   -1.682703033030015E-5    7.023504361725593E-1   -7.087730346725762E-1
 5.983023928215353E8     7.078474483485514E-1   -7.152653779757825E-1   -1.280650891723330E-5   -1.101305847699225E-5    2.662461713700409E-5   -2.375761024736666E-6    6.918712089302316E-1   -7.184401561831093E-1
 6.082724327018943E8     6.983464401566883E-1   -7.250867768849167E-1   -1.455066017733818E-6    8.288960033018783E-6   -1.487286004843036E-6    1.963783903435177E-5    6.816912747158130E-1   -7.278989565496896E-1
 6.182424725822532E8     6.884748810581481E-1   -7.346963907919399E-1   -1.604398364621663E-6    1.138043431752662E-5   -3.621164912199683E-6   -7.013946340925922E-6    6.717900557515015E-1   -7.373663451701823E-1
 6.282125124626122E8     6.779342565513103E-1   -7.440747319792234E-1   -3.838180182872189E-6    1.118814695966088E-5   -3.224243881052161E-6    1.856602386235124E-5    6.628193273003286E-1   -7.469115450334718E-1
 6.381825523429711E8     6.683427358206738E-1   -7.511796634792014E-1   -2.271171809627793E-6    4.697176820560039E-6   -6.531835999486830E-7   -8.194318522092033E-6    6.537840568748529E-1   -7.557412747080203E-1
 6.481525922233300E8     6.592937152789451E-1   -7.597231518605048E-1   -1.089345684247567E-5   -1.101336009235907E-6    5.785628312435463E-6   -6.026610321149841E-6    6.446332505529625E-1   -7.641764409225004E-1
 6.581226321036890E8     6.495683498364073E-1   -7.685487883299467E-1   -3.962772220918599E-6    8.314886269037438E-6   -3.222164721096476E-6    1.154784645860274E-6    6.345488381039844E-1   -7.725245587451377E-1
 6.680926719840479E8     6.396398336787927E-1   -7.772484254297799E-1   -2.326333183942454E-6    7.141109466425294E-6    1.827416740015816E-5    1.433366923677250E-5    6.239981015451851E-1   -7.804876307832670E-1
 6.780627118644068E8     6.298471478273910E-1   -7.853752835615623E-1   -2.721865521749602E-6    1.608566720745690E-5   -1.106156183575646E-5   -1.493660964502551E-5    6.129980614537673E-1   -7.884415572688032E-1
 6.880327517447658E8     6.195325805774411E-1   -7.937657677812247E-1   -1.781960690278290E-6   -5.905346003790859E-6   -2.226108416440256E-6    5.075622723903703E-6    6.015960374338906E-1   -7.960452301438519E-1
 6.980027916251246E8     6.086305285117594E-1   -8.019525022026598E-1   -7.988717346081962E-6   -3.109557057156237E-6   -1.524968966640223E-5   -3.405839394108949E-6    5.900652815431833E-1   -8.038659801862500E-1
 7.079728315054835E8     5.971989154717903E-1   -8.101268948481228E-1   -1.552671222058386E-5    3.894756772927754E-7    1.132617247741447E-5   -4.965110763633891E-6    5.785378005062893E-1   -8.116008924664287E-1
 7.179428713858424E8     5.860420659131792E-1   -8.186328723912057E-1    4.781500563631012E-6   -2.332335049063476E-5   -2.231958100350223E-5   -2.753390691691310E-6    5.673126375854571E-1   -8.203417343499452E-1
 7.279129112662014E8     5.750629269837408E-1   -8.271736009708911E-1   -2.184127891954507E-7   -7.634953890521295E-6    3.132778670793337E-6   -1.861840722252250E-5    5.558395400635402E-1   -8.291058485483241E-1
 7.378829511465603E8     5.638612443212608E-1   -8.360447976473312E-1    2.985446678260111E-6    3.229455523924844E-6   -2.075850150079649E-5    2.142703310078808E-6    5.446363948876265E-1   -8.374722215131269E-1
 7.478529910269192E8     5.517783541046855E-1   -8.446593808908677E-1   -2.596378122891901E-6    6.041668301898748E-6    1.245018463380507E-5   -5.937967304857004E-6    5.334734548767797E-1   -8.450933292099807E-1
 7.578230309072782E8     5.391170754299167E-1   -8.516005132122536E-1    1.327331503311166E-5    7.951494758081706E-6   -1.852731888125405E-5   -7.237037176016652E-6    5.223213937798553E-1   -8.520875770861532E-1
 7.677930707876371E8     5.287107335651404E-1   -8.569932904930012E-1    9.958589746678276E-7   -1.384937656639800E-5    1.321541767112335E-5    1.613414894891478E-6    5.109367380712110E-1   -8.584041882247231E-1
 7.777631106679960E8     5.191642263643452E-1   -8.640133977236479E-1   -8.028190644736704E-6   -1.908757378150145E-6    7.927963758515675E-6   -2.049292097049008E-6    4.994864512285522E-1   -8.649835628180544E-1
 7.877331505483550E8     5.088860284837131E-1   -8.710077443444947E-1   -9.419622347540864E-7    8.344101281969233E-6    1.601220219066084E-6   -1.243793636827364E-5    4.877063516359168E-1   -8.717384629797219E-1
 7.977031904287138E8     4.975150773514956E-1   -8.772739294421983E-1   -4.141929389755593E-6   -5.334022182678329E-6    2.202107806770811E-5    5.606585129202417E-6    4.750317224223218E-1   -8.780937165397947E-1
 8.076732303090727E8     4.857264934732285E-1   -8.829904278858638E-1    1.047315650733201E-5    6.453680663688118E-6   -1.545406616123183E-6   -5.420633422868316E-6    4.621607528240947E-1   -8.841651121357499E-1
 8.176432701894317E8     4.737457637680021E-1   -8.890562862783741E-1   -3.102191146451482E-6    6.681968867350545E-6    4.364036953810609E-6   -6.003551225001786E-6    4.492627503294366E-1   -8.904973276555795E-1
 8.276133100697906E8     4.614833722707586E-1   -8.956413598673233E-1   -8.378582503431259E-6    4.681195883395856E-7    4.573057043015860E-6    3.579926270948172E-6    4.365267003700963E-1   -8.970883599620203E-1
 8.375833499501495E8     4.489088811928037E-1   -9.021242264621332E-1   -1.961542053883880E-6   -7.785594566816646E-6   -2.567062006834592E-6    2.867589892922366E-6    4.243373637273687E-1   -9.038998254733334E-1
 8.475533898305085E8     4.360156145629356E-1   -9.083782327053742E-1    1.282316109079446E-6    3.358909703958164E-6   -7.146595674612228E-6   -9.546293651654576E-7    4.125556330035214E-1   -9.099811565561334E-1
 8.575234297108674E8     4.232204712871448E-1   -9.147269072203152E-1   -1.738727906644804E-5   -3.549199952981801E-6    2.293379698825903E-6    6.634547050383924E-6    4.008160597667051E-1   -9.153626295072945E-1
 8.674934695912263E8     4.103980792582858E-1   -9.214500113938312E-1   -8.300335305456974E-6   -5.646045892181063E-6   -3.271872046384055E-6   -1.940780394958525E-5    3.886986907561003E-1   -9.200426276902243E-1
 8.774635094715853E8     3.973642142091559E-1   -9.280399939341712E-1    5.844056318519098E-6    1.135321478288362E-5    5.130231783403116E-6   -2.966774151502282E-6    3.760926775068039E-1   -9.247105999795651E-1
 8.874335493519442E8     3.842990457064148E-1   -9.325748210083131E-1    2.962832066467531E-6   -1.790853367395728E-8    4.043929909671953E-6    2.259466183171836E-6    3.630198789703904E-1   -9.292802393726516E-1
 8.974035892323031E8     3.729805874448990E-1   -9.363617124299708E-1    1.882621040349214E-5    2.706406010095330E-6    5.974007870514848E-6    4.182764252179420E-6    3.495372836978510E-1   -9.336539786530955E-1
