#  HZ   S   RI   R     50.00 
! Rohde & Schwarz Vector Network Analyzer 
! Rohde-Schwarz,ZNB20-2Port,1311601062102128,3.60
! Created: UTC 4/29/2024, 2:42:14 PM
! freq[Hz]                re:S11                  im:S11                  re:S21                  im:S21                  re:S12                  im:S12                  re:S22                  im:S22
 1.000000000000000E5     9.960081826154349E-1    3.270719894563077E-3    2.295309976853580E-5    1.941853329260969E-4   -5.550552724457690E-5    1.306828169113541E-4    1.010388297371573      -1.151924184575330E-2
 1.007003988035892E7     9.980086650830718E-1   -1.383092146997729E-2    2.397420788820769E-6    1.391943479650531E-5    1.151984101540683E-5    6.241028149329857E-6    9.959883362360278E-1   -1.450986543160365E-2
 2.004007976071785E7     9.998899081323701E-1   -2.731280738189207E-2   -2.627402215049140E-6    7.025285864219993E-6   -7.868942794839441E-6    4.061123911619001E-6    9.989023593580614E-1   -2.766891223871554E-2
 3.001011964107677E7     9.981965859110531E-1   -4.104546753539839E-2    1.345797340842125E-5    4.460984370479801E-6    1.178596113806789E-5    1.083687711652763E-5    9.976423483136047E-1   -4.201775594958098E-2
 3.998015952143569E7     9.976577826242439E-1   -5.318737272347546E-2    1.630259986036577E-5    8.570614434532758E-6   -9.784751476664929E-6    9.413729361498671E-6    9.976770899497516E-1   -5.658982480681733E-2
 4.995019940179461E7     9.959301912863276E-1   -6.603721374485194E-2   -2.253684925349649E-5    1.337979762476622E-5    1.647769004486987E-5   -1.777541262495801E-6    9.966134774523148E-1   -6.896514011132626E-2
 5.992023928215354E7     9.941260519419917E-1   -7.888296017882035E-2    1.238625269821404E-5   -6.588633420776391E-6   -2.455052743531738E-6   -7.608441032351596E-6    9.948358845406357E-1   -8.183728465114820E-2
 6.989027916251247E7     9.931385973968196E-1   -9.172233562800332E-2    1.657894081303059E-5   -2.545047539282076E-6   -1.231390319463379E-5   -1.153219275548713E-6    9.936528560475183E-1   -9.465632241604159E-2
 7.986031904287139E7     9.927865197431964E-1   -1.051983399739317E-1    1.670015434919317E-5    9.446569721909214E-6   -1.424735250023144E-5   -4.236396903954925E-6    9.924746049152490E-1   -1.078448304708711E-1
 8.983035892323031E7     9.915957356642315E-1   -1.188113681325051E-1    1.342631293594278E-6   -7.658986578721650E-6    5.487790819254669E-6    1.836134899383716E-5    9.908758505122895E-1   -1.210095953514709E-1
 9.980039880358922E7     9.893049726371571E-1   -1.323958672178224E-1   -1.850931183709724E-5   -1.352359488775466E-5   -2.837364003082934E-6    1.267755982331666E-7    9.885693701817488E-1   -1.344316339739291E-1
 1.097704386839482E8     9.863167109272922E-1   -1.453936252900960E-1   -2.370812087323545E-5    8.404007898744810E-6    4.872631400331873E-6   -2.173392400049433E-7    9.861852539737093E-1   -1.477592314119092E-1
 1.197404785643071E8     9.848449819561856E-1   -1.589060551902901E-1    1.750410981254503E-6   -1.163905367878421E-5    3.894661503160544E-6    5.839739804951006E-6    9.844545136917866E-1   -1.611484111045503E-1
 1.297105184446660E8     9.830575065912229E-1   -1.718113075586150E-1   -1.068767392392206E-5    5.660655102110580E-6    2.237597401979991E-7   -4.998051729557905E-6    9.829602262315063E-1   -1.745100579517429E-1
 1.396805583250249E8     9.816564355512510E-1   -1.847110307839811E-1   -2.099239605058792E-6   -4.122182839469128E-6    1.613915965890430E-5    4.982657684777041E-7    9.809577189309396E-1   -1.875063901618272E-1
 1.496505982053838E8     9.788817715448289E-1   -1.971721534833227E-1   -1.468333054598612E-5   -3.386907803059861E-7   -1.217726033473243E-5    8.418032277088264E-6    9.785385518370985E-1   -2.003124962151364E-1
 1.596206380857428E8     9.761032365677934E-1   -2.095373438200038E-1   -1.537850417051504E-5    7.296148786606836E-7   -1.425321569008601E-5   -9.169451046955878E-6    9.758730283397050E-1   -2.132508616503738E-1
 1.695906779661017E8     9.731884307386888E-1   -2.223830259184461E-1   -4.735151328221225E-6   -1.376759360484516E-5    6.691922858980763E-6    1.948672975341795E-5    9.729336468304890E-1   -2.261014584452341E-1
 1.795607178464606E8     9.708182363457568E-1   -2.348968445817598E-1    3.607445987840993E-7    8.129639249669969E-6    7.352077413164245E-6   -6.438728427990062E-6    9.702939551643942E-1   -2.380489517684399E-1
 1.895307577268195E8     9.677095392004381E-1   -2.471498625342087E-1   -1.080544922161876E-5    1.262673489228950E-5   -1.143440209927720E-5    7.839043380532416E-6    9.667637082372651E-1   -2.505868691639691E-1
 1.995007976071784E8     9.637125287056126E-1   -2.595187452427615E-1    1.041292704587905E-5   -1.124084903522477E-5    1.866216597081600E-6   -7.680494758440666E-6    9.627441048791650E-1   -2.631775161735035E-1
 2.094708374875374E8     9.604705384304049E-1   -2.725005517424104E-1   -4.845741456731388E-6   -1.136676683131747E-7   -8.071447993169967E-6   -1.744893969118286E-5    9.589304972616609E-1   -2.761220348241252E-1
 2.194408773678963E8     9.573182680583469E-1   -2.852239268347383E-1   -4.519657547816072E-6    2.058217570765908E-6   -3.649925734118302E-6   -5.760769389523404E-6    9.551401835017284E-1   -2.890886967314695E-1
 2.294109172482552E8     9.537001122307301E-1   -2.975318210143256E-1   -1.842178219094677E-5   -5.762531168011219E-6   -1.904321761517709E-5    1.184338597675704E-5    9.511998598745477E-1   -3.018612511831434E-1
 2.393809571286142E8     9.504614292171000E-1   -3.095535267184149E-1   -1.638236720583587E-6    1.154971266072899E-5    1.381844459592358E-5   -6.144163761683766E-6    9.470290915567324E-1   -3.140691651653565E-1
 2.493509970089731E8     9.468750562914892E-1   -3.234356014063376E-1   -8.193724288407651E-6   -3.286710828200121E-6    2.095191412007561E-6    1.554768425586529E-5    9.441359933784478E-1   -3.277073207673769E-1
 2.593210368893320E8     9.427339366120582E-1   -3.354839878423665E-1   -1.509641306941088E-6    5.830677539706375E-6    5.351641679166138E-6    1.032469123558702E-5    9.399633959064125E-1   -3.409073050885048E-1
 2.692910767696909E8     9.386308538768359E-1   -3.468116388758299E-1    1.065186369577938E-5    2.325737871875443E-6   -1.633686949199544E-5    8.568831617485844E-6    9.355910701621599E-1   -3.528951751811475E-1
 2.792611166500499E8     9.338113126622516E-1   -3.585021429019469E-1    1.608244376982955E-6    3.002788012102399E-6    1.608202730631417E-5   -3.621263494966343E-6    9.308628032754891E-1   -3.647229982689039E-1
 2.892311565304088E8     9.289714623789199E-1   -3.705705301536064E-1    2.021205047009751E-5   -6.557337642583134E-6   -7.734555802286991E-7   -3.578931996167509E-7    9.260990073498094E-1   -3.769326332033864E-1
 2.992011964107677E8     9.241504772273236E-1   -3.827847620089266E-1    1.346652807667767E-5   -1.414245027609206E-5   -5.019726279308559E-6   -6.393211649540967E-6    9.213378322278954E-1   -3.887972253537881E-1
 3.091712362911266E8     9.188696369825364E-1   -3.951002970399933E-1   -1.493116603293633E-6    4.011055189008168E-6    1.592035802121512E-6    1.906935590294515E-5    9.157060801518887E-1   -4.002202203049532E-1
 3.191412761714855E8     9.132357666812340E-1   -4.073815875672064E-1   -3.758316786116375E-6    1.957317925379040E-5    2.892297115471207E-6   -1.133145447724626E-5    9.098004188261130E-1   -4.119992959232336E-1
 3.291113160518445E8     9.075291673710266E-1   -4.199973149657457E-1   -5.484210436671226E-6    1.427872945791271E-5   -9.741926223370096E-6   -2.180194495268720E-6    9.032704339286940E-1   -4.243656368421197E-1
 3.390813559322034E8     9.019755703313939E-1   -4.329297844281544E-1    1.215613709981149E-5   -2.217082323139200E-6    5.938110736965919E-6    2.180944221413886E-6    8.968463144649517E-1   -4.369760621072800E-1
 3.490513958125623E8     8.967066554907065E-1   -4.454231430692803E-1    6.715904905873001E-6   -1.428871492980830E-5   -9.365736638658784E-6   -9.614046776768692E-6    8.906438049490687E-1   -4.495585959710940E-1
 3.590214356929212E8     8.912230493819026E-1   -4.578555320402845E-1    8.992038893115069E-6   -8.841042287109792E-6   -8.150434736242605E-6    2.712532371697399E-6    8.846236835330153E-1   -4.622818182943004E-1
 3.689914755732802E8     8.858089082337482E-1   -4.701116507059546E-1   -1.012481896524782E-5    3.001342192573322E-6    8.243379992585702E-6    4.031817293480457E-6    8.791082204034250E-1   -4.748203992885661E-1
 3.789615154536391E8     8.798880084453344E-1   -4.814032476707726E-1   -1.604125405509758E-6   -2.753993685239960E-6   -1.044433023266672E-5   -1.285229434022874E-5    8.738031461579749E-1   -4.867145600841264E-1
 3.889315553339980E8     8.741623872001872E-1   -4.921223724244840E-1    9.034633315558735E-6    1.961319839014145E-5    1.579110097755292E-5   -2.000405046720689E-6    8.679898544721160E-1   -4.987310322684737E-1
 3.989015952143569E8     8.672710979035615E-1   -5.028100663462143E-1    2.227219927513519E-7   -2.545276407952587E-6    1.284914555333804E-7    8.198908178479407E-6    8.612112614459767E-1   -5.097064413210011E-1
 4.088716350947158E8     8.600331868947939E-1   -5.135859016610691E-1   -1.503763111697028E-5   -8.639516746549627E-7    4.842198096657999E-6   -1.333951892040156E-5    8.542818716385574E-1   -5.206768683777422E-1
 4.188416749750748E8     8.533115847009306E-1   -5.251770096114029E-1    1.419046046079249E-5    7.160802925158097E-6   -1.145823811394864E-5    4.005853213243315E-6    8.475374326926699E-1   -5.314368564259616E-1
 4.288117148554337E8     8.460488086917101E-1   -5.368997722455628E-1   -5.187272606135851E-6    1.708135684933997E-5    1.882980213470713E-5    1.322618080898917E-5    8.406762384894755E-1   -5.418171567003802E-1
 4.387817547357926E8     8.381763604858725E-1   -5.481464474675440E-1   -6.926479607910101E-6   -1.660766081820184E-6   -7.754385245584823E-6    1.948848668775161E-6    8.326912967655993E-1   -5.523601980111017E-1
 4.487517946161516E8     8.304307472536322E-1   -5.599473360242457E-1    7.459864219576282E-6    1.063315045917890E-6   -1.120600967915818E-5    7.881794509676628E-6    8.242522548666726E-1   -5.636012051309487E-1
 4.587218344965104E8     8.235847527986805E-1   -5.719910013650688E-1    2.221863639331262E-6   -4.768976042467589E-6   -2.518985377142122E-6    2.853277941738255E-6    8.160154640945538E-1   -5.753797215757839E-1
 4.686918743768694E8     8.170564371997554E-1   -5.834509768562067E-1   -4.476764330595799E-6    2.057882521741692E-6    1.503765718229343E-6    6.493628571256745E-6    8.078531446240309E-1   -5.869227003292349E-1
 4.786619142572283E8     8.097928844064948E-1   -5.942886926752305E-1   -1.579696176898336E-5    2.501569067945042E-6    8.343229460989404E-6   -7.360472427629121E-6    7.993526191756835E-1   -5.981713931389999E-1
 4.886319541375872E8     8.022039077979538E-1   -6.047884874490421E-1   -6.971094985753740E-7    1.686360555591749E-5    3.561657962013469E-6   -1.475720278299593E-5    7.906413601780193E-1   -6.089211456430815E-1
 4.986019940179462E8     7.937589504243808E-1   -6.153350407372115E-1   -1.242975234070968E-5   -4.326731103187656E-7   -7.953093840148430E-6    1.099495124609396E-5    7.823260725036160E-1   -6.197487552808197E-1
 5.085720338983051E8     7.856228623542348E-1   -6.246292423665003E-1   -5.300546210395278E-6   -5.509945099699817E-6   -1.148354001986942E-5    1.022688089848919E-5    7.747011418372163E-1   -6.303859909760123E-1
 5.185420737786640E8     7.782967377647839E-1   -6.337560488483009E-1    9.902949048108926E-6    2.868349411069285E-6    2.936258152820362E-6    3.587146217198664E-5    7.671251696818393E-1   -6.402182506211226E-1
 5.285121136590229E8     7.699823904142101E-1   -6.432167976879851E-1   -2.436439189560360E-6    1.664487374890264E-7   -1.734615123342043E-6    2.325554688030635E-5    7.590082204658906E-1   -6.497867911696672E-1
 5.384821535393819E8     7.613726655255502E-1   -6.531466669319135E-1   -5.762957250326235E-6    9.797007151343185E-6    6.408112519502108E-6   -1.713076134558021E-5    7.509028089555252E-1   -6.594215086756727E-1
 5.484521934197408E8     7.532337189811849E-1   -6.637313976291443E-1   -7.408013187707563E-6    3.373548286696521E-6   -3.006757806434107E-6    1.570725862475865E-6    7.423755440279605E-1   -6.691777904600675E-1
 5.584222333000997E8     7.447637693387297E-1   -6.747010890184020E-1   -5.753924666874166E-6    8.890878501052143E-6   -1.604178642010930E-5    8.759699613826082E-6    7.334213061398070E-1   -6.792998700632361E-1
 5.683922731804587E8     7.355442976025703E-1   -6.851545705345011E-1   -4.410376531886390E-6   -2.311357043147049E-6   -1.450410664078379E-6    1.591145723110258E-6    7.231723211612342E-1   -6.892575802449911E-1
 5.783623130608176E8     7.262816536254784E-1   -6.950942884146833E-1    2.003234670354402E-6   -3.729353051021874E-6    8.712774374917893E-6    7.522196806426270E-6    7.126656031945776E-1   -6.989901689003246E-1
 5.883323529411764E8     7.170192270213385E-1   -7.051309542942340E-1    1.811290638506234E-5   -1.468670206607382E-7   -1.246047788751110E-5    2.008228436591191E-5    7.022136455750451E-1   -7.088074545316344E-1
 5.983023928215353E8     7.078461957950529E-1   -7.152917350691239E-1    6.495522202169445E-6   -2.287067699660056E-5    1.232819126218001E-7    4.250461816797976E-6    6.919632661283053E-1   -7.184371880879097E-1
 6.082724327018943E8     6.983778132652496E-1   -7.249703583091713E-1    3.375312984112877E-6    2.572928731735741E-5   -6.404306398511470E-6    4.359645143215347E-6    6.816895975205847E-1   -7.278898661984906E-1
 6.182424725822532E8     6.884820853572907E-1   -7.346854859623319E-1   -1.601207343608616E-6    5.447567840162276E-7    1.743354237005487E-6    2.953005661170278E-6    6.717202142244174E-1   -7.372948927329697E-1
 6.282125124626122E8     6.779069234378047E-1   -7.439977608912867E-1   -1.004252597428043E-5   -1.153498597442533E-5   -5.921761444019856E-6    1.663559857999431E-5    6.626860519378069E-1   -7.468036771418510E-1
 6.381825523429711E8     6.682444169754287E-1   -7.511232285192951E-1   -4.455831781440586E-6    6.872376287496822E-6    8.411879820951772E-7    3.794044934413787E-6    6.538270922676510E-1   -7.557757426400306E-1
 6.481525922233300E8     6.593147425825827E-1   -7.596551910568387E-1    1.711501977325667E-7    6.272624712239514E-6   -1.256133309301795E-5   -7.635157029673111E-6    6.446215156778191E-1   -7.641327032311304E-1
 6.581226321036890E8     6.495813926895981E-1   -7.685277018302361E-1    2.629771665743092E-6    2.286825746759710E-6    6.207864477811673E-6    5.000094409877804E-6    6.345401834965938E-1   -7.725773867201333E-1
 6.680926719840479E8     6.396939333831251E-1   -7.772213412738794E-1   -3.725515306913326E-6    6.596269302693305E-6    4.728467957058158E-6    7.109610633722863E-6    6.239696565797118E-1   -7.804662556634449E-1
 6.780627118644068E8     6.299426088421461E-1   -7.853893992048612E-1    1.708159847691830E-5   -2.867431508576005E-6   -1.287530908258345E-5    1.406789265285029E-5    6.129220405022282E-1   -7.883279878297866E-1
 6.880327517447658E8     6.194385507419740E-1   -7.936546324063102E-1    4.774468511758567E-6    7.593406093997427E-6   -1.651809864931793E-5   -5.748900287168413E-6    6.015877234109936E-1   -7.960980919629072E-1
 6.980027916251246E8     6.085792353325271E-1   -8.018460322641823E-1   -1.349292714571555E-5   -1.126648293261772E-5   -1.819817462611376E-6   -8.758373851203018E-6    5.900051555099661E-1   -8.037735690453688E-1
 7.079728315054835E8     5.972146366346195E-1   -8.101703538459494E-1    1.824754635201264E-5    1.042538486599734E-5   -9.618265412524894E-7   -2.099460261690036E-6    5.785208106286208E-1   -8.116637253372162E-1
 7.179428713858424E8     5.859027172946777E-1   -8.187122425501204E-1   -2.427964275664840E-5    6.295532392210198E-6    1.146953157748322E-5   -3.384107465508858E-6    5.672371280460178E-1   -8.202121809032886E-1
 7.279129112662014E8     5.751068714167020E-1   -8.272795858730118E-1    1.219540437994852E-5   -5.483656829177944E-6    3.503364132553899E-7   -9.148769884588670E-6    5.558884473747138E-1   -8.289922196133674E-1
 7.378829511465603E8     5.638268790011741E-1   -8.360906619555002E-1   -1.050588413378635E-5   -4.895064130269808E-7   -2.300420633185810E-5    1.005749480534301E-5    5.445658987109048E-1   -8.373795437885082E-1
 7.478529910269192E8     5.517654050724204E-1   -8.445945030553375E-1    7.626022449897164E-6    1.851751668293722E-5   -1.709309641854710E-5    3.406832222122527E-7    5.334374942773489E-1   -8.451895906035509E-1
 7.578230309072782E8     5.391221611861017E-1   -8.515893304544225E-1   -2.616221114497990E-6    4.960887608094145E-6    1.187867508655418E-5   -1.453185235916154E-6    5.222052924952220E-1   -8.520766213988707E-1
 7.677930707876371E8     5.286189306405833E-1   -8.569022942728223E-1    9.275291830492448E-7    8.170932052878194E-6    2.083126244714159E-5   -1.441832857330402E-6    5.109495412638926E-1   -8.584335109608423E-1
 7.777631106679960E8     5.191877817227827E-1   -8.639792264011504E-1    1.184033456719670E-5    4.625222581620177E-6    3.587671304370624E-6    6.595167025532474E-6    4.993516063747231E-1   -8.648816838333934E-1
 7.877331505483550E8     5.088335242908496E-1   -8.709039270846339E-1   -8.331828207467294E-6   -5.417289234855908E-6   -1.444008030459457E-6    1.627096136525349E-6    4.875972810696207E-1   -8.716014675073576E-1
 7.977031904287138E8     4.976214737840564E-1   -8.772795961431220E-1    2.301148340136070E-5   -1.568879801993530E-5   -6.660519243929573E-6   -1.521719983867291E-6    4.749429223973717E-1   -8.780950768122037E-1
 8.076732303090727E8     4.857854971664979E-1   -8.830946926391408E-1    9.084398287279393E-6   -1.204834569410765E-5   -8.100718909324341E-6    7.413208976283398E-6    4.620053112906777E-1   -8.840681231252948E-1
 8.176432701894317E8     4.738031466502605E-1   -8.891723313005531E-1   -4.174053010799528E-6    7.363135429710644E-6    7.206699817517275E-6    4.272816615905173E-6    4.491548928886218E-1   -8.904582159248619E-1
 8.276133100697906E8     4.614300564541483E-1   -8.956688210102454E-1   -9.569834218654229E-6   -1.046453542558076E-5   -6.237983057234461E-6    9.119719978097236E-7    4.364748283056770E-1   -8.972825946834351E-1
 8.375833499501495E8     4.488036789163871E-1   -9.019746858296686E-1   -5.270371553838054E-6   -9.586794371993755E-6   -1.222457918011055E-6   -2.478137562554013E-6    4.244630948295284E-1   -9.039403362915590E-1
 8.475533898305085E8     4.359867525518509E-1   -9.084565053694466E-1   -8.121344534918690E-8   -5.196253419235403E-6   -3.443437672957072E-6   -5.407194045585924E-6    4.124153407200344E-1   -9.099130195578531E-1
 8.575234297108674E8     4.233037998153744E-1   -9.147361884829740E-1   -6.971473363849855E-6    1.087270700157142E-5   -2.071557777070854E-7   -1.878724650816931E-5    4.006940791783165E-1   -9.151636266608848E-1
 8.674934695912263E8     4.104576717030513E-1   -9.214069361176785E-1    1.120360283230231E-6    9.678294902205311E-6   -5.203552235138033E-6    8.676775632496405E-6    3.886714267503898E-1   -9.200523625364873E-1
 8.774635094715853E8     3.973252383580396E-1   -9.279623963604545E-1   -1.059950638924436E-5   -5.571473498974694E-6   -1.097934366802325E-5   -1.409328068441086E-5    3.761507478958653E-1   -9.246922460702558E-1
 8.874335493519442E8     3.843036849750893E-1   -9.326394797687024E-1    6.674242700970030E-6   -9.529096545966485E-6   -1.494712495361049E-6   -9.074654429284508E-6    3.629421529063236E-1   -9.292420712278820E-1
 8.974035892323031E8     3.729204021249444E-1   -9.362156389344993E-1   -1.550956007914066E-6    1.865181767920213E-6    1.095967539002838E-6    1.121015769479351E-5    3.495688514271493E-1   -9.335387833839734E-1
