#  HZ   S   RI   R     50.00 
! Rohde & Schwarz Vector Network Analyzer 
! Rohde-Schwarz,ZNB20-2Port,1311601062102128,3.60
! Created: UTC 4/29/2024, 2:41:59 PM
! freq[Hz]                re:S11                  im:S11                  re:S21                  im:S21                  re:S12                  im:S12                  re:S22                  im:S22
 1.000000000000000E5     9.961928908759770E-1    3.291914309428374E-3    5.869870064658036E-5    1.054133940836371E-4   -5.391080706845971E-5    1.981382773968169E-4    1.010244495687464      -1.171040300953329E-2
 1.007003988035892E7     9.974599258754360E-1   -1.383128854441489E-2    1.085392494449875E-5    5.717039611716279E-6   -4.470727133360951E-6   -2.658995250902078E-6    9.960218268299200E-1   -1.447705514284440E-2
 2.004007976071785E7     9.998636585058958E-1   -2.711627040882870E-2   -1.310907730317147E-5   -1.495582954209135E-5   -1.580066856578700E-5   -1.144429810839616E-5    9.986906506866839E-1   -2.776016451988094E-2
 3.001011964107677E7     9.978781206420760E-1   -4.105557878420225E-2    2.187851285804459E-5   -1.702218433275159E-5    3.791546562655845E-6    4.760975940461988E-6    9.975967064026553E-1   -4.209534000940839E-2
 3.998015952143569E7     9.976985985057480E-1   -5.310286905962622E-2    2.107155604780137E-5   -1.514678522321913E-6    2.462591381046834E-6   -5.183071907019265E-6    9.976333138340066E-1   -5.661996336543278E-2
 4.995019940179461E7     9.962888325773422E-1   -6.594306958737202E-2   -4.649074253807021E-6   -3.018145678429889E-7    9.866597422389467E-6    1.470067584233861E-7    9.964722272077636E-1   -6.914468540411894E-2
 5.992023928215354E7     9.942153108226917E-1   -7.881082210329286E-2    8.569420949431513E-6    7.847557711389195E-7   -9.679367663659910E-6   -8.516429469796571E-6    9.948080094820047E-1   -8.198869401667185E-2
 6.989027916251247E7     9.929654332239194E-1   -9.179542602589451E-2    2.266530723665598E-5   -4.138595002568963E-6   -1.309055191421511E-6   -4.079246605810487E-7    9.933992295616223E-1   -9.472183961156984E-2
 7.986031904287139E7     9.923510131816137E-1   -1.051629226907709E-1    9.207304615945832E-6   -1.595349261472767E-5    4.069616757185035E-6    1.032454109476641E-5    9.924415539342565E-1   -1.078599362380586E-1
 8.983035892323031E7     9.914986208705344E-1   -1.187766569959792E-1    1.405469992775559E-5    8.260799324986196E-6    1.074371272895289E-5   -1.043061046382122E-6    9.908217348368503E-1   -1.210100530342050E-1
 9.980039880358922E7     9.895073869552146E-1   -1.323316028746238E-1   -2.238942306305395E-5    1.014168711730455E-5    6.116726350498033E-6   -2.143007716154991E-6    9.887375258639911E-1   -1.344900697775971E-1
 1.097704386839482E8     9.866449254971787E-1   -1.454738978176534E-1    8.673808507951153E-8    1.100393683555440E-5    1.878998075419900E-5   -6.467506557667363E-6    9.861377333296754E-1   -1.476847072856392E-1
 1.197404785643071E8     9.848118229216096E-1   -1.589593301954154E-1   -7.249718015047767E-6   -9.256102531604517E-6   -8.441199882932048E-7    5.118677811828049E-7    9.842919005359886E-1   -1.610928446120851E-1
 1.297105184446660E8     9.830498806140421E-1   -1.718168331438756E-1    5.672861562304130E-6   -1.491870614183299E-5   -6.380218451871615E-6    2.778566236027208E-6    9.827512242389996E-1   -1.743624649820826E-1
 1.396805583250249E8     9.815085401758646E-1   -1.846466253647592E-1    6.777456495553114E-7   -1.024046770285737E-5    1.123081061776193E-5    1.069176210741258E-6    9.809498542137612E-1   -1.875584137233540E-1
 1.496505982053838E8     9.790407420247644E-1   -1.971162946966114E-1    1.785576331005963E-6   -2.156876206025122E-6   -1.300149587423412E-5    6.826085341283758E-6    9.785767096511906E-1   -2.003630042098407E-1
 1.596206380857428E8     9.763692251338595E-1   -2.095616748153588E-1   -7.410107388773523E-6   -2.840111894864992E-6    5.715810859902724E-6   -3.218516946175384E-6    9.759080261242534E-1   -2.132390579739870E-1
 1.695906779661017E8     9.732335259245319E-1   -2.224115737550756E-1    4.118108375986784E-6   -3.909842701803874E-6   -1.235105750089577E-5    7.820517295607853E-6    9.729893459117543E-1   -2.261237659042257E-1
 1.795607178464606E8     9.707595579170457E-1   -2.348402890071017E-1    7.906511087994851E-6   -4.940916251876487E-6   -9.842959556292535E-6   -2.718600529749886E-6    9.702348628448181E-1   -2.380263330399955E-1
 1.895307577268195E8     9.678000076577884E-1   -2.470771155858698E-1   -3.185712333639395E-7    2.175054718790808E-6   -7.219336835160896E-6   -1.869690692067091E-5    9.668464056073199E-1   -2.504141535277815E-1
 1.995007976071784E8     9.640230288229644E-1   -2.596218070447874E-1   -3.866645669801819E-7    5.492191656723337E-6   -4.110392460672111E-6   -1.444806384772013E-5    9.628791140327940E-1   -2.633221137619816E-1
 2.094708374875374E8     9.603930644959194E-1   -2.724500533593681E-1    4.641512897409222E-7    9.033441037680615E-7    2.244487535094629E-6    9.037592222851127E-7    9.589833744418220E-1   -2.762324987356835E-1
 2.194408773678963E8     9.573406521157422E-1   -2.852293317182287E-1   -9.140795553758967E-6    2.008365474057941E-5    9.646675963876987E-7   -5.503179148531169E-6    9.551546962037410E-1   -2.891823436795711E-1
 2.294109172482552E8     9.537859874410943E-1   -2.974861241150780E-1    9.985111979588650E-6    2.013051249084463E-6   -4.044635237612832E-6   -4.477311292769513E-6    9.509895994539163E-1   -3.018005604679098E-1
 2.393809571286142E8     9.506822430783016E-1   -3.095170342072036E-1   -3.968735902328462E-6   -5.489148353614263E-7   -1.788829744027768E-5    6.518537392996543E-7    9.469962119020937E-1   -3.140081431101375E-1
 2.493509970089731E8     9.468232528696440E-1   -3.234015325806085E-1    1.082339097159334E-5   -2.677787787381887E-6   -1.144507650085748E-6   -7.100312741932975E-6    9.442208850302054E-1   -3.276519067240490E-1
 2.593210368893320E8     9.426721624791442E-1   -3.353949543961131E-1    3.065299588763727E-7   -6.501467177031145E-6   -5.494027421062401E-6    8.378625542320879E-6    9.398441006758205E-1   -3.408532693681637E-1
 2.692910767696909E8     9.385982616624600E-1   -3.468442609002830E-1    1.151313026763177E-5    5.737672903125000E-6   -3.747750563190141E-6    5.466287128473095E-6    9.355941855023162E-1   -3.529410991347787E-1
 2.792611166500499E8     9.338611483048732E-1   -3.585567072022368E-1    4.290052813524540E-7   -8.280232142594231E-6   -1.778340454924470E-5    1.332983732195551E-6    9.310220961973393E-1   -3.647638268311267E-1
 2.892311565304088E8     9.289958528555581E-1   -3.705748402554622E-1   -1.178871425399276E-6   -6.968230286487804E-6    1.262712405767739E-5    4.870087030917249E-6    9.261856559973828E-1   -3.769248939539731E-1
 2.992011964107677E8     9.241964731363923E-1   -3.827858624037482E-1   -1.737825196036483E-6    1.032197580753149E-5   -2.328117878293228E-6   -4.874225791568528E-6    9.212266815822177E-1   -3.887018570979665E-1
 3.091712362911266E8     9.188176241493152E-1   -3.949987085507402E-1    7.353639081360175E-6   -8.876407176020578E-6   -1.516101012625482E-6   -3.619019787389145E-7    9.158549327344445E-1   -4.003283681522062E-1
 3.191412761714855E8     9.131897500894856E-1   -4.073384798679495E-1   -1.856451779974237E-7   -8.670238084499723E-6    2.666158481071515E-6   -1.541723579189855E-5    9.098096550003085E-1   -4.120639621537971E-1
 3.291113160518445E8     9.075161310518070E-1   -4.200737782678398E-1    5.108226316554622E-7   -1.723019655851344E-5   -6.978074903016875E-6   -7.544160134001084E-6    9.034414266275835E-1   -4.244610072665579E-1
 3.390813559322034E8     9.019425149660002E-1   -4.328286260275566E-1    1.414761868239921E-5   -9.893881595572794E-7   -8.530124295312610E-7   -2.159670227326109E-5    8.968754328355866E-1   -4.370220160802236E-1
 3.490513958125623E8     8.966365845286517E-1   -4.453517641687115E-1   -5.898062609978298E-8    6.058977348473668E-6    1.458614277746642E-5    1.092956841244790E-6    8.905211526538960E-1   -4.493645274516460E-1
 3.590214356929212E8     8.912079903496973E-1   -4.577670122197903E-1   -2.192763292730369E-6   -1.006659303410724E-5   -2.132762854629739E-6   -6.870543359661683E-6    8.846838915567311E-1   -4.622731758704852E-1
 3.689914755732802E8     8.858824067275618E-1   -4.700649829580706E-1   -3.039301565569887E-6    2.343116289192563E-6    1.166383160820023E-5    8.190263866150869E-6    8.791334214038864E-1   -4.748663913491695E-1
 3.789615154536391E8     8.798179606485603E-1   -4.813390262381493E-1    8.666661417274703E-6   -3.034655057802046E-6   -1.337781670360074E-5   -1.025374385303402E-5    8.738912029624708E-1   -4.868465749113731E-1
 3.889315553339980E8     8.740821335046303E-1   -4.920225016515413E-1    2.997540870370325E-7    1.023924297643215E-5    1.477026838373435E-5    4.059974431006801E-6    8.680568875065273E-1   -4.987553630143496E-1
 3.989015952143569E8     8.674670834791108E-1   -5.028102655002101E-1   -1.468319760482151E-5   -9.526717374199926E-6   -1.483231757983673E-5   -9.923029527731735E-6    8.612028811240221E-1   -5.097551839868579E-1
 4.088716350947158E8     8.601528434039176E-1   -5.135946936546939E-1    2.174027703668084E-6   -4.708228350823909E-6   -4.371208911530018E-6   -1.275839519567951E-6    8.542144471272016E-1   -5.207434825343550E-1
 4.188416749750748E8     8.532011952418248E-1   -5.251017178866736E-1    3.384294593017979E-6    3.853975474844872E-6    8.895298019265709E-6   -4.331409520112852E-6    8.476726508439036E-1   -5.315415244148779E-1
 4.288117148554337E8     8.459601497544238E-1   -5.366964894228617E-1    3.913501781231487E-6   -1.423285787110917E-6    4.536988386591008E-6    4.737310376478108E-6    8.406633056621114E-1   -5.419119459647319E-1
 4.387817547357926E8     8.382423106938470E-1   -5.482552936093230E-1    6.478344987198825E-6   -4.608946876904784E-6   -5.070831306548937E-6   -9.029742359896929E-6    8.326696503262746E-1   -5.522855254803003E-1
 4.487517946161516E8     8.304177398987023E-1   -5.600198237895003E-1    9.750928534514720E-6   -7.056337591959157E-6   -8.021435605462119E-6   -4.329208160185555E-6    8.242762419909062E-1   -5.635545157212810E-1
 4.587218344965104E8     8.234823418739446E-1   -5.719156023487847E-1    1.892636633912380E-5   -1.107052802519798E-5    1.383567975989783E-5   -6.689314753380279E-6    8.161521574370659E-1   -5.754283979807712E-1
 4.686918743768694E8     8.169378521455977E-1   -5.834013934894307E-1   -3.798316496755174E-6    1.278377558082583E-5    7.750221664949498E-6   -3.391972482500547E-6    8.080142730601283E-1   -5.869235495370544E-1
 4.786619142572283E8     8.098353694481687E-1   -5.942688890718585E-1    4.715762366769894E-6    9.256841219425264E-6   -5.845693804204349E-6   -2.456378267624227E-6    7.994710654235130E-1   -5.982144733920441E-1
 4.886319541375872E8     8.021717884219431E-1   -6.046372140327083E-1   -4.577501748075492E-6    8.580251902145596E-6   -7.191857330028236E-6    7.030597753242079E-6    7.905745977844878E-1   -6.089292405804840E-1
 4.986019940179462E8     7.937801665664865E-1   -6.153710465914933E-1   -2.767656141039934E-6   -6.184555799660243E-6    1.253541995304251E-5    1.005382975168196E-5    7.825304580671493E-1   -6.197556442222126E-1
 5.085720338983051E8     7.855935100745208E-1   -6.245335340276312E-1    1.472649536044331E-5    1.884633059797586E-5    2.963968094402784E-5    1.939684025625010E-5    7.747615091148432E-1   -6.305438043571613E-1
 5.185420737786640E8     7.782897937966581E-1   -6.336592761206935E-1   -4.390936741181305E-6   -4.749337562939162E-6   -2.783343284595771E-6    1.334923733925729E-5    7.670194760699742E-1   -6.402611915816143E-1
 5.285121136590229E8     7.699583726788933E-1   -6.431249018445057E-1   -1.352350659980934E-5   -3.357822806682400E-6    2.351194043698801E-6    1.898561818064335E-6    7.589913253086957E-1   -6.497490631237970E-1
 5.384821535393819E8     7.612814293358116E-1   -6.530209933002867E-1    6.640325752224128E-6   -5.822636850322961E-7   -1.811259014529519E-5    1.037324344216118E-5    7.509790170488210E-1   -6.594414640177215E-1
 5.484521934197408E8     7.531262122517945E-1   -6.635909535709297E-1    3.108863161552943E-6   -5.190648572282770E-6   -8.820777465396670E-6   -4.659489920370398E-6    7.425301619529606E-1   -6.694174128444108E-1
 5.584222333000997E8     7.447037421930973E-1   -6.747061538502739E-1    4.925668411585013E-7    2.034966128336094E-6   -2.056266457632759E-6   -4.092027553825629E-6    7.333129850100453E-1   -6.792997241127141E-1
 5.683922731804587E8     7.355917594651759E-1   -6.851473426225867E-1   -7.517988369722718E-6    7.241705233626204E-6    3.872035412704070E-7    7.306982096788886E-6    7.232041814123218E-1   -6.892822916472308E-1
 5.783623130608176E8     7.261726409987884E-1   -6.951001309286059E-1    5.002112440076917E-6   -1.034394882838441E-5    1.416605016315462E-5   -5.064090798037219E-6    7.127070740775717E-1   -6.989476634303217E-1
 5.883323529411764E8     7.169486601143643E-1   -7.050972752429406E-1    4.234383348890844E-6   -1.601447612948900E-5   -1.444757196527636E-5   -8.033119096306645E-6    7.022961683334230E-1   -7.088095828404626E-1
 5.983023928215353E8     7.077178664848635E-1   -7.151172708392620E-1    7.742289331114715E-6   -2.947800112681549E-5    1.694249201722391E-6   -5.299627789905991E-6    6.920463603797941E-1   -7.185676894145356E-1
 6.082724327018943E8     6.983948430909668E-1   -7.250071862853222E-1   -3.088086713866512E-6   -6.471932693441374E-6    5.663387080865505E-6   -1.018644400300759E-5    6.817533561022251E-1   -7.279409724507652E-1
 6.182424725822532E8     6.885931684969162E-1   -7.347827091508490E-1    2.337031025531567E-6   -1.751560337764199E-5   -1.566950513261294E-6   -1.313115633632913E-5    6.718026286793009E-1   -7.373667807147212E-1
 6.282125124626122E8     6.778548099600523E-1   -7.439279816890344E-1   -3.698005342311329E-6   -2.687713262623588E-6    9.874105779546044E-6   -1.525384974903007E-5    6.627938025418241E-1   -7.469457516481364E-1
 6.381825523429711E8     6.681320271401900E-1   -7.510351168928465E-1   -3.742850847001186E-6    2.892588108132562E-6   -4.862109166361282E-6   -1.430266710629108E-5    6.538360533364086E-1   -7.557999573410077E-1
 6.481525922233300E8     6.592146833533653E-1   -7.596637754384402E-1    2.336099205348077E-6   -1.223987578773305E-7   -6.213576032742712E-6    6.424319603335472E-6    6.446839259476650E-1   -7.641007542781010E-1
 6.581226321036890E8     6.495773254434087E-1   -7.685927079920881E-1    1.876795378443429E-6    1.170905662203289E-5    1.375390977475503E-5   -4.251705918956907E-6    6.345702146653257E-1   -7.725855270992074E-1
 6.680926719840479E8     6.396829805033302E-1   -7.773228513938303E-1   -3.331061527109444E-6   -3.540075383744673E-6    9.064223215885135E-6   -3.734186267734876E-6    6.239052898257845E-1   -7.805494292672557E-1
 6.780627118644068E8     6.297783490333793E-1   -7.853546313437757E-1   -5.478351181257443E-6   -1.002771241522558E-5   -1.022182140060061E-5   -9.824030134643890E-6    6.129316803941725E-1   -7.885698798615454E-1
 6.880327517447658E8     6.192974546437157E-1   -7.935203028523184E-1    1.466890515784993E-5   -2.919863198952152E-6    4.406474240658625E-6   -5.511573077244443E-6    6.016500770882579E-1   -7.962655632543330E-1
 6.980027916251246E8     6.085426144549902E-1   -8.017732370362293E-1   -1.269866111340720E-5   -9.510432072771076E-6   -6.116310286286596E-6    8.891548532624237E-6    5.900406780147588E-1   -8.038733986028371E-1
 7.079728315054835E8     5.973643500501836E-1   -8.102631437620841E-1    7.572455769289528E-6   -6.608935091943833E-6   -1.082274307544111E-6   -5.427810911467192E-6    5.783975338363019E-1   -8.116446808188618E-1
 7.179428713858424E8     5.860509701998415E-1   -8.187208357426867E-1   -1.632894582707549E-6   -1.667230192396080E-7   -1.272060995878803E-5   -2.454133696646400E-6    5.673403111346657E-1   -8.202593492719865E-1
 7.279129112662014E8     5.749455097808263E-1   -8.270760570378154E-1   -3.852036423551486E-6   -1.570159916018321E-6   -3.134591673590714E-7   -3.697506978662765E-6    5.559761928278679E-1   -8.291084466010081E-1
 7.378829511465603E8     5.637135368083653E-1   -8.359153905901849E-1    6.271561856400706E-6    5.796415211559441E-7   -4.734299385772830E-6    2.848681281080348E-6    5.445886361342841E-1   -8.373733171122109E-1
 7.478529910269192E8     5.517746204000612E-1   -8.444999157085874E-1   -1.720286769205561E-6    8.291284053413910E-6   -3.271230592144257E-6   -5.327926535350316E-6    5.334708897548912E-1   -8.451234878071561E-1
 7.578230309072782E8     5.390740263246218E-1   -8.517440001368769E-1    1.900795523954396E-6   -6.066105410335169E-6    8.279042661962472E-6    8.442573800347399E-6    5.223817517982460E-1   -8.521361787197425E-1
 7.677930707876371E8     5.287644827779274E-1   -8.570784191858243E-1    1.822770858102650E-5    6.331922698329959E-6   -1.063339169071669E-5    4.593956127829420E-6    5.110326276172702E-1   -8.584926003563305E-1
 7.777631106679960E8     5.190423078133681E-1   -8.639082065739814E-1    4.754396841620860E-6   -2.755659732584303E-7    5.920722492485976E-7   -4.577759607197801E-6    4.994793841997314E-1   -8.649095510191251E-1
 7.877331505483550E8     5.087580438909506E-1   -8.708495755055268E-1    4.100810820966616E-6    1.530934124924885E-6   -6.458162364035810E-7   -7.967593746639545E-6    4.876621435730070E-1   -8.715693532351241E-1
 7.977031904287138E8     4.975671928360797E-1   -8.772746027845783E-1    3.264540601751527E-6   -4.285620601405541E-6    5.484246899956934E-6    1.765421729406516E-6    4.749390187525506E-1   -8.781335541554046E-1
 8.076732303090727E8     4.858224192241180E-1   -8.832590332109829E-1    8.037523468181671E-6   -5.224292832187118E-6    4.712115165520192E-6    2.600868785330588E-6    4.620031905282445E-1   -8.842185698783281E-1
 8.176432701894317E8     4.737461547552337E-1   -8.891849382958894E-1   -5.575460792069426E-6    2.109186458732897E-7   -1.436029195887034E-5    8.576494192879848E-6    4.491568793372934E-1   -8.905522431121788E-1
 8.276133100697906E8     4.613545723318721E-1   -8.953787687302107E-1   -4.270731769786054E-6   -4.629112607091669E-6    7.753532878134324E-6    3.386956873134102E-6    4.365590977022094E-1   -8.971780653245105E-1
 8.375833499501495E8     4.487845669249508E-1   -9.019491454401912E-1    3.427392670611581E-6   -7.833192287191879E-6   -8.706186789112988E-7    8.390548979207722E-6    4.243679164289297E-1   -9.038949454738991E-1
 8.475533898305085E8     4.360060764018617E-1   -9.085037293738102E-1   -9.652114391818368E-6    1.357877002025670E-5   -1.798124214335607E-5   -1.046580978789414E-6    4.125239368560751E-1   -9.099328652612853E-1
 8.575234297108674E8     4.232676441618357E-1   -9.147930754746856E-1   -9.035126176816768E-6    1.972721414095787E-7    4.437958165370375E-6   -2.675212932275145E-6    4.008175333063798E-1   -9.152905067773902E-1
 8.674934695912263E8     4.103625549154511E-1   -9.213609227924794E-1    1.231819808483556E-6   -8.406189614239830E-6    9.280555723194638E-7    1.801886456692857E-5    3.887086442407154E-1   -9.200914687360757E-1
 8.774635094715853E8     3.972790698010500E-1   -9.279258195230358E-1    9.339556737342422E-6    2.306911027925762E-6    5.981956902473532E-6    1.657700135549885E-5    3.760377353188926E-1   -9.248513103844525E-1
 8.874335493519442E8     3.841825493117262E-1   -9.325611614439046E-1   -8.024258169882960E-6   -2.406119169164720E-7   -6.956992454946856E-6   -5.041702954696290E-6    3.630614173197592E-1   -9.293085150426805E-1
 8.974035892323031E8     3.729701524436436E-1   -9.363780066295746E-1    3.097005209042620E-6   -7.791181116905080E-7   -8.859577347827108E-6    1.129074773712519E-5    3.495213313511705E-1   -9.335770672085673E-1
