#  HZ   S   RI   R     50.00 
! Rohde & Schwarz Vector Network Analyzer 
! Rohde-Schwarz,ZNB20-2Port,1311601062102128,3.60
! Created: UTC 4/29/2024, 2:41:56 PM
! freq[Hz]                re:S11                  im:S11                  re:S21                  im:S21                  re:S12                  im:S12                  re:S22                  im:S22
 1.000000000000000E5     9.957431474122738E-1    3.346933307868604E-3   -8.483063103888822E-5   -7.416851409516433E-5   -7.187258937521073E-6    6.263286949966974E-6    1.010461161079744      -1.141104905319936E-2
 1.007003988035892E7     9.986187332746758E-1   -1.391845243834814E-2   -2.277428606032237E-6   -7.567323057016817E-6   -4.021561586782443E-6   -3.125180315147323E-5    9.960426303577170E-1   -1.449274092391480E-2
 2.004007976071785E7     9.998577249019792E-1   -2.710050132356236E-2    6.152371540388961E-6   -2.660573219247675E-5    7.801616128121657E-6    1.111609839942289E-5    9.988115058032416E-1   -2.768326455504294E-2
 3.001011964107677E7     9.984005390803474E-1   -4.088184146804878E-2    3.488689273617497E-6    6.422999131850336E-6    9.973479575076961E-6   -4.009912801713765E-6    9.977011792806705E-1   -4.202590691265588E-2
 3.998015952143569E7     9.975499329911710E-1   -5.310800907572386E-2   -1.534031376973646E-5    6.738666009229862E-8   -1.067204898383716E-6   -6.626477956554849E-6    9.977452684344900E-1   -5.663077112162523E-2
 4.995019940179461E7     9.955644823386395E-1   -6.600740424873985E-2   -4.355862059753745E-6   -5.810768466470192E-6    1.923853931387290E-5   -1.336094669234562E-5    9.966039167648144E-1   -6.915930415857398E-2
 5.992023928215354E7     9.940089898881664E-1   -7.890191332002289E-2   -3.133661797175476E-6    2.917829261303885E-7   -2.321448544702068E-6    1.433660355493970E-5    9.946840928236396E-1   -8.197366642610572E-2
 6.989027916251247E7     9.933951937115322E-1   -9.182857306416531E-2    1.787992133790447E-5    1.626829802853971E-5   -4.122517650714441E-6   -1.335217985640291E-5    9.935337103144811E-1   -9.474846292250581E-2
 7.986031904287139E7     9.928424933595646E-1   -1.052598139312406E-1    1.213588951298139E-5    2.063983533527436E-5    9.783301149873548E-6   -9.413288815975421E-6    9.924262273624747E-1   -1.078960310564733E-1
 8.983035892323031E7     9.915561764636357E-1   -1.188604413252332E-1    9.935062048616549E-6    5.219294968174348E-6   -2.905684160447849E-6   -7.816405997602351E-6    9.908257905032513E-1   -1.210598382519479E-1
 9.980039880358922E7     9.891834646385199E-1   -1.323641875675887E-1   -6.313927085498167E-6    1.350300879348916E-5    1.028769128720488E-5   -2.033975065312042E-6    9.886286086121930E-1   -1.343824132552154E-1
 1.097704386839482E8     9.863278403218700E-1   -1.455318189982961E-1    2.015513476462428E-5    5.063029319264624E-6   -3.841792524761105E-6    6.372330609034874E-6    9.862421444866570E-1   -1.477869059032809E-1
 1.197404785643071E8     9.850717542951359E-1   -1.589853279145790E-1   -1.133968444537426E-5   -4.748629023127946E-6   -1.956457090745991E-5   -2.603175664369151E-6    9.844371100696833E-1   -1.611890653324272E-1
 1.297105184446660E8     9.833187308048763E-1   -1.718371189146809E-1   -2.280773433970659E-6   -4.478314814182590E-6    1.191388727822558E-5    1.738931591076833E-5    9.828887164274556E-1   -1.744191304588236E-1
 1.396805583250249E8     9.818045864025913E-1   -1.847473732316117E-1   -3.833528832881546E-8    5.088368264310712E-6   -6.073406475830592E-8   -4.020899226579797E-6    9.809723347625883E-1   -1.875078403776104E-1
 1.496505982053838E8     9.788626705760366E-1   -1.970918677096856E-1    2.377287266840921E-6   -3.384065409198382E-6   -2.452969702746223E-6   -1.483117245291993E-5    9.786208596884041E-1   -2.003719495271469E-1
 1.596206380857428E8     9.761449966526944E-1   -2.094649181114398E-1   -2.534587993216235E-7    1.380257108963244E-6    8.489287786617553E-6   -6.272857189987350E-7    9.757928558024688E-1   -2.133158554081597E-1
 1.695906779661017E8     9.734125543491839E-1   -2.224267888634109E-1    5.054938644990547E-6    1.929198326655357E-7    4.785518652607505E-7    6.203586771416080E-6    9.729054174999283E-1   -2.260917445736323E-1
 1.795607178464606E8     9.708647465309617E-1   -2.349246290180661E-1   -1.164076243262769E-5   -9.837457308658197E-6    1.835213855280690E-5   -9.358421166429413E-6    9.704424215310098E-1   -2.380125549996421E-1
 1.895307577268195E8     9.676221426433210E-1   -2.470604323149158E-1   -7.568677619829646E-6    4.628125466089960E-6   -5.696117889075812E-6   -1.102281187677711E-5    9.667701790162773E-1   -2.504634188754362E-1
 1.995007976071784E8     9.637953045501376E-1   -2.594639684561849E-1    1.438066723022536E-5    1.378205087509949E-5    1.735382729149767E-5   -9.794477564351830E-6    9.628041123767900E-1   -2.632692278267951E-1
 2.094708374875374E8     9.605232846149222E-1   -2.724793263421191E-1   -1.122496939336878E-6   -3.627527115678276E-6    9.407422504236443E-6    1.367596466472170E-5    9.589692624007994E-1   -2.761966569148029E-1
 2.194408773678963E8     9.573963319905067E-1   -2.852521328613126E-1   -1.388268399039635E-6    1.152263926643004E-5    3.720359040298544E-6   -7.295807705548090E-7    9.552132994728372E-1   -2.891559805814597E-1
 2.294109172482552E8     9.536512496648293E-1   -2.974703968377899E-1   -2.224781563456039E-5   -1.032421836562020E-5   -1.267134607916880E-5    2.018744848500276E-7    9.511449839666706E-1   -3.018528968767861E-1
 2.393809571286142E8     9.506422906913274E-1   -3.095259667750211E-1   -1.246949392725665E-5    3.117235375646644E-6   -2.022071925359870E-6   -3.602165189975238E-6    9.469517351069660E-1   -3.140328870162482E-1
 2.493509970089731E8     9.469808741943889E-1   -3.234107798627667E-1   -6.875689310705775E-6    1.166881269595337E-5    9.673716590547851E-6   -5.347280611084927E-6    9.440596858009060E-1   -3.276458644144748E-1
 2.593210368893320E8     9.426648127547151E-1   -3.354609153847480E-1    7.688505247495141E-6    4.135685536174508E-7    4.782784024170834E-8    7.941263691629710E-6    9.400092211649609E-1   -3.409240199817889E-1
 2.692910767696909E8     9.385677253379358E-1   -3.468327853254619E-1    3.200635998172492E-6   -7.123719107993607E-6    3.051737546442988E-6   -1.232600802404518E-5    9.356382742514594E-1   -3.528720806369599E-1
 2.792611166500499E8     9.339932277187338E-1   -3.585368994539594E-1    2.525203511640312E-6   -6.994882628189514E-6   -4.152195366421946E-6    7.894592763815328E-6    9.308559659190173E-1   -3.646390757732255E-1
 2.892311565304088E8     9.290166088544841E-1   -3.705941797197481E-1   -1.401504304500619E-5    2.246983588004483E-6    3.777518390034587E-6   -1.239664150923285E-5    9.261780679250701E-1   -3.769272684238451E-1
 2.992011964107677E8     9.240965791861970E-1   -3.827301057031277E-1    1.027460326033762E-5   -1.476615460674298E-5   -3.069062736508933E-5    1.272961183530566E-6    9.213596693263585E-1   -3.886801410559848E-1
 3.091712362911266E8     9.188365993929967E-1   -3.950245905233488E-1    4.096210417838618E-6   -7.638040490138105E-6   -2.050908015271539E-6   -6.843217299316895E-6    9.156476374145081E-1   -4.001634171245309E-1
 3.191412761714855E8     9.132683955131558E-1   -4.074357669494892E-1   -8.978830628362869E-6    3.010379215283579E-6    9.355753020577728E-6   -2.904384998189786E-5    9.097693809237656E-1   -4.119967957227472E-1
 3.291113160518445E8     9.076018098095369E-1   -4.201197921065531E-1    9.122025343726814E-6    6.133991614380610E-6   -4.006413116332493E-6   -1.422648761971725E-5    9.034326305531765E-1   -4.243688630096688E-1
 3.390813559322034E8     9.018994398534099E-1   -4.328548721298195E-1   -6.466394226424222E-6   -3.259282953593247E-6    1.927859246671330E-6   -1.831842017843242E-6    8.968757391487054E-1   -4.370036493159330E-1
 3.490513958125623E8     8.966099619279478E-1   -4.453676544126773E-1    8.378434005180407E-6    7.741340537927768E-6   -3.852540793778214E-6   -7.639543033847075E-6    8.906375666563197E-1   -4.494974533107787E-1
 3.590214356929212E8     8.912534621016273E-1   -4.579073840008279E-1    6.386086535050604E-7    2.194080423628172E-7    2.527276623786095E-7    1.462214727648238E-5    8.846784993478963E-1   -4.622627998547010E-1
 3.689914755732802E8     8.859456710611281E-1   -4.701667486638912E-1   -1.029237508982867E-5   -3.122046350538409E-6    1.317959529511717E-6    1.114225750724638E-5    8.791349853297309E-1   -4.748608178575536E-1
 3.789615154536391E8     8.797713124246209E-1   -4.813588223644736E-1    1.364720717791774E-6    6.326210752053991E-6    3.340944850549879E-6   -1.581345166447997E-5    8.739261812113002E-1   -4.868052176346905E-1
 3.889315553339980E8     8.741051652606167E-1   -4.920789037473038E-1    7.047751554949924E-6    5.626360535210345E-6    1.806182199210447E-5    1.243567172204179E-5    8.681058229510843E-1   -4.987839364372668E-1
 3.989015952143569E8     8.673811011950174E-1   -5.028040661898203E-1    3.100032037658522E-6    3.805543212874464E-6    3.214184502032932E-6   -9.778463593352262E-6    8.612345198382804E-1   -5.097078362495331E-1
 4.088716350947158E8     8.602380326557038E-1   -5.136295568952424E-1   -7.172283800518147E-6    4.495041121420976E-7   -2.169138541891401E-5   -6.765957700803603E-7    8.543244873459855E-1   -5.206480801980069E-1
 4.188416749750748E8     8.532879212171669E-1   -5.251709246978592E-1    4.805290558133211E-6   -7.966960375437759E-6    5.480137604705920E-6   -7.033950982440721E-6    8.477113338535908E-1   -5.315927700681128E-1
 4.288117148554337E8     8.460239521703816E-1   -5.367206182688909E-1   -4.577297881714530E-6   -6.421332251483652E-6   -1.236827813246090E-5   -1.637015120222048E-5    8.407192323851970E-1   -5.419255106934207E-1
 4.387817547357926E8     8.382000865975421E-1   -5.481789239821672E-1   -1.347306425303346E-6   -4.914577114505301E-6    2.806191447892267E-6   -7.789281472101760E-6    8.326644736501546E-1   -5.524007567191654E-1
 4.487517946161516E8     8.304634184035697E-1   -5.600802453045312E-1    1.278410274296188E-5   -7.895428070763144E-6    9.421757544911143E-6   -5.193023102978787E-6    8.242279611577711E-1   -5.635672594158738E-1
 4.587218344965104E8     8.236028399003420E-1   -5.720044812765706E-1    1.421423051736092E-5   -9.622651969881545E-6    4.253507431373941E-6    1.372010970089373E-6    8.160702620269984E-1   -5.753604218413025E-1
 4.686918743768694E8     8.170373568597884E-1   -5.834418975115235E-1    4.297857350172970E-6   -3.672930977256173E-6   -6.839611501253368E-6    8.491639946830825E-6    8.078755523768888E-1   -5.869526899343355E-1
 4.786619142572283E8     8.097149458099582E-1   -5.942117556357550E-1    4.134645409808114E-6   -2.805035361979371E-6    1.026366722822779E-5   -1.260045435400089E-6    7.994414892577155E-1   -5.981001817792333E-1
 4.886319541375872E8     8.022277313812811E-1   -6.046610240543845E-1    9.868215219089035E-6    1.604510324798113E-6    1.009788957138337E-5    2.817992982684482E-5    7.906277614321492E-1   -6.088729703245623E-1
 4.986019940179462E8     7.940107866789294E-1   -6.155360898115065E-1   -3.706706804667146E-6   -1.541148669286085E-5   -9.478799039561735E-7   -8.153126631966802E-6    7.823462213825916E-1   -6.196940958103121E-1
 5.085720338983051E8     7.855415316964464E-1   -6.244769458134588E-1   -1.636973958346526E-7    1.046824870821288E-6   -4.681776531617064E-6   -2.221275226092020E-6    7.747315275398320E-1   -6.304018843353976E-1
 5.185420737786640E8     7.781853001953063E-1   -6.335717063241004E-1   -1.327586987124191E-5   -5.927936611350312E-6   -1.461987579901731E-6   -1.626474111160502E-6    7.670085370246252E-1   -6.402091065510080E-1
 5.285121136590229E8     7.698480189866094E-1   -6.430417833556450E-1   -5.324151364625681E-6    8.762163097751473E-7   -9.509673327455523E-6   -1.033043598635929E-5    7.589985988710582E-1   -6.497931142176986E-1
 5.384821535393819E8     7.613142922844587E-1   -6.531548613530582E-1   -1.810008964640509E-6   -1.566261298152865E-5   -9.683373566745085E-6   -1.074456988565122E-5    7.508564455787344E-1   -6.594406968602208E-1
 5.484521934197408E8     7.532853236061864E-1   -6.637636522315278E-1   -1.175049679319236E-6    1.779014472264065E-7   -2.767027686520175E-5   -8.101509156959083E-6    7.424747783210890E-1   -6.693353239382644E-1
 5.584222333000997E8     7.446435905701930E-1   -6.746909666468237E-1   -9.044960037089184E-6   -2.885162784394643E-6   -5.089661652151429E-6    8.376025981246788E-7    7.334084146941332E-1   -6.793564084604899E-1
 5.683922731804587E8     7.355971251466329E-1   -6.852543647473400E-1    1.422548965049449E-5    1.795305897942126E-6   -1.026580869841343E-5   -2.150038293261070E-6    7.232214033487360E-1   -6.893403351981617E-1
 5.783623130608176E8     7.261831158843965E-1   -6.950845621610838E-1   -6.772192696995320E-6    5.316181447119747E-6    7.534101332333109E-6    4.619168751481847E-6    7.127067356780802E-1   -6.990568850407147E-1
 5.883323529411764E8     7.169595001203922E-1   -7.051387570484284E-1   -3.050530089308731E-6    1.152680104839887E-5   -1.793506167334993E-5   -3.136454204296814E-5    7.022409172944191E-1   -7.088110926122783E-1
 5.983023928215353E8     7.078612828288871E-1   -7.152336063883401E-1   -6.487828205905614E-6    6.617696500838426E-6    1.360583969983273E-5    1.299473373121333E-5    6.920064076918402E-1   -7.185508997948756E-1
 6.082724327018943E8     6.982867885135310E-1   -7.249353474332887E-1   -1.229634813321094E-5   -1.226540447308805E-5    6.864926767838640E-6   -1.527834467589605E-6    6.816688022263649E-1   -7.278674356935051E-1
 6.182424725822532E8     6.884664262653476E-1   -7.347255515639193E-1    3.152518469097342E-6   -3.635389716773386E-6   -2.818995763232373E-6   -3.331737935740635E-6    6.717444062849288E-1   -7.373337519082965E-1
 6.282125124626122E8     6.780424154850840E-1   -7.440907927626690E-1    4.577555929101410E-7   -7.632733243296457E-6   -7.300545158359528E-6   -2.002174805692787E-6    6.628081078693452E-1   -7.469290334793260E-1
 6.381825523429711E8     6.683041259604164E-1   -7.511220877575181E-1    9.120503638570563E-6    1.296059632975301E-6   -2.174303704193846E-5   -2.406881733180553E-5    6.538327691636037E-1   -7.557480534756179E-1
 6.481525922233300E8     6.592450493000759E-1   -7.596668132806639E-1    4.808687738090116E-6   -7.118964705592873E-6    9.397135692315853E-6   -9.168044671784087E-6    6.446596793179080E-1   -7.641954034544843E-1
 6.581226321036890E8     6.495238085394930E-1   -7.685439828898309E-1   -7.487971167344570E-6   -4.461521410033481E-6    1.647646254538522E-5   -2.388708136929130E-5    6.345535915703087E-1   -7.724890794112854E-1
 6.680926719840479E8     6.397301026119062E-1   -7.773289009116063E-1   -2.519185547569158E-7    8.585079883243090E-6    1.243071576514263E-5   -1.999589910384619E-6    6.239330451616470E-1   -7.804984625971939E-1
 6.780627118644068E8     6.299026432194608E-1   -7.854863491151380E-1   -7.266341663744412E-6    1.327889842270541E-6   -5.732989366705953E-8    8.453802949081331E-8    6.128646087447432E-1   -7.884970471606004E-1
 6.880327517447658E8     6.195287063859354E-1   -7.937114690942662E-1    2.748653388608736E-6    3.854514231416260E-6    1.231921972724371E-6    6.500385629636820E-7    6.015394816717521E-1   -7.960905457335035E-1
 6.980027916251246E8     6.085134950882912E-1   -8.018785078387538E-1    1.337169165471976E-5    2.116774037374942E-7   -3.381418259466074E-6    1.317943833616701E-5    5.899817730541742E-1   -8.038335050056445E-1
 7.079728315054835E8     5.972397930305096E-1   -8.101159841878700E-1    9.546918209459246E-6   -1.386104239447676E-5    6.161101141578955E-6   -3.111500752857991E-5    5.786269989567465E-1   -8.117424002101208E-1
 7.179428713858424E8     5.859962579623518E-1   -8.187149806521522E-1    8.047900680273097E-6   -1.375341809953255E-5   -8.463199937136959E-6   -6.468471980392909E-6    5.673284644014704E-1   -8.203787978965389E-1
 7.279129112662014E8     5.751423120784501E-1   -8.272334327506374E-1   -4.610390143229202E-6   -1.950270374335976E-5   -3.892092415847199E-6   -1.202607807401666E-5    5.559322452612682E-1   -8.291433168336586E-1
 7.378829511465603E8     5.637881613339950E-1   -8.360015832412103E-1   -2.884248233822620E-6    5.188487922444126E-6    1.043397107591029E-5    1.165793582498358E-5    5.446262846079878E-1   -8.374313658022379E-1
 7.478529910269192E8     5.517407587726566E-1   -8.445534739492370E-1    1.269837784871931E-5   -7.299232418825362E-6   -3.647859877870942E-6   -7.922424638710225E-6    5.334785392005041E-1   -8.451008287771662E-1
 7.578230309072782E8     5.391102835620999E-1   -8.516443122153178E-1   -1.322595679187354E-5    7.788151237265130E-6    3.685345993619782E-6    1.667139464315738E-6    5.223292022737812E-1   -8.520790454922208E-1
 7.677930707876371E8     5.287217724719759E-1   -8.571374223730123E-1   -9.623968286848584E-6   -1.618411754029219E-5    3.303838449127553E-6   -6.761512877595933E-6    5.110328611093133E-1   -8.585112840477620E-1
 7.777631106679960E8     5.190953564926857E-1   -8.639910925900270E-1    3.296786095607997E-6    3.354263698750593E-6    7.888423446134388E-6   -4.293171306674027E-6    4.994358969920411E-1   -8.649795155445162E-1
 7.877331505483550E8     5.086956859525635E-1   -8.708571246737382E-1    1.120856025410660E-5    5.058545448660194E-6    1.919875281011888E-6   -1.661711353408787E-5    4.876777804235795E-1   -8.715886386713485E-1
 7.977031904287138E8     4.975437834050693E-1   -8.772823627258713E-1   -5.034860922424703E-6    6.985121189451570E-7   -4.861185788378402E-6    5.751736833632822E-6    4.749206190632576E-1   -8.782037391890386E-1
 8.076732303090727E8     4.857631801320817E-1   -8.832161282353801E-1    6.327830953899025E-6    1.016655477440346E-5    4.951379860702209E-6    1.286647956413179E-5    4.620246291154741E-1   -8.842281258245304E-1
 8.176432701894317E8     4.738094529074754E-1   -8.892692558009170E-1    2.801398112396866E-6    4.717235036401897E-6   -5.234673973571005E-6    4.429717622122156E-6    4.492022254007837E-1   -8.905677361772051E-1
 8.276133100697906E8     4.614828102687225E-1   -8.957325323255567E-1   -8.450792435610976E-6   -3.892248189460145E-6   -1.063629133813442E-5    1.727147094389949E-5    4.365123382942204E-1   -8.971894933805974E-1
 8.375833499501495E8     4.487229493363548E-1   -9.020579172630799E-1   -6.463796838156552E-6   -5.500171823352540E-6    9.666722803954580E-6    7.400222910188424E-6    4.243273345418089E-1   -9.039183656203702E-1
 8.475533898305085E8     4.359768376617891E-1   -9.084427152940119E-1   -1.170693975138657E-7   -6.945884207639417E-6   -2.786083885856873E-6   -1.414097544799787E-5    4.125270706417683E-1   -9.099209270637655E-1
 8.575234297108674E8     4.232271618939081E-1   -9.148454551111223E-1    3.382142039380171E-6   -9.892722001417418E-7   -6.330413629061033E-6    9.024548194269750E-6    4.006750807505451E-1   -9.153696769344977E-1
 8.674934695912263E8     4.104084513134005E-1   -9.214674275045656E-1    3.592026126156457E-6    8.039543533592026E-6    8.311963110118257E-6    9.897782221079211E-7    3.887367122921172E-1   -9.201584151026451E-1
 8.774635094715853E8     3.973588178600470E-1   -9.280973777593120E-1   -6.605343574873436E-6    1.667661490670285E-5   -1.372506502523980E-5    1.569982203610122E-5    3.761130599823263E-1   -9.247805897873457E-1
 8.874335493519442E8     3.842765623502059E-1   -9.326517549476122E-1   -3.674253872372593E-6    7.363641851783125E-7   -4.661999396307888E-6    5.545109192237914E-6    3.630173109859783E-1   -9.292215403699654E-1
 8.974035892323031E8     3.728878152592411E-1   -9.362886503448160E-1   -7.827444075425054E-6   -5.393720259736700E-6   -1.087499496140967E-5   -2.388914002709550E-6    3.495102863134311E-1   -9.334279325277954E-1
