[Version] 2.0
! Rohde & Schwarz Vector Network Analyzer
! Rohde-Schwarz,ZNL20-2Port,1323001220200009,1.71.1.10-23.02.1.238
! 
! Port Assignments:
! Nominal Port -> Actual Test Port
! --------------------------------
!   1 -> 1

! Created: GMT 2024-09-04 12:00:27

# Hz S DB R 50

[Number of Ports] 1
[Number of Frequencies] 2001

[Network Data] 
! freq[Hz]               S11[mag dB]              S11[ang]                 
1.000000000000000e+10    -2.075568508899985e+01   1.492257614250655e+02    
1.000100000000000e+10    -2.054663155582840e+01   1.500994681037864e+02    
1.000200000000000e+10    -2.034677488523878e+01   1.506366118725282e+02    
1.000300000000000e+10    -2.010159543567951e+01   1.512752614647850e+02    
1.000400000000000e+10    -1.984034156924004e+01   1.515546600763842e+02    
1.000500000000000e+10    -1.959278740549752e+01   1.517821265314275e+02    
1.000600000000000e+10    -1.934286181928421e+01   1.510969245876425e+02    
1.000700000000000e+10    -1.911404680023707e+01   1.508692464197535e+02    
1.000800000000000e+10    -1.890075068686203e+01   1.500348956608871e+02    
1.000900000000000e+10    -1.875304792196248e+01   1.492579813433200e+02    
1.001000000000000e+10    -1.856517165173158e+01   1.482784208645882e+02    
1.001100000000000e+10    -1.841050820702477e+01   1.473030051370866e+02    
1.001200000000000e+10    -1.828027187223122e+01   1.461069460645347e+02    
1.001300000000000e+10    -1.816858029819115e+01   1.448553960729888e+02    
1.001400000000000e+10    -1.806424560131734e+01   1.434117415583155e+02    
1.001500000000000e+10    -1.798188802027795e+01   1.421880727055481e+02    
1.001600000000000e+10    -1.792958202712752e+01   1.406713615007076e+02    
1.001700000000000e+10    -1.790689764328333e+01   1.392736535490756e+02    
1.001800000000000e+10    -1.791096321135243e+01   1.378578474019923e+02    
1.001900000000000e+10    -1.792107683301380e+01   1.364377573336099e+02    
1.002000000000000e+10    -1.797252727021645e+01   1.349035140533673e+02    
1.002100000000000e+10    -1.801287595962534e+01   1.335830245394512e+02    
1.002200000000000e+10    -1.812696311121357e+01   1.321958301630112e+02    
1.002300000000000e+10    -1.823349526193385e+01   1.307842923648576e+02    
1.002400000000000e+10    -1.836463364934270e+01   1.298507523114162e+02    
1.002500000000000e+10    -1.852608675567811e+01   1.287962583555314e+02    
1.002600000000000e+10    -1.869555748917114e+01   1.273996225650811e+02    
1.002700000000000e+10    -1.886954710751637e+01   1.266575479620868e+02    
1.002800000000000e+10    -1.909976765135878e+01   1.260779396158996e+02    
1.002900000000000e+10    -1.934597987584107e+01   1.253305485129985e+02    
1.003000000000000e+10    -1.959186210635806e+01   1.249527361762381e+02    
1.003100000000000e+10    -1.982270748859826e+01   1.248748841577127e+02    
1.003200000000000e+10    -2.010064421953075e+01   1.250181939609462e+02    
1.003300000000000e+10    -2.037829446295291e+01   1.250899538568173e+02    
1.003400000000000e+10    -2.066038518740624e+01   1.258925539008012e+02    
1.003500000000000e+10    -2.095997742323272e+01   1.266958093841496e+02    
1.003600000000000e+10    -2.114801350373348e+01   1.278595468341483e+02    
1.003700000000000e+10    -2.134099589819290e+01   1.295435368598848e+02    
1.003800000000000e+10    -2.148490696573192e+01   1.309944635413934e+02    
1.003900000000000e+10    -2.167929924162905e+01   1.331166416515796e+02    
1.004000000000000e+10    -2.174540080217100e+01   1.350780554623848e+02    
1.004100000000000e+10    -2.179787950078904e+01   1.373983764363497e+02    
1.004200000000000e+10    -2.176131321240317e+01   1.391150591548272e+02    
1.004300000000000e+10    -2.162918994725027e+01   1.415377902312551e+02    
1.004400000000000e+10    -2.146819172556865e+01   1.432696238894820e+02    
1.004500000000000e+10    -2.128138600166441e+01   1.449167396684052e+02    
1.004600000000000e+10    -2.105913847505479e+01   1.462372745773422e+02    
1.004700000000000e+10    -2.078737867254580e+01   1.475609997128080e+02    
1.004800000000000e+10    -2.051628159432641e+01   1.481931336827425e+02    
1.004900000000000e+10    -2.021523008151244e+01   1.483907890227749e+02    
1.005000000000000e+10    -1.997845375150271e+01   1.485773563584117e+02    
1.005100000000000e+10    -1.971032329890604e+01   1.485101960444740e+02    
1.005200000000000e+10    -1.947567158970686e+01   1.483992014011686e+02    
1.005300000000000e+10    -1.920965912409976e+01   1.477188706139988e+02    
1.005400000000000e+10    -1.899373239971883e+01   1.469014545338452e+02    
1.005500000000000e+10    -1.878482319375202e+01   1.459958471871673e+02    
1.005600000000000e+10    -1.862930942479385e+01   1.449798123929376e+02    
1.005700000000000e+10    -1.846823578181131e+01   1.437668711545425e+02    
1.005800000000000e+10    -1.839427235251960e+01   1.423716293076641e+02    
1.005900000000000e+10    -1.823088416706890e+01   1.410797174067412e+02    
1.006000000000000e+10    -1.813538232669466e+01   1.397000193642379e+02    
1.006100000000000e+10    -1.809003833694850e+01   1.381721098208035e+02    
1.006200000000000e+10    -1.809695457863845e+01   1.367253632045513e+02    
1.006300000000000e+10    -1.810904083075496e+01   1.351613735465063e+02    
1.006400000000000e+10    -1.809829026549530e+01   1.335144831058448e+02    
1.006500000000000e+10    -1.812942274163223e+01   1.320997989136038e+02    
1.006600000000000e+10    -1.820235316997862e+01   1.304777389728864e+02    
1.006700000000000e+10    -1.830888666157182e+01   1.288421528131410e+02    
1.006800000000000e+10    -1.838230098406694e+01   1.276417674861879e+02    
1.006900000000000e+10    -1.854762214065265e+01   1.262289687143758e+02    
1.007000000000000e+10    -1.868498502190655e+01   1.248103970114887e+02    
1.007100000000000e+10    -1.888725374111581e+01   1.238232099910200e+02    
1.007200000000000e+10    -1.910959518972849e+01   1.226390291179499e+02    
1.007300000000000e+10    -1.934292320952245e+01   1.215896076437037e+02    
1.007400000000000e+10    -1.956439293081722e+01   1.206123991747782e+02    
1.007500000000000e+10    -1.984145179747512e+01   1.199862688438196e+02    
1.007600000000000e+10    -2.012315442774107e+01   1.196814851780756e+02    
1.007700000000000e+10    -2.044019215446323e+01   1.193089718894994e+02    
1.007800000000000e+10    -2.078780316154143e+01   1.194968140869773e+02    
1.007900000000000e+10    -2.113293726139762e+01   1.196967445275332e+02    
1.008000000000000e+10    -2.145050691602203e+01   1.204197010399459e+02    
1.008100000000000e+10    -2.171049191236576e+01   1.217622688931635e+02    
1.008200000000000e+10    -2.200196917740223e+01   1.227926307834116e+02    
1.008300000000000e+10    -2.226497816014971e+01   1.242072695611798e+02    
1.008400000000000e+10    -2.243178825999702e+01   1.265946071303113e+02    
1.008500000000000e+10    -2.260764113783623e+01   1.287014954736079e+02    
1.008600000000000e+10    -2.266061970078956e+01   1.312364000433231e+02    
1.008700000000000e+10    -2.268784162883934e+01   1.335643070869107e+02    
1.008800000000000e+10    -2.259664901531447e+01   1.360131785843277e+02    
1.008900000000000e+10    -2.249032801634505e+01   1.380233602678013e+02    
1.009000000000000e+10    -2.230823884142336e+01   1.403682930900293e+02    
1.009100000000000e+10    -2.204608095641498e+01   1.421506619882027e+02    
1.009200000000000e+10    -2.183057109073105e+01   1.431648098338245e+02    
1.009300000000000e+10    -2.150247404575012e+01   1.441787926240389e+02    
1.009400000000000e+10    -2.118299434359155e+01   1.446558902492401e+02    
1.009500000000000e+10    -2.084518056865370e+01   1.451131400586816e+02    
1.009600000000000e+10    -2.058225443874603e+01   1.450020685110222e+02    
1.009700000000000e+10    -2.027035648090479e+01   1.448051979682600e+02    
1.009800000000000e+10    -2.001185534608211e+01   1.441071519422664e+02    
1.009900000000000e+10    -1.974672653008893e+01   1.433060311537193e+02    
1.010000000000000e+10    -1.951395590368924e+01   1.424923017840191e+02    
1.010100000000000e+10    -1.929680414089251e+01   1.413689666465414e+02    
1.010200000000000e+10    -1.911221435233908e+01   1.400412524502569e+02    
1.010300000000000e+10    -1.896992516515189e+01   1.387623751081268e+02    
1.010400000000000e+10    -1.882019750738525e+01   1.372376664205681e+02    
1.010500000000000e+10    -1.869882502363264e+01   1.359717312445646e+02    
1.010600000000000e+10    -1.864772618833789e+01   1.341664880519585e+02    
1.010700000000000e+10    -1.854245766209700e+01   1.328661337564846e+02    
1.010800000000000e+10    -1.852710519823827e+01   1.309791505804372e+02    
1.010900000000000e+10    -1.852835478355367e+01   1.295270351257094e+02    
1.011000000000000e+10    -1.855580852778668e+01   1.277981114376413e+02    
1.011100000000000e+10    -1.857891330965490e+01   1.262967389167662e+02    
1.011200000000000e+10    -1.863025929305495e+01   1.248607720426675e+02    
1.011300000000000e+10    -1.872607379630271e+01   1.234206184975826e+02    
1.011400000000000e+10    -1.885112105605696e+01   1.217991468892043e+02    
1.011500000000000e+10    -1.896553527052832e+01   1.204457283434074e+02    
1.011600000000000e+10    -1.913129768918972e+01   1.188958447002191e+02    
1.011700000000000e+10    -1.928743585821314e+01   1.177629184794724e+02    
1.011800000000000e+10    -1.950655248554410e+01   1.166023552904715e+02    
1.011900000000000e+10    -1.974416815307177e+01   1.157963800236118e+02    
1.012000000000000e+10    -2.002056254151217e+01   1.151940831704615e+02    
1.012100000000000e+10    -2.026865306223735e+01   1.145473552951388e+02    
1.012200000000000e+10    -2.059309102008707e+01   1.142022445374332e+02    
1.012300000000000e+10    -2.088962215304132e+01   1.140842751070807e+02    
1.012400000000000e+10    -2.118497065020795e+01   1.141623442007456e+02    
1.012500000000000e+10    -2.152905944765978e+01   1.146941668639704e+02    
1.012600000000000e+10    -2.182986588978476e+01   1.154485493750868e+02    
1.012700000000000e+10    -2.212032278433577e+01   1.171005006502674e+02    
1.012800000000000e+10    -2.239269963675229e+01   1.185858725415795e+02    
1.012900000000000e+10    -2.263604505922199e+01   1.204450891981709e+02    
1.013000000000000e+10    -2.279426351326029e+01   1.225101425439550e+02    
1.013100000000000e+10    -2.291855846610309e+01   1.252294898281374e+02    
1.013200000000000e+10    -2.294758160011538e+01   1.278561892353019e+02    
1.013300000000000e+10    -2.285809988641351e+01   1.303306391778231e+02    
1.013400000000000e+10    -2.280173355275548e+01   1.329660517629798e+02    
1.013500000000000e+10    -2.265739236888388e+01   1.351960213135991e+02    
1.013600000000000e+10    -2.243951481932854e+01   1.369802429854823e+02    
1.013700000000000e+10    -2.217267112447982e+01   1.390288354121809e+02    
1.013800000000000e+10    -2.186338436035717e+01   1.401208754033755e+02    
1.013900000000000e+10    -2.157269557946727e+01   1.408356364102856e+02    
1.014000000000000e+10    -2.130255360827045e+01   1.413391597731715e+02    
1.014100000000000e+10    -2.096976599626663e+01   1.418094132220554e+02    
1.014200000000000e+10    -2.070591602098533e+01   1.417280560973225e+02    
1.014300000000000e+10    -2.039767355281622e+01   1.413186325255708e+02    
1.014400000000000e+10    -2.014751163765725e+01   1.406060802423327e+02    
1.014500000000000e+10    -1.987829906368286e+01   1.398229349571006e+02    
1.014600000000000e+10    -1.970127256984426e+01   1.388399505858117e+02    
1.014700000000000e+10    -1.951262712742510e+01   1.378607745621182e+02    
1.014800000000000e+10    -1.932048779609167e+01   1.365481609535379e+02    
1.014900000000000e+10    -1.919067058780170e+01   1.351307033137224e+02    
1.015000000000000e+10    -1.905012833465208e+01   1.339172529121651e+02    
1.015100000000000e+10    -1.897691171826231e+01   1.323292102759763e+02    
1.015200000000000e+10    -1.893300722181774e+01   1.307421552023579e+02    
1.015300000000000e+10    -1.884933479858262e+01   1.293538646106679e+02    
1.015400000000000e+10    -1.887015070621093e+01   1.277257151847654e+02    
1.015500000000000e+10    -1.885238584159353e+01   1.260710394990100e+02    
1.015600000000000e+10    -1.889306607737524e+01   1.243909103555627e+02    
1.015700000000000e+10    -1.895500728817155e+01   1.228361565190395e+02    
1.015800000000000e+10    -1.902438139793551e+01   1.213159007312036e+02    
1.015900000000000e+10    -1.915450264327669e+01   1.196847814973276e+02    
1.016000000000000e+10    -1.928775023670955e+01   1.183341577490864e+02    
1.016100000000000e+10    -1.942596295026838e+01   1.168391113669051e+02    
1.016200000000000e+10    -1.964959321005455e+01   1.155349519246533e+02    
1.016300000000000e+10    -1.984384959105629e+01   1.141759030618962e+02    
1.016400000000000e+10    -2.005727295669146e+01   1.131822178211908e+02    
1.016500000000000e+10    -2.032779035215563e+01   1.121754131399305e+02    
1.016600000000000e+10    -2.060639472525993e+01   1.113427285766363e+02    
1.016700000000000e+10    -2.091498886942111e+01   1.108587246317304e+02    
1.016800000000000e+10    -2.121063243954553e+01   1.103732032184448e+02    
1.016900000000000e+10    -2.157649182203084e+01   1.105461642844661e+02    
1.017000000000000e+10    -2.184970302835675e+01   1.107193414488425e+02    
1.017100000000000e+10    -2.220833192456258e+01   1.116333671607991e+02    
1.017200000000000e+10    -2.255203712540572e+01   1.122538681020269e+02    
1.017300000000000e+10    -2.285013718646177e+01   1.138037486626979e+02    
1.017400000000000e+10    -2.313410247708170e+01   1.150619154821659e+02    
1.017500000000000e+10    -2.337116436972281e+01   1.174332555594775e+02    
1.017600000000000e+10    -2.360656852353163e+01   1.193117838692945e+02    
1.017700000000000e+10    -2.364156622146476e+01   1.220239192343804e+02    
1.017800000000000e+10    -2.369596608633420e+01   1.245169741810982e+02    
1.017900000000000e+10    -2.369486110399140e+01   1.269901488884897e+02    
1.018000000000000e+10    -2.354718133189214e+01   1.295742508769734e+02    
1.018100000000000e+10    -2.338148567698589e+01   1.315548257671847e+02    
1.018200000000000e+10    -2.314356709538837e+01   1.332884956708539e+02    
1.018300000000000e+10    -2.289629621079954e+01   1.348486549952502e+02    
1.018400000000000e+10    -2.256435330039690e+01   1.360749287202877e+02    
1.018500000000000e+10    -2.225666491240190e+01   1.367468325782844e+02    
1.018600000000000e+10    -2.193814703823449e+01   1.373698954959507e+02    
1.018700000000000e+10    -2.164217017495896e+01   1.372953058614289e+02    
1.018800000000000e+10    -2.129677367066686e+01   1.372002373725055e+02    
1.018900000000000e+10    -2.106657849028570e+01   1.367310583090734e+02    
1.019000000000000e+10    -2.075502751690721e+01   1.361045984594170e+02    
1.019100000000000e+10    -2.053518542056154e+01   1.350995271466966e+02    
1.019200000000000e+10    -2.033009146461774e+01   1.341938699830895e+02    
1.019300000000000e+10    -2.008143219092405e+01   1.329495512055352e+02    
1.019400000000000e+10    -1.990939804341532e+01   1.316873853476521e+02    
1.019500000000000e+10    -1.975524987332718e+01   1.302642225190926e+02    
1.019600000000000e+10    -1.966465307639556e+01   1.290474067604873e+02    
1.019700000000000e+10    -1.955469204530753e+01   1.274592600942577e+02    
1.019800000000000e+10    -1.947470117021866e+01   1.258784877841691e+02    
1.019900000000000e+10    -1.942074633090297e+01   1.242374525870042e+02    
1.020000000000000e+10    -1.938527223449707e+01   1.227745233321365e+02    
1.020100000000000e+10    -1.935246211164672e+01   1.210307197910339e+02    
1.020200000000000e+10    -1.941913983177486e+01   1.193822463033956e+02    
1.020300000000000e+10    -1.944945098806851e+01   1.177556452802002e+02    
1.020400000000000e+10    -1.950774901873673e+01   1.163731790254835e+02    
1.020500000000000e+10    -1.959734420509158e+01   1.147400668826771e+02    
1.020600000000000e+10    -1.973143200339389e+01   1.131992965985383e+02    
1.020700000000000e+10    -1.983243048190912e+01   1.117409440999275e+02    
1.020800000000000e+10    -1.999800252966866e+01   1.104699165427617e+02    
1.020900000000000e+10    -2.020380250384879e+01   1.093186285816496e+02    
1.021000000000000e+10    -2.041042900406211e+01   1.083290739832226e+02    
1.021100000000000e+10    -2.064772645352745e+01   1.074868322370861e+02    
1.021200000000000e+10    -2.089818149055659e+01   1.067847050174886e+02    
1.021300000000000e+10    -2.119917935915777e+01   1.063110987527174e+02    
1.021400000000000e+10    -2.146996131840843e+01   1.056306637732704e+02    
1.021500000000000e+10    -2.179972802640629e+01   1.060749246142799e+02    
1.021600000000000e+10    -2.206965112042998e+01   1.065410404046183e+02    
1.021700000000000e+10    -2.242479584699690e+01   1.069953716553982e+02    
1.021800000000000e+10    -2.272523893864663e+01   1.077698616545835e+02    
1.021900000000000e+10    -2.305609701204651e+01   1.091156327160374e+02    
1.022000000000000e+10    -2.329419397671374e+01   1.107212330080432e+02    
1.022100000000000e+10    -2.355400481710108e+01   1.126393569884551e+02    
1.022200000000000e+10    -2.368104548553818e+01   1.150829050421708e+02    
1.022300000000000e+10    -2.381857997072524e+01   1.174616775651680e+02    
1.022400000000000e+10    -2.382539239683154e+01   1.204571724058820e+02    
1.022500000000000e+10    -2.379338704829267e+01   1.224546452966000e+02    
1.022600000000000e+10    -2.367440836319791e+01   1.248809421072458e+02    
1.022700000000000e+10    -2.352529079145040e+01   1.273447196149516e+02    
1.022800000000000e+10    -2.333266366685045e+01   1.288241448410893e+02    
1.022900000000000e+10    -2.309918579073896e+01   1.310223537525022e+02    
1.023000000000000e+10    -2.279433272954995e+01   1.319605515884185e+02    
1.023100000000000e+10    -2.251301560007896e+01   1.329916794848155e+02    
1.023200000000000e+10    -2.217915837541306e+01   1.333455679353519e+02    
1.023300000000000e+10    -2.190214161549637e+01   1.338588261368490e+02    
1.023400000000000e+10    -2.157612818111250e+01   1.338487829008986e+02    
1.023500000000000e+10    -2.133019735271805e+01   1.336264633321510e+02    
1.023600000000000e+10    -2.108907242537259e+01   1.330376745110342e+02    
1.023700000000000e+10    -2.085133891482487e+01   1.321298783526146e+02    
1.023800000000000e+10    -2.061328609248857e+01   1.313167917468166e+02    
1.023900000000000e+10    -2.043877820848993e+01   1.301110730430993e+02    
1.024000000000000e+10    -2.028363143019998e+01   1.289478268308494e+02    
1.024100000000000e+10    -2.010216833841341e+01   1.278950212320469e+02    
1.024200000000000e+10    -1.999338980863379e+01   1.264320049646240e+02    
1.024300000000000e+10    -1.992132396525773e+01   1.249375044753979e+02    
1.024400000000000e+10    -1.984911567477046e+01   1.236527392225499e+02    
1.024500000000000e+10    -1.981744366403780e+01   1.221741428901564e+02    
1.024600000000000e+10    -1.976269665662035e+01   1.207764324303604e+02    
1.024700000000000e+10    -1.978368271250273e+01   1.189464737464902e+02    
1.024800000000000e+10    -1.974401911467755e+01   1.173886339289876e+02    
1.024900000000000e+10    -1.986736236746426e+01   1.160007838098783e+02    
1.025000000000000e+10    -1.993344160148674e+01   1.143585199046539e+02    
1.025100000000000e+10    -2.001408315290375e+01   1.127305184822831e+02    
1.025200000000000e+10    -2.011627568840093e+01   1.114279926976634e+02    
1.025300000000000e+10    -2.030586787765952e+01   1.101024556367769e+02    
1.025400000000000e+10    -2.050496507717899e+01   1.086738578870870e+02    
1.025500000000000e+10    -2.067805727939174e+01   1.075010114191740e+02    
1.025600000000000e+10    -2.090642193085866e+01   1.064236939702684e+02    
