[Version] 2.0
! Rohde & Schwarz Vector Network Analyzer
! Rohde-Schwarz,ZNL20-2Port,1323001220200009,1.71.1.10-23.02.1.238
! 
! Port Assignments:
! Nominal Port -> Actual Test Port
! --------------------------------
!   1 -> 1

! Created: GMT 2024-09-04 12:01:33

# Hz S DB R 50

[Number of Ports] 1
[Number of Frequencies] 2001

[Network Data] 
! freq[Hz]               S11[mag dB]              S11[ang]                 
1.000000000000000e+10    -2.083585270363574e+01   1.491770932228838e+02    
1.000100000000000e+10    -2.057957632835783e+01   1.502209086850307e+02    
1.000200000000000e+10    -2.039572123747264e+01   1.506699565443450e+02    
1.000300000000000e+10    -2.014790243389336e+01   1.513120868422740e+02    
1.000400000000000e+10    -1.989110817633889e+01   1.516208694385597e+02    
1.000500000000000e+10    -1.963584931834088e+01   1.516838828301276e+02    
1.000600000000000e+10    -1.940390389250003e+01   1.513072354953585e+02    
1.000700000000000e+10    -1.918037517140126e+01   1.510359827525945e+02    
1.000800000000000e+10    -1.894009680749183e+01   1.503775671133421e+02    
1.000900000000000e+10    -1.878447378442829e+01   1.495113965880867e+02    
1.001000000000000e+10    -1.859059822308861e+01   1.486162940770655e+02    
1.001100000000000e+10    -1.842940859186664e+01   1.474500307300800e+02    
1.001200000000000e+10    -1.828479832765905e+01   1.464572509633437e+02    
1.001300000000000e+10    -1.817315174162556e+01   1.453198230573614e+02    
1.001400000000000e+10    -1.808136451615337e+01   1.438209481095308e+02    
1.001500000000000e+10    -1.799093836806161e+01   1.426959704884351e+02    
1.001600000000000e+10    -1.795646352355116e+01   1.411185274744030e+02    
1.001700000000000e+10    -1.789999774569423e+01   1.396783152687311e+02    
1.001800000000000e+10    -1.790630060387959e+01   1.382412263565085e+02    
1.001900000000000e+10    -1.791420679863803e+01   1.367976719754022e+02    
1.002000000000000e+10    -1.796918140448631e+01   1.352184385360132e+02    
1.002100000000000e+10    -1.801224693720205e+01   1.339580730417971e+02    
1.002200000000000e+10    -1.809711363780746e+01   1.325168479814470e+02    
1.002300000000000e+10    -1.819796172543171e+01   1.312101597748394e+02    
1.002400000000000e+10    -1.831221666503839e+01   1.300456626692651e+02    
1.002500000000000e+10    -1.846534811320230e+01   1.287501807571821e+02    
1.002600000000000e+10    -1.867049081792965e+01   1.277734101609181e+02    
1.002700000000000e+10    -1.883735491312893e+01   1.269793292570982e+02    
1.002800000000000e+10    -1.908961682133860e+01   1.262157079957006e+02    
1.002900000000000e+10    -1.929413577210323e+01   1.255214136363204e+02    
1.003000000000000e+10    -1.953642527413871e+01   1.251831489623399e+02    
1.003100000000000e+10    -1.980173266268955e+01   1.249801012842310e+02    
1.003200000000000e+10    -2.007381639681781e+01   1.249139321950144e+02    
1.003300000000000e+10    -2.031567169231689e+01   1.252018298646520e+02    
1.003400000000000e+10    -2.061763496594907e+01   1.258369044982919e+02    
1.003500000000000e+10    -2.088720802547154e+01   1.266922856657563e+02    
1.003600000000000e+10    -2.108910309496666e+01   1.276348616735959e+02    
1.003700000000000e+10    -2.132366149021980e+01   1.293375885907846e+02    
1.003800000000000e+10    -2.153718822030500e+01   1.309677695612557e+02    
1.003900000000000e+10    -2.164081761930527e+01   1.330968523885032e+02    
1.004000000000000e+10    -2.174476277639892e+01   1.347021825358288e+02    
1.004100000000000e+10    -2.178604191159708e+01   1.373254988772467e+02    
1.004200000000000e+10    -2.177840369719994e+01   1.390322665279997e+02    
1.004300000000000e+10    -2.163311797026779e+01   1.412164896958172e+02    
1.004400000000000e+10    -2.153095586787344e+01   1.432888949526383e+02    
1.004500000000000e+10    -2.130839113538058e+01   1.446225357475386e+02    
1.004600000000000e+10    -2.110687702224476e+01   1.460804787797165e+02    
1.004700000000000e+10    -2.082104825065112e+01   1.473654204975045e+02    
1.004800000000000e+10    -2.057228675739120e+01   1.480791841378499e+02    
1.004900000000000e+10    -2.029766973020949e+01   1.484673660732294e+02    
1.005000000000000e+10    -1.999414941940277e+01   1.487997973709288e+02    
1.005100000000000e+10    -1.979335826042254e+01   1.488031094823808e+02    
1.005200000000000e+10    -1.952770201129398e+01   1.484121161447147e+02    
1.005300000000000e+10    -1.926436151899287e+01   1.481203004788336e+02    
1.005400000000000e+10    -1.904139002066843e+01   1.472102506419508e+02    
1.005500000000000e+10    -1.882808261910550e+01   1.463470224296356e+02    
1.005600000000000e+10    -1.867315251412593e+01   1.451420591461471e+02    
1.005700000000000e+10    -1.848768754858027e+01   1.439909396268774e+02    
1.005800000000000e+10    -1.840541826807815e+01   1.428830049507530e+02    
1.005900000000000e+10    -1.826296064954892e+01   1.414889161314308e+02    
1.006000000000000e+10    -1.817604260167539e+01   1.401213688783003e+02    
1.006100000000000e+10    -1.812255635153217e+01   1.385881613521766e+02    
1.006200000000000e+10    -1.808409773371882e+01   1.370121125292622e+02    
1.006300000000000e+10    -1.808726827452082e+01   1.356142802887165e+02    
1.006400000000000e+10    -1.809676280224838e+01   1.339151995594601e+02    
1.006500000000000e+10    -1.812568386513329e+01   1.324874235908595e+02    
1.006600000000000e+10    -1.820690303155381e+01   1.310579814543586e+02    
1.006700000000000e+10    -1.827738413724295e+01   1.292345543369903e+02    
1.006800000000000e+10    -1.836365669035403e+01   1.281112267228914e+02    
1.006900000000000e+10    -1.850750381943114e+01   1.264594270545104e+02    
1.007000000000000e+10    -1.869486705340785e+01   1.253906686656343e+02    
1.007100000000000e+10    -1.886644842609598e+01   1.239808816539953e+02    
1.007200000000000e+10    -1.906153027112219e+01   1.228615152387894e+02    
1.007300000000000e+10    -1.929450277887765e+01   1.218337605394700e+02    
1.007400000000000e+10    -1.954295361939754e+01   1.209426073839888e+02    
1.007500000000000e+10    -1.979183230839056e+01   1.201646199315914e+02    
1.007600000000000e+10    -2.008276605599446e+01   1.197989953878820e+02    
1.007700000000000e+10    -2.040950768115366e+01   1.195273250514743e+02    
1.007800000000000e+10    -2.074253107380003e+01   1.194535802054206e+02    
1.007900000000000e+10    -2.107594827686513e+01   1.196636199520225e+02    
1.008000000000000e+10    -2.136254945503895e+01   1.203268454703990e+02    
1.008100000000000e+10    -2.166002233559728e+01   1.215447600265592e+02    
1.008200000000000e+10    -2.194249363293576e+01   1.228844164682776e+02    
1.008300000000000e+10    -2.220728398824025e+01   1.240097605811192e+02    
1.008400000000000e+10    -2.243519336703368e+01   1.261915597277576e+02    
1.008500000000000e+10    -2.259293948267480e+01   1.284249279939427e+02    
1.008600000000000e+10    -2.266694145534987e+01   1.307574458461361e+02    
1.008700000000000e+10    -2.268850965253725e+01   1.331359618805699e+02    
1.008800000000000e+10    -2.263928948432519e+01   1.358092266016903e+02    
1.008900000000000e+10    -2.252311532349169e+01   1.376812545049987e+02    
1.009000000000000e+10    -2.234626788557027e+01   1.399662275374388e+02    
1.009100000000000e+10    -2.211364563157343e+01   1.418934970491337e+02    
1.009200000000000e+10    -2.183369212327488e+01   1.431659364456482e+02    
1.009300000000000e+10    -2.156084209666679e+01   1.440619888890813e+02    
1.009400000000000e+10    -2.122383741174041e+01   1.448029063056077e+02    
1.009500000000000e+10    -2.090229063829448e+01   1.450147209997339e+02    
1.009600000000000e+10    -2.065453183326167e+01   1.451304878549283e+02    
1.009700000000000e+10    -2.034196473246365e+01   1.448770765046112e+02    
1.009800000000000e+10    -2.004791349047337e+01   1.441805006348064e+02    
1.009900000000000e+10    -1.979469635617467e+01   1.436211297087034e+02    
1.010000000000000e+10    -1.956486329785669e+01   1.427756427932544e+02    
1.010100000000000e+10    -1.936269887309357e+01   1.415973073670717e+02    
1.010200000000000e+10    -1.915842456409831e+01   1.404129572573882e+02    
1.010300000000000e+10    -1.896995920769114e+01   1.391190223844373e+02    
1.010400000000000e+10    -1.883366829271346e+01   1.377430640244964e+02    
1.010500000000000e+10    -1.873037821316611e+01   1.362365535323171e+02    
1.010600000000000e+10    -1.866929741271669e+01   1.345381000703276e+02    
1.010700000000000e+10    -1.856238547794371e+01   1.332153409026194e+02    
1.010800000000000e+10    -1.852521239569646e+01   1.313480285739753e+02    
1.010900000000000e+10    -1.850518104798513e+01   1.298130116375620e+02    
1.011000000000000e+10    -1.853652240802960e+01   1.283186834750102e+02    
1.011100000000000e+10    -1.855843352849311e+01   1.267531259562425e+02    
1.011200000000000e+10    -1.861836708264548e+01   1.249725015879721e+02    
1.011300000000000e+10    -1.871567797500284e+01   1.237051996444292e+02    
1.011400000000000e+10    -1.883744710605481e+01   1.219994768302215e+02    
1.011500000000000e+10    -1.894355893159154e+01   1.207329037416036e+02    
1.011600000000000e+10    -1.910306325302052e+01   1.191087346843450e+02    
1.011700000000000e+10    -1.927211430245515e+01   1.180681254910299e+02    
1.011800000000000e+10    -1.947752750211984e+01   1.169485025722770e+02    
1.011900000000000e+10    -1.969334522334659e+01   1.161328903779534e+02    
1.012000000000000e+10    -1.997963869105353e+01   1.152661853857924e+02    
1.012100000000000e+10    -2.020796945438372e+01   1.150090369072250e+02    
1.012200000000000e+10    -2.053111330525825e+01   1.143052015778487e+02    
1.012300000000000e+10    -2.082469062852845e+01   1.142422463500371e+02    
1.012400000000000e+10    -2.112289102990641e+01   1.143107690359242e+02    
1.012500000000000e+10    -2.145408130715550e+01   1.148431522342308e+02    
1.012600000000000e+10    -2.175264081039330e+01   1.154184104193086e+02    
1.012700000000000e+10    -2.206216127746784e+01   1.168880735786743e+02    
1.012800000000000e+10    -2.236690536005631e+01   1.182731770241884e+02    
1.012900000000000e+10    -2.256921401289440e+01   1.202508472220499e+02    
1.013000000000000e+10    -2.276032154496745e+01   1.223047708645233e+02    
1.013100000000000e+10    -2.289890998218198e+01   1.247262658813149e+02    
1.013200000000000e+10    -2.295721194338036e+01   1.272737543596729e+02    
1.013300000000000e+10    -2.292081825888026e+01   1.298773358949396e+02    
1.013400000000000e+10    -2.280887521181809e+01   1.327030160678546e+02    
1.013500000000000e+10    -2.268691021897856e+01   1.347950782277487e+02    
1.013600000000000e+10    -2.253157146355531e+01   1.367375366126686e+02    
1.013700000000000e+10    -2.226581408205635e+01   1.385484587208341e+02    
1.013800000000000e+10    -2.196099190842128e+01   1.400546269850655e+02    
1.013900000000000e+10    -2.166805287177990e+01   1.409577324657850e+02    
1.014000000000000e+10    -2.135850510061235e+01   1.414685452162479e+02    
1.014100000000000e+10    -2.104933748314299e+01   1.417687403439577e+02    
1.014200000000000e+10    -2.076256666969604e+01   1.418113876328831e+02    
1.014300000000000e+10    -2.048227177208365e+01   1.413655589234790e+02    
1.014400000000000e+10    -2.022264596148838e+01   1.410597220917250e+02    
1.014500000000000e+10    -1.992974224542727e+01   1.402822128257783e+02    
1.014600000000000e+10    -1.974961196445956e+01   1.392580332649482e+02    
1.014700000000000e+10    -1.955726146041333e+01   1.381836288241913e+02    
1.014800000000000e+10    -1.935843713886638e+01   1.369159502628158e+02    
1.014900000000000e+10    -1.922866726270857e+01   1.356491199362848e+02    
1.015000000000000e+10    -1.910400632953124e+01   1.341905652452051e+02    
1.015100000000000e+10    -1.899594640025198e+01   1.327068684119786e+02    
1.015200000000000e+10    -1.892924744158132e+01   1.312828359742286e+02    
1.015300000000000e+10    -1.887800891811395e+01   1.296865169631498e+02    
1.015400000000000e+10    -1.887796105445709e+01   1.282159067409654e+02    
1.015500000000000e+10    -1.885120757358352e+01   1.264689374019674e+02    
1.015600000000000e+10    -1.888875980297055e+01   1.248286711443874e+02    
1.015700000000000e+10    -1.896748367665839e+01   1.232614301015054e+02    
1.015800000000000e+10    -1.903687791326169e+01   1.216678950984304e+02    
1.015900000000000e+10    -1.913515615228473e+01   1.201667075014734e+02    
1.016000000000000e+10    -1.926848308985456e+01   1.188548770462741e+02    
1.016100000000000e+10    -1.940965020106347e+01   1.172085642077173e+02    
1.016200000000000e+10    -1.961802729151290e+01   1.158692803167443e+02    
1.016300000000000e+10    -1.980067447425957e+01   1.147416389701356e+02    
1.016400000000000e+10    -2.000044660612618e+01   1.134109359092883e+02    
1.016500000000000e+10    -2.028399790265775e+01   1.124985758489067e+02    
1.016600000000000e+10    -2.052861653620739e+01   1.118229503064863e+02    
1.016700000000000e+10    -2.087839542257851e+01   1.110303517513852e+02    
1.016800000000000e+10    -2.119501998857155e+01   1.106990064220928e+02    
1.016900000000000e+10    -2.150179994207820e+01   1.104635015479613e+02    
1.017000000000000e+10    -2.178557614363998e+01   1.108190751202545e+02    
1.017100000000000e+10    -2.214797539710160e+01   1.115962096528158e+02    
1.017200000000000e+10    -2.249403758575541e+01   1.119340787904187e+02    
1.017300000000000e+10    -2.281308248224973e+01   1.133449242413362e+02    
1.017400000000000e+10    -2.307742102135208e+01   1.146607593498903e+02    
1.017500000000000e+10    -2.336688489281944e+01   1.170580595308282e+02    
1.017600000000000e+10    -2.357488016058834e+01   1.190022700135646e+02    
1.017700000000000e+10    -2.368440484733410e+01   1.213403324625936e+02    
1.017800000000000e+10    -2.371058546770286e+01   1.240901575812448e+02    
1.017900000000000e+10    -2.369449315142387e+01   1.264992062832518e+02    
1.018000000000000e+10    -2.360381358769240e+01   1.289900400080628e+02    
1.018100000000000e+10    -2.342455632865536e+01   1.312005395478139e+02    
1.018200000000000e+10    -2.321163274321407e+01   1.329536142342183e+02    
1.018300000000000e+10    -2.295934782493780e+01   1.349613176850922e+02    
1.018400000000000e+10    -2.265658058339882e+01   1.360528526941942e+02    
1.018500000000000e+10    -2.233369349531227e+01   1.367931848056475e+02    
1.018600000000000e+10    -2.196843462280214e+01   1.375707489643666e+02    
1.018700000000000e+10    -2.172402216929882e+01   1.374959771894681e+02    
1.018800000000000e+10    -2.141248021831739e+01   1.374301959015110e+02    
1.018900000000000e+10    -2.108920550670389e+01   1.370004951469928e+02    
1.019000000000000e+10    -2.084891125102176e+01   1.362282521217616e+02    
1.019100000000000e+10    -2.058868780792145e+01   1.353366398172356e+02    
1.019200000000000e+10    -2.036201724796776e+01   1.345049126296557e+02    
1.019300000000000e+10    -2.014865122875103e+01   1.332772246982940e+02    
1.019400000000000e+10    -1.997160715004916e+01   1.320719193379050e+02    
1.019500000000000e+10    -1.979962297297289e+01   1.306738431545785e+02    
1.019600000000000e+10    -1.968942927895201e+01   1.294980304960293e+02    
1.019700000000000e+10    -1.955361824088208e+01   1.278272371238707e+02    
1.019800000000000e+10    -1.949296694826786e+01   1.263478011163872e+02    
1.019900000000000e+10    -1.943162211840302e+01   1.247067951464843e+02    
1.020000000000000e+10    -1.936588786972907e+01   1.232005730688137e+02    
1.020100000000000e+10    -1.938286279746950e+01   1.215323303885776e+02    
1.020200000000000e+10    -1.940909090029064e+01   1.198569316733204e+02    
1.020300000000000e+10    -1.942216554454693e+01   1.181705687477196e+02    
1.020400000000000e+10    -1.950772753524546e+01   1.166147206155890e+02    
1.020500000000000e+10    -1.957001176265776e+01   1.151355012728782e+02    
1.020600000000000e+10    -1.971396327830651e+01   1.135517083595163e+02    
1.020700000000000e+10    -1.982134491923405e+01   1.122228653467488e+02    
1.020800000000000e+10    -1.995804620478031e+01   1.109853657348417e+02    
1.020900000000000e+10    -2.018023032445874e+01   1.097724663876534e+02    
1.021000000000000e+10    -2.037961019391244e+01   1.087625893636552e+02    
1.021100000000000e+10    -2.057737966497109e+01   1.077969497467854e+02    
1.021200000000000e+10    -2.085017973536330e+01   1.069946872443790e+02    
1.021300000000000e+10    -2.112233113922899e+01   1.062702905108574e+02    
1.021400000000000e+10    -2.144977124206508e+01   1.060597484027148e+02    
1.021500000000000e+10    -2.178076024727039e+01   1.060561237116769e+02    
1.021600000000000e+10    -2.202779492665011e+01   1.064256689974859e+02    
1.021700000000000e+10    -2.233750011688672e+01   1.066069491251160e+02    
1.021800000000000e+10    -2.268328207036476e+01   1.075613345975469e+02    
1.021900000000000e+10    -2.300387806984325e+01   1.087581973236261e+02    
1.022000000000000e+10    -2.323675518290852e+01   1.102264493481563e+02    
1.022100000000000e+10    -2.351703493800041e+01   1.126103442681239e+02    
1.022200000000000e+10    -2.369215216239312e+01   1.145606489752845e+02    
1.022300000000000e+10    -2.384974397849509e+01   1.168664404042217e+02    
1.022400000000000e+10    -2.387350258670192e+01   1.197327971423557e+02    
1.022500000000000e+10    -2.383755168657671e+01   1.221332027163092e+02    
1.022600000000000e+10    -2.375518346751054e+01   1.246349711030055e+02    
1.022700000000000e+10    -2.357942918544391e+01   1.268939329031902e+02    
1.022800000000000e+10    -2.338315011549882e+01   1.284866805836213e+02    
1.022900000000000e+10    -2.315222405831920e+01   1.306673846159563e+02    
1.023000000000000e+10    -2.283962397758152e+01   1.319448750042158e+02    
1.023100000000000e+10    -2.257301166344831e+01   1.330751691229121e+02    
1.023200000000000e+10    -2.226955766049478e+01   1.331649208958437e+02    
1.023300000000000e+10    -2.199877816990302e+01   1.339668160251239e+02    
1.023400000000000e+10    -2.164739973595237e+01   1.337836186122221e+02    
1.023500000000000e+10    -2.142668710289364e+01   1.336810660237866e+02    
1.023600000000000e+10    -2.114560218483551e+01   1.328990127219854e+02    
1.023700000000000e+10    -2.091938103240487e+01   1.324420738625197e+02    
1.023800000000000e+10    -2.067915028239884e+01   1.316430667262589e+02    
1.023900000000000e+10    -2.047854767278811e+01   1.305229347414364e+02    
1.024000000000000e+10    -2.031309938681690e+01   1.292352274118493e+02    
1.024100000000000e+10    -2.015801631517291e+01   1.282382329674109e+02    
1.024200000000000e+10    -2.004422699265520e+01   1.268386778359131e+02    
1.024300000000000e+10    -1.993925070324506e+01   1.253399119548496e+02    
1.024400000000000e+10    -1.985202316997278e+01   1.241988817030348e+02    
1.024500000000000e+10    -1.981650576100083e+01   1.225518521038934e+02    
1.024600000000000e+10    -1.978866442047094e+01   1.212217154427306e+02    
1.024700000000000e+10    -1.978927076566103e+01   1.196079967508878e+02    
1.024800000000000e+10    -1.975600805806110e+01   1.178545767962499e+02    
1.024900000000000e+10    -1.983935220460127e+01   1.165404979233758e+02    
1.025000000000000e+10    -1.992604834248348e+01   1.149286310591364e+02    
1.025100000000000e+10    -1.998458159487944e+01   1.133384482178414e+02    
1.025200000000000e+10    -2.011015261194333e+01   1.119856305245046e+02    
1.025300000000000e+10    -2.028406620672865e+01   1.104170740451249e+02    
1.025400000000000e+10    -2.044525155912743e+01   1.091854820306246e+02    
1.025500000000000e+10    -2.063599965970316e+01   1.078167685687310e+02    
1.025600000000000e+10    -2.082889575494142e+01   1.067415763411452e+02    
