[Version] 2.0
! Rohde & Schwarz Vector Network Analyzer
! Rohde-Schwarz,ZNL20-2Port,1323001220200009,1.71.1.10-23.02.1.238
! 
! Port Assignments:
! Nominal Port -> Actual Test Port
! --------------------------------
!   1 -> 1

! Created: GMT 2024-09-04 12:01:47

# Hz S DB R 50

[Number of Ports] 1
[Number of Frequencies] 2001

[Network Data] 
! freq[Hz]               S11[mag dB]              S11[ang]                 
1.000000000000000e+10    -2.087325451468976e+01   1.488938998467993e+02    
1.000100000000000e+10    -2.063578162637006e+01   1.499967883696682e+02    
1.000200000000000e+10    -2.045856940166789e+01   1.507028301383368e+02    
1.000300000000000e+10    -2.021258441900876e+01   1.512369305112834e+02    
1.000400000000000e+10    -1.992875346704860e+01   1.513694818463758e+02    
1.000500000000000e+10    -1.969077632789654e+01   1.517489689209060e+02    
1.000600000000000e+10    -1.947187349885377e+01   1.514134202573329e+02    
1.000700000000000e+10    -1.922293980583521e+01   1.514792987277386e+02    
1.000800000000000e+10    -1.896390941706415e+01   1.504989330154342e+02    
1.000900000000000e+10    -1.883712857515706e+01   1.498340369002917e+02    
1.001000000000000e+10    -1.861999022549874e+01   1.489600286675345e+02    
1.001100000000000e+10    -1.847362068534391e+01   1.479212278468269e+02    
1.001200000000000e+10    -1.833059295104300e+01   1.468783638718378e+02    
1.001300000000000e+10    -1.818653438101358e+01   1.456119961340321e+02    
1.001400000000000e+10    -1.808331263763469e+01   1.441515423782664e+02    
1.001500000000000e+10    -1.799999456107379e+01   1.430454775004514e+02    
1.001600000000000e+10    -1.794412605260304e+01   1.415440721348623e+02    
1.001700000000000e+10    -1.792001579309382e+01   1.399994328368903e+02    
1.001800000000000e+10    -1.790068951846538e+01   1.386263504118399e+02    
1.001900000000000e+10    -1.791389714226085e+01   1.371967025704701e+02    
1.002000000000000e+10    -1.795377374588978e+01   1.356381815458817e+02    
1.002100000000000e+10    -1.801837857292875e+01   1.342198010004425e+02    
1.002200000000000e+10    -1.807426773602548e+01   1.330226203440068e+02    
1.002300000000000e+10    -1.817427078960770e+01   1.315460251263275e+02    
1.002400000000000e+10    -1.828247155025313e+01   1.303829836683638e+02    
1.002500000000000e+10    -1.844203055556837e+01   1.291860593583997e+02    
1.002600000000000e+10    -1.861947555697417e+01   1.281081495511717e+02    
1.002700000000000e+10    -1.881646790145629e+01   1.270307447709338e+02    
1.002800000000000e+10    -1.901055689771789e+01   1.265623559548555e+02    
1.002900000000000e+10    -1.923349646892074e+01   1.256951524455628e+02    
1.003000000000000e+10    -1.949786187916482e+01   1.254136357034519e+02    
1.003100000000000e+10    -1.971705716944158e+01   1.250774100147928e+02    
1.003200000000000e+10    -2.001700115629672e+01   1.249364145232735e+02    
1.003300000000000e+10    -2.024353083023123e+01   1.251180572635701e+02    
1.003400000000000e+10    -2.053685804210968e+01   1.257799320616915e+02    
1.003500000000000e+10    -2.082656705963080e+01   1.266432226844873e+02    
1.003600000000000e+10    -2.106217258698644e+01   1.276176308211009e+02    
1.003700000000000e+10    -2.128274801950918e+01   1.291435278148084e+02    
1.003800000000000e+10    -2.150213023147168e+01   1.304785146935781e+02    
1.003900000000000e+10    -2.165071265099424e+01   1.328120834089756e+02    
1.004000000000000e+10    -2.173719424888808e+01   1.344262162049138e+02    
1.004100000000000e+10    -2.179755738759666e+01   1.367578024019428e+02    
1.004200000000000e+10    -2.180304206607779e+01   1.387875733844540e+02    
1.004300000000000e+10    -2.170987471541255e+01   1.409637735869050e+02    
1.004400000000000e+10    -2.153679596285134e+01   1.431856391585068e+02    
1.004500000000000e+10    -2.135451660900406e+01   1.448419591025757e+02    
1.004600000000000e+10    -2.115551892912740e+01   1.461475274020893e+02    
1.004700000000000e+10    -2.089525359598978e+01   1.471751236921943e+02    
1.004800000000000e+10    -2.064070959599725e+01   1.481056719960204e+02    
1.004900000000000e+10    -2.033454860239198e+01   1.485729808125990e+02    
1.005000000000000e+10    -2.007494667590032e+01   1.489211886901284e+02    
1.005100000000000e+10    -1.982109595097234e+01   1.489031413457415e+02    
1.005200000000000e+10    -1.957629311353110e+01   1.486912403447268e+02    
1.005300000000000e+10    -1.931419162323036e+01   1.480704495748456e+02    
1.005400000000000e+10    -1.907621000868462e+01   1.475588805983292e+02    
1.005500000000000e+10    -1.886768114148592e+01   1.467037456679674e+02    
1.005600000000000e+10    -1.871609091856691e+01   1.455561029275605e+02    
1.005700000000000e+10    -1.851617232946927e+01   1.443169718335428e+02    
1.005800000000000e+10    -1.842583693946602e+01   1.431081188014143e+02    
1.005900000000000e+10    -1.827965057514226e+01   1.418981635303701e+02    
1.006000000000000e+10    -1.820870413995369e+01   1.403858487659552e+02    
1.006100000000000e+10    -1.814049847697080e+01   1.389784901109159e+02    
1.006200000000000e+10    -1.811844183801556e+01   1.373386541148527e+02    
1.006300000000000e+10    -1.810891358708632e+01   1.358963242430706e+02    
1.006400000000000e+10    -1.811050750892789e+01   1.342356286654977e+02    
1.006500000000000e+10    -1.814302488226751e+01   1.329527569487694e+02    
1.006600000000000e+10    -1.819955182347700e+01   1.312371949515951e+02    
1.006700000000000e+10    -1.827388320315298e+01   1.296994620716353e+02    
1.006800000000000e+10    -1.834133568478403e+01   1.283514468159582e+02    
1.006900000000000e+10    -1.852883128220561e+01   1.268327384805887e+02    
1.007000000000000e+10    -1.864720295991545e+01   1.256327380841327e+02    
1.007100000000000e+10    -1.883766800462722e+01   1.243299717266585e+02    
1.007200000000000e+10    -1.901643556685576e+01   1.231062439011715e+02    
1.007300000000000e+10    -1.925989010749047e+01   1.220399039325782e+02    
1.007400000000000e+10    -1.948202171266930e+01   1.212127714466106e+02    
1.007500000000000e+10    -1.975753702525137e+01   1.203555136007584e+02    
1.007600000000000e+10    -2.003822737630974e+01   1.199006254218260e+02    
1.007700000000000e+10    -2.033286107352495e+01   1.195384403591238e+02    
1.007800000000000e+10    -2.066591033870990e+01   1.195835862148612e+02    
1.007900000000000e+10    -2.103396378172430e+01   1.195512660926990e+02    
1.008000000000000e+10    -2.131125526398928e+01   1.201190712564598e+02    
1.008100000000000e+10    -2.159829871504180e+01   1.212514103784250e+02    
1.008200000000000e+10    -2.192837365762824e+01   1.225076120930544e+02    
1.008300000000000e+10    -2.214756981486655e+01   1.237419529849025e+02    
1.008400000000000e+10    -2.234495095749370e+01   1.259438281961372e+02    
1.008500000000000e+10    -2.258580289427983e+01   1.281571530841499e+02    
1.008600000000000e+10    -2.266558281452717e+01   1.303694326463936e+02    
1.008700000000000e+10    -2.273478592488058e+01   1.328312041606985e+02    
1.008800000000000e+10    -2.265221597041821e+01   1.353168018442936e+02    
1.008900000000000e+10    -2.254759583215241e+01   1.374247934262465e+02    
1.009000000000000e+10    -2.238797406370037e+01   1.397586116386005e+02    
1.009100000000000e+10    -2.216101582568861e+01   1.416847141102259e+02    
1.009200000000000e+10    -2.189836479992081e+01   1.428611890356558e+02    
1.009300000000000e+10    -2.158575713302328e+01   1.437005683581559e+02    
1.009400000000000e+10    -2.125253099141089e+01   1.448216878325855e+02    
1.009500000000000e+10    -2.099249079637671e+01   1.451971762131342e+02    
1.009600000000000e+10    -2.073088021345481e+01   1.451369876229445e+02    
1.009700000000000e+10    -2.039713041967413e+01   1.450254737209380e+02    
1.009800000000000e+10    -2.014150546174940e+01   1.443280731249816e+02    
1.009900000000000e+10    -1.986124209324021e+01   1.437639876388849e+02    
1.010000000000000e+10    -1.960299673704120e+01   1.430869461054375e+02    
1.010100000000000e+10    -1.937868628591394e+01   1.419393219579563e+02    
1.010200000000000e+10    -1.919791245252057e+01   1.406153602452468e+02    
1.010300000000000e+10    -1.900487935828648e+01   1.394718827841571e+02    
1.010400000000000e+10    -1.886618765499830e+01   1.381339057092265e+02    
1.010500000000000e+10    -1.875121188743839e+01   1.365514758553873e+02    
1.010600000000000e+10    -1.869000701945824e+01   1.349485816734756e+02    
1.010700000000000e+10    -1.857743739198332e+01   1.334738337587783e+02    
1.010800000000000e+10    -1.854171548686963e+01   1.317001553162630e+02    
1.010900000000000e+10    -1.852225142908889e+01   1.302772222075495e+02    
1.011000000000000e+10    -1.853513973634223e+01   1.286569639969253e+02    
1.011100000000000e+10    -1.856948993202309e+01   1.271684871435813e+02    
1.011200000000000e+10    -1.861379896445267e+01   1.255527617620029e+02    
1.011300000000000e+10    -1.870795286600684e+01   1.240670218532109e+02    
1.011400000000000e+10    -1.882361341782695e+01   1.225026490314762e+02    
1.011500000000000e+10    -1.892540623156688e+01   1.211650624032975e+02    
1.011600000000000e+10    -1.906498592017120e+01   1.195947890021844e+02    
1.011700000000000e+10    -1.922490460955251e+01   1.184013205581479e+02    
1.011800000000000e+10    -1.943359989763024e+01   1.171623756263055e+02    
1.011900000000000e+10    -1.965892699300663e+01   1.162689562698378e+02    
1.012000000000000e+10    -1.993868592698199e+01   1.156523371046473e+02    
1.012100000000000e+10    -2.015659202509178e+01   1.151795951580236e+02    
1.012200000000000e+10    -2.049892134149455e+01   1.144048930409003e+02    
1.012300000000000e+10    -2.077852465165329e+01   1.142409007867414e+02    
1.012400000000000e+10    -2.107573769902795e+01   1.145247171988119e+02    
1.012500000000000e+10    -2.141375478296131e+01   1.149249041125485e+02    
1.012600000000000e+10    -2.171076041280097e+01   1.152789964291741e+02    
1.012700000000000e+10    -2.200170074615513e+01   1.165666830680689e+02    
1.012800000000000e+10    -2.229968635536652e+01   1.180406629591668e+02    
1.012900000000000e+10    -2.255700719602505e+01   1.199919252538144e+02    
1.013000000000000e+10    -2.273246276679359e+01   1.219511362934950e+02    
1.013100000000000e+10    -2.289130275920026e+01   1.243539750136865e+02    
1.013200000000000e+10    -2.292579400905031e+01   1.269959466015709e+02    
1.013300000000000e+10    -2.291477214746833e+01   1.298000632126844e+02    
1.013400000000000e+10    -2.288184253481593e+01   1.322433406592613e+02    
1.013500000000000e+10    -2.272774197861622e+01   1.347177181773888e+02    
1.013600000000000e+10    -2.252903187116452e+01   1.367349680583432e+02    
1.013700000000000e+10    -2.228382437620730e+01   1.384523020739919e+02    
1.013800000000000e+10    -2.200690279786912e+01   1.396555847240490e+02    
1.013900000000000e+10    -2.170554043891740e+01   1.409189599924690e+02    
1.014000000000000e+10    -2.140390399149346e+01   1.415309013211316e+02    
1.014100000000000e+10    -2.110071863651900e+01   1.417948572884526e+02    
1.014200000000000e+10    -2.082990375274291e+01   1.419832886885105e+02    
1.014300000000000e+10    -2.052758434977762e+01   1.415429576946070e+02    
1.014400000000000e+10    -2.027114121411134e+01   1.411787529784199e+02    
1.014500000000000e+10    -1.999021671838248e+01   1.403475610286153e+02    
1.014600000000000e+10    -1.981198368289194e+01   1.395633703954751e+02    
1.014700000000000e+10    -1.961365242352721e+01   1.385018618385243e+02    
1.014800000000000e+10    -1.941892130939576e+01   1.372026167156943e+02    
1.014900000000000e+10    -1.925891859508074e+01   1.359818143708565e+02    
1.015000000000000e+10    -1.915182617250056e+01   1.347377479714636e+02    
1.015100000000000e+10    -1.904952851251810e+01   1.330860993649414e+02    
1.015200000000000e+10    -1.896811617305090e+01   1.316151762191951e+02    
1.015300000000000e+10    -1.890032425118088e+01   1.301028479186257e+02    
1.015400000000000e+10    -1.889445720763802e+01   1.284947746453711e+02    
1.015500000000000e+10    -1.886919816593812e+01   1.269586316268733e+02    
1.015600000000000e+10    -1.889658927768647e+01   1.253136767107754e+02    
1.015700000000000e+10    -1.895541669231502e+01   1.235817122876448e+02    
1.015800000000000e+10    -1.901044489569323e+01   1.221357763554918e+02    
1.015900000000000e+10    -1.912062032430205e+01   1.205456261478146e+02    
1.016000000000000e+10    -1.924784742013592e+01   1.191113772946886e+02    
1.016100000000000e+10    -1.937659203981899e+01   1.174433816442683e+02    
1.016200000000000e+10    -1.958195280641667e+01   1.162641811026392e+02    
1.016300000000000e+10    -1.980936706402674e+01   1.148879620153972e+02    
1.016400000000000e+10    -1.999076293098721e+01   1.137184199203860e+02    
1.016500000000000e+10    -2.024329973125975e+01   1.127040960823504e+02    
1.016600000000000e+10    -2.048847228930793e+01   1.118388246933349e+02    
1.016700000000000e+10    -2.080452371412062e+01   1.113468813488548e+02    
1.016800000000000e+10    -2.110961871409453e+01   1.108518150650746e+02    
1.016900000000000e+10    -2.144190679458997e+01   1.105394533361731e+02    
1.017000000000000e+10    -2.171571850620770e+01   1.107829137326287e+02    
1.017100000000000e+10    -2.208754572552266e+01   1.114553562870514e+02    
1.017200000000000e+10    -2.244796850232904e+01   1.119573880762467e+02    
1.017300000000000e+10    -2.272977599278456e+01   1.131789401160455e+02    
1.017400000000000e+10    -2.306978701225790e+01   1.144837255476980e+02    
1.017500000000000e+10    -2.329773209268519e+01   1.165329133380841e+02    
1.017600000000000e+10    -2.353093048662903e+01   1.186810992158047e+02    
1.017700000000000e+10    -2.362683487050117e+01   1.210483838128641e+02    
1.017800000000000e+10    -2.368331596446554e+01   1.232913816144495e+02    
1.017900000000000e+10    -2.365291263723933e+01   1.260706984925422e+02    
1.018000000000000e+10    -2.359370632885571e+01   1.286320138299114e+02    
1.018100000000000e+10    -2.348882094552023e+01   1.304449946183181e+02    
1.018200000000000e+10    -2.328097744026340e+01   1.326358943133517e+02    
1.018300000000000e+10    -2.299856592175802e+01   1.345094778657244e+02    
1.018400000000000e+10    -2.275561570174252e+01   1.354667024664515e+02    
1.018500000000000e+10    -2.241817172006506e+01   1.365622928650446e+02    
1.018600000000000e+10    -2.205671691339752e+01   1.372853357572304e+02    
1.018700000000000e+10    -2.178758920496703e+01   1.375003307593316e+02    
1.018800000000000e+10    -2.142959674419464e+01   1.372922385392299e+02    
1.018900000000000e+10    -2.118662942469100e+01   1.369267081016983e+02    
1.019000000000000e+10    -2.090380618668420e+01   1.365905324078043e+02    
1.019100000000000e+10    -2.067652549339688e+01   1.356802512381439e+02    
1.019200000000000e+10    -2.042992063201040e+01   1.345710313478903e+02    
1.019300000000000e+10    -2.016792167744166e+01   1.337448691929338e+02    
1.019400000000000e+10    -2.003545295740836e+01   1.324218542219424e+02    
1.019500000000000e+10    -1.983323642271507e+01   1.311195385420015e+02    
1.019600000000000e+10    -1.974013101901712e+01   1.297778217111332e+02    
1.019700000000000e+10    -1.959595128843461e+01   1.283607237484242e+02    
1.019800000000000e+10    -1.950382737021143e+01   1.265841233669647e+02    
1.019900000000000e+10    -1.944674104641809e+01   1.249290079448974e+02    
1.020000000000000e+10    -1.941633971403757e+01   1.235583319365286e+02    
1.020100000000000e+10    -1.939028022618574e+01   1.219679722272971e+02    
1.020200000000000e+10    -1.939270062678158e+01   1.202830580780840e+02    
1.020300000000000e+10    -1.941042936184122e+01   1.187452733477497e+02    
1.020400000000000e+10    -1.947961649234441e+01   1.169487153073948e+02    
1.020500000000000e+10    -1.955266142808691e+01   1.154176818975837e+02    
1.020600000000000e+10    -1.967991107354535e+01   1.140474622655559e+02    
1.020700000000000e+10    -1.978925970259146e+01   1.126519689528289e+02    
1.020800000000000e+10    -1.991404742636867e+01   1.113665483478877e+02    
1.020900000000000e+10    -2.013002412828935e+01   1.099716350190212e+02    
1.021000000000000e+10    -2.032576879776123e+01   1.088956180585838e+02    
1.021100000000000e+10    -2.053910627272271e+01   1.078914523361582e+02    
1.021200000000000e+10    -2.080335101701708e+01   1.070742588485481e+02    
1.021300000000000e+10    -2.109412287568588e+01   1.066935051751806e+02    
1.021400000000000e+10    -2.135162346216644e+01   1.061763256450848e+02    
1.021500000000000e+10    -2.164597929297103e+01   1.062933923869562e+02    
1.021600000000000e+10    -2.196376324508323e+01   1.065582846733463e+02    
1.021700000000000e+10    -2.227592021490007e+01   1.066756662539070e+02    
1.021800000000000e+10    -2.259903576060968e+01   1.074366912497094e+02    
1.021900000000000e+10    -2.293067869138654e+01   1.084637023487077e+02    
1.022000000000000e+10    -2.320563336946775e+01   1.101285349615138e+02    
1.022100000000000e+10    -2.347495598568146e+01   1.121553615829381e+02    
1.022200000000000e+10    -2.364287685576295e+01   1.141395686606170e+02    
1.022300000000000e+10    -2.378911920730092e+01   1.165824824444235e+02    
1.022400000000000e+10    -2.386383749860669e+01   1.188744418434019e+02    
1.022500000000000e+10    -2.383597044293010e+01   1.216046524632139e+02    
1.022600000000000e+10    -2.377636246275873e+01   1.239889367966368e+02    
1.022700000000000e+10    -2.363256478276046e+01   1.263279379579536e+02    
1.022800000000000e+10    -2.345980162095842e+01   1.282508560370120e+02    
1.022900000000000e+10    -2.324081359780920e+01   1.303190682939591e+02    
1.023000000000000e+10    -2.294774300331698e+01   1.316263511579414e+02    
1.023100000000000e+10    -2.271761415606539e+01   1.328405171790656e+02    
1.023200000000000e+10    -2.235789060293424e+01   1.333935033938535e+02    
1.023300000000000e+10    -2.206654319259839e+01   1.340954858935953e+02    
1.023400000000000e+10    -2.178018462845449e+01   1.338293780493612e+02    
1.023500000000000e+10    -2.149924354545820e+01   1.340530804777303e+02    
1.023600000000000e+10    -2.123853743217299e+01   1.333360147978053e+02    
1.023700000000000e+10    -2.099611104334083e+01   1.328476891112070e+02    
1.023800000000000e+10    -2.070428506911600e+01   1.320039991459755e+02    
1.023900000000000e+10    -2.056689059175179e+01   1.307850149434386e+02    
1.024000000000000e+10    -2.034702633238650e+01   1.296466750572909e+02    
1.024100000000000e+10    -2.019808295153915e+01   1.288000431848354e+02    
1.024200000000000e+10    -2.008261005644973e+01   1.274614062267092e+02    
1.024300000000000e+10    -1.996691077789595e+01   1.259596530918838e+02    
1.024400000000000e+10    -1.988015706804237e+01   1.245281964846470e+02    
1.024500000000000e+10    -1.983769628189672e+01   1.229538303230380e+02    
1.024600000000000e+10    -1.977498701688354e+01   1.215479586118028e+02    
1.024700000000000e+10    -1.977427997526722e+01   1.200278094497530e+02    
1.024800000000000e+10    -1.976072792969940e+01   1.184267746156390e+02    
1.024900000000000e+10    -1.984328057207833e+01   1.169849665714707e+02    
1.025000000000000e+10    -1.991170693064137e+01   1.153438945212635e+02    
1.025100000000000e+10    -1.997486930241732e+01   1.136602528374506e+02    
1.025200000000000e+10    -2.008033146062558e+01   1.122900893551654e+02    
1.025300000000000e+10    -2.025367065570468e+01   1.108790184090774e+02    
1.025400000000000e+10    -2.042178760670184e+01   1.095503592301288e+02    
1.025500000000000e+10    -2.057668559297748e+01   1.080899922008315e+02    
1.025600000000000e+10    -2.079930455125555e+01   1.071363213986598e+02    
