[Version] 2.0
! Rohde & Schwarz Vector Network Analyzer
! Rohde-Schwarz,ZNL20-2Port,1323001220200009,1.71.1.10-23.02.1.238
! 
! Port Assignments:
! Nominal Port -> Actual Test Port
! --------------------------------
!   1 -> 1

! Created: GMT 2024-09-04 12:02:26

# Hz S DB R 50

[Number of Ports] 1
[Number of Frequencies] 2001

[Network Data] 
! freq[Hz]               S11[mag dB]              S11[ang]                 
1.000000000000000e+10    -2.095662305690128e+01   1.483236804656115e+02    
1.000100000000000e+10    -2.071914584881159e+01   1.494568165358910e+02    
1.000200000000000e+10    -2.053730739643246e+01   1.502849559786973e+02    
1.000300000000000e+10    -2.030064191931235e+01   1.510664213912108e+02    
1.000400000000000e+10    -2.003986089560257e+01   1.513575229657285e+02    
1.000500000000000e+10    -1.981833747618088e+01   1.517655952656382e+02    
1.000600000000000e+10    -1.955032449256809e+01   1.513659944952902e+02    
1.000700000000000e+10    -1.934449475808738e+01   1.514563353446986e+02    
1.000800000000000e+10    -1.904091066014647e+01   1.507088001308958e+02    
1.000900000000000e+10    -1.892461936741039e+01   1.502288029467204e+02    
1.001000000000000e+10    -1.868639470834498e+01   1.494691506726354e+02    
1.001100000000000e+10    -1.855023991141794e+01   1.482910087888723e+02    
1.001200000000000e+10    -1.837811186949045e+01   1.472974760315181e+02    
1.001300000000000e+10    -1.823925189540607e+01   1.461566264354277e+02    
1.001400000000000e+10    -1.815760522400233e+01   1.446745253298528e+02    
1.001500000000000e+10    -1.803362043050539e+01   1.435379997689753e+02    
1.001600000000000e+10    -1.797621131157767e+01   1.422534613048651e+02    
1.001700000000000e+10    -1.791700441447998e+01   1.407514662029189e+02    
1.001800000000000e+10    -1.787905777437066e+01   1.393380564964499e+02    
1.001900000000000e+10    -1.788724687409170e+01   1.377295104930159e+02    
1.002000000000000e+10    -1.793353892217851e+01   1.361496499198833e+02    
1.002100000000000e+10    -1.799731307065862e+01   1.348663189136342e+02    
1.002200000000000e+10    -1.805408149972560e+01   1.335760667751163e+02    
1.002300000000000e+10    -1.813749827025350e+01   1.322025441280084e+02    
1.002400000000000e+10    -1.824110685415305e+01   1.309786396434529e+02    
1.002500000000000e+10    -1.839865765030775e+01   1.297004683189357e+02    
1.002600000000000e+10    -1.855055006821367e+01   1.287745254346489e+02    
1.002700000000000e+10    -1.874300011582056e+01   1.275989354682144e+02    
1.002800000000000e+10    -1.893773155216466e+01   1.270421224057590e+02    
1.002900000000000e+10    -1.916142865185845e+01   1.259589106906367e+02    
1.003000000000000e+10    -1.938704142189570e+01   1.256077051153484e+02    
1.003100000000000e+10    -1.964012357912743e+01   1.253546026680634e+02    
1.003200000000000e+10    -1.988555036687199e+01   1.251310512164185e+02    
1.003300000000000e+10    -2.016292630342660e+01   1.250518046648916e+02    
1.003400000000000e+10    -2.040463506575652e+01   1.256255737164746e+02    
1.003500000000000e+10    -2.068770368255937e+01   1.262527580940890e+02    
1.003600000000000e+10    -2.095631207071367e+01   1.271293228706812e+02    
1.003700000000000e+10    -2.117208123921404e+01   1.286068968984479e+02    
1.003800000000000e+10    -2.138245577861737e+01   1.298010780110068e+02    
1.003900000000000e+10    -2.157577307991109e+01   1.320160084940169e+02    
1.004000000000000e+10    -2.171132817880528e+01   1.335549792574314e+02    
1.004100000000000e+10    -2.177678155310565e+01   1.358688950004823e+02    
1.004200000000000e+10    -2.178069285597178e+01   1.378688548001233e+02    
1.004300000000000e+10    -2.172235980982986e+01   1.400821735995219e+02    
1.004400000000000e+10    -2.159581565620469e+01   1.423048801502767e+02    
1.004500000000000e+10    -2.142378147825006e+01   1.440953086677301e+02    
1.004600000000000e+10    -2.125992110948940e+01   1.455884821381375e+02    
1.004700000000000e+10    -2.095213614598602e+01   1.468145116197674e+02    
1.004800000000000e+10    -2.075328965560131e+01   1.480858472122979e+02    
1.004900000000000e+10    -2.045943260645874e+01   1.483085574555812e+02    
1.005000000000000e+10    -2.020527664389912e+01   1.488495894591280e+02    
1.005100000000000e+10    -1.993509243016137e+01   1.488850960877491e+02    
1.005200000000000e+10    -1.967880831217793e+01   1.487683984563674e+02    
1.005300000000000e+10    -1.941822891336925e+01   1.482126229321602e+02    
1.005400000000000e+10    -1.918572778743813e+01   1.474221443591425e+02    
1.005500000000000e+10    -1.896359147711965e+01   1.469566962087085e+02    
1.005600000000000e+10    -1.879578767598685e+01   1.457823081382444e+02    
1.005700000000000e+10    -1.862598348041466e+01   1.448164855939906e+02    
1.005800000000000e+10    -1.849176163492244e+01   1.436820285834604e+02    
1.005900000000000e+10    -1.835953138292405e+01   1.424230401164498e+02    
1.006000000000000e+10    -1.824469325923209e+01   1.409275558355548e+02    
1.006100000000000e+10    -1.817509955478914e+01   1.395901830731631e+02    
1.006200000000000e+10    -1.815050808894791e+01   1.379720652628059e+02    
1.006300000000000e+10    -1.812942699058211e+01   1.365715620523924e+02    
1.006400000000000e+10    -1.811348602674362e+01   1.348071457648852e+02    
1.006500000000000e+10    -1.812398936448898e+01   1.334891231430418e+02    
1.006600000000000e+10    -1.818773389897022e+01   1.319164966911877e+02    
1.006700000000000e+10    -1.825838167010042e+01   1.302451184400712e+02    
1.006800000000000e+10    -1.833217824628932e+01   1.290075311265607e+02    
1.006900000000000e+10    -1.846208644852693e+01   1.275850334306107e+02    
1.007000000000000e+10    -1.863990822952947e+01   1.261937992962755e+02    
1.007100000000000e+10    -1.877370954742596e+01   1.250155869052587e+02    
1.007200000000000e+10    -1.893489370803557e+01   1.238085458181723e+02    
1.007300000000000e+10    -1.919158062987233e+01   1.226214982907524e+02    
1.007400000000000e+10    -1.941222824745979e+01   1.215891499164220e+02    
1.007500000000000e+10    -1.965339826461383e+01   1.205513746462587e+02    
1.007600000000000e+10    -1.993011006346713e+01   1.203040556085404e+02    
1.007700000000000e+10    -2.020830296341462e+01   1.196504470115337e+02    
1.007800000000000e+10    -2.055465462958129e+01   1.195660455241676e+02    
1.007900000000000e+10    -2.090542357959662e+01   1.195077018200324e+02    
1.008000000000000e+10    -2.121645792664349e+01   1.200876258489954e+02    
1.008100000000000e+10    -2.146529425496853e+01   1.210441665907706e+02    
1.008200000000000e+10    -2.177553949001847e+01   1.219053045270683e+02    
1.008300000000000e+10    -2.207012506618338e+01   1.232568077787018e+02    
1.008400000000000e+10    -2.226370752253129e+01   1.253234380834611e+02    
1.008500000000000e+10    -2.249106324946944e+01   1.271518451442035e+02    
1.008600000000000e+10    -2.262557563130607e+01   1.293524196469957e+02    
1.008700000000000e+10    -2.267572519326530e+01   1.316068217911016e+02    
1.008800000000000e+10    -2.263968462314206e+01   1.342627257136859e+02    
1.008900000000000e+10    -2.260923929164386e+01   1.364302333084451e+02    
1.009000000000000e+10    -2.247737235727050e+01   1.388687657144950e+02    
1.009100000000000e+10    -2.220319679195224e+01   1.407322772448312e+02    
1.009200000000000e+10    -2.202057728669892e+01   1.422983421454823e+02    
1.009300000000000e+10    -2.172732231045510e+01   1.432354392612471e+02    
1.009400000000000e+10    -2.139040906536744e+01   1.441195486984625e+02    
1.009500000000000e+10    -2.111237799370059e+01   1.448952370833387e+02    
1.009600000000000e+10    -2.080599267948810e+01   1.452569648072163e+02    
1.009700000000000e+10    -2.053776137769989e+01   1.451786428229470e+02    
1.009800000000000e+10    -2.024524013802534e+01   1.445173933369261e+02    
1.009900000000000e+10    -1.996214822888527e+01   1.439730322007384e+02    
1.010000000000000e+10    -1.972773086339308e+01   1.432889557992262e+02    
1.010100000000000e+10    -1.950000800674219e+01   1.423098321786857e+02    
1.010200000000000e+10    -1.927879709602269e+01   1.410236460018641e+02    
1.010300000000000e+10    -1.909990861952812e+01   1.400663817062050e+02    
1.010400000000000e+10    -1.896169861240989e+01   1.387123871851052e+02    
1.010500000000000e+10    -1.880817102620828e+01   1.370113640133658e+02    
1.010600000000000e+10    -1.873469491570373e+01   1.356639837263830e+02    
1.010700000000000e+10    -1.861730219840067e+01   1.342050829638385e+02    
1.010800000000000e+10    -1.856061467826656e+01   1.324327598400438e+02    
1.010900000000000e+10    -1.853181808404310e+01   1.308673117737524e+02    
1.011000000000000e+10    -1.857176528751087e+01   1.292494864400658e+02    
1.011100000000000e+10    -1.858562046848661e+01   1.278985053955660e+02    
1.011200000000000e+10    -1.859868606911092e+01   1.262705748667485e+02    
1.011300000000000e+10    -1.868752048549083e+01   1.249196073151211e+02    
1.011400000000000e+10    -1.876611758770865e+01   1.232761055807320e+02    
1.011500000000000e+10    -1.891500447828510e+01   1.217782329807185e+02    
1.011600000000000e+10    -1.901887245887569e+01   1.202045274703702e+02    
1.011700000000000e+10    -1.917810010621379e+01   1.190452933307656e+02    
1.011800000000000e+10    -1.938119357377136e+01   1.178436912797651e+02    
1.011900000000000e+10    -1.958134250253385e+01   1.168750862863161e+02    
1.012000000000000e+10    -1.982314654250424e+01   1.160539342302168e+02    
1.012100000000000e+10    -2.005134907078121e+01   1.153651681422382e+02    
1.012200000000000e+10    -2.039194860227555e+01   1.148167236585753e+02    
1.012300000000000e+10    -2.063387843756244e+01   1.145038158107287e+02    
1.012400000000000e+10    -2.094950784503058e+01   1.145176028477274e+02    
1.012500000000000e+10    -2.126957352948148e+01   1.148845809562972e+02    
1.012600000000000e+10    -2.157524085355284e+01   1.151009368676722e+02    
1.012700000000000e+10    -2.185836263712951e+01   1.162974614597146e+02    
1.012800000000000e+10    -2.219434122598540e+01   1.178633510432647e+02    
1.012900000000000e+10    -2.244665572873897e+01   1.195269513631534e+02    
1.013000000000000e+10    -2.267745367933195e+01   1.211111863165141e+02    
1.013100000000000e+10    -2.282436064425531e+01   1.235045804508718e+02    
1.013200000000000e+10    -2.285631118844714e+01   1.258952441069446e+02    
1.013300000000000e+10    -2.291837422571668e+01   1.284492079600544e+02    
1.013400000000000e+10    -2.289754601416556e+01   1.311284563361249e+02    
1.013500000000000e+10    -2.273639918641686e+01   1.334652169699901e+02    
1.013600000000000e+10    -2.261624680905183e+01   1.356081011021403e+02    
1.013700000000000e+10    -2.241533389461326e+01   1.374875706531183e+02    
1.013800000000000e+10    -2.210716868691863e+01   1.391868205888339e+02    
1.013900000000000e+10    -2.184043790945105e+01   1.402020235213523e+02    
1.014000000000000e+10    -2.157864498264597e+01   1.409643730968505e+02    
1.014100000000000e+10    -2.122320584448520e+01   1.414015985045790e+02    
1.014200000000000e+10    -2.096182279330785e+01   1.417222562675624e+02    
1.014300000000000e+10    -2.063627396948167e+01   1.416531528542535e+02    
1.014400000000000e+10    -2.040239536498549e+01   1.412079878668161e+02    
1.014500000000000e+10    -2.010924838649134e+01   1.406084321094033e+02    
1.014600000000000e+10    -1.992551448014295e+01   1.399932926516143e+02    
1.014700000000000e+10    -1.971987267413219e+01   1.389569507583267e+02    
1.014800000000000e+10    -1.951007074704866e+01   1.375706559085863e+02    
1.014900000000000e+10    -1.935367271073235e+01   1.366904663014159e+02    
1.015000000000000e+10    -1.921190142407460e+01   1.353745380321235e+02    
1.015100000000000e+10    -1.911725327457536e+01   1.337228002679758e+02    
1.015200000000000e+10    -1.901721119765230e+01   1.323976834915771e+02    
1.015300000000000e+10    -1.894669974604532e+01   1.309145781928636e+02    
1.015400000000000e+10    -1.894395865653723e+01   1.291203851611876e+02    
1.015500000000000e+10    -1.889469625595603e+01   1.275284122532536e+02    
1.015600000000000e+10    -1.890703827540479e+01   1.259712154150330e+02    
1.015700000000000e+10    -1.895362513295862e+01   1.242811939034078e+02    
1.015800000000000e+10    -1.900219330996530e+01   1.228936408004621e+02    
1.015900000000000e+10    -1.912096016709338e+01   1.213210487253960e+02    
1.016000000000000e+10    -1.921674068906110e+01   1.197950553306721e+02    
1.016100000000000e+10    -1.934947501309992e+01   1.182972129776111e+02    
1.016200000000000e+10    -1.952324445487175e+01   1.167983003318310e+02    
1.016300000000000e+10    -1.971706975365410e+01   1.155320461160100e+02    
1.016400000000000e+10    -1.990212475701183e+01   1.144050081051870e+02    
1.016500000000000e+10    -2.015611785359550e+01   1.131673081574845e+02    
1.016600000000000e+10    -2.038312284634402e+01   1.124415695548092e+02    
1.016700000000000e+10    -2.070707757910771e+01   1.116880477227773e+02    
1.016800000000000e+10    -2.097739351089827e+01   1.111881534494291e+02    
1.016900000000000e+10    -2.128988395997257e+01   1.106121779209484e+02    
1.017000000000000e+10    -2.160526582063533e+01   1.108741854569662e+02    
1.017100000000000e+10    -2.191317253897349e+01   1.113372555287506e+02    
1.017200000000000e+10    -2.225930650338695e+01   1.116058822787116e+02    
1.017300000000000e+10    -2.257287644107933e+01   1.127930998740430e+02    
1.017400000000000e+10    -2.290433715206689e+01   1.139875401922029e+02    
1.017500000000000e+10    -2.316666626015314e+01   1.158221002035920e+02    
1.017600000000000e+10    -2.346099096274112e+01   1.179246775279157e+02    
1.017700000000000e+10    -2.354604309491985e+01   1.198014523443937e+02    
1.017800000000000e+10    -2.365851699266006e+01   1.224196485000393e+02    
1.017900000000000e+10    -2.372985229886978e+01   1.248388667333262e+02    
1.018000000000000e+10    -2.364790945872610e+01   1.272239164260091e+02    
1.018100000000000e+10    -2.350793161584528e+01   1.295861480311463e+02    
1.018200000000000e+10    -2.336349733083403e+01   1.316612686099811e+02    
1.018300000000000e+10    -2.313444294757403e+01   1.335222488317487e+02    
1.018400000000000e+10    -2.287590668030465e+01   1.349050234693216e+02    
1.018500000000000e+10    -2.256741842815174e+01   1.360190072633527e+02    
1.018600000000000e+10    -2.218664907152282e+01   1.370619484018345e+02    
1.018700000000000e+10    -2.194867130281315e+01   1.372502002748515e+02    
1.018800000000000e+10    -2.161826841047844e+01   1.372678064706419e+02    
1.018900000000000e+10    -2.133624805959817e+01   1.369901635260856e+02    
1.019000000000000e+10    -2.105482317894467e+01   1.366250274867340e+02    
1.019100000000000e+10    -2.078086179134471e+01   1.358870230771636e+02    
1.019200000000000e+10    -2.058694248247587e+01   1.349826846015141e+02    
1.019300000000000e+10    -2.030814485694517e+01   1.341040677939898e+02    
1.019400000000000e+10    -2.011013313627016e+01   1.330272157271224e+02    
1.019500000000000e+10    -1.992945339410565e+01   1.317447305068169e+02    
1.019600000000000e+10    -1.981784408997603e+01   1.304704179698157e+02    
1.019700000000000e+10    -1.966712517594552e+01   1.289353441503609e+02    
1.019800000000000e+10    -1.958654704038594e+01   1.274646162536854e+02    
1.019900000000000e+10    -1.951532673104010e+01   1.258220414676203e+02    
1.020000000000000e+10    -1.941427595402688e+01   1.241833581793818e+02    
1.020100000000000e+10    -1.943172250586666e+01   1.227323903782609e+02    
1.020200000000000e+10    -1.942904249563079e+01   1.212331898517451e+02    
1.020300000000000e+10    -1.940769913576796e+01   1.193908280006424e+02    
1.020400000000000e+10    -1.947769282831680e+01   1.181094191866947e+02    
1.020500000000000e+10    -1.951466041019153e+01   1.163443638656812e+02    
1.020600000000000e+10    -1.963386739477922e+01   1.148559185952982e+02    
1.020700000000000e+10    -1.975413415087691e+01   1.132351529219806e+02    
1.020800000000000e+10    -1.986815182179963e+01   1.121005406457616e+02    
1.020900000000000e+10    -2.003810989729495e+01   1.107605633119015e+02    
1.021000000000000e+10    -2.023497695251356e+01   1.095716890233441e+02    
1.021100000000000e+10    -2.042995008831777e+01   1.086515582930465e+02    
1.021200000000000e+10    -2.068398401951199e+01   1.075682014624373e+02    
1.021300000000000e+10    -2.092564892682028e+01   1.072229892173486e+02    
1.021400000000000e+10    -2.122345125199536e+01   1.063980380868550e+02    
1.021500000000000e+10    -2.151255072274107e+01   1.062772929606616e+02    
1.021600000000000e+10    -2.181916848019743e+01   1.064755512978689e+02    
1.021700000000000e+10    -2.212394731331282e+01   1.066285914253766e+02    
1.021800000000000e+10    -2.243451975188509e+01   1.072118372661370e+02    
1.021900000000000e+10    -2.278599333550671e+01   1.082209235558012e+02    
1.022000000000000e+10    -2.305587355478620e+01   1.092056857520516e+02    
1.022100000000000e+10    -2.333014199560296e+01   1.111566907617791e+02    
1.022200000000000e+10    -2.357372053183852e+01   1.129996072272969e+02    
1.022300000000000e+10    -2.370214461809285e+01   1.152652313920472e+02    
1.022400000000000e+10    -2.382776605966650e+01   1.178962040495881e+02    
1.022500000000000e+10    -2.384282421572454e+01   1.204675690016767e+02    
1.022600000000000e+10    -2.379236148580588e+01   1.229598454741860e+02    
1.022700000000000e+10    -2.370542489037243e+01   1.252276130119549e+02    
1.022800000000000e+10    -2.355119000547681e+01   1.268964664570678e+02    
1.022900000000000e+10    -2.335079193955023e+01   1.294596338149605e+02    
1.023000000000000e+10    -2.308197831480736e+01   1.306728806290366e+02    
1.023100000000000e+10    -2.283035541464306e+01   1.323155570637971e+02    
1.023200000000000e+10    -2.251373861708175e+01   1.327714438855699e+02    
1.023300000000000e+10    -2.224118403440001e+01   1.337377583457420e+02    
1.023400000000000e+10    -2.192467829049754e+01   1.338804163123424e+02    
1.023500000000000e+10    -2.164644290929260e+01   1.339557189147635e+02    
1.023600000000000e+10    -2.137439446771386e+01   1.335904429678332e+02    
1.023700000000000e+10    -2.111432167475962e+01   1.328411547385986e+02    
1.023800000000000e+10    -2.085186417385405e+01   1.323449230573284e+02    
1.023900000000000e+10    -2.065836800309743e+01   1.313841428648311e+02    
1.024000000000000e+10    -2.046485942720580e+01   1.302160165153456e+02    
1.024100000000000e+10    -2.030421735716105e+01   1.293021103468971e+02    
1.024200000000000e+10    -2.017377326443001e+01   1.282010025382102e+02    
1.024300000000000e+10    -2.005607596571784e+01   1.265691439442887e+02    
1.024400000000000e+10    -1.995073918679007e+01   1.253374669579364e+02    
1.024500000000000e+10    -1.987808395239725e+01   1.237279843622917e+02    
1.024600000000000e+10    -1.983847957771637e+01   1.223131930263154e+02    
1.024700000000000e+10    -1.980343965153178e+01   1.206889825990038e+02    
1.024800000000000e+10    -1.979972196561668e+01   1.190821407010758e+02    
1.024900000000000e+10    -1.983794485017608e+01   1.178690471102409e+02    
1.025000000000000e+10    -1.989695765757088e+01   1.162514279295854e+02    
1.025100000000000e+10    -1.997122297085011e+01   1.145470967938438e+02    
1.025200000000000e+10    -2.002881513401650e+01   1.130342001256868e+02    
1.025300000000000e+10    -2.020336612954283e+01   1.118458386172218e+02    
1.025400000000000e+10    -2.032697940887262e+01   1.103344880241937e+02    
1.025500000000000e+10    -2.051858756709317e+01   1.089156443503830e+02    
1.025600000000000e+10    -2.068727414025278e+01   1.077724887673553e+02    
