[Version] 2.0
! Rohde & Schwarz Vector Network Analyzer
! Rohde-Schwarz,ZNL20-2Port,1323001220200009,1.71.1.10-23.02.1.238
! 
! Port Assignments:
! Nominal Port -> Actual Test Port
! --------------------------------
!   1 -> 1

! Created: GMT 2024-09-04 12:02:42

# Hz S DB R 50

[Number of Ports] 1
[Number of Frequencies] 2001

[Network Data] 
! freq[Hz]               S11[mag dB]              S11[ang]                 
1.000000000000000e+10    -2.097932720050238e+01   1.479677540584541e+02    
1.000100000000000e+10    -2.074068356159915e+01   1.492572761222018e+02    
1.000200000000000e+10    -2.057034550555032e+01   1.501505899972384e+02    
1.000300000000000e+10    -2.033481539660484e+01   1.508834850966100e+02    
1.000400000000000e+10    -2.006299666153199e+01   1.513683612828527e+02    
1.000500000000000e+10    -1.982165280852646e+01   1.516072110153737e+02    
1.000600000000000e+10    -1.956116791412436e+01   1.513498340292678e+02    
1.000700000000000e+10    -1.935569299382527e+01   1.512868873689540e+02    
1.000800000000000e+10    -1.910439091245325e+01   1.507826993764428e+02    
1.000900000000000e+10    -1.892649312930050e+01   1.501351405049506e+02    
1.001000000000000e+10    -1.869760563430171e+01   1.494268316391087e+02    
1.001100000000000e+10    -1.855949979748976e+01   1.484341697374506e+02    
1.001200000000000e+10    -1.839170670986616e+01   1.473173710493730e+02    
1.001300000000000e+10    -1.825705793783453e+01   1.462047437870158e+02    
1.001400000000000e+10    -1.816623336956441e+01   1.448901484717436e+02    
1.001500000000000e+10    -1.802349975556158e+01   1.436905157309497e+02    
1.001600000000000e+10    -1.797035807448558e+01   1.421047308315551e+02    
1.001700000000000e+10    -1.793385409291199e+01   1.406927758393073e+02    
1.001800000000000e+10    -1.791291046144983e+01   1.394424018491395e+02    
1.001900000000000e+10    -1.790056189227702e+01   1.379052708717325e+02    
1.002000000000000e+10    -1.793178253419091e+01   1.363774396921249e+02    
1.002100000000000e+10    -1.800103604619082e+01   1.348795746939454e+02    
1.002200000000000e+10    -1.805104029160238e+01   1.337380022220728e+02    
1.002300000000000e+10    -1.813293271419202e+01   1.322547263172055e+02    
1.002400000000000e+10    -1.821909913867998e+01   1.311685208110120e+02    
1.002500000000000e+10    -1.837101456653204e+01   1.297941099716967e+02    
1.002600000000000e+10    -1.852447300865517e+01   1.288034297723106e+02    
1.002700000000000e+10    -1.870251901888209e+01   1.275015891324050e+02    
1.002800000000000e+10    -1.892090066368249e+01   1.269855318901953e+02    
1.002900000000000e+10    -1.912868034440971e+01   1.260092699077267e+02    
1.003000000000000e+10    -1.937626111312923e+01   1.254957870937342e+02    
1.003100000000000e+10    -1.959884415825170e+01   1.254560209333592e+02    
1.003200000000000e+10    -1.985705145232548e+01   1.249238188943254e+02    
1.003300000000000e+10    -2.015516938818357e+01   1.251325678865963e+02    
1.003400000000000e+10    -2.042753155005675e+01   1.255687062393930e+02    
1.003500000000000e+10    -2.068856192584898e+01   1.259594453018059e+02    
1.003600000000000e+10    -2.094252585254868e+01   1.269923217132723e+02    
1.003700000000000e+10    -2.114350025186055e+01   1.284910311939682e+02    
1.003800000000000e+10    -2.135425273197150e+01   1.297875878312097e+02    
1.003900000000000e+10    -2.156592719440287e+01   1.317425652209535e+02    
1.004000000000000e+10    -2.173324592227005e+01   1.332772910887759e+02    
1.004100000000000e+10    -2.180943973806351e+01   1.356517205114191e+02    
1.004200000000000e+10    -2.180632501715608e+01   1.374663025017917e+02    
1.004300000000000e+10    -2.170360775494992e+01   1.397560912432610e+02    
1.004400000000000e+10    -2.162773923811671e+01   1.419516544768314e+02    
1.004500000000000e+10    -2.143436363054220e+01   1.437748703509079e+02    
1.004600000000000e+10    -2.128886752485819e+01   1.452857873704455e+02    
1.004700000000000e+10    -2.099636195060159e+01   1.466996821309237e+02    
1.004800000000000e+10    -2.076251654231420e+01   1.475766872453044e+02    
1.004900000000000e+10    -2.049571814687363e+01   1.481947655996097e+02    
1.005000000000000e+10    -2.021614764733684e+01   1.485375770285982e+02    
1.005100000000000e+10    -1.998225717206355e+01   1.489192252168129e+02    
1.005200000000000e+10    -1.972459226316347e+01   1.487724408415172e+02    
1.005300000000000e+10    -1.944824475048276e+01   1.483840729264761e+02    
1.005400000000000e+10    -1.921161799489858e+01   1.477117770434995e+02    
1.005500000000000e+10    -1.898831721587997e+01   1.469615265449520e+02    
1.005600000000000e+10    -1.880531481303431e+01   1.459063208349252e+02    
1.005700000000000e+10    -1.862336259816855e+01   1.448445538365724e+02    
1.005800000000000e+10    -1.849373408774168e+01   1.438224923443871e+02    
1.005900000000000e+10    -1.838654800707801e+01   1.425597845022273e+02    
1.006000000000000e+10    -1.825227864928027e+01   1.411759007642385e+02    
1.006100000000000e+10    -1.819465542963309e+01   1.396873259795452e+02    
1.006200000000000e+10    -1.814965263754297e+01   1.380401313457403e+02    
1.006300000000000e+10    -1.812838236847542e+01   1.367093992114371e+02    
1.006400000000000e+10    -1.811729038058701e+01   1.351114850546156e+02    
1.006500000000000e+10    -1.812182486775444e+01   1.336894278314787e+02    
1.006600000000000e+10    -1.818819516389505e+01   1.321184481330644e+02    
1.006700000000000e+10    -1.825418059021944e+01   1.303700460281076e+02    
1.006800000000000e+10    -1.831426748107511e+01   1.291160144240622e+02    
1.006900000000000e+10    -1.843925177788018e+01   1.277330535279258e+02    
1.007000000000000e+10    -1.860590525532971e+01   1.261647614121429e+02    
1.007100000000000e+10    -1.876677104217337e+01   1.250247242189277e+02    
1.007200000000000e+10    -1.893084744818196e+01   1.239091858318828e+02    
1.007300000000000e+10    -1.915748084637801e+01   1.225040285180517e+02    
1.007400000000000e+10    -1.936819258252782e+01   1.216761559156884e+02    
1.007500000000000e+10    -1.963884723687302e+01   1.207942205244419e+02    
1.007600000000000e+10    -1.990089496210422e+01   1.202685453743024e+02    
1.007700000000000e+10    -2.019606446007218e+01   1.197994924356872e+02    
1.007800000000000e+10    -2.053394211864942e+01   1.195611692182252e+02    
1.007900000000000e+10    -2.086037464357534e+01   1.195747467664726e+02    
1.008000000000000e+10    -2.113434214646842e+01   1.199849487851621e+02    
1.008100000000000e+10    -2.141441527230590e+01   1.208513653875680e+02    
1.008200000000000e+10    -2.174943921142740e+01   1.219202257949807e+02    
1.008300000000000e+10    -2.202485724954993e+01   1.230233587796850e+02    
1.008400000000000e+10    -2.227223366705861e+01   1.249434937470261e+02    
1.008500000000000e+10    -2.247195272628195e+01   1.268778180319510e+02    
1.008600000000000e+10    -2.261364910369972e+01   1.291763879425323e+02    
1.008700000000000e+10    -2.267482174909314e+01   1.315009849281504e+02    
1.008800000000000e+10    -2.262983128432477e+01   1.339670527884946e+02    
1.008900000000000e+10    -2.260418863641717e+01   1.360814964767897e+02    
1.009000000000000e+10    -2.244699587920748e+01   1.385562776053216e+02    
1.009100000000000e+10    -2.223582751878643e+01   1.403252015164108e+02    
1.009200000000000e+10    -2.204693180690187e+01   1.420730346798818e+02    
1.009300000000000e+10    -2.173585637994611e+01   1.431181184020974e+02    
1.009400000000000e+10    -2.143512212110425e+01   1.443733490659997e+02    
1.009500000000000e+10    -2.115030021423573e+01   1.447968478332715e+02    
1.009600000000000e+10    -2.085357340640348e+01   1.452215543220125e+02    
1.009700000000000e+10    -2.055673425034957e+01   1.451294443524091e+02    
1.009800000000000e+10    -2.024786966382388e+01   1.445045143244104e+02    
1.009900000000000e+10    -1.997925187696698e+01   1.440048451993889e+02    
1.010000000000000e+10    -1.975020370260174e+01   1.432752449419777e+02    
1.010100000000000e+10    -1.953225536741753e+01   1.423222004470717e+02    
1.010200000000000e+10    -1.930316837343423e+01   1.412259580268063e+02    
1.010300000000000e+10    -1.913866427906464e+01   1.398018486543704e+02    
1.010400000000000e+10    -1.899570458206594e+01   1.386990919325934e+02    
1.010500000000000e+10    -1.880640596748225e+01   1.373926579120542e+02    
1.010600000000000e+10    -1.876692394806897e+01   1.356251057184231e+02    
1.010700000000000e+10    -1.863151142310329e+01   1.341861660583686e+02    
1.010800000000000e+10    -1.859646368007528e+01   1.324859349617902e+02    
1.010900000000000e+10    -1.855320879263389e+01   1.311489617681493e+02    
1.011000000000000e+10    -1.857485186646721e+01   1.295074059645898e+02    
1.011100000000000e+10    -1.858727232677150e+01   1.279420599093880e+02    
1.011200000000000e+10    -1.859768564668531e+01   1.263637759793435e+02    
1.011300000000000e+10    -1.868409345383666e+01   1.249813208532670e+02    
1.011400000000000e+10    -1.877968014906303e+01   1.232100551464135e+02    
1.011500000000000e+10    -1.889353580416851e+01   1.219778700638750e+02    
1.011600000000000e+10    -1.899929299247787e+01   1.203320910880517e+02    
1.011700000000000e+10    -1.915058940541285e+01   1.191152652148771e+02    
1.011800000000000e+10    -1.935170033112970e+01   1.180504584261246e+02    
1.011900000000000e+10    -1.956858187548077e+01   1.169775310584425e+02    
1.012000000000000e+10    -1.980571199660617e+01   1.161291673790274e+02    
1.012100000000000e+10    -2.003304869548596e+01   1.155307848991000e+02    
1.012200000000000e+10    -2.034566327308696e+01   1.148282827638166e+02    
1.012300000000000e+10    -2.061234020298528e+01   1.146017831878272e+02    
1.012400000000000e+10    -2.092318876233172e+01   1.144259844652232e+02    
1.012500000000000e+10    -2.124469565714424e+01   1.145218483121930e+02    
1.012600000000000e+10    -2.152575972568071e+01   1.151520199285936e+02    
1.012700000000000e+10    -2.182845222209007e+01   1.162631354183562e+02    
1.012800000000000e+10    -2.214412531483953e+01   1.174574489708948e+02    
1.012900000000000e+10    -2.241828757630723e+01   1.192976178683265e+02    
1.013000000000000e+10    -2.261229420420076e+01   1.209315368580383e+02    
1.013100000000000e+10    -2.276876821883349e+01   1.233705017272605e+02    
1.013200000000000e+10    -2.285745641543009e+01   1.257764138152698e+02    
1.013300000000000e+10    -2.288585353203071e+01   1.282483203592426e+02    
1.013400000000000e+10    -2.287972707868754e+01   1.306798193371974e+02    
1.013500000000000e+10    -2.279560321213106e+01   1.331174542110854e+02    
1.013600000000000e+10    -2.263047101384150e+01   1.353559119489075e+02    
1.013700000000000e+10    -2.244653379253725e+01   1.374395169129024e+02    
1.013800000000000e+10    -2.216665028516566e+01   1.390649823541901e+02    
1.013900000000000e+10    -2.184134440253639e+01   1.400393401761031e+02    
1.014000000000000e+10    -2.161116792843334e+01   1.408506905056920e+02    
1.014100000000000e+10    -2.129500452347557e+01   1.412163916408328e+02    
1.014200000000000e+10    -2.097093384344451e+01   1.418952527146254e+02    
1.014300000000000e+10    -2.067528885956909e+01   1.415919049745899e+02    
1.014400000000000e+10    -2.041293901201645e+01   1.411082763682936e+02    
1.014500000000000e+10    -2.013882274160981e+01   1.406690259134286e+02    
1.014600000000000e+10    -1.994160126772843e+01   1.399329002679327e+02    
1.014700000000000e+10    -1.973140616858863e+01   1.389257443035285e+02    
1.014800000000000e+10    -1.953856855212276e+01   1.378877929978137e+02    
1.014900000000000e+10    -1.936753132488554e+01   1.366144073722515e+02    
1.015000000000000e+10    -1.921965360075334e+01   1.352756433250005e+02    
1.015100000000000e+10    -1.911096768258439e+01   1.338801675893068e+02    
1.015200000000000e+10    -1.904420381311035e+01   1.324434886993173e+02    
1.015300000000000e+10    -1.895479383345736e+01   1.309466230853797e+02    
1.015400000000000e+10    -1.894106440493785e+01   1.294229647056677e+02    
1.015500000000000e+10    -1.887830397441613e+01   1.276936854994404e+02    
1.015600000000000e+10    -1.890432422898979e+01   1.261722336556052e+02    
1.015700000000000e+10    -1.898776689351628e+01   1.243829395643316e+02    
1.015800000000000e+10    -1.901487290357629e+01   1.230112644421114e+02    
1.015900000000000e+10    -1.912334983399411e+01   1.213225783409654e+02    
1.016000000000000e+10    -1.922343358417482e+01   1.199958627952999e+02    
1.016100000000000e+10    -1.933264268649286e+01   1.184134406504564e+02    
1.016200000000000e+10    -1.952758186254797e+01   1.169658638230629e+02    
1.016300000000000e+10    -1.969259448507548e+01   1.156439731141420e+02    
1.016400000000000e+10    -1.989122453170833e+01   1.144789497268566e+02    
1.016500000000000e+10    -2.014281409010122e+01   1.134834926145650e+02    
1.016600000000000e+10    -2.035303727233783e+01   1.124547431047568e+02    
1.016700000000000e+10    -2.067766749520565e+01   1.118059626855793e+02    
1.016800000000000e+10    -2.094750529497312e+01   1.111787486291614e+02    
1.016900000000000e+10    -2.127513481887666e+01   1.106787969510956e+02    
1.017000000000000e+10    -2.158698879681548e+01   1.110204739734312e+02    
1.017100000000000e+10    -2.189662188663273e+01   1.112086547680010e+02    
1.017200000000000e+10    -2.223036754891485e+01   1.115547961797184e+02    
1.017300000000000e+10    -2.254261817608508e+01   1.124863056461241e+02    
1.017400000000000e+10    -2.284062692169006e+01   1.137919401977608e+02    
1.017500000000000e+10    -2.311467249644001e+01   1.156703395497192e+02    
1.017600000000000e+10    -2.339479711226092e+01   1.174823102146737e+02    
1.017700000000000e+10    -2.350290210722306e+01   1.194538525265311e+02    
1.017800000000000e+10    -2.361995509409948e+01   1.222329884111399e+02    
1.017900000000000e+10    -2.366688213226566e+01   1.247413878626976e+02    
1.018000000000000e+10    -2.365871828592319e+01   1.267471564951317e+02    
1.018100000000000e+10    -2.354110549053751e+01   1.292200992213716e+02    
1.018200000000000e+10    -2.335876888300085e+01   1.314030964394899e+02    
1.018300000000000e+10    -2.316524348999854e+01   1.332183783644833e+02    
1.018400000000000e+10    -2.286489090597572e+01   1.346483645663350e+02    
1.018500000000000e+10    -2.259981388067625e+01   1.358826027977172e+02    
1.018600000000000e+10    -2.227336735831560e+01   1.367565529819227e+02    
1.018700000000000e+10    -2.198368973272736e+01   1.368756564700357e+02    
1.018800000000000e+10    -2.169232842858298e+01   1.370535741240942e+02    
1.018900000000000e+10    -2.135643642933941e+01   1.369658195388325e+02    
1.019000000000000e+10    -2.107807166053423e+01   1.364727050278110e+02    
1.019100000000000e+10    -2.082046368378528e+01   1.361145683256400e+02    
1.019200000000000e+10    -2.056996229507738e+01   1.350997390152436e+02    
1.019300000000000e+10    -2.033126222651163e+01   1.339882706843703e+02    
1.019400000000000e+10    -2.014019315846798e+01   1.328585237683715e+02    
1.019500000000000e+10    -1.996514827428136e+01   1.318346201961268e+02    
1.019600000000000e+10    -1.981071430748240e+01   1.306058782147866e+02    
1.019700000000000e+10    -1.967027650688667e+01   1.288755684188494e+02    
1.019800000000000e+10    -1.957650677944107e+01   1.275673266684725e+02    
1.019900000000000e+10    -1.951652425923551e+01   1.259915706419432e+02    
1.020000000000000e+10    -1.944993887375141e+01   1.245200455203192e+02    
1.020100000000000e+10    -1.942038893308368e+01   1.229042504497278e+02    
1.020200000000000e+10    -1.942644135582350e+01   1.211119597676878e+02    
1.020300000000000e+10    -1.942208645627649e+01   1.197951688240945e+02    
1.020400000000000e+10    -1.946535687165213e+01   1.181231616673970e+02    
1.020500000000000e+10    -1.952348983170388e+01   1.165158368033545e+02    
1.020600000000000e+10    -1.963232287505422e+01   1.151941288607769e+02    
1.020700000000000e+10    -1.972095941799223e+01   1.135539901056396e+02    
1.020800000000000e+10    -1.984891795503956e+01   1.122372834184741e+02    
1.020900000000000e+10    -2.003113983663505e+01   1.108439300150398e+02    
1.021000000000000e+10    -2.022508586901248e+01   1.098047950506414e+02    
1.021100000000000e+10    -2.039392673102670e+01   1.087133304000051e+02    
1.021200000000000e+10    -2.063298596925243e+01   1.077228595955374e+02    
1.021300000000000e+10    -2.092027871475504e+01   1.072508163925782e+02    
1.021400000000000e+10    -2.116953921246541e+01   1.065067291181257e+02    
1.021500000000000e+10    -2.149505293770763e+01   1.064557568168715e+02    
1.021600000000000e+10    -2.175621463155561e+01   1.064948804961369e+02    
1.021700000000000e+10    -2.208326730667181e+01   1.063560185350217e+02    
1.021800000000000e+10    -2.240851856368973e+01   1.071470685007839e+02    
1.021900000000000e+10    -2.275602383627229e+01   1.080996939830019e+02    
1.022000000000000e+10    -2.302509934747759e+01   1.092091663413853e+02    
1.022100000000000e+10    -2.331297597413177e+01   1.110584657975743e+02    
1.022200000000000e+10    -2.354438004227841e+01   1.127515139350905e+02    
1.022300000000000e+10    -2.367533780404479e+01   1.151278928125566e+02    
1.022400000000000e+10    -2.378728258150771e+01   1.174422200869831e+02    
1.022500000000000e+10    -2.384581882885300e+01   1.198933782384013e+02    
1.022600000000000e+10    -2.381427449131792e+01   1.223561374164251e+02    
1.022700000000000e+10    -2.371429706107513e+01   1.247721317072139e+02    
1.022800000000000e+10    -2.355150525881909e+01   1.268684577516691e+02    
1.022900000000000e+10    -2.336486150836828e+01   1.292495729912123e+02    
1.023000000000000e+10    -2.311288007581305e+01   1.305977279826201e+02    
1.023100000000000e+10    -2.286168134582147e+01   1.321657710074834e+02    
1.023200000000000e+10    -2.259482801433712e+01   1.327769058873130e+02    
1.023300000000000e+10    -2.228505189041373e+01   1.338608050016005e+02    
1.023400000000000e+10    -2.195399086939840e+01   1.337040358698063e+02    
1.023500000000000e+10    -2.168040565607188e+01   1.339118740306212e+02    
1.023600000000000e+10    -2.141343123262535e+01   1.334798382418130e+02    
1.023700000000000e+10    -2.114020366392056e+01   1.330196254699760e+02    
1.023800000000000e+10    -2.087949661187056e+01   1.324411011549409e+02    
1.023900000000000e+10    -2.071113647429897e+01   1.313075503025286e+02    
1.024000000000000e+10    -2.048776705612810e+01   1.303790396646372e+02    
1.024100000000000e+10    -2.032072280550090e+01   1.295690617243404e+02    
1.024200000000000e+10    -2.017957028538102e+01   1.281326719070935e+02    
1.024300000000000e+10    -2.007732741010004e+01   1.269290935692040e+02    
1.024400000000000e+10    -1.997766409877925e+01   1.252784676105263e+02    
1.024500000000000e+10    -1.988991964260904e+01   1.239458928200318e+02    
1.024600000000000e+10    -1.981763685169969e+01   1.226041032735861e+02    
1.024700000000000e+10    -1.981133467311455e+01   1.209495148104504e+02    
1.024800000000000e+10    -1.976238883421986e+01   1.195464739751519e+02    
1.024900000000000e+10    -1.979114857958194e+01   1.181070515593610e+02    
1.025000000000000e+10    -1.987923273406741e+01   1.164456247291426e+02    
1.025100000000000e+10    -1.992390024501103e+01   1.146402616224315e+02    
1.025200000000000e+10    -2.002242675781336e+01   1.132587311917004e+02    
1.025300000000000e+10    -2.016463190844637e+01   1.118537496206054e+02    
1.025400000000000e+10    -2.034572326970476e+01   1.104230371620974e+02    
1.025500000000000e+10    -2.048073689848559e+01   1.090175139574597e+02    
1.025600000000000e+10    -2.066154458589402e+01   1.079008402286423e+02    
