[Version] 2.0
! Rohde & Schwarz Vector Network Analyzer
! Rohde-Schwarz,ZNL20-2Port,1323001220200009,1.71.1.10-23.02.1.238
! 
! Port Assignments:
! Nominal Port -> Actual Test Port
! --------------------------------
!   1 -> 1

! Created: GMT 2024-09-04 12:02:52

# Hz S DB R 50

[Number of Ports] 1
[Number of Frequencies] 2001

[Network Data] 
! freq[Hz]               S11[mag dB]              S11[ang]                 
1.000000000000000e+10    -2.102204020734641e+01   1.479332999860961e+02    
1.000100000000000e+10    -2.079966407965657e+01   1.492879685093132e+02    
1.000200000000000e+10    -2.059616967012922e+01   1.502130220366382e+02    
1.000300000000000e+10    -2.034964233200042e+01   1.508741399255026e+02    
1.000400000000000e+10    -2.009569833256624e+01   1.512613426126172e+02    
1.000500000000000e+10    -1.985171238112300e+01   1.517102223829814e+02    
1.000600000000000e+10    -1.961245627607830e+01   1.514454566038239e+02    
1.000700000000000e+10    -1.937017471490843e+01   1.513939384240387e+02    
1.000800000000000e+10    -1.910383917327283e+01   1.508213394812403e+02    
1.000900000000000e+10    -1.896011789366225e+01   1.503253686085852e+02    
1.001000000000000e+10    -1.872708915065191e+01   1.494422486371948e+02    
1.001100000000000e+10    -1.856760659436377e+01   1.485590758500608e+02    
1.001200000000000e+10    -1.840255104389846e+01   1.475258887812570e+02    
1.001300000000000e+10    -1.828072443641875e+01   1.462448266311211e+02    
1.001400000000000e+10    -1.817319566373225e+01   1.448427159475504e+02    
1.001500000000000e+10    -1.804456306123684e+01   1.439088464139784e+02    
1.001600000000000e+10    -1.798519786057275e+01   1.423529865420208e+02    
1.001700000000000e+10    -1.794041085515786e+01   1.408029607568570e+02    
1.001800000000000e+10    -1.792875175658406e+01   1.395235429729597e+02    
1.001900000000000e+10    -1.790027633839295e+01   1.380552480310208e+02    
1.002000000000000e+10    -1.791085116518379e+01   1.363605716161519e+02    
1.002100000000000e+10    -1.798294345236747e+01   1.350024418261422e+02    
1.002200000000000e+10    -1.802307662891678e+01   1.338028879571812e+02    
1.002300000000000e+10    -1.812723324861913e+01   1.323306833216511e+02    
1.002400000000000e+10    -1.819003269814159e+01   1.312682555744469e+02    
1.002500000000000e+10    -1.834517882204181e+01   1.298553284850435e+02    
1.002600000000000e+10    -1.850647277022498e+01   1.289498809987379e+02    
1.002700000000000e+10    -1.869884040413834e+01   1.277478745937541e+02    
1.002800000000000e+10    -1.890272074164102e+01   1.270822518921782e+02    
1.002900000000000e+10    -1.910258914443894e+01   1.261447776881782e+02    
1.003000000000000e+10    -1.931074874717627e+01   1.256823283499773e+02    
1.003100000000000e+10    -1.957737996389695e+01   1.255473559531976e+02    
1.003200000000000e+10    -1.984031773171170e+01   1.251065466474749e+02    
1.003300000000000e+10    -2.008616161059017e+01   1.249845984444592e+02    
1.003400000000000e+10    -2.037550539603523e+01   1.254626067416769e+02    
1.003500000000000e+10    -2.065532849904500e+01   1.259759410581267e+02    
1.003600000000000e+10    -2.088227022660326e+01   1.267192231784685e+02    
1.003700000000000e+10    -2.114992874932281e+01   1.282206485578210e+02    
1.003800000000000e+10    -2.138041786155365e+01   1.295131565591156e+02    
1.003900000000000e+10    -2.152827404705673e+01   1.315526576786815e+02    
1.004000000000000e+10    -2.167675177394710e+01   1.332990258988172e+02    
1.004100000000000e+10    -2.176761116719272e+01   1.355513800892778e+02    
1.004200000000000e+10    -2.178998621027134e+01   1.373070352261677e+02    
1.004300000000000e+10    -2.175716465057850e+01   1.396148509166848e+02    
1.004400000000000e+10    -2.163482696192501e+01   1.418250456441050e+02    
1.004500000000000e+10    -2.145579468401949e+01   1.434865532692339e+02    
1.004600000000000e+10    -2.129317518952328e+01   1.452175689135270e+02    
1.004700000000000e+10    -2.103750757892758e+01   1.465349569807849e+02    
1.004800000000000e+10    -2.080167868549443e+01   1.478198754076747e+02    
1.004900000000000e+10    -2.052197461490637e+01   1.481268657010372e+02    
1.005000000000000e+10    -2.023397711582271e+01   1.485457789847005e+02    
1.005100000000000e+10    -2.002035381812055e+01   1.489719383567202e+02    
1.005200000000000e+10    -1.973051423229852e+01   1.488739831830823e+02    
1.005300000000000e+10    -1.949181675284554e+01   1.483969353009655e+02    
1.005400000000000e+10    -1.922929994262598e+01   1.478695934948057e+02    
1.005500000000000e+10    -1.900829205757586e+01   1.469907016118308e+02    
1.005600000000000e+10    -1.882769647906503e+01   1.460273606893360e+02    
1.005700000000000e+10    -1.865706310346579e+01   1.449910875405052e+02    
1.005800000000000e+10    -1.854039530190584e+01   1.438728268395462e+02    
1.005900000000000e+10    -1.839343991394727e+01   1.427716777963888e+02    
1.006000000000000e+10    -1.827071334427453e+01   1.413729604932402e+02    
1.006100000000000e+10    -1.819439945931408e+01   1.398202859437229e+02    
1.006200000000000e+10    -1.815985837965620e+01   1.382866363524022e+02    
1.006300000000000e+10    -1.814666303276000e+01   1.368071540086266e+02    
1.006400000000000e+10    -1.811735214768381e+01   1.351189307537893e+02    
1.006500000000000e+10    -1.813569459673871e+01   1.338556603034942e+02    
1.006600000000000e+10    -1.816786245751824e+01   1.323212108075337e+02    
1.006700000000000e+10    -1.825972996611650e+01   1.304505803082971e+02    
1.006800000000000e+10    -1.831857287600335e+01   1.292330292517776e+02    
1.006900000000000e+10    -1.843678828733733e+01   1.276497252808173e+02    
1.007000000000000e+10    -1.858361268831156e+01   1.262773797745387e+02    
1.007100000000000e+10    -1.874461396377897e+01   1.251774067789223e+02    
1.007200000000000e+10    -1.889565079000468e+01   1.238053545412240e+02    
1.007300000000000e+10    -1.912906808889147e+01   1.225313797172972e+02    
1.007400000000000e+10    -1.938286932974943e+01   1.218170764306305e+02    
1.007500000000000e+10    -1.960073815378555e+01   1.208876197179309e+02    
1.007600000000000e+10    -1.987506536239842e+01   1.203814256986905e+02    
1.007700000000000e+10    -2.016769963654134e+01   1.197718390720460e+02    
1.007800000000000e+10    -2.049349242155478e+01   1.197140809263114e+02    
1.007900000000000e+10    -2.079372726036422e+01   1.194230621367666e+02    
1.008000000000000e+10    -2.113631710704832e+01   1.198675000104713e+02    
1.008100000000000e+10    -2.138972240335647e+01   1.207817602823218e+02    
1.008200000000000e+10    -2.168345684073834e+01   1.219417567622447e+02    
1.008300000000000e+10    -2.198848370369577e+01   1.227724634679970e+02    
1.008400000000000e+10    -2.222943288579240e+01   1.246786641511669e+02    
1.008500000000000e+10    -2.240422837354734e+01   1.269609832763186e+02    
1.008600000000000e+10    -2.257428687056466e+01   1.288544300077350e+02    
1.008700000000000e+10    -2.262901754801017e+01   1.313554355530126e+02    
1.008800000000000e+10    -2.262947430985009e+01   1.338134397295833e+02    
1.008900000000000e+10    -2.263628430172255e+01   1.361765297544695e+02    
1.009000000000000e+10    -2.251518973624703e+01   1.383271990386235e+02    
1.009100000000000e+10    -2.227080462729834e+01   1.401303666813478e+02    
1.009200000000000e+10    -2.205330508735934e+01   1.418740302872213e+02    
1.009300000000000e+10    -2.177726278336812e+01   1.431387168462765e+02    
1.009400000000000e+10    -2.146368638827295e+01   1.439799582702455e+02    
1.009500000000000e+10    -2.117777955014955e+01   1.448123740740157e+02    
1.009600000000000e+10    -2.088888185793729e+01   1.451490702820736e+02    
1.009700000000000e+10    -2.058775742188850e+01   1.449246098450237e+02    
1.009800000000000e+10    -2.029518208909295e+01   1.445189914490363e+02    
1.009900000000000e+10    -1.999310889081023e+01   1.440520681585338e+02    
1.010000000000000e+10    -1.975707485821762e+01   1.432013331586163e+02    
1.010100000000000e+10    -1.954029024536547e+01   1.424034407077236e+02    
1.010200000000000e+10    -1.933250264404322e+01   1.411502695455517e+02    
1.010300000000000e+10    -1.913990961599389e+01   1.400722446063241e+02    
1.010400000000000e+10    -1.896812491883083e+01   1.386783514354137e+02    
1.010500000000000e+10    -1.882993384334674e+01   1.373857962662016e+02    
1.010600000000000e+10    -1.877363114189303e+01   1.359727762193670e+02    
1.010700000000000e+10    -1.865873240784465e+01   1.343772597694496e+02    
1.010800000000000e+10    -1.858387021057797e+01   1.326457024484500e+02    
1.010900000000000e+10    -1.856420041899674e+01   1.314229467548910e+02    
1.011000000000000e+10    -1.855539061910495e+01   1.294078166169351e+02    
1.011100000000000e+10    -1.858041425606653e+01   1.281454535446623e+02    
1.011200000000000e+10    -1.858937520236958e+01   1.265544879169189e+02    
1.011300000000000e+10    -1.867482139013370e+01   1.251202551386326e+02    
1.011400000000000e+10    -1.876099833727868e+01   1.233679205829705e+02    
1.011500000000000e+10    -1.885480719042224e+01   1.220706175115733e+02    
1.011600000000000e+10    -1.896917845396757e+01   1.206104774689776e+02    
1.011700000000000e+10    -1.912275375694594e+01   1.193330364010984e+02    
1.011800000000000e+10    -1.931870236989593e+01   1.180712256390070e+02    
1.011900000000000e+10    -1.955215052250785e+01   1.169515722304827e+02    
1.012000000000000e+10    -1.979329289682904e+01   1.163884504177080e+02    
1.012100000000000e+10    -2.001614022961024e+01   1.155483912695591e+02    
1.012200000000000e+10    -2.032090430682386e+01   1.148968124797931e+02    
1.012300000000000e+10    -2.059088439112172e+01   1.145794984041449e+02    
1.012400000000000e+10    -2.089342160722984e+01   1.145599087576819e+02    
1.012500000000000e+10    -2.119899702029487e+01   1.146701309859517e+02    
1.012600000000000e+10    -2.150288357364587e+01   1.150775535418363e+02    
1.012700000000000e+10    -2.179968238854819e+01   1.161290425063985e+02    
1.012800000000000e+10    -2.211933400350725e+01   1.173935702936627e+02    
1.012900000000000e+10    -2.235862177893667e+01   1.191259652993912e+02    
1.013000000000000e+10    -2.259081374297342e+01   1.207385835122442e+02    
1.013100000000000e+10    -2.276805987275907e+01   1.229133769699375e+02    
1.013200000000000e+10    -2.289167329572125e+01   1.253319121746362e+02    
1.013300000000000e+10    -2.291358118571085e+01   1.279831829082972e+02    
1.013400000000000e+10    -2.289467934290153e+01   1.305412734649975e+02    
1.013500000000000e+10    -2.277675117130817e+01   1.329965125594406e+02    
1.013600000000000e+10    -2.266996004509415e+01   1.350446009869082e+02    
1.013700000000000e+10    -2.244310052173939e+01   1.371985899959433e+02    
1.013800000000000e+10    -2.215680607842532e+01   1.387086560456136e+02    
1.013900000000000e+10    -2.188520192340061e+01   1.401364194904210e+02    
1.014000000000000e+10    -2.161921232734509e+01   1.407375962295718e+02    
1.014100000000000e+10    -2.130635270043534e+01   1.414662209962086e+02    
1.014200000000000e+10    -2.104062525500265e+01   1.416680881743902e+02    
1.014300000000000e+10    -2.069507553150985e+01   1.415217220955896e+02    
1.014400000000000e+10    -2.045456737757903e+01   1.413056559519864e+02    
1.014500000000000e+10    -2.016731049847331e+01   1.407194302540078e+02    
1.014600000000000e+10    -1.997388287733893e+01   1.398798535285426e+02    
1.014700000000000e+10    -1.976871009297710e+01   1.390516402847050e+02    
1.014800000000000e+10    -1.953532988905685e+01   1.378669438604479e+02    
1.014900000000000e+10    -1.938434343541317e+01   1.368043324116582e+02    
1.015000000000000e+10    -1.925160381118099e+01   1.354067486931372e+02    
1.015100000000000e+10    -1.913499598874552e+01   1.340694554837369e+02    
1.015200000000000e+10    -1.906058318690368e+01   1.324750342669202e+02    
1.015300000000000e+10    -1.896267418670660e+01   1.310546064317252e+02    
1.015400000000000e+10    -1.896300548079051e+01   1.293888843805740e+02    
1.015500000000000e+10    -1.887858384401316e+01   1.277826565038465e+02    
1.015600000000000e+10    -1.892388141614246e+01   1.264729365536948e+02    
1.015700000000000e+10    -1.894978540693575e+01   1.247046618417911e+02    
1.015800000000000e+10    -1.901733042428921e+01   1.231381357412413e+02    
1.015900000000000e+10    -1.907755132234643e+01   1.216196361049825e+02    
1.016000000000000e+10    -1.921092362476953e+01   1.202320037076212e+02    
1.016100000000000e+10    -1.932922627442844e+01   1.186684634868521e+02    
1.016200000000000e+10    -1.947389873884000e+01   1.171235598609427e+02    
1.016300000000000e+10    -1.967480376262748e+01   1.159059225414500e+02    
1.016400000000000e+10    -1.985844402442792e+01   1.145624685172840e+02    
1.016500000000000e+10    -2.012261873691543e+01   1.135743012051706e+02    
1.016600000000000e+10    -2.032488503468232e+01   1.124724245836046e+02    
1.016700000000000e+10    -2.064897141036841e+01   1.117489283407775e+02    
1.016800000000000e+10    -2.093842504187589e+01   1.110649398453541e+02    
1.016900000000000e+10    -2.121930180387014e+01   1.108547918156776e+02    
1.017000000000000e+10    -2.153119503986201e+01   1.108372761072778e+02    
1.017100000000000e+10    -2.187272733508948e+01   1.113592729045889e+02    
1.017200000000000e+10    -2.221795416888158e+01   1.116247958906972e+02    
1.017300000000000e+10    -2.249230708406333e+01   1.125982704378501e+02    
1.017400000000000e+10    -2.282817418931492e+01   1.136621789246183e+02    
1.017500000000000e+10    -2.308256861335582e+01   1.154045807253197e+02    
1.017600000000000e+10    -2.335034389863110e+01   1.172479316305515e+02    
1.017700000000000e+10    -2.350260606117419e+01   1.192933581035471e+02    
1.017800000000000e+10    -2.362437114469585e+01   1.217102968531436e+02    
1.017900000000000e+10    -2.365631673748415e+01   1.238776096578696e+02    
1.018000000000000e+10    -2.364245476948950e+01   1.266910399845638e+02    
1.018100000000000e+10    -2.355047889715932e+01   1.288773958222781e+02    
1.018200000000000e+10    -2.334164257344924e+01   1.311063869231074e+02    
1.018300000000000e+10    -2.319873831584301e+01   1.329573767934547e+02    
1.018400000000000e+10    -2.291279922955491e+01   1.344771481442874e+02    
1.018500000000000e+10    -2.258368167371946e+01   1.356362693121152e+02    
1.018600000000000e+10    -2.228015261890060e+01   1.365650762168723e+02    
1.018700000000000e+10    -2.200325818624452e+01   1.369147913893784e+02    
1.018800000000000e+10    -2.164963491314465e+01   1.371426687138928e+02    
1.018900000000000e+10    -2.138036084407753e+01   1.369539794164284e+02    
1.019000000000000e+10    -2.111160964977549e+01   1.365775485253305e+02    
1.019100000000000e+10    -2.082582338204453e+01   1.360327849953126e+02    
1.019200000000000e+10    -2.061742470999041e+01   1.351171962619254e+02    
1.019300000000000e+10    -2.034462582989496e+01   1.341790438096327e+02    
1.019400000000000e+10    -2.017021500265463e+01   1.329572104172880e+02    
1.019500000000000e+10    -1.998092035458281e+01   1.318471175184698e+02    
1.019600000000000e+10    -1.985700351525004e+01   1.305971194813359e+02    
1.019700000000000e+10    -1.969561387579813e+01   1.291398306025335e+02    
1.019800000000000e+10    -1.959081994008052e+01   1.277614173793693e+02    
1.019900000000000e+10    -1.954417567630850e+01   1.261284470523252e+02    
1.020000000000000e+10    -1.945753828741165e+01   1.246854668398501e+02    
1.020100000000000e+10    -1.943480158835145e+01   1.229185889922858e+02    
1.020200000000000e+10    -1.941240566627016e+01   1.213519275081834e+02    
1.020300000000000e+10    -1.942660510296033e+01   1.197524654904076e+02    
1.020400000000000e+10    -1.947363639682352e+01   1.182890814601903e+02    
1.020500000000000e+10    -1.952765755101750e+01   1.166682867238026e+02    
1.020600000000000e+10    -1.963050495297974e+01   1.153190616519216e+02    
1.020700000000000e+10    -1.972056970434899e+01   1.136891419525844e+02    
1.020800000000000e+10    -1.984312135478586e+01   1.123951648651674e+02    
1.020900000000000e+10    -2.003516994922201e+01   1.111501800121125e+02    
1.021000000000000e+10    -2.019673346741516e+01   1.099056762653779e+02    
1.021100000000000e+10    -2.039778566772250e+01   1.088424319441306e+02    
1.021200000000000e+10    -2.063171045077364e+01   1.079800514984842e+02    
1.021300000000000e+10    -2.089278799377561e+01   1.072969764731514e+02    
1.021400000000000e+10    -2.113925521517384e+01   1.065813764831210e+02    
1.021500000000000e+10    -2.146238919731722e+01   1.065136499323680e+02    
1.021600000000000e+10    -2.173040001896950e+01   1.065339532176457e+02    
1.021700000000000e+10    -2.206424545291157e+01   1.066850961549693e+02    
1.021800000000000e+10    -2.234052661805114e+01   1.072209146523422e+02    
1.021900000000000e+10    -2.271567568156268e+01   1.077247998466025e+02    
1.022000000000000e+10    -2.297120212916980e+01   1.089226472473774e+02    
1.022100000000000e+10    -2.326605760696607e+01   1.107864462743647e+02    
1.022200000000000e+10    -2.348774788463189e+01   1.127482988576340e+02    
1.022300000000000e+10    -2.368801735557957e+01   1.146722448736629e+02    
1.022400000000000e+10    -2.375788830069619e+01   1.173027209475726e+02    
1.022500000000000e+10    -2.385476843724551e+01   1.197916922891532e+02    
1.022600000000000e+10    -2.381228687704170e+01   1.222143836207639e+02    
1.022700000000000e+10    -2.370476410199248e+01   1.245017875059177e+02    
1.022800000000000e+10    -2.358128101708092e+01   1.265564725405080e+02    
1.022900000000000e+10    -2.339394458096503e+01   1.289862394365163e+02    
1.023000000000000e+10    -2.309428972889316e+01   1.306072106640734e+02    
1.023100000000000e+10    -2.290923044768568e+01   1.317564557928675e+02    
1.023200000000000e+10    -2.255720451809234e+01   1.327712878022736e+02    
1.023300000000000e+10    -2.234253931066347e+01   1.336121565084825e+02    
1.023400000000000e+10    -2.200807522974207e+01   1.336453093360336e+02    
1.023500000000000e+10    -2.171601525254890e+01   1.340487712139592e+02    
1.023600000000000e+10    -2.144155965648048e+01   1.334227214398891e+02    
1.023700000000000e+10    -2.118004900630432e+01   1.329422585031283e+02    
1.023800000000000e+10    -2.092410061370645e+01   1.326887887899811e+02    
1.023900000000000e+10    -2.072052237056364e+01   1.316289142680069e+02    
1.024000000000000e+10    -2.050305920981724e+01   1.305081025141225e+02    
1.024100000000000e+10    -2.032749916121947e+01   1.295300440030646e+02    
1.024200000000000e+10    -2.020622596462891e+01   1.282501517843226e+02    
1.024300000000000e+10    -2.011555184153096e+01   1.270173120966074e+02    
1.024400000000000e+10    -1.998555908979237e+01   1.255358046101830e+02    
1.024500000000000e+10    -1.991204857427948e+01   1.240339581947788e+02    
1.024600000000000e+10    -1.984503911366381e+01   1.228404228198521e+02    
1.024700000000000e+10    -1.980036357390372e+01   1.211620637632328e+02    
1.024800000000000e+10    -1.977443158452021e+01   1.196510514017320e+02    
1.024900000000000e+10    -1.984728738872128e+01   1.181540182045262e+02    
1.025000000000000e+10    -1.988179744218375e+01   1.166513628012393e+02    
1.025100000000000e+10    -1.993798029337683e+01   1.147961881158666e+02    
1.025200000000000e+10    -2.002791213647708e+01   1.134407166657671e+02    
1.025300000000000e+10    -2.016041275887425e+01   1.120875991348159e+02    
1.025400000000000e+10    -2.032752509850052e+01   1.105067163091973e+02    
1.025500000000000e+10    -2.045792612646515e+01   1.091884851447198e+02    
1.025600000000000e+10    -2.061856300313181e+01   1.081149897201802e+02    
