[Version] 2.0
! Rohde & Schwarz Vector Network Analyzer
! Rohde-Schwarz,ZNL20-2Port,1323001220200009,1.71.1.10-23.02.1.238
! 
! Port Assignments:
! Nominal Port -> Actual Test Port
! --------------------------------
!   1 -> 1

! Created: GMT 2024-09-04 12:03:04

# Hz S DB R 50

[Number of Ports] 1
[Number of Frequencies] 2001

[Network Data] 
! freq[Hz]               S11[mag dB]              S11[ang]                 
1.000000000000000e+10    -2.100831242466526e+01   1.477242630527482e+02    
1.000100000000000e+10    -2.080577256536129e+01   1.490642398981976e+02    
1.000200000000000e+10    -2.062554556059575e+01   1.500829826716586e+02    
1.000300000000000e+10    -2.039371811919371e+01   1.507691078785674e+02    
1.000400000000000e+10    -2.011101873127086e+01   1.511621828085369e+02    
1.000500000000000e+10    -1.988887881056569e+01   1.515602706728876e+02    
1.000600000000000e+10    -1.963932130874112e+01   1.514107372995143e+02    
1.000700000000000e+10    -1.936486490763152e+01   1.515619819058966e+02    
1.000800000000000e+10    -1.915945899644085e+01   1.506038640978957e+02    
1.000900000000000e+10    -1.897627082607614e+01   1.502653559238359e+02    
1.001000000000000e+10    -1.874260922385527e+01   1.495753570746792e+02    
1.001100000000000e+10    -1.856425295723223e+01   1.485492061095038e+02    
1.001200000000000e+10    -1.843615566671186e+01   1.475969292348313e+02    
1.001300000000000e+10    -1.829213108783590e+01   1.462987074104989e+02    
1.001400000000000e+10    -1.818580543470856e+01   1.450175495645616e+02    
1.001500000000000e+10    -1.805591124678723e+01   1.438949784723314e+02    
1.001600000000000e+10    -1.797048897051637e+01   1.425076766012052e+02    
1.001700000000000e+10    -1.794096190685283e+01   1.411519921028093e+02    
1.001800000000000e+10    -1.791326959340643e+01   1.396701678916756e+02    
1.001900000000000e+10    -1.789212106907366e+01   1.381019088668093e+02    
1.002000000000000e+10    -1.791228333294396e+01   1.365393145225777e+02    
1.002100000000000e+10    -1.796459628310573e+01   1.352675142886607e+02    
1.002200000000000e+10    -1.803031215822523e+01   1.339838311584012e+02    
1.002300000000000e+10    -1.811239973430081e+01   1.325033901575143e+02    
1.002400000000000e+10    -1.818700484154206e+01   1.314279625816920e+02    
1.002500000000000e+10    -1.833712864903579e+01   1.301985827109775e+02    
1.002600000000000e+10    -1.851474482921332e+01   1.288999113656197e+02    
1.002700000000000e+10    -1.866780880564746e+01   1.277259310468585e+02    
1.002800000000000e+10    -1.887592025535013e+01   1.270994903868422e+02    
1.002900000000000e+10    -1.910506894465972e+01   1.262205460702282e+02    
1.003000000000000e+10    -1.930250044048396e+01   1.256290424163118e+02    
1.003100000000000e+10    -1.955187424479479e+01   1.254370196278170e+02    
1.003200000000000e+10    -1.984579946350460e+01   1.249365077972708e+02    
1.003300000000000e+10    -2.007120091392082e+01   1.250991445955074e+02    
1.003400000000000e+10    -2.035771419274163e+01   1.254534607487037e+02    
1.003500000000000e+10    -2.063219202995487e+01   1.258752065975847e+02    
1.003600000000000e+10    -2.087956185555710e+01   1.268170873747578e+02    
1.003700000000000e+10    -2.113684099299818e+01   1.280520522303809e+02    
1.003800000000000e+10    -2.135834261737246e+01   1.293018256464294e+02    
1.003900000000000e+10    -2.154633550097858e+01   1.313505474301654e+02    
1.004000000000000e+10    -2.167482152956333e+01   1.329030362019430e+02    
1.004100000000000e+10    -2.178386823871066e+01   1.352636447549469e+02    
1.004200000000000e+10    -2.181787769778754e+01   1.372824444514670e+02    
1.004300000000000e+10    -2.174034980772713e+01   1.394736633616372e+02    
1.004400000000000e+10    -2.162315010088530e+01   1.416154523736732e+02    
1.004500000000000e+10    -2.147399586829893e+01   1.437350917665445e+02    
1.004600000000000e+10    -2.129660182062803e+01   1.450987495230657e+02    
1.004700000000000e+10    -2.109446069226877e+01   1.463333182069535e+02    
1.004800000000000e+10    -2.082899393276989e+01   1.475563438353679e+02    
1.004900000000000e+10    -2.055249114616352e+01   1.480543484361718e+02    
1.005000000000000e+10    -2.028819428961096e+01   1.485284177526766e+02    
1.005100000000000e+10    -2.001295874109152e+01   1.487940623236641e+02    
1.005200000000000e+10    -1.974278809283815e+01   1.487544319748041e+02    
1.005300000000000e+10    -1.951815243134696e+01   1.482395904497289e+02    
1.005400000000000e+10    -1.923647512470377e+01   1.477340613700861e+02    
1.005500000000000e+10    -1.900665686057162e+01   1.470887180503925e+02    
1.005600000000000e+10    -1.883912893269736e+01   1.461373707521686e+02    
1.005700000000000e+10    -1.865582589094472e+01   1.451550887336647e+02    
1.005800000000000e+10    -1.853705825839898e+01   1.437733170465706e+02    
1.005900000000000e+10    -1.838146456458981e+01   1.426220589553640e+02    
1.006000000000000e+10    -1.828522546348270e+01   1.412099303792006e+02    
1.006100000000000e+10    -1.819129543041307e+01   1.400526290908892e+02    
1.006200000000000e+10    -1.816791575471045e+01   1.382844763192801e+02    
1.006300000000000e+10    -1.814900734506227e+01   1.371360959171097e+02    
1.006400000000000e+10    -1.811969987704047e+01   1.353753992316085e+02    
1.006500000000000e+10    -1.811116904521789e+01   1.338265288563148e+02    
1.006600000000000e+10    -1.817051739305131e+01   1.323190520415112e+02    
1.006700000000000e+10    -1.822143813968344e+01   1.305484847803979e+02    
1.006800000000000e+10    -1.828640954269637e+01   1.294269694423575e+02    
1.006900000000000e+10    -1.841844076873013e+01   1.279068418521497e+02    
1.007000000000000e+10    -1.859432929137377e+01   1.265892568645717e+02    
1.007100000000000e+10    -1.873048020179137e+01   1.253032970368758e+02    
1.007200000000000e+10    -1.890168183997674e+01   1.241608468201614e+02    
1.007300000000000e+10    -1.910995188570967e+01   1.227217538791601e+02    
1.007400000000000e+10    -1.933004615898864e+01   1.218501194835764e+02    
1.007500000000000e+10    -1.960851525383072e+01   1.207661717594593e+02    
1.007600000000000e+10    -1.982955191131553e+01   1.204236461178771e+02    
1.007700000000000e+10    -2.013658348653937e+01   1.199542776902234e+02    
1.007800000000000e+10    -2.047223270605210e+01   1.195866504762754e+02    
1.007900000000000e+10    -2.079313486589776e+01   1.194602800278522e+02    
1.008000000000000e+10    -2.111147070441979e+01   1.200502401799236e+02    
1.008100000000000e+10    -2.136707097158218e+01   1.206330935061803e+02    
1.008200000000000e+10    -2.169227623874233e+01   1.217067182552938e+02    
1.008300000000000e+10    -2.198261030417487e+01   1.227469099504864e+02    
1.008400000000000e+10    -2.220028189393549e+01   1.246723646685167e+02    
1.008500000000000e+10    -2.243048812279066e+01   1.266965029217086e+02    
1.008600000000000e+10    -2.258029737535598e+01   1.289203461833833e+02    
1.008700000000000e+10    -2.264616760824541e+01   1.310287616227357e+02    
1.008800000000000e+10    -2.263810933554005e+01   1.334350929214294e+02    
1.008900000000000e+10    -2.263564943836709e+01   1.357571076841506e+02    
1.009000000000000e+10    -2.249033274988294e+01   1.382354433862998e+02    
1.009100000000000e+10    -2.229536394521822e+01   1.402104145212093e+02    
1.009200000000000e+10    -2.207091636922392e+01   1.416695174689633e+02    
1.009300000000000e+10    -2.181359079517953e+01   1.429449446799889e+02    
1.009400000000000e+10    -2.149777337294000e+01   1.438622208882544e+02    
1.009500000000000e+10    -2.120481152861118e+01   1.448303305354445e+02    
1.009600000000000e+10    -2.092517653752813e+01   1.450250940916814e+02    
1.009700000000000e+10    -2.064095884850310e+01   1.449241795919064e+02    
1.009800000000000e+10    -2.033845645987730e+01   1.445534622360993e+02    
1.009900000000000e+10    -2.004712813775823e+01   1.440066267909838e+02    
1.010000000000000e+10    -1.979504844794378e+01   1.434119916515091e+02    
1.010100000000000e+10    -1.956165995837026e+01   1.424260999806545e+02    
1.010200000000000e+10    -1.934441951907669e+01   1.413900362691932e+02    
1.010300000000000e+10    -1.915740689690852e+01   1.402619102012229e+02    
1.010400000000000e+10    -1.902067249214270e+01   1.388081514764670e+02    
1.010500000000000e+10    -1.885654142156779e+01   1.375720057731488e+02    
1.010600000000000e+10    -1.877753197885344e+01   1.360099849827133e+02    
1.010700000000000e+10    -1.865442194060540e+01   1.346519447113143e+02    
1.010800000000000e+10    -1.860736191219021e+01   1.327546679823517e+02    
1.010900000000000e+10    -1.855550599244985e+01   1.313502602729450e+02    
1.011000000000000e+10    -1.855654760240077e+01   1.297062645441574e+02    
1.011100000000000e+10    -1.856344058862847e+01   1.283318426344939e+02    
1.011200000000000e+10    -1.858834409620064e+01   1.268968953089642e+02    
1.011300000000000e+10    -1.867186000121623e+01   1.252846930055268e+02    
1.011400000000000e+10    -1.873170922768561e+01   1.235486182624266e+02    
1.011500000000000e+10    -1.885914154883399e+01   1.222439089738095e+02    
1.011600000000000e+10    -1.899234149844699e+01   1.207462236728979e+02    
1.011700000000000e+10    -1.911129480668198e+01   1.193506570168682e+02    
1.011800000000000e+10    -1.929957727392091e+01   1.182962705012602e+02    
1.011900000000000e+10    -1.952506984799531e+01   1.171422434841199e+02    
1.012000000000000e+10    -1.976525901126759e+01   1.163346564267845e+02    
1.012100000000000e+10    -1.999073212032030e+01   1.156959578800786e+02    
1.012200000000000e+10    -2.029644563981682e+01   1.149692236334584e+02    
1.012300000000000e+10    -2.056329771522739e+01   1.147641781389818e+02    
1.012400000000000e+10    -2.084349154462189e+01   1.146723170857605e+02    
1.012500000000000e+10    -2.116992564675031e+01   1.147871413911704e+02    
1.012600000000000e+10    -2.147698851553345e+01   1.150380719011637e+02    
1.012700000000000e+10    -2.177944950036339e+01   1.160863408054338e+02    
1.012800000000000e+10    -2.209860431778431e+01   1.173855290060879e+02    
1.012900000000000e+10    -2.235602852803177e+01   1.190613303398132e+02    
1.013000000000000e+10    -2.258853112261483e+01   1.207656816927888e+02    
1.013100000000000e+10    -2.275468022760620e+01   1.228966125326333e+02    
1.013200000000000e+10    -2.285179810720123e+01   1.254078344476029e+02    
1.013300000000000e+10    -2.288324773399778e+01   1.277877989425964e+02    
1.013400000000000e+10    -2.289772165847772e+01   1.304761637539303e+02    
1.013500000000000e+10    -2.279252748745682e+01   1.327695048777875e+02    
1.013600000000000e+10    -2.265310503236802e+01   1.349454467802425e+02    
1.013700000000000e+10    -2.246063520240173e+01   1.369407160792876e+02    
1.013800000000000e+10    -2.217974538626263e+01   1.385306971696488e+02    
1.013900000000000e+10    -2.188785433550640e+01   1.398108596898672e+02    
1.014000000000000e+10    -2.166650258284608e+01   1.406193141122845e+02    
1.014100000000000e+10    -2.130116094659149e+01   1.414950027335691e+02    
1.014200000000000e+10    -2.104428065425584e+01   1.416703079855631e+02    
1.014300000000000e+10    -2.072681022153630e+01   1.416203456434762e+02    
1.014400000000000e+10    -2.048417917481038e+01   1.412235980624600e+02    
1.014500000000000e+10    -2.019751704879782e+01   1.406895607591927e+02    
1.014600000000000e+10    -1.998460764991275e+01   1.401570372912560e+02    
1.014700000000000e+10    -1.979495174014962e+01   1.392238954728669e+02    
1.014800000000000e+10    -1.956344947036736e+01   1.378617206623704e+02    
1.014900000000000e+10    -1.938548651595707e+01   1.369284363765566e+02    
1.015000000000000e+10    -1.926970255815437e+01   1.356466307255108e+02    
1.015100000000000e+10    -1.916313732687284e+01   1.342049318341993e+02    
1.015200000000000e+10    -1.906902259331653e+01   1.325104951243518e+02    
1.015300000000000e+10    -1.898205065252313e+01   1.313169749305647e+02    
1.015400000000000e+10    -1.896468869830813e+01   1.295738048633944e+02    
1.015500000000000e+10    -1.890055873071054e+01   1.281565763166875e+02    
1.015600000000000e+10    -1.892353767847650e+01   1.264737092905233e+02    
1.015700000000000e+10    -1.896234624485350e+01   1.247409738644978e+02    
1.015800000000000e+10    -1.901005602886926e+01   1.231828142651948e+02    
1.015900000000000e+10    -1.913119508838074e+01   1.217773506445992e+02    
1.016000000000000e+10    -1.919921865427594e+01   1.203497846256655e+02    
1.016100000000000e+10    -1.933727688412483e+01   1.188012403373614e+02    
1.016200000000000e+10    -1.947862199629821e+01   1.172745031212204e+02    
1.016300000000000e+10    -1.967782128665124e+01   1.160942117950861e+02    
1.016400000000000e+10    -1.986458445647486e+01   1.146426371044759e+02    
1.016500000000000e+10    -2.008130604498995e+01   1.137627309844272e+02    
1.016600000000000e+10    -2.032923055352138e+01   1.126277152493573e+02    
1.016700000000000e+10    -2.062040202306119e+01   1.119306501267813e+02    
1.016800000000000e+10    -2.092629027980485e+01   1.112340364337223e+02    
1.016900000000000e+10    -2.117606926279766e+01   1.107224006815740e+02    
1.017000000000000e+10    -2.148483745700131e+01   1.109667653309327e+02    
1.017100000000000e+10    -2.181861467996745e+01   1.114144121594644e+02    
1.017200000000000e+10    -2.217747256519232e+01   1.115380078043730e+02    
1.017300000000000e+10    -2.249446368937004e+01   1.124390138701867e+02    
1.017400000000000e+10    -2.275537775490820e+01   1.136228183786806e+02    
1.017500000000000e+10    -2.307483868767090e+01   1.151624658718001e+02    
1.017600000000000e+10    -2.333743324875199e+01   1.169036887812101e+02    
1.017700000000000e+10    -2.350178116083097e+01   1.190445288758747e+02    
1.017800000000000e+10    -2.362425530316172e+01   1.215633323842392e+02    
1.017900000000000e+10    -2.368260073289967e+01   1.240644901018920e+02    
1.018000000000000e+10    -2.367740655490431e+01   1.264476448468250e+02    
1.018100000000000e+10    -2.353907930021688e+01   1.287382490268107e+02    
1.018200000000000e+10    -2.339562111601489e+01   1.307640166593955e+02    
1.018300000000000e+10    -2.318363271536010e+01   1.326666044857258e+02    
1.018400000000000e+10    -2.293863771092949e+01   1.345213394038460e+02    
1.018500000000000e+10    -2.264424146357093e+01   1.357279494829796e+02    
1.018600000000000e+10    -2.230696800406332e+01   1.368057076692916e+02    
1.018700000000000e+10    -2.204229840738760e+01   1.370834759725082e+02    
1.018800000000000e+10    -2.171028491020291e+01   1.371257245323818e+02    
1.018900000000000e+10    -2.141034672743116e+01   1.368909290667883e+02    
1.019000000000000e+10    -2.113087470913564e+01   1.367848961940961e+02    
1.019100000000000e+10    -2.088255928177986e+01   1.361530367153833e+02    
1.019200000000000e+10    -2.065278900265895e+01   1.351973519212838e+02    
1.019300000000000e+10    -2.041053597771972e+01   1.344081322826834e+02    
1.019400000000000e+10    -2.018735370822403e+01   1.329932020794896e+02    
1.019500000000000e+10    -2.001805974374898e+01   1.320809994358338e+02    
1.019600000000000e+10    -1.982334126213367e+01   1.307861990877480e+02    
1.019700000000000e+10    -1.972882687440146e+01   1.293187982486150e+02    
1.019800000000000e+10    -1.961538704439927e+01   1.280185060119259e+02    
1.019900000000000e+10    -1.954349154782887e+01   1.261871050210449e+02    
1.020000000000000e+10    -1.947116798308265e+01   1.249630482058355e+02    
1.020100000000000e+10    -1.941163975464600e+01   1.231246811206042e+02    
1.020200000000000e+10    -1.944603445614587e+01   1.215238331973209e+02    
1.020300000000000e+10    -1.943215839832825e+01   1.198524290880002e+02    
1.020400000000000e+10    -1.946771037878327e+01   1.182952409051403e+02    
1.020500000000000e+10    -1.949262756767559e+01   1.167873875806912e+02    
1.020600000000000e+10    -1.960675082704307e+01   1.152789149153002e+02    
1.020700000000000e+10    -1.971348411961277e+01   1.138978519488990e+02    
1.020800000000000e+10    -1.983943247232024e+01   1.125562119518221e+02    
1.020900000000000e+10    -1.999683552974605e+01   1.111613394235104e+02    
1.021000000000000e+10    -2.017779266660705e+01   1.102505230581072e+02    
1.021100000000000e+10    -2.037143989376455e+01   1.090514188562183e+02    
1.021200000000000e+10    -2.058844182767377e+01   1.079944528865216e+02    
1.021300000000000e+10    -2.086336177733905e+01   1.073963815712637e+02    
1.021400000000000e+10    -2.112227623740784e+01   1.066962264701334e+02    
1.021500000000000e+10    -2.142649776043520e+01   1.065588581020228e+02    
1.021600000000000e+10    -2.170017629812835e+01   1.066425935556152e+02    
1.021700000000000e+10    -2.204367040322760e+01   1.065002576894716e+02    
1.021800000000000e+10    -2.233934253737510e+01   1.070886767062888e+02    
1.021900000000000e+10    -2.270615783417561e+01   1.078358138803734e+02    
1.022000000000000e+10    -2.292579006298685e+01   1.090403532895206e+02    
1.022100000000000e+10    -2.326034771114706e+01   1.106575055268905e+02    
1.022200000000000e+10    -2.344346579406621e+01   1.125202408766062e+02    
1.022300000000000e+10    -2.364960469517592e+01   1.146127460782589e+02    
1.022400000000000e+10    -2.375424936700478e+01   1.170380940957286e+02    
1.022500000000000e+10    -2.382517870709951e+01   1.195861941755884e+02    
1.022600000000000e+10    -2.380832318031003e+01   1.219210743588102e+02    
1.022700000000000e+10    -2.372772264485794e+01   1.242678624565850e+02    
1.022800000000000e+10    -2.360071209029793e+01   1.264646516231204e+02    
1.022900000000000e+10    -2.341229540765314e+01   1.287290235457387e+02    
1.023000000000000e+10    -2.315509985241438e+01   1.303675148361214e+02    
1.023100000000000e+10    -2.295878636329755e+01   1.315960887420783e+02    
1.023200000000000e+10    -2.257399580650723e+01   1.326203804383998e+02    
1.023300000000000e+10    -2.235449278149874e+01   1.334981927949950e+02    
1.023400000000000e+10    -2.199961207452662e+01   1.337408312166076e+02    
1.023500000000000e+10    -2.175877168861875e+01   1.340695477209659e+02    
1.023600000000000e+10    -2.148531083174831e+01   1.336213287636838e+02    
1.023700000000000e+10    -2.121807919948219e+01   1.331564972806850e+02    
1.023800000000000e+10    -2.094958930107895e+01   1.324213983501649e+02    
1.023900000000000e+10    -2.076876086581872e+01   1.317415743354765e+02    
1.024000000000000e+10    -2.054490758034288e+01   1.305581948191161e+02    
1.024100000000000e+10    -2.034534677080514e+01   1.297075377646555e+02    
1.024200000000000e+10    -2.021041187025732e+01   1.283690464314520e+02    
1.024300000000000e+10    -2.011153312224630e+01   1.271645997161998e+02    
1.024400000000000e+10    -2.002842744638495e+01   1.257906094970889e+02    
1.024500000000000e+10    -1.994553168324863e+01   1.242003692505390e+02    
1.024600000000000e+10    -1.984698520679115e+01   1.230222267266700e+02    
1.024700000000000e+10    -1.983562701593083e+01   1.211743922523249e+02    
1.024800000000000e+10    -1.978273947251746e+01   1.197753609447134e+02    
1.024900000000000e+10    -1.984289868142677e+01   1.184333339681986e+02    
1.025000000000000e+10    -1.986868664085021e+01   1.166909014938010e+02    
1.025100000000000e+10    -1.993034317305933e+01   1.150310148852727e+02    
1.025200000000000e+10    -2.002786437628771e+01   1.135336273898330e+02    
1.025300000000000e+10    -2.012573006860559e+01   1.122241514672232e+02    
1.025400000000000e+10    -2.030211859269607e+01   1.107589963421453e+02    
1.025500000000000e+10    -2.043724630293415e+01   1.093251732017280e+02    
1.025600000000000e+10    -2.064130309966677e+01   1.080628292782512e+02    
