[Version] 2.0
! Rohde & Schwarz Vector Network Analyzer
! Rohde-Schwarz,ZNL20-2Port,1323001220200009,1.71.1.10-23.02.1.238
! 
! Port Assignments:
! Nominal Port -> Actual Test Port
! --------------------------------
!   1 -> 1

! Created: GMT 2024-09-04 12:03:16

# Hz S DB R 50

[Number of Ports] 1
[Number of Frequencies] 2001

[Network Data] 
! freq[Hz]               S11[mag dB]              S11[ang]                 
1.000000000000000e+10    -2.102517071766316e+01   1.478026979977830e+02    
1.000100000000000e+10    -2.081881030834005e+01   1.489622056016828e+02    
1.000200000000000e+10    -2.063321049806879e+01   1.499701896569572e+02    
1.000300000000000e+10    -2.041230446650647e+01   1.507213006004197e+02    
1.000400000000000e+10    -2.013588832057609e+01   1.512874083325196e+02    
1.000500000000000e+10    -1.990344310841414e+01   1.516469206492179e+02    
1.000600000000000e+10    -1.963883766055758e+01   1.513974287154360e+02    
1.000700000000000e+10    -1.939712635178570e+01   1.514184770104652e+02    
1.000800000000000e+10    -1.915239067262626e+01   1.509227224720511e+02    
1.000900000000000e+10    -1.898549639285570e+01   1.502855063515798e+02    
1.001000000000000e+10    -1.875717499755643e+01   1.496351078809266e+02    
1.001100000000000e+10    -1.859576532480820e+01   1.487757511477804e+02    
1.001200000000000e+10    -1.842960574690138e+01   1.476555249455720e+02    
1.001300000000000e+10    -1.829157189447350e+01   1.464464236505745e+02    
1.001400000000000e+10    -1.818251231605198e+01   1.451911385478247e+02    
1.001500000000000e+10    -1.804012999728736e+01   1.439181567528503e+02    
1.001600000000000e+10    -1.799893594072532e+01   1.425314812588668e+02    
1.001700000000000e+10    -1.793775300631461e+01   1.410742679048978e+02    
1.001800000000000e+10    -1.791726052100932e+01   1.396598767098688e+02    
1.001900000000000e+10    -1.790004930276011e+01   1.383286645960023e+02    
1.002000000000000e+10    -1.793542225955740e+01   1.366879635598808e+02    
1.002100000000000e+10    -1.797489328748240e+01   1.353735750571368e+02    
1.002200000000000e+10    -1.801537330987860e+01   1.341088909278616e+02    
1.002300000000000e+10    -1.809215948021751e+01   1.326874094760690e+02    
1.002400000000000e+10    -1.820547248077359e+01   1.314349595411490e+02    
1.002500000000000e+10    -1.833872719930589e+01   1.301640857886766e+02    
1.002600000000000e+10    -1.848103613936362e+01   1.290614615114787e+02    
1.002700000000000e+10    -1.864113326982799e+01   1.279358759655055e+02    
1.002800000000000e+10    -1.885072331703224e+01   1.271886449497121e+02    
1.002900000000000e+10    -1.907838232812268e+01   1.263253526152054e+02    
1.003000000000000e+10    -1.927345209760490e+01   1.256939412160022e+02    
1.003100000000000e+10    -1.953636386643575e+01   1.254002729893415e+02    
1.003200000000000e+10    -1.978318826616072e+01   1.252116244651089e+02    
1.003300000000000e+10    -2.005921685657363e+01   1.249404984573731e+02    
1.003400000000000e+10    -2.034208126660785e+01   1.255500583425932e+02    
1.003500000000000e+10    -2.061121188036029e+01   1.258703844631723e+02    
1.003600000000000e+10    -2.081566567173694e+01   1.268649379927303e+02    
1.003700000000000e+10    -2.112249408351303e+01   1.280710557757835e+02    
1.003800000000000e+10    -2.128199350465410e+01   1.292846377898199e+02    
1.003900000000000e+10    -2.152546517763344e+01   1.313004014349395e+02    
1.004000000000000e+10    -2.167969875800968e+01   1.331089593097882e+02    
1.004100000000000e+10    -2.175312214952120e+01   1.351829767509095e+02    
1.004200000000000e+10    -2.179724869585394e+01   1.369649862155946e+02    
1.004300000000000e+10    -2.173672140017004e+01   1.393142432568446e+02    
1.004400000000000e+10    -2.167396505428744e+01   1.416821061118894e+02    
1.004500000000000e+10    -2.149110972435948e+01   1.433146465898003e+02    
1.004600000000000e+10    -2.132922837729727e+01   1.448486241616593e+02    
1.004700000000000e+10    -2.105125061511412e+01   1.465666621580899e+02    
1.004800000000000e+10    -2.083522675187974e+01   1.474471233526558e+02    
1.004900000000000e+10    -2.055610763518153e+01   1.480010075715888e+02    
1.005000000000000e+10    -2.028497793206460e+01   1.485617829660670e+02    
1.005100000000000e+10    -2.005621155768861e+01   1.488160256706260e+02    
1.005200000000000e+10    -1.977069231271148e+01   1.488709442821577e+02    
1.005300000000000e+10    -1.950600921698787e+01   1.485543040063743e+02    
1.005400000000000e+10    -1.927210554025520e+01   1.478058949857601e+02    
1.005500000000000e+10    -1.904626818961421e+01   1.471595684091455e+02    
1.005600000000000e+10    -1.885305683066743e+01   1.462100732654702e+02    
1.005700000000000e+10    -1.865865918117231e+01   1.453264351512605e+02    
1.005800000000000e+10    -1.856462167128187e+01   1.439306784661716e+02    
1.005900000000000e+10    -1.839915355770737e+01   1.428824290361795e+02    
1.006000000000000e+10    -1.828967392731866e+01   1.415106507208150e+02    
1.006100000000000e+10    -1.821360154531651e+01   1.400607945116365e+02    
1.006200000000000e+10    -1.815553355524486e+01   1.384420779836809e+02    
1.006300000000000e+10    -1.814127656233866e+01   1.370173425874754e+02    
1.006400000000000e+10    -1.814161090617897e+01   1.354989813502629e+02    
1.006500000000000e+10    -1.815278888429365e+01   1.340199367920739e+02    
1.006600000000000e+10    -1.814849134142039e+01   1.325053705498777e+02    
1.006700000000000e+10    -1.823903252810598e+01   1.306570166539091e+02    
1.006800000000000e+10    -1.829738464948213e+01   1.294820923919168e+02    
1.006900000000000e+10    -1.843711983735558e+01   1.278544078746583e+02    
1.007000000000000e+10    -1.857333976762547e+01   1.266150273682245e+02    
1.007100000000000e+10    -1.872843601387043e+01   1.252397250238644e+02    
1.007200000000000e+10    -1.888790136889943e+01   1.240568844027112e+02    
1.007300000000000e+10    -1.911150959300380e+01   1.228893279758762e+02    
1.007400000000000e+10    -1.932109340567474e+01   1.220408598481661e+02    
1.007500000000000e+10    -1.958651904400045e+01   1.210328682331535e+02    
1.007600000000000e+10    -1.983634223952112e+01   1.205044192164272e+02    
1.007700000000000e+10    -2.012589950531650e+01   1.197769562915887e+02    
1.007800000000000e+10    -2.044163349216220e+01   1.195773231002049e+02    
1.007900000000000e+10    -2.079980535866195e+01   1.194630692736236e+02    
1.008000000000000e+10    -2.107114027129388e+01   1.198350324748975e+02    
1.008100000000000e+10    -2.137661634784563e+01   1.207283176523015e+02    
1.008200000000000e+10    -2.167036108257683e+01   1.216074478574652e+02    
1.008300000000000e+10    -2.195645631122542e+01   1.225386663102546e+02    
1.008400000000000e+10    -2.220462549182159e+01   1.244746847760547e+02    
1.008500000000000e+10    -2.244993411641155e+01   1.264381054527004e+02    
1.008600000000000e+10    -2.254745324336856e+01   1.285351919499269e+02    
1.008700000000000e+10    -2.265088541989355e+01   1.307817297927215e+02    
1.008800000000000e+10    -2.265248997149950e+01   1.334914826393046e+02    
1.008900000000000e+10    -2.260062906014882e+01   1.355820264258152e+02    
1.009000000000000e+10    -2.248760246359793e+01   1.378402652667816e+02    
1.009100000000000e+10    -2.230561494080384e+01   1.400375340849046e+02    
1.009200000000000e+10    -2.210055911675217e+01   1.417547354397881e+02    
1.009300000000000e+10    -2.177790592150240e+01   1.429009174526190e+02    
1.009400000000000e+10    -2.149735564956080e+01   1.440293678410258e+02    
1.009500000000000e+10    -2.118734406446163e+01   1.444366149036951e+02    
1.009600000000000e+10    -2.094137529249000e+01   1.448551613720527e+02    
1.009700000000000e+10    -2.065440814684219e+01   1.449238358115977e+02    
1.009800000000000e+10    -2.034803224066359e+01   1.444909563182647e+02    
1.009900000000000e+10    -2.004680081657594e+01   1.439956597058869e+02    
1.010000000000000e+10    -1.979760706044526e+01   1.435325806146829e+02    
1.010100000000000e+10    -1.958124181633653e+01   1.425240513806138e+02    
1.010200000000000e+10    -1.936454907189432e+01   1.414085503671676e+02    
1.010300000000000e+10    -1.919032873620602e+01   1.403068109688759e+02    
1.010400000000000e+10    -1.901550385317626e+01   1.390348909598302e+02    
1.010500000000000e+10    -1.886962290341107e+01   1.375206519391690e+02    
1.010600000000000e+10    -1.879377521870609e+01   1.360294511632310e+02    
1.010700000000000e+10    -1.864731106419357e+01   1.345937762959859e+02    
1.010800000000000e+10    -1.861115458720362e+01   1.328683639984517e+02    
1.010900000000000e+10    -1.859347154256641e+01   1.314852871882580e+02    
1.011000000000000e+10    -1.856982349670051e+01   1.298903076806889e+02    
1.011100000000000e+10    -1.858719321562483e+01   1.284918066609379e+02    
1.011200000000000e+10    -1.858009453876934e+01   1.267659596770875e+02    
1.011300000000000e+10    -1.866573739795640e+01   1.254544535395902e+02    
1.011400000000000e+10    -1.873868544622897e+01   1.236357656401428e+02    
1.011500000000000e+10    -1.884607868869794e+01   1.224089469906727e+02    
1.011600000000000e+10    -1.897998077821478e+01   1.208801653087362e+02    
1.011700000000000e+10    -1.909890262712874e+01   1.195731976982851e+02    
1.011800000000000e+10    -1.928643832190482e+01   1.183699168962487e+02    
1.011900000000000e+10    -1.950673866250322e+01   1.174835873599655e+02    
1.012000000000000e+10    -1.975798840138600e+01   1.164247293870380e+02    
1.012100000000000e+10    -1.996330907444335e+01   1.157263432096662e+02    
1.012200000000000e+10    -2.025997048035556e+01   1.151008479981917e+02    
1.012300000000000e+10    -2.054533791022862e+01   1.145819914071560e+02    
1.012400000000000e+10    -2.083328845639608e+01   1.144173401738133e+02    
1.012500000000000e+10    -2.113176511196232e+01   1.147510991085651e+02    
1.012600000000000e+10    -2.144274567079792e+01   1.151188191650840e+02    
1.012700000000000e+10    -2.174286545440364e+01   1.161275391013264e+02    
1.012800000000000e+10    -2.205795369934014e+01   1.172881324516796e+02    
1.012900000000000e+10    -2.233966980069974e+01   1.190280961830786e+02    
1.013000000000000e+10    -2.257415428227245e+01   1.204769419816837e+02    
1.013100000000000e+10    -2.273689733005842e+01   1.227945575591152e+02    
1.013200000000000e+10    -2.285755310391396e+01   1.250305457012629e+02    
1.013300000000000e+10    -2.286089217671022e+01   1.276761545434561e+02    
1.013400000000000e+10    -2.290377971450063e+01   1.303029928017238e+02    
1.013500000000000e+10    -2.280736721144440e+01   1.327756002108611e+02    
1.013600000000000e+10    -2.265237184696410e+01   1.347824402950003e+02    
1.013700000000000e+10    -2.247085626480966e+01   1.369766958270481e+02    
1.013800000000000e+10    -2.220047833960056e+01   1.385496412912909e+02    
1.013900000000000e+10    -2.192286326607064e+01   1.399914476360138e+02    
1.014000000000000e+10    -2.165022500401745e+01   1.405627154883608e+02    
1.014100000000000e+10    -2.133618643438983e+01   1.411251502582343e+02    
1.014200000000000e+10    -2.105697296097587e+01   1.416482349614952e+02    
1.014300000000000e+10    -2.077881299952486e+01   1.414228430797537e+02    
1.014400000000000e+10    -2.050372655781430e+01   1.412953802912114e+02    
1.014500000000000e+10    -2.021576561192703e+01   1.406669053745407e+02    
1.014600000000000e+10    -2.001738796393490e+01   1.400708725476879e+02    
1.014700000000000e+10    -1.979859226990414e+01   1.391725253206760e+02    
1.014800000000000e+10    -1.956392244542392e+01   1.378220501826690e+02    
1.014900000000000e+10    -1.943436129814080e+01   1.368795746378414e+02    
1.015000000000000e+10    -1.928332191458235e+01   1.356786346416538e+02    
1.015100000000000e+10    -1.916270651963627e+01   1.342552811244439e+02    
1.015200000000000e+10    -1.906316744547973e+01   1.327877312451407e+02    
1.015300000000000e+10    -1.899422114910526e+01   1.313441681193258e+02    
1.015400000000000e+10    -1.895916681217737e+01   1.297112094859139e+02    
1.015500000000000e+10    -1.887307073485723e+01   1.281585820213876e+02    
1.015600000000000e+10    -1.892243777232301e+01   1.264836146780930e+02    
1.015700000000000e+10    -1.896928151340583e+01   1.248087465841419e+02    
1.015800000000000e+10    -1.902971515843145e+01   1.234790880173239e+02    
1.015900000000000e+10    -1.908134534987123e+01   1.218914818928387e+02    
1.016000000000000e+10    -1.919814268260601e+01   1.203392872323053e+02    
1.016100000000000e+10    -1.933907513028221e+01   1.188494998603611e+02    
1.016200000000000e+10    -1.947775702110625e+01   1.174351547901135e+02    
1.016300000000000e+10    -1.965889899558207e+01   1.159560212840467e+02    
1.016400000000000e+10    -1.981474080153124e+01   1.147326207295571e+02    
1.016500000000000e+10    -2.008395457267006e+01   1.137753995459006e+02    
1.016600000000000e+10    -2.029249054360466e+01   1.127451927729146e+02    
1.016700000000000e+10    -2.060804587347405e+01   1.119594367741425e+02    
1.016800000000000e+10    -2.087408501618192e+01   1.113259388135140e+02    
1.016900000000000e+10    -2.116001552584130e+01   1.109643107681186e+02    
1.017000000000000e+10    -2.149753029708285e+01   1.108082790015968e+02    
1.017100000000000e+10    -2.183154040901265e+01   1.112333060050934e+02    
1.017200000000000e+10    -2.213896754851633e+01   1.115663145157263e+02    
1.017300000000000e+10    -2.248482743809309e+01   1.124240481401116e+02    
1.017400000000000e+10    -2.275795416891274e+01   1.134403418425880e+02    
1.017500000000000e+10    -2.304051768006132e+01   1.153000318659191e+02    
1.017600000000000e+10    -2.330639299443741e+01   1.172319786037233e+02    
1.017700000000000e+10    -2.345057908894072e+01   1.190855654599924e+02    
1.017800000000000e+10    -2.353130347474100e+01   1.215677890917470e+02    
1.017900000000000e+10    -2.367602816793774e+01   1.238860335064256e+02    
1.018000000000000e+10    -2.364985030328650e+01   1.262385861959326e+02    
1.018100000000000e+10    -2.356613895900918e+01   1.283141724762819e+02    
1.018200000000000e+10    -2.338513216915148e+01   1.303423335957333e+02    
1.018300000000000e+10    -2.320164132219291e+01   1.326791329110419e+02    
1.018400000000000e+10    -2.292794482237409e+01   1.342579961213801e+02    
1.018500000000000e+10    -2.266294260586753e+01   1.351423277955298e+02    
1.018600000000000e+10    -2.231301731237123e+01   1.365238353324249e+02    
1.018700000000000e+10    -2.208134534890904e+01   1.368484682819141e+02    
1.018800000000000e+10    -2.173495710182113e+01   1.368604146341577e+02    
1.018900000000000e+10    -2.144161531552470e+01   1.369134328928983e+02    
1.019000000000000e+10    -2.116547502278010e+01   1.365420852347483e+02    
1.019100000000000e+10    -2.091076911456358e+01   1.363955703074543e+02    
1.019200000000000e+10    -2.066732264736564e+01   1.353824813604905e+02    
1.019300000000000e+10    -2.041586441566607e+01   1.344333309251303e+02    
1.019400000000000e+10    -2.021065196434760e+01   1.332742192332568e+02    
1.019500000000000e+10    -2.001727898667968e+01   1.321048913152121e+02    
1.019600000000000e+10    -1.990273756980339e+01   1.310255518985791e+02    
1.019700000000000e+10    -1.972612084967662e+01   1.294786446268476e+02    
1.019800000000000e+10    -1.962211726270199e+01   1.279442393522271e+02    
1.019900000000000e+10    -1.953221389829123e+01   1.262751432236654e+02    
1.020000000000000e+10    -1.947449853679240e+01   1.248932674718597e+02    
1.020100000000000e+10    -1.940218167351273e+01   1.231790646674191e+02    
1.020200000000000e+10    -1.945364908546737e+01   1.217303906623589e+02    
1.020300000000000e+10    -1.943770983712596e+01   1.200876231597411e+02    
1.020400000000000e+10    -1.945949093774066e+01   1.186538699285827e+02    
1.020500000000000e+10    -1.950061954807832e+01   1.170190060094858e+02    
1.020600000000000e+10    -1.960818017995119e+01   1.155996538443242e+02    
1.020700000000000e+10    -1.968565918099447e+01   1.139609740930407e+02    
1.020800000000000e+10    -1.982955587765970e+01   1.125541175792600e+02    
1.020900000000000e+10    -1.998582229344677e+01   1.114422856012698e+02    
1.021000000000000e+10    -2.017794668598423e+01   1.101854025574961e+02    
1.021100000000000e+10    -2.036132018313788e+01   1.090705746304017e+02    
1.021200000000000e+10    -2.056974118526435e+01   1.081287291554122e+02    
1.021300000000000e+10    -2.084040501501351e+01   1.075032256744886e+02    
1.021400000000000e+10    -2.111909304661090e+01   1.068431786676358e+02    
1.021500000000000e+10    -2.140473673645447e+01   1.066543971420518e+02    
1.021600000000000e+10    -2.170736409710410e+01   1.066490791359239e+02    
1.021700000000000e+10    -2.200445509700922e+01   1.065580045129696e+02    
1.021800000000000e+10    -2.228269249445430e+01   1.070529325219886e+02    
1.021900000000000e+10    -2.263984578179749e+01   1.079455459849302e+02    
1.022000000000000e+10    -2.290285810828242e+01   1.088834745312768e+02    
1.022100000000000e+10    -2.321702723272988e+01   1.106267558060509e+02    
1.022200000000000e+10    -2.346461389717337e+01   1.123655975833952e+02    
1.022300000000000e+10    -2.363639069311654e+01   1.142919308835257e+02    
1.022400000000000e+10    -2.376813852107158e+01   1.167708091625589e+02    
1.022500000000000e+10    -2.384300828832779e+01   1.191737106787469e+02    
1.022600000000000e+10    -2.380244556605997e+01   1.216062682336401e+02    
1.022700000000000e+10    -2.374645499558019e+01   1.242459373330877e+02    
1.022800000000000e+10    -2.363859376147890e+01   1.260599258032924e+02    
1.022900000000000e+10    -2.343322142822913e+01   1.284707131619303e+02    
1.023000000000000e+10    -2.316308506418171e+01   1.299939222573898e+02    
1.023100000000000e+10    -2.298771532275612e+01   1.316296282730155e+02    
1.023200000000000e+10    -2.264556002069298e+01   1.325497572923418e+02    
1.023300000000000e+10    -2.238363445797212e+01   1.336250006726302e+02    
1.023400000000000e+10    -2.203452224999157e+01   1.337035281684688e+02    
1.023500000000000e+10    -2.177385008562500e+01   1.339133265291233e+02    
1.023600000000000e+10    -2.149209542249524e+01   1.336151002852976e+02    
1.023700000000000e+10    -2.125967466675574e+01   1.330840868731885e+02    
1.023800000000000e+10    -2.097536747176356e+01   1.327556264924393e+02    
1.023900000000000e+10    -2.077075158195264e+01   1.317825949464513e+02    
1.024000000000000e+10    -2.057105350137193e+01   1.305972636991279e+02    
1.024100000000000e+10    -2.037941010369521e+01   1.297863809686589e+02    
1.024200000000000e+10    -2.023404200391573e+01   1.284833504125486e+02    
1.024300000000000e+10    -2.013315850119286e+01   1.272746794956306e+02    
1.024400000000000e+10    -2.001094639552420e+01   1.260170032370372e+02    
1.024500000000000e+10    -1.993306701573548e+01   1.244046560467099e+02    
1.024600000000000e+10    -1.988154306286944e+01   1.230523772937144e+02    
1.024700000000000e+10    -1.983968817244820e+01   1.213614262097002e+02    
1.024800000000000e+10    -1.977768406738472e+01   1.199316226511998e+02    
1.024900000000000e+10    -1.980772897377892e+01   1.183639321533954e+02    
1.025000000000000e+10    -1.986211540372939e+01   1.168980711602107e+02    
1.025100000000000e+10    -1.988905418302998e+01   1.151628437034069e+02    
1.025200000000000e+10    -2.000608408072638e+01   1.137482768672085e+02    
1.025300000000000e+10    -2.013144278263517e+01   1.123346658169735e+02    
1.025400000000000e+10    -2.028240043171664e+01   1.107675957852479e+02    
1.025500000000000e+10    -2.042819080287586e+01   1.093933636146465e+02    
1.025600000000000e+10    -2.063959049407623e+01   1.082147400472491e+02    
