[Version] 2.0
! Rohde & Schwarz Vector Network Analyzer
! Rohde-Schwarz,ZNL20-2Port,1323001220200009,1.71.1.10-23.02.1.238
! 
! Port Assignments:
! Nominal Port -> Actual Test Port
! --------------------------------
!   1 -> 1

! Created: GMT 2024-09-04 11:59:06

# Hz S DB R 50

[Number of Ports] 1
[Number of Frequencies] 2001

[Network Data] 
! freq[Hz]               S11[mag dB]              S11[ang]                 
1.000000000000000e+10    -2.024361500543588e+01   1.500617361498262e+02    
1.000100000000000e+10    -2.003088197499264e+01   1.506517822249466e+02    
1.000200000000000e+10    -1.981036581218575e+01   1.508781413694061e+02    
1.000300000000000e+10    -1.957411559924947e+01   1.507725321688213e+02    
1.000400000000000e+10    -1.934517885575652e+01   1.504440940385808e+02    
1.000500000000000e+10    -1.914228395051587e+01   1.504048539460071e+02    
1.000600000000000e+10    -1.891848602259589e+01   1.493425125483305e+02    
1.000700000000000e+10    -1.874936903731621e+01   1.488572737030744e+02    
1.000800000000000e+10    -1.855086855003294e+01   1.478626982162600e+02    
1.000900000000000e+10    -1.844146792482606e+01   1.469776361828199e+02    
1.001000000000000e+10    -1.830237901239464e+01   1.458491339075878e+02    
1.001100000000000e+10    -1.819389612369148e+01   1.445780796024556e+02    
1.001200000000000e+10    -1.811584442012560e+01   1.433927409657597e+02    
1.001300000000000e+10    -1.804346766409226e+01   1.421340809463590e+02    
1.001400000000000e+10    -1.798899200649884e+01   1.405956938384520e+02    
1.001500000000000e+10    -1.795418065644244e+01   1.394916403958965e+02    
1.001600000000000e+10    -1.797536247639665e+01   1.379760253516859e+02    
1.001700000000000e+10    -1.797012807602252e+01   1.366968546896243e+02    
1.001800000000000e+10    -1.802294137442487e+01   1.352435846282127e+02    
1.001900000000000e+10    -1.805892848963826e+01   1.339962099050298e+02    
1.002000000000000e+10    -1.814042186498508e+01   1.324134401046267e+02    
1.002100000000000e+10    -1.826465030344919e+01   1.312244108972725e+02    
1.002200000000000e+10    -1.838608852327927e+01   1.301054051007677e+02    
1.002300000000000e+10    -1.852976725504013e+01   1.290098447125857e+02    
1.002400000000000e+10    -1.870170109120699e+01   1.281233778224166e+02    
1.002500000000000e+10    -1.887688354181594e+01   1.271239139871940e+02    
1.002600000000000e+10    -1.908649577488937e+01   1.265040970191609e+02    
1.002700000000000e+10    -1.931684836434190e+01   1.259079606952446e+02    
1.002800000000000e+10    -1.957394392849154e+01   1.256274613780614e+02    
1.002900000000000e+10    -1.981320967367305e+01   1.253001061940252e+02    
1.003000000000000e+10    -2.003123862200082e+01   1.254365684531947e+02    
1.003100000000000e+10    -2.031535365804307e+01   1.259764691650910e+02    
1.003200000000000e+10    -2.056827052019749e+01   1.260955769012518e+02    
1.003300000000000e+10    -2.079725650669594e+01   1.270261885827042e+02    
1.003400000000000e+10    -2.102845007078801e+01   1.283131907860990e+02    
1.003500000000000e+10    -2.126498761784510e+01   1.294626651450340e+02    
1.003600000000000e+10    -2.140991488106642e+01   1.310202342085071e+02    
1.003700000000000e+10    -2.153019133464375e+01   1.331200762735931e+02    
1.003800000000000e+10    -2.161832282716495e+01   1.347815005897035e+02    
1.003900000000000e+10    -2.162325881357340e+01   1.371021897123057e+02    
1.004000000000000e+10    -2.163726076822973e+01   1.388636258123908e+02    
1.004100000000000e+10    -2.155384000607705e+01   1.410945414845663e+02    
1.004200000000000e+10    -2.142012494365580e+01   1.424437697476006e+02    
1.004300000000000e+10    -2.119564126918138e+01   1.441661750308963e+02    
1.004400000000000e+10    -2.097458617768816e+01   1.457367595138727e+02    
1.004500000000000e+10    -2.075335672754128e+01   1.464715662206201e+02    
1.004600000000000e+10    -2.049821592156052e+01   1.473132495568670e+02    
1.004700000000000e+10    -2.025525196274220e+01   1.477883999207774e+02    
1.004800000000000e+10    -1.998607001600359e+01   1.481663018329650e+02    
1.004900000000000e+10    -1.970657349228902e+01   1.478779901290017e+02    
1.005000000000000e+10    -1.950946562681244e+01   1.474424562738180e+02    
1.005100000000000e+10    -1.927823701450221e+01   1.470862401162220e+02    
1.005200000000000e+10    -1.905089322633867e+01   1.463796904591292e+02    
1.005300000000000e+10    -1.885680230613327e+01   1.454878235059447e+02    
1.005400000000000e+10    -1.867148026218389e+01   1.445468319812504e+02    
1.005500000000000e+10    -1.850209202810235e+01   1.434414309757434e+02    
1.005600000000000e+10    -1.843541604580987e+01   1.420513686516275e+02    
1.005700000000000e+10    -1.829438374109008e+01   1.409796863189592e+02    
1.005800000000000e+10    -1.823596700692058e+01   1.395127812098579e+02    
1.005900000000000e+10    -1.818115793681675e+01   1.381877989493999e+02    
1.006000000000000e+10    -1.811387465239458e+01   1.366431106423861e+02    
1.006100000000000e+10    -1.810466357482988e+01   1.352117168624393e+02    
1.006200000000000e+10    -1.814842783892273e+01   1.337500530978694e+02    
1.006300000000000e+10    -1.819118049034160e+01   1.322468062264230e+02    
1.006400000000000e+10    -1.825361916614850e+01   1.308061507823664e+02    
1.006500000000000e+10    -1.833496803166780e+01   1.294431517014843e+02    
1.006600000000000e+10    -1.841670324199832e+01   1.278481594497132e+02    
1.006700000000000e+10    -1.853844325900463e+01   1.264063152588413e+02    
1.006800000000000e+10    -1.866415075196722e+01   1.253000697108251e+02    
1.006900000000000e+10    -1.887857998517721e+01   1.240741582896390e+02    
1.007000000000000e+10    -1.909008721484276e+01   1.229566299844140e+02    
1.007100000000000e+10    -1.931473874075864e+01   1.220229057302993e+02    
1.007200000000000e+10    -1.953011829481595e+01   1.213388428385681e+02    
1.007300000000000e+10    -1.983133704747305e+01   1.203705694350519e+02    
1.007400000000000e+10    -2.008371955005312e+01   1.201733564190183e+02    
1.007500000000000e+10    -2.037121883556673e+01   1.198320540716912e+02    
1.007600000000000e+10    -2.066030196244067e+01   1.199747619567257e+02    
1.007700000000000e+10    -2.097774364588599e+01   1.201925370044391e+02    
1.007800000000000e+10    -2.131308895678614e+01   1.207523460544063e+02    
1.007900000000000e+10    -2.160597987140192e+01   1.215509777058570e+02    
1.008000000000000e+10    -2.186665005754616e+01   1.227769801491114e+02    
1.008100000000000e+10    -2.207599979221581e+01   1.248736443868039e+02    
1.008200000000000e+10    -2.226930439328031e+01   1.267479026343266e+02    
1.008300000000000e+10    -2.246566082562055e+01   1.282413524870099e+02    
1.008400000000000e+10    -2.250224441279887e+01   1.309316984400220e+02    
1.008500000000000e+10    -2.251626083735278e+01   1.332486933836585e+02    
1.008600000000000e+10    -2.247257556485852e+01   1.354337186044914e+02    
1.008700000000000e+10    -2.235800593869445e+01   1.376898184435111e+02    
1.008800000000000e+10    -2.215896781078292e+01   1.396360926381296e+02    
1.008900000000000e+10    -2.198707534455187e+01   1.409747754470309e+02    
1.009000000000000e+10    -2.171453200813865e+01   1.424917791132767e+02    
1.009100000000000e+10    -2.141935275258895e+01   1.433761361107289e+02    
1.009200000000000e+10    -2.114899075480328e+01   1.441346934989931e+02    
1.009300000000000e+10    -2.084186916086279e+01   1.444372487143511e+02    
1.009400000000000e+10    -2.054158092678427e+01   1.443096475656710e+02    
1.009500000000000e+10    -2.026419435825776e+01   1.440824116812609e+02    
1.009600000000000e+10    -2.002183291207327e+01   1.436749865937168e+02    
1.009700000000000e+10    -1.976870272507390e+01   1.427892344047994e+02    
1.009800000000000e+10    -1.953743048867821e+01   1.417362710980751e+02    
1.009900000000000e+10    -1.934997927458948e+01   1.409267905697206e+02    
1.010000000000000e+10    -1.917893345680188e+01   1.397890784284558e+02    
1.010100000000000e+10    -1.899321191819448e+01   1.384515946298994e+02    
1.010200000000000e+10    -1.886225529705136e+01   1.369536357060695e+02    
1.010300000000000e+10    -1.874925116796573e+01   1.356719779416469e+02    
1.010400000000000e+10    -1.867163354801426e+01   1.342199419623165e+02    
1.010500000000000e+10    -1.856858927206661e+01   1.326317267531473e+02    
1.010600000000000e+10    -1.856495616435343e+01   1.308776793911738e+02    
1.010700000000000e+10    -1.853095797501472e+01   1.295216657365308e+02    
1.010800000000000e+10    -1.853943046067983e+01   1.276654120956403e+02    
1.010900000000000e+10    -1.857953595510597e+01   1.263159989988005e+02    
1.011000000000000e+10    -1.866091892217082e+01   1.248597678168858e+02    
1.011100000000000e+10    -1.874042672475771e+01   1.233900613738372e+02    
1.011200000000000e+10    -1.882121792530529e+01   1.220146291443391e+02    
1.011300000000000e+10    -1.897725848606505e+01   1.206899392892367e+02    
1.011400000000000e+10    -1.911062396252808e+01   1.192108179381319e+02    
1.011500000000000e+10    -1.928145382153016e+01   1.181607188581925e+02    
1.011600000000000e+10    -1.949004226616887e+01   1.168806655605428e+02    
1.011700000000000e+10    -1.969186115545343e+01   1.160136837688564e+02    
1.011800000000000e+10    -1.997435756834759e+01   1.153632959586148e+02    
1.011900000000000e+10    -2.023914851977765e+01   1.149108693568817e+02    
1.012000000000000e+10    -2.051951313198352e+01   1.145441417062990e+02    
1.012100000000000e+10    -2.080035443399062e+01   1.145700469666655e+02    
1.012200000000000e+10    -2.117271153948482e+01   1.147958079903973e+02    
1.012300000000000e+10    -2.144055776570026e+01   1.153020966855833e+02    
1.012400000000000e+10    -2.170453357197669e+01   1.161625220655872e+02    
1.012500000000000e+10    -2.201640374938032e+01   1.172921764250077e+02    
1.012600000000000e+10    -2.226677635885945e+01   1.187316336309387e+02    
1.012700000000000e+10    -2.247209244406744e+01   1.208400731236581e+02    
1.012800000000000e+10    -2.267504368932923e+01   1.228652736809647e+02    
1.012900000000000e+10    -2.276222339650952e+01   1.252787401835431e+02    
1.013000000000000e+10    -2.282261256791471e+01   1.276571475987218e+02    
1.013100000000000e+10    -2.277019288092506e+01   1.300630605509371e+02    
1.013200000000000e+10    -2.265900609736015e+01   1.326018693651467e+02    
1.013300000000000e+10    -2.246684802883762e+01   1.346248995628051e+02    
1.013400000000000e+10    -2.230742899748509e+01   1.368399991764437e+02    
1.013500000000000e+10    -2.204344764580291e+01   1.383427537975532e+02    
1.013600000000000e+10    -2.178740346779749e+01   1.393628241404626e+02    
1.013700000000000e+10    -2.149275613100700e+01   1.403539883770415e+02    
1.013800000000000e+10    -2.120391218491732e+01   1.408185339978778e+02    
1.013900000000000e+10    -2.090819086798278e+01   1.411130149052555e+02    
1.014000000000000e+10    -2.063157918531983e+01   1.409291091985349e+02    
1.014100000000000e+10    -2.033939424170888e+01   1.405771266502365e+02    
1.014200000000000e+10    -2.010466449609812e+01   1.402364241999940e+02    
1.014300000000000e+10    -1.988799821414786e+01   1.393961422033973e+02    
1.014400000000000e+10    -1.965789718005239e+01   1.384389848553302e+02    
1.014500000000000e+10    -1.946080971958791e+01   1.373890016885970e+02    
1.014600000000000e+10    -1.931097016111933e+01   1.362185743763673e+02    
1.014700000000000e+10    -1.920663285535800e+01   1.349647965541518e+02    
1.014800000000000e+10    -1.903383983412974e+01   1.334449110017572e+02    
1.014900000000000e+10    -1.897561329016590e+01   1.321274464232406e+02    
1.015000000000000e+10    -1.890298895381697e+01   1.305102629991385e+02    
1.015100000000000e+10    -1.887569411568577e+01   1.291503519460987e+02    
1.015200000000000e+10    -1.888355367105511e+01   1.273827040137972e+02    
1.015300000000000e+10    -1.885467048231140e+01   1.260502883488359e+02    
1.015400000000000e+10    -1.892703674866654e+01   1.243358173983104e+02    
1.015500000000000e+10    -1.894228982194620e+01   1.227206751611536e+02    
1.015600000000000e+10    -1.904220845398337e+01   1.214050465349454e+02    
1.015700000000000e+10    -1.914561225499630e+01   1.197561537786364e+02    
1.015800000000000e+10    -1.927186487259064e+01   1.185493435619405e+02    
1.015900000000000e+10    -1.946005572252786e+01   1.169482800743403e+02    
1.016000000000000e+10    -1.966220191244402e+01   1.159029189047170e+02    
1.016100000000000e+10    -1.986484783081979e+01   1.146254029907510e+02    
1.016200000000000e+10    -2.009812224444600e+01   1.134709034702792e+02    
1.016300000000000e+10    -2.034523106571415e+01   1.126376947843893e+02    
1.016400000000000e+10    -2.060159774743889e+01   1.118459923925431e+02    
1.016500000000000e+10    -2.092124819902977e+01   1.114814115624045e+02    
1.016600000000000e+10    -2.120032401923265e+01   1.111886941405532e+02    
1.016700000000000e+10    -2.157174854210535e+01   1.110870660320884e+02    
1.016800000000000e+10    -2.187268437510728e+01   1.114870075107376e+02    
1.016900000000000e+10    -2.219690663901582e+01   1.120487692422274e+02    
1.017000000000000e+10    -2.247030235359519e+01   1.132463057145578e+02    
1.017100000000000e+10    -2.280569816726201e+01   1.144971215343424e+02    
1.017200000000000e+10    -2.306890266324859e+01   1.161052991178100e+02    
1.017300000000000e+10    -2.324122052336291e+01   1.180758287765438e+02    
1.017400000000000e+10    -2.342726918533759e+01   1.202988222771370e+02    
1.017500000000000e+10    -2.349058303165490e+01   1.227165024890131e+02    
1.017600000000000e+10    -2.357304973626693e+01   1.252229748534510e+02    
1.017700000000000e+10    -2.345643969984250e+01   1.273885034162017e+02    
1.017800000000000e+10    -2.337759014088346e+01   1.298417809322173e+02    
1.017900000000000e+10    -2.317705039729249e+01   1.318699347591738e+02    
1.018000000000000e+10    -2.299200036446200e+01   1.334054916589432e+02    
1.018100000000000e+10    -2.271955093257486e+01   1.348080684699725e+02    
1.018200000000000e+10    -2.243249896214276e+01   1.358294490486059e+02    
1.018300000000000e+10    -2.216822178124528e+01   1.365501924789814e+02    
1.018400000000000e+10    -2.183853563571670e+01   1.368570719417955e+02    
1.018500000000000e+10    -2.150723451736552e+01   1.367096334256728e+02    
1.018600000000000e+10    -2.121076293505961e+01   1.367618839365595e+02    
1.018700000000000e+10    -2.094289200993959e+01   1.360205727934780e+02    
1.018800000000000e+10    -2.067360566638574e+01   1.353345839606378e+02    
1.018900000000000e+10    -2.048015889211627e+01   1.345411332410060e+02    
1.019000000000000e+10    -2.025697956049377e+01   1.335543885597505e+02    
1.019100000000000e+10    -2.008491129258397e+01   1.323282580630167e+02    
1.019200000000000e+10    -1.991960646427868e+01   1.310407247519141e+02    
1.019300000000000e+10    -1.972015146395616e+01   1.296228542084152e+02    
1.019400000000000e+10    -1.962649891566331e+01   1.280572963320590e+02    
1.019500000000000e+10    -1.954462666831751e+01   1.266992040920468e+02    
1.019600000000000e+10    -1.948666880436458e+01   1.252710855227386e+02    
1.019700000000000e+10    -1.943254177036121e+01   1.235538638344764e+02    
1.019800000000000e+10    -1.941161896530731e+01   1.219913195359850e+02    
1.019900000000000e+10    -1.942480818683742e+01   1.203758060300275e+02    
1.020000000000000e+10    -1.945507587393199e+01   1.190224714256887e+02    
1.020100000000000e+10    -1.949233393231502e+01   1.173678853807714e+02    
1.020200000000000e+10    -1.958393199908902e+01   1.156857205281231e+02    
1.020300000000000e+10    -1.967664144343259e+01   1.141146151779649e+02    
1.020400000000000e+10    -1.980119043246112e+01   1.129834786268860e+02    
1.020500000000000e+10    -1.990678662454972e+01   1.116241172661795e+02    
1.020600000000000e+10    -2.010300261259246e+01   1.104513134779371e+02    
1.020700000000000e+10    -2.028171962227184e+01   1.092868175209542e+02    
1.020800000000000e+10    -2.047808337226932e+01   1.083642626421470e+02    
1.020900000000000e+10    -2.074366829230879e+01   1.075552795654936e+02    
1.021000000000000e+10    -2.101493120710596e+01   1.070823892651213e+02    
1.021100000000000e+10    -2.123455439995825e+01   1.064142724455874e+02    
1.021200000000000e+10    -2.153831491821111e+01   1.063785356788070e+02    
1.021300000000000e+10    -2.187452596881695e+01   1.068463368014070e+02    
1.021400000000000e+10    -2.217467489721308e+01   1.070316668791974e+02    
1.021500000000000e+10    -2.250426588310369e+01   1.077654199172630e+02    
1.021600000000000e+10    -2.275741603375674e+01   1.090371422959644e+02    
1.021700000000000e+10    -2.302526821706649e+01   1.104482756760001e+02    
1.021800000000000e+10    -2.321752597482385e+01   1.120064933250765e+02    
1.021900000000000e+10    -2.345281603728671e+01   1.139336196238687e+02    
1.022000000000000e+10    -2.354238058689048e+01   1.159183999024017e+02    
1.022100000000000e+10    -2.362004886099303e+01   1.185353639915983e+02    
1.022200000000000e+10    -2.362639783077940e+01   1.208388290326774e+02    
1.022300000000000e+10    -2.354923453616825e+01   1.231967469066595e+02    
1.022400000000000e+10    -2.342300372500995e+01   1.254813903432598e+02    
1.022500000000000e+10    -2.320839984433453e+01   1.273132955292631e+02    
1.022600000000000e+10    -2.301475864106370e+01   1.290746061381266e+02    
1.022700000000000e+10    -2.278630723139246e+01   1.305919887246379e+02    
1.022800000000000e+10    -2.252330740925232e+01   1.312321168479968e+02    
1.022900000000000e+10    -2.226224443497953e+01   1.320708794581575e+02    
1.023000000000000e+10    -2.195057401925052e+01   1.324726644479893e+02    
1.023100000000000e+10    -2.171769492921894e+01   1.327847049032155e+02    
1.023200000000000e+10    -2.142003503378174e+01   1.326034802432707e+02    
1.023300000000000e+10    -2.117705743636882e+01   1.323742444223241e+02    
1.023400000000000e+10    -2.093240704832942e+01   1.315539055647731e+02    
1.023500000000000e+10    -2.071082500262572e+01   1.309292846876539e+02    
1.023600000000000e+10    -2.051998794668493e+01   1.300855849813019e+02    
1.023700000000000e+10    -2.035617134604712e+01   1.289219999408002e+02    
1.023800000000000e+10    -2.019498984526732e+01   1.279095681093308e+02    
1.023900000000000e+10    -2.008317386195483e+01   1.265847141009910e+02    
1.024000000000000e+10    -1.996352975642153e+01   1.251812252591392e+02    
1.024100000000000e+10    -1.988757543383493e+01   1.240061020040465e+02    
1.024200000000000e+10    -1.984134109106764e+01   1.226693124682717e+02    
1.024300000000000e+10    -1.982490798548639e+01   1.210777786560709e+02    
1.024400000000000e+10    -1.982250667217625e+01   1.197373678628725e+02    
1.024500000000000e+10    -1.982914112113248e+01   1.180330020349024e+02    
1.024600000000000e+10    -1.987008804293436e+01   1.167857607895345e+02    
1.024700000000000e+10    -1.992783213952352e+01   1.151519608341721e+02    
1.024800000000000e+10    -1.998739755654998e+01   1.138876701790521e+02    
1.024900000000000e+10    -2.013931033573501e+01   1.125223819411312e+02    
1.025000000000000e+10    -2.027927342972533e+01   1.111235370449064e+02    
1.025100000000000e+10    -2.044066549598328e+01   1.097286939171032e+02    
1.025200000000000e+10    -2.058510128639404e+01   1.087839849821808e+02    
1.025300000000000e+10    -2.085394621531414e+01   1.078202127932373e+02    
1.025400000000000e+10    -2.107319490565052e+01   1.067296535313995e+02    
1.025500000000000e+10    -2.130374540452129e+01   1.059540230597105e+02    
1.025600000000000e+10    -2.157042649320498e+01   1.054898718715781e+02    
