[Version] 2.0
! Rohde & Schwarz Vector Network Analyzer
! Rohde-Schwarz,ZNL20-2Port,1323001220200009,1.71.1.10-23.02.1.238
! 
! Port Assignments:
! Nominal Port -> Actual Test Port
! --------------------------------
!   1 -> 1

! Created: GMT 2024-09-04 11:59:38

# Hz S DB R 50

[Number of Ports] 1
[Number of Frequencies] 2001

[Network Data] 
! freq[Hz]               S11[mag dB]              S11[ang]                 
1.000000000000000e+10    -2.051352277016409e+01   1.497915764049659e+02    
1.000100000000000e+10    -2.028168500079324e+01   1.504812188538330e+02    
1.000200000000000e+10    -2.002854508594524e+01   1.508006005837436e+02    
1.000300000000000e+10    -1.981787192510342e+01   1.510406612400473e+02    
1.000400000000000e+10    -1.954267546649434e+01   1.509574748563828e+02    
1.000500000000000e+10    -1.933717769562111e+01   1.507806487013906e+02    
1.000600000000000e+10    -1.909888945415410e+01   1.501889557867205e+02    
1.000700000000000e+10    -1.889543194917492e+01   1.498767060060358e+02    
1.000800000000000e+10    -1.868780269438859e+01   1.487890441237776e+02    
1.000900000000000e+10    -1.857181341792210e+01   1.480922879192312e+02    
1.001000000000000e+10    -1.838819860781789e+01   1.470143635935347e+02    
1.001100000000000e+10    -1.825144665887564e+01   1.458310983982077e+02    
1.001200000000000e+10    -1.815715495822683e+01   1.445768489382377e+02    
1.001300000000000e+10    -1.807526309640147e+01   1.434064158003959e+02    
1.001400000000000e+10    -1.800814915071439e+01   1.418749045821661e+02    
1.001500000000000e+10    -1.794447232767242e+01   1.406257155809172e+02    
1.001600000000000e+10    -1.793569924217647e+01   1.392099180194876e+02    
1.001700000000000e+10    -1.791563984264713e+01   1.377127276950302e+02    
1.001800000000000e+10    -1.792856879941293e+01   1.364696770342777e+02    
1.001900000000000e+10    -1.798524161178601e+01   1.349820766833713e+02    
1.002000000000000e+10    -1.805739708633586e+01   1.335767093803676e+02    
1.002100000000000e+10    -1.814977215298099e+01   1.320270792196631e+02    
1.002200000000000e+10    -1.826420228331763e+01   1.309168069768753e+02    
1.002300000000000e+10    -1.836935996144539e+01   1.297175982404293e+02    
1.002400000000000e+10    -1.852482621761733e+01   1.288843462707655e+02    
1.002500000000000e+10    -1.871206944768437e+01   1.277652889020893e+02    
1.002600000000000e+10    -1.887864228474323e+01   1.267746151662875e+02    
1.002700000000000e+10    -1.912073299160458e+01   1.259413342188276e+02    
1.002800000000000e+10    -1.935185172782863e+01   1.256883910312176e+02    
1.002900000000000e+10    -1.959019557785015e+01   1.250175115534211e+02    
1.003000000000000e+10    -1.983411309778981e+01   1.249755296580293e+02    
1.003100000000000e+10    -2.009259217876455e+01   1.253569913945581e+02    
1.003200000000000e+10    -2.036989939464692e+01   1.252842527219192e+02    
1.003300000000000e+10    -2.060858530913377e+01   1.258227407093270e+02    
1.003400000000000e+10    -2.088275675295140e+01   1.269432878695921e+02    
1.003500000000000e+10    -2.109198452335465e+01   1.280657631230543e+02    
1.003600000000000e+10    -2.131099148779978e+01   1.294269974368813e+02    
1.003700000000000e+10    -2.148083766730145e+01   1.313030378710014e+02    
1.003800000000000e+10    -2.161409785650622e+01   1.330366513799037e+02    
1.003900000000000e+10    -2.167689972027592e+01   1.354238509546701e+02    
1.004000000000000e+10    -2.169375116093388e+01   1.369219855844482e+02    
1.004100000000000e+10    -2.168183305204863e+01   1.394810113733277e+02    
1.004200000000000e+10    -2.159197885011162e+01   1.410927312588892e+02    
1.004300000000000e+10    -2.142280935708309e+01   1.432633463994695e+02    
1.004400000000000e+10    -2.122363678360224e+01   1.448148539520348e+02    
1.004500000000000e+10    -2.098726632524959e+01   1.459006685024607e+02    
1.004600000000000e+10    -2.079593879572367e+01   1.468999256437316e+02    
1.004700000000000e+10    -2.049691191682593e+01   1.477737966211919e+02    
1.004800000000000e+10    -2.020410116792991e+01   1.481348885336349e+02    
1.004900000000000e+10    -1.995609725223818e+01   1.482928846274846e+02    
1.005000000000000e+10    -1.966541579136800e+01   1.482632407422474e+02    
1.005100000000000e+10    -1.943794551637816e+01   1.477294144061928e+02    
1.005200000000000e+10    -1.921993273847003e+01   1.471667506029930e+02    
1.005300000000000e+10    -1.901119268223974e+01   1.466713395697830e+02    
1.005400000000000e+10    -1.880286558075102e+01   1.456494302232749e+02    
1.005500000000000e+10    -1.861673325412379e+01   1.446946550387215e+02    
1.005600000000000e+10    -1.849065473787942e+01   1.434106714126472e+02    
1.005700000000000e+10    -1.833194221623367e+01   1.421617153951740e+02    
1.005800000000000e+10    -1.829164015801875e+01   1.407376882073809e+02    
1.005900000000000e+10    -1.817802640094264e+01   1.395575810373953e+02    
1.006000000000000e+10    -1.811238302487317e+01   1.379619030441458e+02    
1.006100000000000e+10    -1.809265627578927e+01   1.362877917516709e+02    
1.006200000000000e+10    -1.809460366666999e+01   1.349473396609556e+02    
1.006300000000000e+10    -1.810709416103274e+01   1.332909139581861e+02    
1.006400000000000e+10    -1.814539228790456e+01   1.318260687532923e+02    
1.006500000000000e+10    -1.820609176057232e+01   1.302947743130582e+02    
1.006600000000000e+10    -1.830400147567015e+01   1.289349295434059e+02    
1.006700000000000e+10    -1.840869735925838e+01   1.274149975796320e+02    
1.006800000000000e+10    -1.850626042289788e+01   1.261387048596315e+02    
1.006900000000000e+10    -1.870068424584097e+01   1.248112161538280e+02    
1.007000000000000e+10    -1.888804822997118e+01   1.238223140535923e+02    
1.007100000000000e+10    -1.911646940962428e+01   1.225086830632246e+02    
1.007200000000000e+10    -1.931837428628902e+01   1.216995472560196e+02    
1.007300000000000e+10    -1.955209624645888e+01   1.209069502773286e+02    
1.007400000000000e+10    -1.982778579364136e+01   1.201000936968574e+02    
1.007500000000000e+10    -2.013167604256319e+01   1.195038265452286e+02    
1.007600000000000e+10    -2.041238093739059e+01   1.195692490767058e+02    
1.007700000000000e+10    -2.071506370207019e+01   1.195247734967250e+02    
1.007800000000000e+10    -2.106693330878955e+01   1.198367967687100e+02    
1.007900000000000e+10    -2.139195600800862e+01   1.203657434960813e+02    
1.008000000000000e+10    -2.168828673991945e+01   1.213042435442962e+02    
1.008100000000000e+10    -2.189060111024198e+01   1.230047827201563e+02    
1.008200000000000e+10    -2.215557143113248e+01   1.245262116947238e+02    
1.008300000000000e+10    -2.239601990862716e+01   1.262605103470243e+02    
1.008400000000000e+10    -2.250070290514211e+01   1.287246305399410e+02    
1.008500000000000e+10    -2.262831325179619e+01   1.313324055552261e+02    
1.008600000000000e+10    -2.262599994584114e+01   1.333198021116213e+02    
1.008700000000000e+10    -2.254910086612670e+01   1.355997680024945e+02    
1.008800000000000e+10    -2.239869163050929e+01   1.379504789236511e+02    
1.008900000000000e+10    -2.223183060961798e+01   1.397386796369794e+02    
1.009000000000000e+10    -2.199618386756135e+01   1.414712915749046e+02    
1.009100000000000e+10    -2.171216737233342e+01   1.428855713709636e+02    
1.009200000000000e+10    -2.144440933883558e+01   1.435371847346705e+02    
1.009300000000000e+10    -2.115549353001916e+01   1.441142191281406e+02    
1.009400000000000e+10    -2.082050428717709e+01   1.447191616816678e+02    
1.009500000000000e+10    -2.052604068783289e+01   1.445988861132718e+02    
1.009600000000000e+10    -2.026208192759174e+01   1.442095978571410e+02    
1.009700000000000e+10    -1.997509830128454e+01   1.437376188299435e+02    
1.009800000000000e+10    -1.973579589598894e+01   1.428372736877889e+02    
1.009900000000000e+10    -1.949997412874455e+01   1.419432172143016e+02    
1.010000000000000e+10    -1.927721107303233e+01   1.411217435306175e+02    
1.010100000000000e+10    -1.910070802232196e+01   1.397042870637331e+02    
1.010200000000000e+10    -1.894513134431461e+01   1.384085359468111e+02    
1.010300000000000e+10    -1.883192932264827e+01   1.371292450942881e+02    
1.010400000000000e+10    -1.871571796128390e+01   1.355456673781094e+02    
1.010500000000000e+10    -1.860513683251158e+01   1.339538055888915e+02    
1.010600000000000e+10    -1.858827775129853e+01   1.322393008270876e+02    
1.010700000000000e+10    -1.850978835355893e+01   1.308501928891743e+02    
1.010800000000000e+10    -1.849553983264031e+01   1.291443175943300e+02    
1.010900000000000e+10    -1.851068910779614e+01   1.277903094149058e+02    
1.011000000000000e+10    -1.857928235110312e+01   1.260510138132173e+02    
1.011100000000000e+10    -1.864343060066823e+01   1.247283703670822e+02    
1.011200000000000e+10    -1.869512262889789e+01   1.230473583481332e+02    
1.011300000000000e+10    -1.881286834914237e+01   1.218442915752885e+02    
1.011400000000000e+10    -1.899304013979743e+01   1.201106887462539e+02    
1.011500000000000e+10    -1.913945922127332e+01   1.190667642455099e+02    
1.011600000000000e+10    -1.928670785856619e+01   1.176952981095159e+02    
1.011700000000000e+10    -1.949824700532952e+01   1.166146467116860e+02    
1.011800000000000e+10    -1.973857051955417e+01   1.156622778046346e+02    
1.011900000000000e+10    -1.996733811030586e+01   1.149765804969728e+02    
1.012000000000000e+10    -2.026887214383705e+01   1.145868163013969e+02    
1.012100000000000e+10    -2.056669022999758e+01   1.142724188698051e+02    
1.012200000000000e+10    -2.088332191044434e+01   1.139944680341718e+02    
1.012300000000000e+10    -2.116697174642745e+01   1.144092836811234e+02    
1.012400000000000e+10    -2.146395849958979e+01   1.148624084081831e+02    
1.012500000000000e+10    -2.180605728299027e+01   1.157079747288492e+02    
1.012600000000000e+10    -2.207079881492914e+01   1.169949348195092e+02    
1.012700000000000e+10    -2.235462420008094e+01   1.186695989355898e+02    
1.012800000000000e+10    -2.255983908309076e+01   1.207319568094976e+02    
1.012900000000000e+10    -2.274372330891002e+01   1.232168014295924e+02    
1.013000000000000e+10    -2.285382400871538e+01   1.253195327486527e+02    
1.013100000000000e+10    -2.289026322140773e+01   1.275080654364442e+02    
1.013200000000000e+10    -2.282635928408099e+01   1.305155095999325e+02    
1.013300000000000e+10    -2.269793033182309e+01   1.330891227658299e+02    
1.013400000000000e+10    -2.258843017275785e+01   1.352932572585569e+02    
1.013500000000000e+10    -2.229860628076862e+01   1.371477288780832e+02    
1.013600000000000e+10    -2.212198620898521e+01   1.385536621596294e+02    
1.013700000000000e+10    -2.181717115692991e+01   1.398311246258583e+02    
1.013800000000000e+10    -2.151938670188841e+01   1.407741257709637e+02    
1.013900000000000e+10    -2.119569418150546e+01   1.412516530024938e+02    
1.014000000000000e+10    -2.089544526246989e+01   1.413577588503212e+02    
1.014100000000000e+10    -2.058811045708632e+01   1.413682935897861e+02    
1.014200000000000e+10    -2.036455729000838e+01   1.409942828333902e+02    
1.014300000000000e+10    -2.008110640528883e+01   1.403197237749406e+02    
1.014400000000000e+10    -1.986963964180155e+01   1.396450449365457e+02    
1.014500000000000e+10    -1.961049919666318e+01   1.386689496273177e+02    
1.014600000000000e+10    -1.945439012724692e+01   1.375324369840084e+02    
1.014700000000000e+10    -1.931575729137426e+01   1.363151140879413e+02    
1.014800000000000e+10    -1.911312385466305e+01   1.348567773204366e+02    
1.014900000000000e+10    -1.903106173935080e+01   1.336545719915765e+02    
1.015000000000000e+10    -1.893524097445430e+01   1.321792157462443e+02    
1.015100000000000e+10    -1.888616072744804e+01   1.306866722845193e+02    
1.015200000000000e+10    -1.884673580742513e+01   1.291284416476198e+02    
1.015300000000000e+10    -1.882472890391049e+01   1.274711582994763e+02    
1.015400000000000e+10    -1.887836340290329e+01   1.258499605230114e+02    
1.015500000000000e+10    -1.886056588140476e+01   1.241841285659195e+02    
1.015600000000000e+10    -1.894004633361302e+01   1.225858468781180e+02    
1.015700000000000e+10    -1.903544873427512e+01   1.209980844907164e+02    
1.015800000000000e+10    -1.916283107852311e+01   1.196011761878847e+02    
1.015900000000000e+10    -1.928744555535808e+01   1.181213056714253e+02    
1.016000000000000e+10    -1.946688272486614e+01   1.167953896441723e+02    
1.016100000000000e+10    -1.966867399290330e+01   1.154217070385139e+02    
1.016200000000000e+10    -1.988405337645827e+01   1.144165494466500e+02    
1.016300000000000e+10    -2.010686525766466e+01   1.130671828048583e+02    
1.016400000000000e+10    -2.030284924254440e+01   1.124279095053107e+02    
1.016500000000000e+10    -2.063026441885985e+01   1.114169864719013e+02    
1.016600000000000e+10    -2.087183721646844e+01   1.109505553524020e+02    
1.016700000000000e+10    -2.123122173120294e+01   1.107551395917502e+02    
1.016800000000000e+10    -2.157858210830790e+01   1.108355117391772e+02    
1.016900000000000e+10    -2.189617949869490e+01   1.107995530926248e+02    
1.017000000000000e+10    -2.221701927009472e+01   1.117308158985016e+02    
1.017100000000000e+10    -2.255323053567486e+01   1.129113260600287e+02    
1.017200000000000e+10    -2.284261658182609e+01   1.139934607326100e+02    
1.017300000000000e+10    -2.314554493395372e+01   1.156418217667403e+02    
1.017400000000000e+10    -2.334872560464552e+01   1.178114658636108e+02    
1.017500000000000e+10    -2.349017331106200e+01   1.201180451342156e+02    
1.017600000000000e+10    -2.365707734982663e+01   1.223335455818683e+02    
1.017700000000000e+10    -2.362263924365105e+01   1.249418589207640e+02    
1.017800000000000e+10    -2.357495408288770e+01   1.274729845559732e+02    
1.017900000000000e+10    -2.347600068843663e+01   1.299631341993312e+02    
1.018000000000000e+10    -2.329461817660254e+01   1.317404830538344e+02    
1.018100000000000e+10    -2.303518786036308e+01   1.337393928475313e+02    
1.018200000000000e+10    -2.275999300504121e+01   1.348603478986601e+02    
1.018300000000000e+10    -2.251027071850600e+01   1.361029939182648e+02    
1.018400000000000e+10    -2.217313085631692e+01   1.367620195122698e+02    
1.018500000000000e+10    -2.187278416975200e+01   1.368319127343156e+02    
1.018600000000000e+10    -2.152133458974145e+01   1.372359572390550e+02    
1.018700000000000e+10    -2.127123079551643e+01   1.368065743701346e+02    
1.018800000000000e+10    -2.096562153919965e+01   1.363421395065388e+02    
1.018900000000000e+10    -2.069441131722893e+01   1.358406177672544e+02    
1.019000000000000e+10    -2.049317643761516e+01   1.347248623552161e+02    
1.019100000000000e+10    -2.026306407522814e+01   1.336634509154850e+02    
1.019200000000000e+10    -2.006458537783022e+01   1.325396036927251e+02    
1.019300000000000e+10    -1.987396054038668e+01   1.312002251347157e+02    
1.019400000000000e+10    -1.975602679477308e+01   1.298460053389762e+02    
1.019500000000000e+10    -1.959535220871469e+01   1.282986098431564e+02    
1.019600000000000e+10    -1.954580205544682e+01   1.270753953202466e+02    
1.019700000000000e+10    -1.944627602857615e+01   1.253317607663124e+02    
1.019800000000000e+10    -1.937794586505265e+01   1.236560856729640e+02    
1.019900000000000e+10    -1.936747296543093e+01   1.220117170546394e+02    
1.020000000000000e+10    -1.937408323003718e+01   1.205348593486198e+02    
1.020100000000000e+10    -1.939911970336971e+01   1.188657282618757e+02    
1.020200000000000e+10    -1.944562925326920e+01   1.172114793679133e+02    
1.020300000000000e+10    -1.952853853660232e+01   1.156940326162426e+02    
1.020400000000000e+10    -1.962377104017563e+01   1.143958778862590e+02    
1.020500000000000e+10    -1.973820960890138e+01   1.129429383898678e+02    
1.020600000000000e+10    -1.989608881385689e+01   1.115261346344253e+02    
1.020700000000000e+10    -2.004805287200093e+01   1.102971720621650e+02    
1.020800000000000e+10    -2.023018493928664e+01   1.089290424371905e+02    
1.020900000000000e+10    -2.047599543291888e+01   1.079713430562550e+02    
1.021000000000000e+10    -2.070261341917393e+01   1.073676069277606e+02    
1.021100000000000e+10    -2.093528824915065e+01   1.064495177319252e+02    
1.021200000000000e+10    -2.124243212004838e+01   1.061344251917748e+02    
1.021300000000000e+10    -2.151658229162417e+01   1.059725797138513e+02    
1.021400000000000e+10    -2.185661979841937e+01   1.058034089567187e+02    
1.021500000000000e+10    -2.216526230410661e+01   1.065363809697274e+02    
1.021600000000000e+10    -2.244671654510798e+01   1.073393845759937e+02    
1.021700000000000e+10    -2.273086016800529e+01   1.081813570334972e+02    
1.021800000000000e+10    -2.299204691180211e+01   1.096504112688692e+02    
1.021900000000000e+10    -2.329829300915110e+01   1.110655465333698e+02    
1.022000000000000e+10    -2.346870038003631e+01   1.130619183282034e+02    
1.022100000000000e+10    -2.363665688010710e+01   1.156197102886434e+02    
1.022200000000000e+10    -2.370949517959634e+01   1.180118059866571e+02    
1.022300000000000e+10    -2.374489323915584e+01   1.207038962802200e+02    
1.022400000000000e+10    -2.366630317526628e+01   1.231071977031498e+02    
1.022500000000000e+10    -2.357262178658712e+01   1.252757791710043e+02    
1.022600000000000e+10    -2.335239874160247e+01   1.271907472301968e+02    
1.022700000000000e+10    -2.315166827504537e+01   1.292639685087169e+02    
1.022800000000000e+10    -2.288698048913706e+01   1.303316872130581e+02    
1.022900000000000e+10    -2.264850095880043e+01   1.318236749392523e+02    
1.023000000000000e+10    -2.233092461317625e+01   1.325442149767303e+02    
1.023100000000000e+10    -2.205939525562570e+01   1.330549328057933e+02    
1.023200000000000e+10    -2.174740756686338e+01   1.331113231661765e+02    
1.023300000000000e+10    -2.147111490630621e+01   1.333040989782698e+02    
1.023400000000000e+10    -2.119870320524002e+01   1.327288785932866e+02    
1.023500000000000e+10    -2.095874825072421e+01   1.325476014970049e+02    
1.023600000000000e+10    -2.073226669888093e+01   1.315723327938796e+02    
1.023700000000000e+10    -2.052481695935172e+01   1.304864777482731e+02    
1.023800000000000e+10    -2.033543339855070e+01   1.295367683101495e+02    
1.023900000000000e+10    -2.020482613425935e+01   1.281004846150193e+02    
1.024000000000000e+10    -2.003875202325897e+01   1.269905733542479e+02    
1.024100000000000e+10    -1.992580791222434e+01   1.258405360013198e+02    
1.024200000000000e+10    -1.985611557325239e+01   1.243163331828024e+02    
1.024300000000000e+10    -1.983790020589278e+01   1.229203850284173e+02    
1.024400000000000e+10    -1.978362586646534e+01   1.213547579439844e+02    
1.024500000000000e+10    -1.974471661997315e+01   1.198215185449314e+02    
1.024600000000000e+10    -1.978305403427431e+01   1.185259955216566e+02    
1.024700000000000e+10    -1.982055159991120e+01   1.167367743950482e+02    
1.024800000000000e+10    -1.983797789513222e+01   1.154076275569376e+02    
1.024900000000000e+10    -1.996308118237746e+01   1.140551420973092e+02    
1.025000000000000e+10    -2.005483906064867e+01   1.125054106934690e+02    
1.025100000000000e+10    -2.019318105309844e+01   1.107988535010565e+02    
1.025200000000000e+10    -2.033703854999715e+01   1.098854189459679e+02    
1.025300000000000e+10    -2.055538270909091e+01   1.085322181245163e+02    
1.025400000000000e+10    -2.078008998500337e+01   1.075679410240701e+02    
1.025500000000000e+10    -2.096277616405970e+01   1.063577795147449e+02    
1.025600000000000e+10    -2.121299603812672e+01   1.054515300459920e+02    
