[Version] 2.0
! Rohde & Schwarz Vector Network Analyzer
! Rohde-Schwarz,ZNL20-2Port,1323001220200009,1.71.1.10-23.02.1.238
! 
! Port Assignments:
! Nominal Port -> Actual Test Port
! --------------------------------
!   1 -> 1

! Created: GMT 2024-09-04 11:59:56

# Hz S DB R 50

[Number of Ports] 1
[Number of Frequencies] 2001

[Network Data] 
! freq[Hz]               S11[mag dB]              S11[ang]                 
1.000000000000000e+10    -2.062109679072346e+01   1.496239940929128e+02    
1.000100000000000e+10    -2.042788575219727e+01   1.504592299934327e+02    
1.000200000000000e+10    -2.016907776650486e+01   1.508669991087408e+02    
1.000300000000000e+10    -1.993223719767785e+01   1.513685676140233e+02    
1.000400000000000e+10    -1.967266329322370e+01   1.513820228149198e+02    
1.000500000000000e+10    -1.943563185342594e+01   1.512884136825337e+02    
1.000600000000000e+10    -1.920458835105978e+01   1.507814389312851e+02    
1.000700000000000e+10    -1.899900541973481e+01   1.502371244868038e+02    
1.000800000000000e+10    -1.878981143355902e+01   1.494082211529885e+02    
1.000900000000000e+10    -1.865023593730357e+01   1.486122453231285e+02    
1.001000000000000e+10    -1.844813343181711e+01   1.476968294420759e+02    
1.001100000000000e+10    -1.832698428406369e+01   1.465975892122924e+02    
1.001200000000000e+10    -1.820821300041715e+01   1.453256162432732e+02    
1.001300000000000e+10    -1.810369099762014e+01   1.441541462020012e+02    
1.001400000000000e+10    -1.803437350381547e+01   1.425191357112359e+02    
1.001500000000000e+10    -1.796199627119208e+01   1.414291276274277e+02    
1.001600000000000e+10    -1.794806987743031e+01   1.399049914046183e+02    
1.001700000000000e+10    -1.793074169330484e+01   1.384193431810700e+02    
1.001800000000000e+10    -1.793470048236203e+01   1.370936379985325e+02    
1.001900000000000e+10    -1.796601777174428e+01   1.354439969042888e+02    
1.002000000000000e+10    -1.802052274829878e+01   1.339765719348119e+02    
1.002100000000000e+10    -1.810264412401566e+01   1.327714564203329e+02    
1.002200000000000e+10    -1.820673571555486e+01   1.315403159293377e+02    
1.002300000000000e+10    -1.831941489102642e+01   1.302954404240924e+02    
1.002400000000000e+10    -1.845429952311729e+01   1.291302840844110e+02    
1.002500000000000e+10    -1.862802623950139e+01   1.280347003586922e+02    
1.002600000000000e+10    -1.882397049733167e+01   1.271356598527400e+02    
1.002700000000000e+10    -1.903010920438090e+01   1.261492744675027e+02    
1.002800000000000e+10    -1.926780555976229e+01   1.259116853201483e+02    
1.002900000000000e+10    -1.951803275570948e+01   1.252565952389360e+02    
1.003000000000000e+10    -1.974946939466509e+01   1.250231472316387e+02    
1.003100000000000e+10    -1.999459771411818e+01   1.251723585531945e+02    
1.003200000000000e+10    -2.027568107517905e+01   1.252628168596920e+02    
1.003300000000000e+10    -2.055353002579909e+01   1.255622784350949e+02    
1.003400000000000e+10    -2.082754723998141e+01   1.266392364188541e+02    
1.003500000000000e+10    -2.105569670907916e+01   1.275379835327979e+02    
1.003600000000000e+10    -2.128070639077821e+01   1.289418182412030e+02    
1.003700000000000e+10    -2.147024015520818e+01   1.307197668510594e+02    
1.003800000000000e+10    -2.158291472954874e+01   1.322267307418986e+02    
1.003900000000000e+10    -2.168013122467468e+01   1.346361540816893e+02    
1.004000000000000e+10    -2.177092206509212e+01   1.364136594795009e+02    
1.004100000000000e+10    -2.174439801766989e+01   1.388036649134913e+02    
1.004200000000000e+10    -2.167996444804884e+01   1.403686181938209e+02    
1.004300000000000e+10    -2.152957345648208e+01   1.424919524042793e+02    
1.004400000000000e+10    -2.136045851790032e+01   1.442920309003640e+02    
1.004500000000000e+10    -2.114010496999762e+01   1.458248063509678e+02    
1.004600000000000e+10    -2.089893775744540e+01   1.469532408177300e+02    
1.004700000000000e+10    -2.061904799876405e+01   1.476980057851127e+02    
1.004800000000000e+10    -2.034941653148668e+01   1.483951355628417e+02    
1.004900000000000e+10    -2.007731447584436e+01   1.484817921806910e+02    
1.005000000000000e+10    -1.977552306485320e+01   1.485245151684550e+02    
1.005100000000000e+10    -1.957080619056222e+01   1.483492883508042e+02    
1.005200000000000e+10    -1.930696852717941e+01   1.478604640475336e+02    
1.005300000000000e+10    -1.909396072243698e+01   1.471295601354016e+02    
1.005400000000000e+10    -1.888929891536338e+01   1.461543144477384e+02    
1.005500000000000e+10    -1.868424261062724e+01   1.454634383178641e+02    
1.005600000000000e+10    -1.855292060119706e+01   1.440962125355987e+02    
1.005700000000000e+10    -1.839287543636961e+01   1.429233735908995e+02    
1.005800000000000e+10    -1.830538879989109e+01   1.415792267501018e+02    
1.005900000000000e+10    -1.821100481725231e+01   1.403339780381075e+02    
1.006000000000000e+10    -1.814147552413285e+01   1.389323219527215e+02    
1.006100000000000e+10    -1.811596601201586e+01   1.372902849394794e+02    
1.006200000000000e+10    -1.810559628589051e+01   1.357772484682290e+02    
1.006300000000000e+10    -1.812883028795204e+01   1.342255592284389e+02    
1.006400000000000e+10    -1.813081730073475e+01   1.325215204481621e+02    
1.006500000000000e+10    -1.815198650395716e+01   1.312884031572725e+02    
1.006600000000000e+10    -1.827485285418601e+01   1.296111062335341e+02    
1.006700000000000e+10    -1.837426993733124e+01   1.281879805721744e+02    
1.006800000000000e+10    -1.845773473911868e+01   1.267822390846514e+02    
1.006900000000000e+10    -1.862927670205631e+01   1.256796489425535e+02    
1.007000000000000e+10    -1.883395132637380e+01   1.242609112353490e+02    
1.007100000000000e+10    -1.904528173173197e+01   1.229231769519929e+02    
1.007200000000000e+10    -1.924205850447760e+01   1.220468004165181e+02    
1.007300000000000e+10    -1.947524782616964e+01   1.212247750502397e+02    
1.007400000000000e+10    -1.976083954336952e+01   1.204733740324274e+02    
1.007500000000000e+10    -2.000957591900972e+01   1.197379662163734e+02    
1.007600000000000e+10    -2.032148044089093e+01   1.196545235047664e+02    
1.007700000000000e+10    -2.064459775606757e+01   1.197102663954629e+02    
1.007800000000000e+10    -2.099695602971861e+01   1.197512653544344e+02    
1.007900000000000e+10    -2.133259313204266e+01   1.202562051958350e+02    
1.008000000000000e+10    -2.159851915813389e+01   1.208551423669280e+02    
1.008100000000000e+10    -2.186944168695986e+01   1.223982036193620e+02    
1.008200000000000e+10    -2.215547753929812e+01   1.241084689609827e+02    
1.008300000000000e+10    -2.236324112212633e+01   1.258802245489159e+02    
1.008400000000000e+10    -2.249937020543245e+01   1.281082275649738e+02    
1.008500000000000e+10    -2.262313655675088e+01   1.301694935688287e+02    
1.008600000000000e+10    -2.266155170720918e+01   1.327562538105991e+02    
1.008700000000000e+10    -2.266221598803501e+01   1.355206810800056e+02    
1.008800000000000e+10    -2.249898326682898e+01   1.376773625430752e+02    
1.008900000000000e+10    -2.234456922253764e+01   1.396092651040331e+02    
1.009000000000000e+10    -2.215453350840659e+01   1.413142846847672e+02    
1.009100000000000e+10    -2.188887347992302e+01   1.428713480706577e+02    
1.009200000000000e+10    -2.162190708377229e+01   1.438529044757271e+02    
1.009300000000000e+10    -2.129199970694130e+01   1.445917428996613e+02    
1.009400000000000e+10    -2.094284244117677e+01   1.449882995271644e+02    
1.009500000000000e+10    -2.068097664095357e+01   1.451072803220174e+02    
1.009600000000000e+10    -2.041214050576886e+01   1.448568910555536e+02    
1.009700000000000e+10    -2.010651727600908e+01   1.445209091994194e+02    
1.009800000000000e+10    -1.986413930056358e+01   1.436101835355082e+02    
1.009900000000000e+10    -1.962719381315647e+01   1.428408728077909e+02    
1.010000000000000e+10    -1.938493362396205e+01   1.418270961761659e+02    
1.010100000000000e+10    -1.918911833456622e+01   1.404512391017591e+02    
1.010200000000000e+10    -1.902128503018505e+01   1.390790965542434e+02    
1.010300000000000e+10    -1.888607847982027e+01   1.379577301036397e+02    
1.010400000000000e+10    -1.877088729635080e+01   1.365027515847379e+02    
1.010500000000000e+10    -1.865950479137982e+01   1.348964089082545e+02    
1.010600000000000e+10    -1.862527534206542e+01   1.333587291677192e+02    
1.010700000000000e+10    -1.853067340387071e+01   1.317521206863402e+02    
1.010800000000000e+10    -1.853283850674888e+01   1.301057488497619e+02    
1.010900000000000e+10    -1.854383931058223e+01   1.284231005565453e+02    
1.011000000000000e+10    -1.858256759806957e+01   1.267849622439757e+02    
1.011100000000000e+10    -1.860877193455504e+01   1.254682858565872e+02    
1.011200000000000e+10    -1.869855375027904e+01   1.238073247129296e+02    
1.011300000000000e+10    -1.881146965578930e+01   1.225268854530263e+02    
1.011400000000000e+10    -1.893628040062480e+01   1.207950941929321e+02    
1.011500000000000e+10    -1.911026573742672e+01   1.197424786248047e+02    
1.011600000000000e+10    -1.926554054945046e+01   1.183728893867668e+02    
1.011700000000000e+10    -1.943998823834979e+01   1.171125125575430e+02    
1.011800000000000e+10    -1.965479250980064e+01   1.159976350876004e+02    
1.011900000000000e+10    -1.991088679226378e+01   1.152797845788024e+02    
1.012000000000000e+10    -2.020001616218298e+01   1.145161068623273e+02    
1.012100000000000e+10    -2.044648512933300e+01   1.145422432414589e+02    
1.012200000000000e+10    -2.081220195494481e+01   1.140081503813589e+02    
1.012300000000000e+10    -2.110905811485821e+01   1.142666234104823e+02    
1.012400000000000e+10    -2.140528587442680e+01   1.144688855968521e+02    
1.012500000000000e+10    -2.170008007293113e+01   1.155007560217435e+02    
1.012600000000000e+10    -2.200353244470567e+01   1.162378922929849e+02    
1.012700000000000e+10    -2.231842370614592e+01   1.179625367248285e+02    
1.012800000000000e+10    -2.254955129197465e+01   1.195622930243221e+02    
1.012900000000000e+10    -2.278611953802784e+01   1.220379028909023e+02    
1.013000000000000e+10    -2.290025852992879e+01   1.245526943694931e+02    
1.013100000000000e+10    -2.296769140102207e+01   1.267222729965367e+02    
1.013200000000000e+10    -2.294248878473439e+01   1.295043978418714e+02    
1.013300000000000e+10    -2.283226830653010e+01   1.319600956361098e+02    
1.013400000000000e+10    -2.270458268180693e+01   1.343297286416932e+02    
1.013500000000000e+10    -2.247108032689453e+01   1.363965277958405e+02    
1.013600000000000e+10    -2.227628758296152e+01   1.380999841122714e+02    
1.013700000000000e+10    -2.200641445045932e+01   1.398506483575586e+02    
1.013800000000000e+10    -2.172572614425114e+01   1.407204930589503e+02    
1.013900000000000e+10    -2.134340583014346e+01   1.414248410555160e+02    
1.014000000000000e+10    -2.108484856308806e+01   1.416802411297778e+02    
1.014100000000000e+10    -2.077304823763964e+01   1.417369653007172e+02    
1.014200000000000e+10    -2.051118760257258e+01   1.412800007046047e+02    
1.014300000000000e+10    -2.024036580739604e+01   1.408190779672825e+02    
1.014400000000000e+10    -1.995333160174426e+01   1.401105533321120e+02    
1.014500000000000e+10    -1.970941738235913e+01   1.391970738524580e+02    
1.014600000000000e+10    -1.956035615512284e+01   1.381793963505115e+02    
1.014700000000000e+10    -1.940833424608955e+01   1.368886951662340e+02    
1.014800000000000e+10    -1.921220666711549e+01   1.354981769293520e+02    
1.014900000000000e+10    -1.910021419171675e+01   1.344171022348730e+02    
1.015000000000000e+10    -1.899227346773693e+01   1.328286630846639e+02    
1.015100000000000e+10    -1.893017703901149e+01   1.313234635725101e+02    
1.015200000000000e+10    -1.888976971764212e+01   1.298029210093734e+02    
1.015300000000000e+10    -1.885235690319241e+01   1.282309700380329e+02    
1.015400000000000e+10    -1.889557060635707e+01   1.267194765978910e+02    
1.015500000000000e+10    -1.884292969925495e+01   1.250124587806477e+02    
1.015600000000000e+10    -1.891591215353794e+01   1.233924232073635e+02    
1.015700000000000e+10    -1.903239678155141e+01   1.216678834771643e+02    
1.015800000000000e+10    -1.910164592546749e+01   1.203933810379648e+02    
1.015900000000000e+10    -1.924655340247319e+01   1.187458512317225e+02    
1.016000000000000e+10    -1.941651741033870e+01   1.174593804326149e+02    
1.016100000000000e+10    -1.957509478756425e+01   1.159620090634186e+02    
1.016200000000000e+10    -1.979756403184224e+01   1.147217712219583e+02    
1.016300000000000e+10    -2.003003184818512e+01   1.135988328619462e+02    
1.016400000000000e+10    -2.023405439476915e+01   1.124998456928968e+02    
1.016500000000000e+10    -2.053026862644867e+01   1.117260913172318e+02    
1.016600000000000e+10    -2.077390613671259e+01   1.110699882267121e+02    
1.016700000000000e+10    -2.113805987667846e+01   1.107355383757185e+02    
1.016800000000000e+10    -2.144999436110377e+01   1.105770551521414e+02    
1.016900000000000e+10    -2.180274940474504e+01   1.106376803305048e+02    
1.017000000000000e+10    -2.209843589821817e+01   1.111458450447174e+02    
1.017100000000000e+10    -2.241922452235709e+01   1.122181123671995e+02    
1.017200000000000e+10    -2.277200009741048e+01   1.133707493412409e+02    
1.017300000000000e+10    -2.306197804104121e+01   1.147067293299624e+02    
1.017400000000000e+10    -2.325837469286146e+01   1.168015134541259e+02    
1.017500000000000e+10    -2.349227062959870e+01   1.189540022024450e+02    
1.017600000000000e+10    -2.366912495857545e+01   1.214717692194915e+02    
1.017700000000000e+10    -2.368907817842643e+01   1.239540291610016e+02    
1.017800000000000e+10    -2.369718253987756e+01   1.263401898589687e+02    
1.017900000000000e+10    -2.360548603809718e+01   1.288596709959092e+02    
1.018000000000000e+10    -2.344190354302741e+01   1.308854551554741e+02    
1.018100000000000e+10    -2.319459503557705e+01   1.328605178340525e+02    
1.018200000000000e+10    -2.295623899552591e+01   1.344519029193588e+02    
1.018300000000000e+10    -2.267726847371856e+01   1.358873860859263e+02    
1.018400000000000e+10    -2.233106957715178e+01   1.363193999144819e+02    
1.018500000000000e+10    -2.198979674719368e+01   1.372104624025023e+02    
1.018600000000000e+10    -2.169313322537507e+01   1.375343811796552e+02    
1.018700000000000e+10    -2.140712849879103e+01   1.372065415473611e+02    
1.018800000000000e+10    -2.109862125295654e+01   1.368078609270103e+02    
1.018900000000000e+10    -2.083036453149560e+01   1.363083431857528e+02    
1.019000000000000e+10    -2.060309948873966e+01   1.352840516661195e+02    
1.019100000000000e+10    -2.037120288064971e+01   1.344074226670885e+02    
1.019200000000000e+10    -2.018471432157653e+01   1.333305419752321e+02    
1.019300000000000e+10    -1.994853189868948e+01   1.321348290928695e+02    
1.019400000000000e+10    -1.981867627837727e+01   1.307211202217972e+02    
1.019500000000000e+10    -1.968071747637471e+01   1.292701280234712e+02    
1.019600000000000e+10    -1.958890029004537e+01   1.280062385716117e+02    
1.019700000000000e+10    -1.949312697227903e+01   1.263446868083473e+02    
1.019800000000000e+10    -1.943310741783347e+01   1.246766152607575e+02    
1.019900000000000e+10    -1.937762084265346e+01   1.231925322750469e+02    
1.020000000000000e+10    -1.938571343445708e+01   1.215217283678691e+02    
1.020100000000000e+10    -1.937439012485500e+01   1.197677712540854e+02    
1.020200000000000e+10    -1.945521693808150e+01   1.181937231232454e+02    
1.020300000000000e+10    -1.949082701820998e+01   1.166493854103762e+02    
1.020400000000000e+10    -1.958184112604515e+01   1.150105915278658e+02    
1.020500000000000e+10    -1.968969199088316e+01   1.137821687627238e+02    
1.020600000000000e+10    -1.986022706084793e+01   1.122449599703120e+02    
1.020700000000000e+10    -1.997118755742345e+01   1.109001017966537e+02    
1.020800000000000e+10    -2.015850296216540e+01   1.096199407526480e+02    
1.020900000000000e+10    -2.037495094315691e+01   1.087316690275964e+02    
1.021000000000000e+10    -2.059079264083748e+01   1.078521966066076e+02    
1.021100000000000e+10    -2.084025826660600e+01   1.071362099445356e+02    
1.021200000000000e+10    -2.111799863166856e+01   1.062567175699084e+02    
1.021300000000000e+10    -2.140566012531346e+01   1.062798091688841e+02    
1.021400000000000e+10    -2.173125774128083e+01   1.058638741573747e+02    
1.021500000000000e+10    -2.206536088248278e+01   1.064797778227707e+02    
1.021600000000000e+10    -2.232075801361953e+01   1.069868334525051e+02    
1.021700000000000e+10    -2.268017944241028e+01   1.075770847991923e+02    
1.021800000000000e+10    -2.294636227073019e+01   1.088153910726375e+02    
1.021900000000000e+10    -2.324984757573769e+01   1.104637044454126e+02    
1.022000000000000e+10    -2.345370582345361e+01   1.124742086738743e+02    
1.022100000000000e+10    -2.366306755874378e+01   1.146034837585193e+02    
1.022200000000000e+10    -2.377022175566750e+01   1.170740838035090e+02    
1.022300000000000e+10    -2.383113198416769e+01   1.196441359837482e+02    
1.022400000000000e+10    -2.376967965325216e+01   1.219798482979620e+02    
1.022500000000000e+10    -2.371792254593917e+01   1.244464580755126e+02    
1.022600000000000e+10    -2.354402728682395e+01   1.266943527605548e+02    
1.022700000000000e+10    -2.333601379286453e+01   1.286581770741097e+02    
1.022800000000000e+10    -2.312756722611251e+01   1.301805878391536e+02    
1.022900000000000e+10    -2.287412200265848e+01   1.318369456221122e+02    
1.023000000000000e+10    -2.251890392044385e+01   1.326687650856052e+02    
1.023100000000000e+10    -2.226992173343709e+01   1.333280310059562e+02    
1.023200000000000e+10    -2.195983554192082e+01   1.334783518922272e+02    
1.023300000000000e+10    -2.168467511427670e+01   1.337387505652767e+02    
1.023400000000000e+10    -2.137819592828786e+01   1.333929485269547e+02    
1.023500000000000e+10    -2.113639069188707e+01   1.331670911198374e+02    
1.023600000000000e+10    -2.088709065927529e+01   1.321915673545060e+02    
1.023700000000000e+10    -2.065886486131806e+01   1.315684010419803e+02    
1.023800000000000e+10    -2.044487216696395e+01   1.303275798805286e+02    
1.023900000000000e+10    -2.031747329800712e+01   1.292635946674050e+02    
1.024000000000000e+10    -2.014139074334439e+01   1.278435433302142e+02    
1.024100000000000e+10    -2.000864953305528e+01   1.266827854841746e+02    
1.024200000000000e+10    -1.992564674282581e+01   1.254422837294132e+02    
1.024300000000000e+10    -1.987558304917360e+01   1.239118760633754e+02    
1.024400000000000e+10    -1.980523289127573e+01   1.224761694097449e+02    
1.024500000000000e+10    -1.979129820717531e+01   1.208787298623312e+02    
1.024600000000000e+10    -1.977921127539763e+01   1.194043401694443e+02    
1.024700000000000e+10    -1.981060494832025e+01   1.176703981607690e+02    
1.024800000000000e+10    -1.980225944790282e+01   1.163422358463750e+02    
1.024900000000000e+10    -1.992878041027272e+01   1.147440995967301e+02    
1.025000000000000e+10    -2.002618461503780e+01   1.131824327194798e+02    
1.025100000000000e+10    -2.014202651687174e+01   1.115274020440902e+02    
1.025200000000000e+10    -2.026934637999320e+01   1.104346271279478e+02    
1.025300000000000e+10    -2.045941016310880e+01   1.092336999535974e+02    
1.025400000000000e+10    -2.066779663083835e+01   1.080600728979918e+02    
1.025500000000000e+10    -2.086800059121607e+01   1.067068014548141e+02    
1.025600000000000e+10    -2.109253575411774e+01   1.059256347491801e+02    
