[Version] 2.0
! Rohde & Schwarz Vector Network Analyzer
! Rohde-Schwarz,ZNL20-2Port,1323001220200009,1.71.1.10-23.02.1.238
! 
! Port Assignments:
! Nominal Port -> Actual Test Port
! --------------------------------
!   1 -> 1

! Created: GMT 2024-09-04 12:12:01

# Hz S DB R 50

[Number of Ports] 1
[Number of Frequencies] 2001

[Network Data] 
! freq[Hz]               S11[mag dB]              S11[ang]                 
1.000000000000000e+10    -2.135852421397875e+01   1.442096098218628e+02    
1.000100000000000e+10    -2.120418565408426e+01   1.459818768709696e+02    
1.000200000000000e+10    -2.106743458027922e+01   1.474218112124230e+02    
1.000300000000000e+10    -2.087709924688126e+01   1.487344156503387e+02    
1.000400000000000e+10    -2.063641594207563e+01   1.497733047501429e+02    
1.000500000000000e+10    -2.038660611991946e+01   1.506143599793280e+02    
1.000600000000000e+10    -2.015201234333253e+01   1.509039774224860e+02    
1.000700000000000e+10    -1.985136167571335e+01   1.514448891510114e+02    
1.000800000000000e+10    -1.959594973741059e+01   1.512201652761319e+02    
1.000900000000000e+10    -1.941668011029056e+01   1.510479622771824e+02    
1.001000000000000e+10    -1.911375622931015e+01   1.505796313596190e+02    
1.001100000000000e+10    -1.890544301591473e+01   1.499524949805540e+02    
1.001200000000000e+10    -1.871094739377556e+01   1.490312387301132e+02    
1.001300000000000e+10    -1.854104370227347e+01   1.482512779657031e+02    
1.001400000000000e+10    -1.838491430819508e+01   1.469567185184603e+02    
1.001500000000000e+10    -1.823097480220313e+01   1.459141303704352e+02    
1.001600000000000e+10    -1.811942838897979e+01   1.443838919193156e+02    
1.001700000000000e+10    -1.803869319935260e+01   1.431533831084556e+02    
1.001800000000000e+10    -1.795249146347555e+01   1.417843356839772e+02    
1.001900000000000e+10    -1.788727602559754e+01   1.403544276955264e+02    
1.002000000000000e+10    -1.786732152107948e+01   1.387660260045707e+02    
1.002100000000000e+10    -1.786010463879403e+01   1.373657612606992e+02    
1.002200000000000e+10    -1.787092432320248e+01   1.360582381982846e+02    
1.002300000000000e+10    -1.793063055320810e+01   1.343448929737756e+02    
1.002400000000000e+10    -1.798928157646360e+01   1.330040859135962e+02    
1.002500000000000e+10    -1.808873828565801e+01   1.318120863878270e+02    
1.002600000000000e+10    -1.820135773761692e+01   1.304550647273395e+02    
1.002700000000000e+10    -1.833247305423981e+01   1.291199851597704e+02    
1.002800000000000e+10    -1.848282805626867e+01   1.281170041054262e+02    
1.002900000000000e+10    -1.866926212505766e+01   1.269517474006578e+02    
1.003000000000000e+10    -1.887103606822151e+01   1.259873756206508e+02    
1.003100000000000e+10    -1.907522696142803e+01   1.254076335979122e+02    
1.003200000000000e+10    -1.932428976254847e+01   1.247734169068717e+02    
1.003300000000000e+10    -1.951496357690931e+01   1.243119656559446e+02    
1.003400000000000e+10    -1.982295843628659e+01   1.243815720457993e+02    
1.003500000000000e+10    -2.011013502200694e+01   1.241534872743619e+02    
1.003600000000000e+10    -2.034014439529509e+01   1.245668745799649e+02    
1.003700000000000e+10    -2.063597467370935e+01   1.251286411341223e+02    
1.003800000000000e+10    -2.094660836809545e+01   1.259502416512102e+02    
1.003900000000000e+10    -2.115582792495114e+01   1.273718167188099e+02    
1.004000000000000e+10    -2.142092710011251e+01   1.285837155286892e+02    
1.004100000000000e+10    -2.162779816207707e+01   1.306474151873993e+02    
1.004200000000000e+10    -2.173052535920485e+01   1.323912984827374e+02    
1.004300000000000e+10    -2.181303821595041e+01   1.347839579942819e+02    
1.004400000000000e+10    -2.181294703491535e+01   1.371504743891282e+02    
1.004500000000000e+10    -2.176336853845433e+01   1.391425823872520e+02    
1.004600000000000e+10    -2.167304058040557e+01   1.412201335301937e+02    
1.004700000000000e+10    -2.149692283581899e+01   1.432870597660252e+02    
1.004800000000000e+10    -2.130426294471426e+01   1.447638866915536e+02    
1.004900000000000e+10    -2.105054030065618e+01   1.459874065916013e+02    
1.005000000000000e+10    -2.081476140125657e+01   1.468549957716603e+02    
1.005100000000000e+10    -2.056264968861869e+01   1.478821016403968e+02    
1.005200000000000e+10    -2.025105232889291e+01   1.482206694865338e+02    
1.005300000000000e+10    -1.999741871711095e+01   1.483652523093601e+02    
1.005400000000000e+10    -1.970253727172649e+01   1.481476614614353e+02    
1.005500000000000e+10    -1.945580639015671e+01   1.478676875584131e+02    
1.005600000000000e+10    -1.922808435298264e+01   1.472848553860162e+02    
1.005700000000000e+10    -1.898152164852633e+01   1.464505680884104e+02    
1.005800000000000e+10    -1.883089282424756e+01   1.454616150497489e+02    
1.005900000000000e+10    -1.864227526289081e+01   1.445434018964825e+02    
1.006000000000000e+10    -1.847627754023363e+01   1.432554952458649e+02    
1.006100000000000e+10    -1.835934779790960e+01   1.419743522916134e+02    
1.006200000000000e+10    -1.827124233124943e+01   1.405676661661977e+02    
1.006300000000000e+10    -1.821782768855283e+01   1.392559400718918e+02    
1.006400000000000e+10    -1.814979843719112e+01   1.376212930212864e+02    
1.006500000000000e+10    -1.809668264224876e+01   1.363080830442734e+02    
1.006600000000000e+10    -1.811427661205315e+01   1.346664916279867e+02    
1.006700000000000e+10    -1.812698328004733e+01   1.329783743055064e+02    
1.006800000000000e+10    -1.814042180278510e+01   1.315522992732384e+02    
1.006900000000000e+10    -1.822133733171002e+01   1.299148339166850e+02    
1.007000000000000e+10    -1.830839164574716e+01   1.284296645144141e+02    
1.007100000000000e+10    -1.846327062974756e+01   1.270714876792141e+02    
1.007200000000000e+10    -1.856007463896977e+01   1.256733997714612e+02    
1.007300000000000e+10    -1.874677399878990e+01   1.243084597949354e+02    
1.007400000000000e+10    -1.891057168789995e+01   1.229425702539885e+02    
1.007500000000000e+10    -1.911991904245261e+01   1.218717564518421e+02    
1.007600000000000e+10    -1.931548909153051e+01   1.211103192096806e+02    
1.007700000000000e+10    -1.961690777962304e+01   1.200911543444089e+02    
1.007800000000000e+10    -1.988779264483985e+01   1.196077064879684e+02    
1.007900000000000e+10    -2.020157293336172e+01   1.190657522798310e+02    
1.008000000000000e+10    -2.052393764487205e+01   1.187196952560822e+02    
1.008100000000000e+10    -2.079929988574908e+01   1.189740960785713e+02    
1.008200000000000e+10    -2.106329964773323e+01   1.195854703320007e+02    
1.008300000000000e+10    -2.141967821940436e+01   1.197895073689558e+02    
1.008400000000000e+10    -2.166987193523994e+01   1.209432051224017e+02    
1.008500000000000e+10    -2.203924878603285e+01   1.222048018290736e+02    
1.008600000000000e+10    -2.223441642709813e+01   1.239757655156865e+02    
1.008700000000000e+10    -2.246341495673590e+01   1.256519380387564e+02    
1.008800000000000e+10    -2.258978376757220e+01   1.280136368831660e+02    
1.008900000000000e+10    -2.267161741105770e+01   1.302235927934707e+02    
1.009000000000000e+10    -2.264929904062810e+01   1.328789503519911e+02    
1.009100000000000e+10    -2.258981362493162e+01   1.355265797057588e+02    
1.009200000000000e+10    -2.249745376147474e+01   1.375196769519713e+02    
1.009300000000000e+10    -2.225503726016868e+01   1.394136661423907e+02    
1.009400000000000e+10    -2.204587636740031e+01   1.410999635040813e+02    
1.009500000000000e+10    -2.173779307671655e+01   1.423975380712592e+02    
1.009600000000000e+10    -2.150242921894711e+01   1.434552188163537e+02    
1.009700000000000e+10    -2.117305457271764e+01   1.438705535452721e+02    
1.009800000000000e+10    -2.087850814762395e+01   1.440934553585142e+02    
1.009900000000000e+10    -2.058664292868485e+01   1.441279809490305e+02    
1.010000000000000e+10    -2.028313984302413e+01   1.439709362329797e+02    
1.010100000000000e+10    -2.001893463189086e+01   1.433714283755669e+02    
1.010200000000000e+10    -1.976220649947800e+01   1.425382020789548e+02    
1.010300000000000e+10    -1.952542726280663e+01   1.417294621429077e+02    
1.010400000000000e+10    -1.932447243488173e+01   1.407773378172870e+02    
1.010500000000000e+10    -1.912517278943064e+01   1.395451791104693e+02    
1.010600000000000e+10    -1.901057770872783e+01   1.381155213169732e+02    
1.010700000000000e+10    -1.881949940212617e+01   1.368454663367965e+02    
1.010800000000000e+10    -1.872645784455045e+01   1.351924651417370e+02    
1.010900000000000e+10    -1.864398008050722e+01   1.339237473939310e+02    
1.011000000000000e+10    -1.859117100100191e+01   1.320955367750451e+02    
1.011100000000000e+10    -1.854859596821480e+01   1.308221126539632e+02    
1.011200000000000e+10    -1.851396520561938e+01   1.289621091120922e+02    
1.011300000000000e+10    -1.855056676205299e+01   1.278255331927334e+02    
1.011400000000000e+10    -1.858093504544967e+01   1.259684668916611e+02    
1.011500000000000e+10    -1.864679642440496e+01   1.244750503310508e+02    
1.011600000000000e+10    -1.872685838265570e+01   1.227815048064704e+02    
1.011700000000000e+10    -1.879376509439977e+01   1.214632014359009e+02    
1.011800000000000e+10    -1.894367659172704e+01   1.200361421596147e+02    
1.011900000000000e+10    -1.911303873709015e+01   1.188073619813489e+02    
1.012000000000000e+10    -1.931409998556789e+01   1.178141583464051e+02    
1.012100000000000e+10    -1.947982293804693e+01   1.168051978481771e+02    
1.012200000000000e+10    -1.973547547503352e+01   1.157076843430923e+02    
1.012300000000000e+10    -1.999398724518926e+01   1.149996379774227e+02    
1.012400000000000e+10    -2.020839292630204e+01   1.144042124734130e+02    
1.012500000000000e+10    -2.050507250199527e+01   1.141476116483930e+02    
1.012600000000000e+10    -2.079381581031118e+01   1.138572924814351e+02    
1.012700000000000e+10    -2.110258774647326e+01   1.141055460425371e+02    
1.012800000000000e+10    -2.143721091021728e+01   1.147990484371420e+02    
1.012900000000000e+10    -2.174029344286670e+01   1.155759586722434e+02    
1.013000000000000e+10    -2.204093787476204e+01   1.166522046306360e+02    
1.013100000000000e+10    -2.229616669006180e+01   1.182715892335589e+02    
1.013200000000000e+10    -2.249680464349900e+01   1.199875933108024e+02    
1.013300000000000e+10    -2.267545592147258e+01   1.223670393721734e+02    
1.013400000000000e+10    -2.283310373588830e+01   1.246237685518331e+02    
1.013500000000000e+10    -2.285215430667563e+01   1.271939967766264e+02    
1.013600000000000e+10    -2.285072791849151e+01   1.294013979102551e+02    
1.013700000000000e+10    -2.279513120782328e+01   1.320657392670558e+02    
1.013800000000000e+10    -2.266272358047864e+01   1.343933771564446e+02    
1.013900000000000e+10    -2.240344904254176e+01   1.362596439577940e+02    
1.014000000000000e+10    -2.216783587445708e+01   1.378682071111035e+02    
1.014100000000000e+10    -2.189888578288111e+01   1.393029482244142e+02    
1.014200000000000e+10    -2.164367162895894e+01   1.401716798505938e+02    
1.014300000000000e+10    -2.133720480601909e+01   1.406125292376759e+02    
1.014400000000000e+10    -2.105810305161702e+01   1.409600855387496e+02    
1.014500000000000e+10    -2.074736839471003e+01   1.410242375282936e+02    
1.014600000000000e+10    -2.048132836356338e+01   1.407376610004275e+02    
1.014700000000000e+10    -2.025220253493484e+01   1.400152557042276e+02    
1.014800000000000e+10    -1.998028758073377e+01   1.394344765140069e+02    
1.014900000000000e+10    -1.978250993681312e+01   1.386524814910277e+02    
1.015000000000000e+10    -1.958352783118377e+01   1.375035107128145e+02    
1.015100000000000e+10    -1.941479351447972e+01   1.363173997563245e+02    
1.015200000000000e+10    -1.928185338913535e+01   1.349521804820092e+02    
1.015300000000000e+10    -1.916161022870371e+01   1.337228063386588e+02    
1.015400000000000e+10    -1.907364957385140e+01   1.323077430134979e+02    
1.015500000000000e+10    -1.898874409937495e+01   1.306745633491158e+02    
1.015600000000000e+10    -1.893247007625703e+01   1.291687026933401e+02    
1.015700000000000e+10    -1.891917990220473e+01   1.275072757936702e+02    
1.015800000000000e+10    -1.893827878340446e+01   1.261114830711373e+02    
1.015900000000000e+10    -1.896717280253131e+01   1.244273847580708e+02    
1.016000000000000e+10    -1.901578697350249e+01   1.229761028577830e+02    
1.016100000000000e+10    -1.908417326148580e+01   1.213938732636802e+02    
1.016200000000000e+10    -1.919620887806806e+01   1.198301455670470e+02    
1.016300000000000e+10    -1.931684204160146e+01   1.182533359868497e+02    
1.016400000000000e+10    -1.942613607090613e+01   1.166716240706340e+02    
1.016500000000000e+10    -1.964320219722080e+01   1.156827026042046e+02    
1.016600000000000e+10    -1.979830583156969e+01   1.143991800188896e+02    
1.016700000000000e+10    -2.004741810121230e+01   1.132163834673481e+02    
1.016800000000000e+10    -2.029872418557069e+01   1.122157298538540e+02    
1.016900000000000e+10    -2.056564165953439e+01   1.112926766321550e+02    
1.017000000000000e+10    -2.081657978508368e+01   1.106835777877534e+02    
1.017100000000000e+10    -2.111061079734673e+01   1.105512780856999e+02    
1.017200000000000e+10    -2.141581872002210e+01   1.101946735966163e+02    
1.017300000000000e+10    -2.171894407363411e+01   1.102925115647281e+02    
1.017400000000000e+10    -2.208415869363688e+01   1.107025948129768e+02    
1.017500000000000e+10    -2.241854041497338e+01   1.116774878661963e+02    
1.017600000000000e+10    -2.274703799282496e+01   1.128421609390596e+02    
1.017700000000000e+10    -2.301057613932091e+01   1.138214161971973e+02    
1.017800000000000e+10    -2.324712014680530e+01   1.159611755752077e+02    
1.017900000000000e+10    -2.347454292103210e+01   1.178702725132909e+02    
1.018000000000000e+10    -2.359802452668708e+01   1.201892409761492e+02    
1.018100000000000e+10    -2.366709578499281e+01   1.228689455197672e+02    
1.018200000000000e+10    -2.364521244759654e+01   1.250338499403689e+02    
1.018300000000000e+10    -2.356495072057056e+01   1.276076439790635e+02    
1.018400000000000e+10    -2.342300465614515e+01   1.296970237170616e+02    
1.018500000000000e+10    -2.315554926599609e+01   1.317809152917298e+02    
1.018600000000000e+10    -2.292915671666672e+01   1.335829327161578e+02    
1.018700000000000e+10    -2.269250676750809e+01   1.345943970782905e+02    
1.018800000000000e+10    -2.234285161877797e+01   1.354825975579419e+02    
1.018900000000000e+10    -2.206050601311812e+01   1.360217663910190e+02    
1.019000000000000e+10    -2.178429238338790e+01   1.361514288050188e+02    
1.019100000000000e+10    -2.148523809503953e+01   1.364452503789033e+02    
1.019200000000000e+10    -2.119913494057434e+01   1.360966269072507e+02    
1.019300000000000e+10    -2.087616833133995e+01   1.353725332211379e+02    
1.019400000000000e+10    -2.064850636789901e+01   1.346825535996509e+02    
1.019500000000000e+10    -2.041147902988720e+01   1.337760808440585e+02    
1.019600000000000e+10    -2.023523640446842e+01   1.327975233079221e+02    
1.019700000000000e+10    -2.003465756067967e+01   1.315018121308669e+02    
1.019800000000000e+10    -1.985209515907577e+01   1.303215150504833e+02    
1.019900000000000e+10    -1.970479201901199e+01   1.288735293576762e+02    
1.020000000000000e+10    -1.959486901225117e+01   1.275611291692474e+02    
1.020100000000000e+10    -1.950670453021365e+01   1.259971582257360e+02    
1.020200000000000e+10    -1.945620384946492e+01   1.245974859735725e+02    
1.020300000000000e+10    -1.939339054520107e+01   1.231010095114728e+02    
1.020400000000000e+10    -1.940800344589130e+01   1.215710637537469e+02    
1.020500000000000e+10    -1.936040471617277e+01   1.197249441313954e+02    
1.020600000000000e+10    -1.942184650012263e+01   1.182559668564099e+02    
1.020700000000000e+10    -1.942050640051460e+01   1.166703827446378e+02    
1.020800000000000e+10    -1.952516967261396e+01   1.152752044979573e+02    
1.020900000000000e+10    -1.961703886453053e+01   1.138246902800139e+02    
1.021000000000000e+10    -1.977637961316077e+01   1.124675714565811e+02    
1.021100000000000e+10    -1.989109799420654e+01   1.109092210603054e+02    
1.021200000000000e+10    -2.006723297404616e+01   1.096459609968096e+02    
1.021300000000000e+10    -2.026500513766389e+01   1.087006604542801e+02    
1.021400000000000e+10    -2.047953593662120e+01   1.077351200374699e+02    
1.021500000000000e+10    -2.072659598770128e+01   1.072081934625010e+02    
1.021600000000000e+10    -2.099777374864233e+01   1.064908147990837e+02    
1.021700000000000e+10    -2.127496507569381e+01   1.058422414741955e+02    
1.021800000000000e+10    -2.157553063152390e+01   1.058046155652096e+02    
1.021900000000000e+10    -2.189646845293968e+01   1.057700461037766e+02    
1.022000000000000e+10    -2.217687685731894e+01   1.062450932780421e+02    
1.022100000000000e+10    -2.251664244685058e+01   1.070908302421731e+02    
1.022200000000000e+10    -2.282273254205006e+01   1.082502550128027e+02    
1.022300000000000e+10    -2.312318401381226e+01   1.095625642066795e+02    
1.022400000000000e+10    -2.335133077476072e+01   1.112991493062214e+02    
1.022500000000000e+10    -2.357864551974825e+01   1.133010532350035e+02    
1.022600000000000e+10    -2.368612881125109e+01   1.154673115355856e+02    
1.022700000000000e+10    -2.379210855210574e+01   1.181805698824529e+02    
1.022800000000000e+10    -2.379066415329925e+01   1.202061063817804e+02    
1.022900000000000e+10    -2.378851651270117e+01   1.231149469475424e+02    
1.023000000000000e+10    -2.365486158748042e+01   1.256230319649173e+02    
1.023100000000000e+10    -2.348948669927410e+01   1.279029048380316e+02    
1.023200000000000e+10    -2.323584600172968e+01   1.292438848011436e+02    
1.023300000000000e+10    -2.296804048588558e+01   1.311747008062730e+02    
1.023400000000000e+10    -2.270010595004638e+01   1.321396163930844e+02    
1.023500000000000e+10    -2.240817609367848e+01   1.331612995919324e+02    
1.023600000000000e+10    -2.211547996387493e+01   1.334322749537393e+02    
1.023700000000000e+10    -2.181610316988671e+01   1.336908215057119e+02    
1.023800000000000e+10    -2.150552786698250e+01   1.334416580598320e+02    
1.023900000000000e+10    -2.125497488537354e+01   1.330855212296842e+02    
1.024000000000000e+10    -2.102960929099661e+01   1.323173488367678e+02    
1.024100000000000e+10    -2.075779489888696e+01   1.318534264828604e+02    
1.024200000000000e+10    -2.055696928266163e+01   1.308123692075226e+02    
1.024300000000000e+10    -2.041451371372441e+01   1.297729706771763e+02    
1.024400000000000e+10    -2.023682778463771e+01   1.286864311853109e+02    
1.024500000000000e+10    -2.010962409287858e+01   1.273898061458748e+02    
1.024600000000000e+10    -1.999889976339603e+01   1.260591157143304e+02    
1.024700000000000e+10    -1.990558909553880e+01   1.243263334781019e+02    
1.024800000000000e+10    -1.978921918030213e+01   1.230634875760854e+02    
1.024900000000000e+10    -1.978744536273111e+01   1.215604458017190e+02    
1.025000000000000e+10    -1.976992401466121e+01   1.198898263673843e+02    
1.025100000000000e+10    -1.977819401081346e+01   1.183549487529239e+02    
1.025200000000000e+10    -1.978895615461615e+01   1.167533153176530e+02    
1.025300000000000e+10    -1.985076809230180e+01   1.152019323752811e+02    
1.025400000000000e+10    -1.998745452039984e+01   1.135540818470099e+02    
1.025500000000000e+10    -2.006282830517624e+01   1.119381086003082e+02    
1.025600000000000e+10    -2.017375381179219e+01   1.106192537750370e+02    
