[Version] 2.0
! Rohde & Schwarz Vector Network Analyzer
! Rohde-Schwarz,ZNL20-2Port,1323001220200009,1.71.1.10-23.02.1.238
! 
! Port Assignments:
! Nominal Port -> Actual Test Port
! --------------------------------
!   1 -> 1

! Created: GMT 2024-09-04 12:13:17

# Hz S DB R 50

[Number of Ports] 1
[Number of Frequencies] 2001

[Network Data] 
! freq[Hz]               S11[mag dB]              S11[ang]                 
1.000000000000000e+10    -1.938344866615740e+01   1.399741220432112e+02    
1.000100000000000e+10    -1.938602676541351e+01   1.399742334850699e+02    
1.000200000000000e+10    -1.942479353641627e+01   1.396660990199076e+02    
1.000300000000000e+10    -1.946414959294784e+01   1.395906044956934e+02    
1.000400000000000e+10    -1.947212969612777e+01   1.394943848082050e+02    
1.000500000000000e+10    -1.945609388431189e+01   1.394710862114868e+02    
1.000600000000000e+10    -1.949878868066135e+01   1.391616452716660e+02    
1.000700000000000e+10    -1.952414687554809e+01   1.393280023980999e+02    
1.000800000000000e+10    -1.948807727801126e+01   1.391139614425686e+02    
1.000900000000000e+10    -1.953700393909071e+01   1.391375677118089e+02    
1.001000000000000e+10    -1.955568138766199e+01   1.392647090830716e+02    
1.001100000000000e+10    -1.956053130358490e+01   1.390507327602109e+02    
1.001200000000000e+10    -1.954388007836748e+01   1.390075806050240e+02    
1.001300000000000e+10    -1.955469263358149e+01   1.389835724923448e+02    
1.001400000000000e+10    -1.955792429045232e+01   1.390458911081593e+02    
1.001500000000000e+10    -1.954161169642421e+01   1.389365531463375e+02    
1.001600000000000e+10    -1.953595621638598e+01   1.386822657243078e+02    
1.001700000000000e+10    -1.958351878432237e+01   1.385490022453437e+02    
1.001800000000000e+10    -1.955858355898408e+01   1.386812462738072e+02    
1.001900000000000e+10    -1.955075403530218e+01   1.384681174010913e+02    
1.002000000000000e+10    -1.953670505040828e+01   1.383141549735012e+02    
1.002100000000000e+10    -1.954460502952040e+01   1.382605948073010e+02    
1.002200000000000e+10    -1.955528044551544e+01   1.383715678822755e+02    
1.002300000000000e+10    -1.951696124221075e+01   1.380322911708825e+02    
1.002400000000000e+10    -1.950998352787637e+01   1.382139115171835e+02    
1.002500000000000e+10    -1.952412172196698e+01   1.378997880290758e+02    
1.002600000000000e+10    -1.951153698066770e+01   1.377514941421182e+02    
1.002700000000000e+10    -1.956124027309045e+01   1.377020922083823e+02    
1.002800000000000e+10    -1.954583858281730e+01   1.376873454271607e+02    
1.002900000000000e+10    -1.954373155993856e+01   1.374950624048626e+02    
1.003000000000000e+10    -1.955039602881123e+01   1.374218276186076e+02    
1.003100000000000e+10    -1.956644694851077e+01   1.375114066188681e+02    
1.003200000000000e+10    -1.955237570239880e+01   1.372249880794436e+02    
1.003300000000000e+10    -1.957061954870902e+01   1.369016952543889e+02    
1.003400000000000e+10    -1.954584860228718e+01   1.371376343857092e+02    
1.003500000000000e+10    -1.955829716485258e+01   1.368717935858569e+02    
1.003600000000000e+10    -1.955506413118908e+01   1.368233621748307e+02    
1.003700000000000e+10    -1.956290800853936e+01   1.369291256449028e+02    
1.003800000000000e+10    -1.957985322206040e+01   1.365985759682600e+02    
1.003900000000000e+10    -1.960866294516797e+01   1.367406479111429e+02    
1.004000000000000e+10    -1.962349499106134e+01   1.365304858238507e+02    
1.004100000000000e+10    -1.960536418832529e+01   1.366576169197420e+02    
1.004200000000000e+10    -1.964062955929257e+01   1.363040997951569e+02    
1.004300000000000e+10    -1.964326490006568e+01   1.365102292766403e+02    
1.004400000000000e+10    -1.966740286111364e+01   1.364802727975270e+02    
1.004500000000000e+10    -1.964502911790594e+01   1.363833474114730e+02    
1.004600000000000e+10    -1.970037045718677e+01   1.362031566462272e+02    
1.004700000000000e+10    -1.965759244565079e+01   1.362572172059062e+02    
1.004800000000000e+10    -1.966484846077269e+01   1.363971705565807e+02    
1.004900000000000e+10    -1.967174060268769e+01   1.361829040413610e+02    
1.005000000000000e+10    -1.967309415572747e+01   1.361497261281771e+02    
1.005100000000000e+10    -1.970117020850780e+01   1.360850894199298e+02    
1.005200000000000e+10    -1.970342686172656e+01   1.361296836952134e+02    
1.005300000000000e+10    -1.970662607324966e+01   1.360725122538261e+02    
1.005400000000000e+10    -1.972340522400208e+01   1.359623786353411e+02    
1.005500000000000e+10    -1.967510384950057e+01   1.362755126035686e+02    
1.005600000000000e+10    -1.969688595140850e+01   1.358002176396375e+02    
1.005700000000000e+10    -1.968547249487458e+01   1.358168595081238e+02    
1.005800000000000e+10    -1.973538732744467e+01   1.356956764077654e+02    
1.005900000000000e+10    -1.971916281926074e+01   1.354989765839315e+02    
1.006000000000000e+10    -1.974406724085295e+01   1.356137240218703e+02    
1.006100000000000e+10    -1.973340165895824e+01   1.353534024707055e+02    
1.006200000000000e+10    -1.976231689804533e+01   1.351266495360784e+02    
1.006300000000000e+10    -1.981448909476021e+01   1.350581423425311e+02    
1.006400000000000e+10    -1.980378277055888e+01   1.348624590966827e+02    
1.006500000000000e+10    -1.982726347336190e+01   1.346214682170605e+02    
1.006600000000000e+10    -1.982278764143980e+01   1.344682409203924e+02    
1.006700000000000e+10    -1.986375855906324e+01   1.341304995207767e+02    
1.006800000000000e+10    -1.984518878264564e+01   1.341147767415941e+02    
1.006900000000000e+10    -1.992984286629996e+01   1.340456111053316e+02    
1.007000000000000e+10    -1.991709815747131e+01   1.337747403609063e+02    
1.007100000000000e+10    -1.994798631634595e+01   1.337117769530760e+02    
1.007200000000000e+10    -1.994485498443369e+01   1.334549433016922e+02    
1.007300000000000e+10    -2.002947488560651e+01   1.333565329168414e+02    
1.007400000000000e+10    -2.000386609594441e+01   1.332483799307622e+02    
1.007500000000000e+10    -2.003329549333112e+01   1.330643420141857e+02    
1.007600000000000e+10    -2.008039335236851e+01   1.329167593136710e+02    
1.007700000000000e+10    -2.008360191748114e+01   1.328896317353784e+02    
1.007800000000000e+10    -2.014700669976159e+01   1.326008881324397e+02    
1.007900000000000e+10    -2.022016503670342e+01   1.324182767575135e+02    
1.008000000000000e+10    -2.023113930189568e+01   1.322882046142291e+02    
1.008100000000000e+10    -2.022705381819387e+01   1.325641451078060e+02    
1.008200000000000e+10    -2.023682318131964e+01   1.324093118696300e+02    
1.008300000000000e+10    -2.026043523879058e+01   1.321900497862452e+02    
1.008400000000000e+10    -2.027252122224667e+01   1.324212077954406e+02    
1.008500000000000e+10    -2.029245945328758e+01   1.322479457139040e+02    
1.008600000000000e+10    -2.033246948031538e+01   1.322737488734728e+02    
1.008700000000000e+10    -2.034348956917867e+01   1.320514692622801e+02    
1.008800000000000e+10    -2.034095155510494e+01   1.321884155372429e+02    
1.008900000000000e+10    -2.036234273399469e+01   1.320928463181403e+02    
1.009000000000000e+10    -2.038319194797943e+01   1.319828115608174e+02    
1.009100000000000e+10    -2.034611566989288e+01   1.320366440917802e+02    
1.009200000000000e+10    -2.038113686610934e+01   1.318092050110681e+02    
1.009300000000000e+10    -2.034693554993533e+01   1.317409371649446e+02    
1.009400000000000e+10    -2.031440931559370e+01   1.317765093511680e+02    
1.009500000000000e+10    -2.033911836121236e+01   1.318705376011101e+02    
1.009600000000000e+10    -2.038544322265610e+01   1.316196714411357e+02    
1.009700000000000e+10    -2.035613355289574e+01   1.315446348280450e+02    
1.009800000000000e+10    -2.033092386732969e+01   1.313227218372101e+02    
1.009900000000000e+10    -2.032250678357595e+01   1.312691216097574e+02    
1.010000000000000e+10    -2.031881033767280e+01   1.311746655490708e+02    
1.010100000000000e+10    -2.030629153891908e+01   1.309253900224029e+02    
1.010200000000000e+10    -2.031060553904036e+01   1.308370170335510e+02    
1.010300000000000e+10    -2.027735595470978e+01   1.306433241001228e+02    
1.010400000000000e+10    -2.028021929426831e+01   1.302836486933982e+02    
1.010500000000000e+10    -2.026666470117276e+01   1.300506845437575e+02    
1.010600000000000e+10    -2.030971610841938e+01   1.297809573418968e+02    
1.010700000000000e+10    -2.028880425927383e+01   1.298995492634440e+02    
1.010800000000000e+10    -2.027498767304465e+01   1.295829487861191e+02    
1.010900000000000e+10    -2.027559518844972e+01   1.293505666533349e+02    
1.011000000000000e+10    -2.030549927441102e+01   1.291875519383956e+02    
1.011100000000000e+10    -2.034173250744481e+01   1.292593975052960e+02    
1.011200000000000e+10    -2.032389439857135e+01   1.289067397417563e+02    
1.011300000000000e+10    -2.030641741867541e+01   1.287864840218091e+02    
1.011400000000000e+10    -2.033259527446903e+01   1.285019916031026e+02    
1.011500000000000e+10    -2.036622379620468e+01   1.283892077633951e+02    
1.011600000000000e+10    -2.037543141642660e+01   1.281230443581491e+02    
1.011700000000000e+10    -2.033532357523897e+01   1.279873168158467e+02    
1.011800000000000e+10    -2.040356118080345e+01   1.278918561036294e+02    
1.011900000000000e+10    -2.039032433910356e+01   1.280435311257938e+02    
1.012000000000000e+10    -2.046247278929000e+01   1.280172505822736e+02    
1.012100000000000e+10    -2.045324594268801e+01   1.281459528401600e+02    
1.012200000000000e+10    -2.050739250244510e+01   1.278302961207875e+02    
1.012300000000000e+10    -2.050924078311383e+01   1.281240147591517e+02    
1.012400000000000e+10    -2.050982979512118e+01   1.278577632344738e+02    
1.012500000000000e+10    -2.055233980014023e+01   1.278051074330525e+02    
1.012600000000000e+10    -2.054799910858161e+01   1.277637381029143e+02    
1.012700000000000e+10    -2.054801597011196e+01   1.279196041669215e+02    
1.012800000000000e+10    -2.057870431953300e+01   1.281077783101069e+02    
1.012900000000000e+10    -2.054845246791777e+01   1.282495163620927e+02    
1.013000000000000e+10    -2.055059894919185e+01   1.280791249658926e+02    
1.013100000000000e+10    -2.059301245346301e+01   1.280504361530962e+02    
1.013200000000000e+10    -2.056000458697568e+01   1.282562329677154e+02    
1.013300000000000e+10    -2.053845161646401e+01   1.284328602736432e+02    
1.013400000000000e+10    -2.056302411174683e+01   1.284586699371483e+02    
1.013500000000000e+10    -2.055278356873302e+01   1.284171307609741e+02    
1.013600000000000e+10    -2.055285054509069e+01   1.285138743793450e+02    
1.013700000000000e+10    -2.054566801897114e+01   1.285398022011805e+02    
1.013800000000000e+10    -2.053218037645699e+01   1.283643013517150e+02    
1.013900000000000e+10    -2.053975952106300e+01   1.286195062183132e+02    
1.014000000000000e+10    -2.054644714627891e+01   1.283636094619768e+02    
1.014100000000000e+10    -2.050615340946877e+01   1.284141195732234e+02    
1.014200000000000e+10    -2.054261880607545e+01   1.282530157250043e+02    
1.014300000000000e+10    -2.053614375303697e+01   1.281756636899870e+02    
1.014400000000000e+10    -2.051795558720960e+01   1.279855044899140e+02    
1.014500000000000e+10    -2.052012859996975e+01   1.278777285477105e+02    
1.014600000000000e+10    -2.053681706901371e+01   1.277612488467166e+02    
1.014700000000000e+10    -2.056124143703898e+01   1.276585954882051e+02    
1.014800000000000e+10    -2.055489070514550e+01   1.273954850429128e+02    
1.014900000000000e+10    -2.057416218026287e+01   1.274159552647200e+02    
1.015000000000000e+10    -2.057363739204234e+01   1.273366526684682e+02    
1.015100000000000e+10    -2.057564790731921e+01   1.268679051743654e+02    
1.015200000000000e+10    -2.061403319867980e+01   1.268100147203935e+02    
1.015300000000000e+10    -2.058467612567989e+01   1.266511724244047e+02    
1.015400000000000e+10    -2.066397959802891e+01   1.265443138360226e+02    
1.015500000000000e+10    -2.062361619209770e+01   1.262688200844405e+02    
1.015600000000000e+10    -2.067182232824592e+01   1.260600720637309e+02    
1.015700000000000e+10    -2.073524177820411e+01   1.259163769336527e+02    
1.015800000000000e+10    -2.079016421899497e+01   1.257883907394458e+02    
1.015900000000000e+10    -2.081397911387274e+01   1.257408156454433e+02    
1.016000000000000e+10    -2.085602123615961e+01   1.258070444936604e+02    
1.016100000000000e+10    -2.089212861047374e+01   1.254805151583279e+02    
1.016200000000000e+10    -2.091053045943906e+01   1.254469406460029e+02    
1.016300000000000e+10    -2.094079066540725e+01   1.252856314906814e+02    
1.016400000000000e+10    -2.096708423116591e+01   1.251885699730789e+02    
1.016500000000000e+10    -2.101388825955958e+01   1.249204303646443e+02    
1.016600000000000e+10    -2.100876507756109e+01   1.250524359507792e+02    
1.016700000000000e+10    -2.104768572549684e+01   1.250975740237427e+02    
1.016800000000000e+10    -2.108702053024678e+01   1.248802664596601e+02    
1.016900000000000e+10    -2.112792028794474e+01   1.248933273813290e+02    
1.017000000000000e+10    -2.112208936358744e+01   1.249791086407113e+02    
1.017100000000000e+10    -2.111037671905185e+01   1.252571676572419e+02    
1.017200000000000e+10    -2.115140063032840e+01   1.249268604927077e+02    
1.017300000000000e+10    -2.116222488048854e+01   1.248753142649131e+02    
1.017400000000000e+10    -2.120450371473215e+01   1.249077501933843e+02    
1.017500000000000e+10    -2.120632659691095e+01   1.249655452560045e+02    
1.017600000000000e+10    -2.123652329573419e+01   1.249761314602968e+02    
1.017700000000000e+10    -2.117871989852040e+01   1.248112370748648e+02    
1.017800000000000e+10    -2.120590401163826e+01   1.247681928924080e+02    
1.017900000000000e+10    -2.121267631712081e+01   1.245356706748634e+02    
1.018000000000000e+10    -2.120718257707867e+01   1.244753314789270e+02    
1.018100000000000e+10    -2.119007712778234e+01   1.243941412554267e+02    
1.018200000000000e+10    -2.118604236966880e+01   1.241686016766285e+02    
1.018300000000000e+10    -2.117638874534721e+01   1.239591057602497e+02    
1.018400000000000e+10    -2.118758370541193e+01   1.239084542733496e+02    
1.018500000000000e+10    -2.113172155418653e+01   1.235858465639049e+02    
1.018600000000000e+10    -2.115554939048577e+01   1.238866495020475e+02    
1.018700000000000e+10    -2.118239219062840e+01   1.233240276111000e+02    
1.018800000000000e+10    -2.114911640993416e+01   1.233208443296887e+02    
1.018900000000000e+10    -2.114147229956568e+01   1.228615580349725e+02    
1.019000000000000e+10    -2.114763832021962e+01   1.227721409194256e+02    
1.019100000000000e+10    -2.119063963562659e+01   1.225306267242993e+02    
1.019200000000000e+10    -2.117210958772901e+01   1.222541393389250e+02    
1.019300000000000e+10    -2.116935722292694e+01   1.222406830040303e+02    
1.019400000000000e+10    -2.116116644676682e+01   1.218187930644470e+02    
1.019500000000000e+10    -2.118353073448872e+01   1.217750492726335e+02    
1.019600000000000e+10    -2.120803845696637e+01   1.217003756943654e+02    
1.019700000000000e+10    -2.121506042001924e+01   1.211990719226844e+02    
1.019800000000000e+10    -2.121675602003258e+01   1.212988509321401e+02    
1.019900000000000e+10    -2.121838037435612e+01   1.209051042932682e+02    
1.020000000000000e+10    -2.124671090939270e+01   1.210642805496283e+02    
1.020100000000000e+10    -2.124444046387661e+01   1.207663600948703e+02    
1.020200000000000e+10    -2.132298140318063e+01   1.208436279862228e+02    
1.020300000000000e+10    -2.127981874650864e+01   1.205072860159969e+02    
1.020400000000000e+10    -2.132166679429875e+01   1.205449462668398e+02    
1.020500000000000e+10    -2.129544923833692e+01   1.204936449287043e+02    
1.020600000000000e+10    -2.136903275820809e+01   1.204392688560598e+02    
1.020700000000000e+10    -2.136161512002659e+01   1.204468971665730e+02    
1.020800000000000e+10    -2.134286407694982e+01   1.205332363663328e+02    
1.020900000000000e+10    -2.135885386333257e+01   1.205203503190196e+02    
1.021000000000000e+10    -2.135569309256756e+01   1.203690028585690e+02    
1.021100000000000e+10    -2.137564076169442e+01   1.205445402044612e+02    
1.021200000000000e+10    -2.136069563200154e+01   1.205398687382187e+02    
1.021300000000000e+10    -2.136166150850906e+01   1.206271888704749e+02    
1.021400000000000e+10    -2.134199361879768e+01   1.204633952118323e+02    
1.021500000000000e+10    -2.138638896140477e+01   1.207550410255869e+02    
1.021600000000000e+10    -2.134711506742533e+01   1.208112523461902e+02    
1.021700000000000e+10    -2.135678722255184e+01   1.206717834014116e+02    
1.021800000000000e+10    -2.134254827028098e+01   1.206772448725398e+02    
1.021900000000000e+10    -2.135806460462602e+01   1.208065578972529e+02    
1.022000000000000e+10    -2.132380223373474e+01   1.206647930863111e+02    
1.022100000000000e+10    -2.135622991601640e+01   1.208698868071658e+02    
1.022200000000000e+10    -2.134879683296245e+01   1.204414486457403e+02    
1.022300000000000e+10    -2.131042924084666e+01   1.205706009338463e+02    
1.022400000000000e+10    -2.132656058369045e+01   1.204468138255442e+02    
1.022500000000000e+10    -2.133156078163162e+01   1.204647714702965e+02    
1.022600000000000e+10    -2.130547296899329e+01   1.204180561917619e+02    
1.022700000000000e+10    -2.132544063808895e+01   1.201470520096406e+02    
1.022800000000000e+10    -2.133273101481188e+01   1.199557781964008e+02    
1.022900000000000e+10    -2.138418208381463e+01   1.200124013399085e+02    
1.023000000000000e+10    -2.135582541389601e+01   1.198015022267664e+02    
1.023100000000000e+10    -2.141419443458475e+01   1.199969453120843e+02    
1.023200000000000e+10    -2.138771617768418e+01   1.195408824284756e+02    
1.023300000000000e+10    -2.143060282237391e+01   1.196635010170891e+02    
1.023400000000000e+10    -2.140778701047985e+01   1.196755474448733e+02    
1.023500000000000e+10    -2.145695105964013e+01   1.195141999488756e+02    
1.023600000000000e+10    -2.146172582999473e+01   1.191321089081678e+02    
1.023700000000000e+10    -2.148808583170640e+01   1.192233383125412e+02    
1.023800000000000e+10    -2.146754418159706e+01   1.191510786685833e+02    
1.023900000000000e+10    -2.154085998014193e+01   1.189222154329765e+02    
1.024000000000000e+10    -2.157592991692485e+01   1.190272486472813e+02    
1.024100000000000e+10    -2.155709192717045e+01   1.190627405545381e+02    
1.024200000000000e+10    -2.162372205215024e+01   1.191865286002502e+02    
1.024300000000000e+10    -2.165860886884163e+01   1.188929242811377e+02    
1.024400000000000e+10    -2.169838082599841e+01   1.190309117485716e+02    
1.024500000000000e+10    -2.171589266961382e+01   1.189677119316979e+02    
1.024600000000000e+10    -2.177381598729798e+01   1.194105857639578e+02    
1.024700000000000e+10    -2.175502304463695e+01   1.193102395975422e+02    
1.024800000000000e+10    -2.174065288908457e+01   1.193983889914772e+02    
1.024900000000000e+10    -2.182165662853070e+01   1.194351548619046e+02    
1.025000000000000e+10    -2.180415767693930e+01   1.194927021865645e+02    
1.025100000000000e+10    -2.182846841650716e+01   1.193616083556940e+02    
1.025200000000000e+10    -2.181438556096150e+01   1.194970364883534e+02    
1.025300000000000e+10    -2.186181491157074e+01   1.195455065960095e+02    
1.025400000000000e+10    -2.185573973897941e+01   1.196622051921354e+02    
1.025500000000000e+10    -2.186247958517612e+01   1.196174376445778e+02    
1.025600000000000e+10    -2.185830606552630e+01   1.194101484584985e+02    
