[Version] 2.0
! Rohde & Schwarz Vector Network Analyzer
! Rohde-Schwarz,ZNL20-2Port,1323001220200009,1.71.1.10-23.02.1.238
! 
! Port Assignments:
! Nominal Port -> Actual Test Port
! --------------------------------
!   1 -> 1

! Created: GMT 2024-09-04 14:19:09

# Hz S DB R 50

[Number of Ports] 1
[Number of Frequencies] 2001

[Network Data] 
! freq[Hz]               S11[mag dB]              S11[ang]                 
1.000000000000000e+10    -1.227724561275251e+01   -6.755284181580014e+01   
1.000100000000000e+10    -1.228063111230097e+01   -6.753260594363563e+01   
1.000200000000000e+10    -1.228134019251972e+01   -6.746135443831885e+01   
1.000300000000000e+10    -1.228131433686467e+01   -6.744884643300597e+01   
1.000400000000000e+10    -1.228611504945720e+01   -6.746635542701382e+01   
1.000500000000000e+10    -1.228164474537004e+01   -6.750393123658721e+01   
1.000600000000000e+10    -1.229005263281654e+01   -6.742835512532470e+01   
1.000700000000000e+10    -1.228228224884656e+01   -6.753438683140288e+01   
1.000800000000000e+10    -1.230102204136672e+01   -6.751272942156154e+01   
1.000900000000000e+10    -1.228109595310829e+01   -6.744464570872793e+01   
1.001000000000000e+10    -1.229676503961642e+01   -6.754716185529406e+01   
1.001100000000000e+10    -1.229596649530188e+01   -6.745405437872918e+01   
1.001200000000000e+10    -1.230371297832276e+01   -6.755533560023146e+01   
1.001300000000000e+10    -1.229837241335530e+01   -6.753839979459686e+01   
1.001400000000000e+10    -1.231292033277404e+01   -6.752382589730090e+01   
1.001500000000000e+10    -1.230684170863260e+01   -6.762251425859741e+01   
1.001600000000000e+10    -1.231576936846443e+01   -6.759230195936175e+01   
1.001700000000000e+10    -1.232328345541350e+01   -6.758525777311583e+01   
1.001800000000000e+10    -1.232508827781211e+01   -6.760224804326222e+01   
1.001900000000000e+10    -1.233186338238409e+01   -6.764813564164616e+01   
1.002000000000000e+10    -1.233607584622628e+01   -6.757126666037203e+01   
1.002100000000000e+10    -1.233678671316028e+01   -6.762531295700680e+01   
1.002200000000000e+10    -1.233929186074222e+01   -6.769618872368572e+01   
1.002300000000000e+10    -1.234567504714522e+01   -6.769270515065131e+01   
1.002400000000000e+10    -1.235423455852273e+01   -6.781585220604049e+01   
1.002500000000000e+10    -1.235170178657606e+01   -6.784274891896102e+01   
1.002600000000000e+10    -1.235379651290082e+01   -6.784141016043426e+01   
1.002700000000000e+10    -1.235403301346821e+01   -6.784781800828645e+01   
1.002800000000000e+10    -1.234951142789470e+01   -6.796487364726806e+01   
1.002900000000000e+10    -1.235913351327212e+01   -6.795540398440507e+01   
1.003000000000000e+10    -1.236010300484744e+01   -6.801817079329329e+01   
1.003100000000000e+10    -1.235680635611877e+01   -6.814701190908590e+01   
1.003200000000000e+10    -1.236333553879389e+01   -6.813315630805253e+01   
1.003300000000000e+10    -1.237471446545969e+01   -6.816880430072494e+01   
1.003400000000000e+10    -1.236861772309681e+01   -6.830602658522447e+01   
1.003500000000000e+10    -1.236841435876024e+01   -6.828580391971994e+01   
1.003600000000000e+10    -1.237722800490042e+01   -6.833654478557311e+01   
1.003700000000000e+10    -1.237009539692991e+01   -6.844234811658927e+01   
1.003800000000000e+10    -1.237558512404344e+01   -6.847701572810307e+01   
1.003900000000000e+10    -1.237503125136041e+01   -6.859321820310768e+01   
1.004000000000000e+10    -1.237035714078654e+01   -6.849585146750256e+01   
1.004100000000000e+10    -1.235921128261294e+01   -6.863602276466057e+01   
1.004200000000000e+10    -1.236568191798962e+01   -6.858631911443001e+01   
1.004300000000000e+10    -1.236277636584755e+01   -6.870976185066033e+01   
1.004400000000000e+10    -1.236031213767775e+01   -6.882345315936468e+01   
1.004500000000000e+10    -1.236951685408610e+01   -6.879929054540672e+01   
1.004600000000000e+10    -1.235220126606476e+01   -6.882783309309691e+01   
1.004700000000000e+10    -1.235402863089413e+01   -6.896308658211517e+01   
1.004800000000000e+10    -1.234816331415389e+01   -6.901887963134253e+01   
1.004900000000000e+10    -1.235775250241393e+01   -6.900524863558439e+01   
1.005000000000000e+10    -1.235728690714894e+01   -6.900602530149629e+01   
1.005100000000000e+10    -1.233652999278564e+01   -6.903060148254519e+01   
1.005200000000000e+10    -1.232654770887968e+01   -6.910923419254327e+01   
1.005300000000000e+10    -1.232441805086180e+01   -6.918762625123530e+01   
1.005400000000000e+10    -1.232742649695237e+01   -6.925475096398333e+01   
1.005500000000000e+10    -1.232092302230944e+01   -6.932852639194779e+01   
1.005600000000000e+10    -1.231542629200024e+01   -6.926402386846598e+01   
1.005700000000000e+10    -1.231669351012080e+01   -6.932210081017260e+01   
1.005800000000000e+10    -1.229646947984431e+01   -6.928448278472648e+01   
1.005900000000000e+10    -1.229703219158292e+01   -6.941023443112721e+01   
1.006000000000000e+10    -1.229072755243319e+01   -6.946869514366951e+01   
1.006100000000000e+10    -1.228858028118050e+01   -6.943250908353632e+01   
1.006200000000000e+10    -1.227769249349118e+01   -6.943610451308160e+01   
1.006300000000000e+10    -1.225923165144030e+01   -6.943519713621244e+01   
1.006400000000000e+10    -1.226699625291141e+01   -6.944506607626654e+01   
1.006500000000000e+10    -1.226073547335453e+01   -6.952164027553754e+01   
1.006600000000000e+10    -1.225986665682705e+01   -6.951603775443158e+01   
1.006700000000000e+10    -1.225504578649834e+01   -6.944804412038816e+01   
1.006800000000000e+10    -1.226180440127622e+01   -6.956837189064233e+01   
1.006900000000000e+10    -1.223989398763030e+01   -6.950777480965189e+01   
1.007000000000000e+10    -1.223787513113223e+01   -6.953576572961799e+01   
1.007100000000000e+10    -1.223412578772045e+01   -6.952241188250653e+01   
1.007200000000000e+10    -1.223647868167159e+01   -6.958920346084498e+01   
1.007300000000000e+10    -1.222507557160702e+01   -6.951408154766253e+01   
1.007400000000000e+10    -1.222018501759171e+01   -6.952990832137517e+01   
1.007500000000000e+10    -1.222383715777281e+01   -6.947413903684900e+01   
1.007600000000000e+10    -1.221170494931844e+01   -6.956026596626722e+01   
1.007700000000000e+10    -1.220907202987611e+01   -6.947726634579905e+01   
1.007800000000000e+10    -1.220340710132396e+01   -6.947852321190962e+01   
1.007900000000000e+10    -1.219244231710799e+01   -6.940289669881220e+01   
1.008000000000000e+10    -1.219108248739613e+01   -6.939191024334028e+01   
1.008100000000000e+10    -1.220146213100461e+01   -6.951167782937468e+01   
1.008200000000000e+10    -1.219675312393376e+01   -6.950324470246422e+01   
1.008300000000000e+10    -1.219644949414377e+01   -6.936853357267030e+01   
1.008400000000000e+10    -1.219697780709054e+01   -6.943127438832471e+01   
1.008500000000000e+10    -1.219068597791341e+01   -6.940076890240003e+01   
1.008600000000000e+10    -1.218946964870181e+01   -6.940810624763506e+01   
1.008700000000000e+10    -1.218972484220099e+01   -6.936769329121192e+01   
1.008800000000000e+10    -1.219233292243939e+01   -6.943208266453981e+01   
1.008900000000000e+10    -1.218912117696288e+01   -6.930314754025434e+01   
1.009000000000000e+10    -1.218317524935526e+01   -6.937920947020461e+01   
1.009100000000000e+10    -1.218648139308521e+01   -6.938333986588727e+01   
1.009200000000000e+10    -1.218703852742039e+01   -6.929918155155961e+01   
1.009300000000000e+10    -1.219303774140418e+01   -6.930615159233157e+01   
1.009400000000000e+10    -1.219803009193604e+01   -6.934306533466503e+01   
1.009500000000000e+10    -1.220048017628474e+01   -6.937316337526539e+01   
1.009600000000000e+10    -1.219585929800106e+01   -6.929316972375742e+01   
1.009700000000000e+10    -1.220207841181127e+01   -6.931685611937287e+01   
1.009800000000000e+10    -1.221277135119499e+01   -6.927615037592120e+01   
1.009900000000000e+10    -1.221521153520799e+01   -6.927434631536353e+01   
1.010000000000000e+10    -1.221756230679140e+01   -6.935043986059226e+01   
1.010100000000000e+10    -1.221622141442002e+01   -6.928361940473675e+01   
1.010200000000000e+10    -1.222683065436532e+01   -6.925249369733994e+01   
1.010300000000000e+10    -1.223384881000228e+01   -6.931296833717565e+01   
1.010400000000000e+10    -1.223284684578648e+01   -6.927525140814977e+01   
1.010500000000000e+10    -1.224474616523472e+01   -6.935447254344726e+01   
1.010600000000000e+10    -1.223358525039777e+01   -6.924657467609214e+01   
1.010700000000000e+10    -1.225480231709930e+01   -6.939869436711898e+01   
1.010800000000000e+10    -1.226614403821106e+01   -6.927911518315827e+01   
1.010900000000000e+10    -1.225933631758128e+01   -6.936996014195319e+01   
1.011000000000000e+10    -1.225600809476342e+01   -6.930364581968907e+01   
1.011100000000000e+10    -1.225625476883270e+01   -6.942815313176602e+01   
1.011200000000000e+10    -1.227111354831834e+01   -6.943430143745256e+01   
1.011300000000000e+10    -1.226849374925990e+01   -6.950167601971359e+01   
1.011400000000000e+10    -1.227872285723088e+01   -6.946228347383349e+01   
1.011500000000000e+10    -1.228013651121773e+01   -6.952086757269753e+01   
1.011600000000000e+10    -1.228985601194453e+01   -6.950175157360079e+01   
1.011700000000000e+10    -1.230673356372210e+01   -6.951038988771819e+01   
1.011800000000000e+10    -1.230221854768915e+01   -6.959478880331150e+01   
1.011900000000000e+10    -1.230151130264316e+01   -6.964261214485569e+01   
1.012000000000000e+10    -1.229964139678880e+01   -6.968053957300815e+01   
1.012100000000000e+10    -1.231630740726101e+01   -6.977250633846296e+01   
1.012200000000000e+10    -1.230468856266689e+01   -6.973206926726849e+01   
1.012300000000000e+10    -1.231103434178882e+01   -6.978129642733211e+01   
1.012400000000000e+10    -1.232190781560006e+01   -6.982399278123590e+01   
1.012500000000000e+10    -1.231765529155258e+01   -6.985231595908884e+01   
1.012600000000000e+10    -1.231934821077216e+01   -6.985535492720392e+01   
1.012700000000000e+10    -1.232826690905191e+01   -6.997386502559939e+01   
1.012800000000000e+10    -1.232198854523222e+01   -6.997323704086942e+01   
1.012900000000000e+10    -1.232228946340555e+01   -7.006287072543259e+01   
1.013000000000000e+10    -1.232335048973928e+01   -7.002032004144731e+01   
1.013100000000000e+10    -1.232811999816843e+01   -7.012085396092819e+01   
1.013200000000000e+10    -1.233255865662017e+01   -7.015955418701820e+01   
1.013300000000000e+10    -1.233504347943031e+01   -7.024097242119380e+01   
1.013400000000000e+10    -1.232285334215261e+01   -7.026650451599632e+01   
1.013500000000000e+10    -1.232910324344141e+01   -7.030276731086282e+01   
1.013600000000000e+10    -1.231958052171234e+01   -7.033419710719616e+01   
1.013700000000000e+10    -1.231865927030510e+01   -7.037734739841802e+01   
1.013800000000000e+10    -1.231429406327288e+01   -7.044898017592992e+01   
1.013900000000000e+10    -1.231809442610029e+01   -7.047415356484656e+01   
1.014000000000000e+10    -1.231042770243296e+01   -7.048000521459436e+01   
1.014100000000000e+10    -1.232287637090257e+01   -7.053580073208913e+01   
1.014200000000000e+10    -1.231140996263875e+01   -7.058080751859822e+01   
1.014300000000000e+10    -1.231759520967354e+01   -7.058146898469765e+01   
1.014400000000000e+10    -1.230864220361008e+01   -7.061006088376588e+01   
1.014500000000000e+10    -1.231598693357174e+01   -7.069702011923246e+01   
1.014600000000000e+10    -1.230688302281506e+01   -7.068527905201037e+01   
1.014700000000000e+10    -1.229803190938019e+01   -7.065413682548397e+01   
1.014800000000000e+10    -1.230728791261491e+01   -7.070296455517503e+01   
1.014900000000000e+10    -1.229820479188583e+01   -7.077722635110374e+01   
1.015000000000000e+10    -1.229689788858020e+01   -7.076046433932585e+01   
1.015100000000000e+10    -1.229309427166712e+01   -7.077941731266786e+01   
1.015200000000000e+10    -1.228754709212566e+01   -7.078921890178958e+01   
1.015300000000000e+10    -1.229196434690123e+01   -7.084257539375569e+01   
1.015400000000000e+10    -1.227873358700825e+01   -7.080785641618006e+01   
1.015500000000000e+10    -1.229842340731805e+01   -7.084281586195529e+01   
1.015600000000000e+10    -1.228990490213894e+01   -7.085159792254581e+01   
1.015700000000000e+10    -1.227639961405975e+01   -7.079337330004192e+01   
1.015800000000000e+10    -1.228069347555575e+01   -7.086277946725242e+01   
1.015900000000000e+10    -1.227781784824941e+01   -7.083534925220106e+01   
1.016000000000000e+10    -1.227151914151124e+01   -7.087048700193044e+01   
1.016100000000000e+10    -1.227280492622689e+01   -7.089653172511753e+01   
1.016200000000000e+10    -1.226343532709112e+01   -7.080280707278614e+01   
1.016300000000000e+10    -1.225700484557057e+01   -7.080070008269308e+01   
1.016400000000000e+10    -1.227089144042328e+01   -7.081578236400568e+01   
1.016500000000000e+10    -1.225488318257877e+01   -7.078781384501997e+01   
1.016600000000000e+10    -1.226809122403065e+01   -7.084487741732421e+01   
1.016700000000000e+10    -1.225308764758527e+01   -7.081451204973223e+01   
1.016800000000000e+10    -1.225040189225642e+01   -7.077934459901115e+01   
1.016900000000000e+10    -1.225123223689577e+01   -7.074681200615834e+01   
1.017000000000000e+10    -1.225743294532553e+01   -7.075885739339527e+01   
1.017100000000000e+10    -1.225309188873351e+01   -7.083696079334349e+01   
1.017200000000000e+10    -1.224770824636120e+01   -7.074259630108051e+01   
1.017300000000000e+10    -1.225102195702684e+01   -7.079127355895641e+01   
1.017400000000000e+10    -1.224954101742363e+01   -7.072758835080646e+01   
1.017500000000000e+10    -1.224737746932171e+01   -7.076443901810427e+01   
1.017600000000000e+10    -1.223551683549991e+01   -7.072246764084521e+01   
1.017700000000000e+10    -1.225047209964089e+01   -7.067309387821463e+01   
1.017800000000000e+10    -1.224567369776084e+01   -7.071396369404955e+01   
1.017900000000000e+10    -1.224348296252348e+01   -7.062500526007561e+01   
1.018000000000000e+10    -1.224065505872122e+01   -7.065374350618367e+01   
1.018100000000000e+10    -1.224161109804845e+01   -7.059714623613567e+01   
1.018200000000000e+10    -1.224705367126078e+01   -7.056575000069954e+01   
1.018300000000000e+10    -1.223825700990027e+01   -7.055262149490608e+01   
1.018400000000000e+10    -1.225132410800273e+01   -7.056027437407644e+01   
1.018500000000000e+10    -1.224734674480825e+01   -7.056989771022835e+01   
1.018600000000000e+10    -1.225721937371134e+01   -7.061261500012166e+01   
1.018700000000000e+10    -1.224854251465590e+01   -7.054467687758842e+01   
1.018800000000000e+10    -1.225909372688552e+01   -7.055180132561270e+01   
1.018900000000000e+10    -1.226135289945746e+01   -7.054361986343514e+01   
1.019000000000000e+10    -1.225992980049741e+01   -7.050324960067010e+01   
1.019100000000000e+10    -1.225740525241208e+01   -7.050831973090476e+01   
1.019200000000000e+10    -1.226014670468318e+01   -7.047322547076918e+01   
1.019300000000000e+10    -1.227707175405058e+01   -7.053112379439534e+01   
1.019400000000000e+10    -1.226954019206033e+01   -7.045340641416745e+01   
1.019500000000000e+10    -1.227444367472256e+01   -7.050099471094455e+01   
1.019600000000000e+10    -1.226186168673679e+01   -7.051754104643156e+01   
1.019700000000000e+10    -1.227064043391600e+01   -7.047356902926599e+01   
1.019800000000000e+10    -1.227443867923980e+01   -7.049209247317189e+01   
1.019900000000000e+10    -1.227233379871164e+01   -7.042496221175567e+01   
1.020000000000000e+10    -1.228316225720801e+01   -7.051829860982792e+01   
1.020100000000000e+10    -1.228662911876450e+01   -7.047738708327084e+01   
1.020200000000000e+10    -1.227876227644050e+01   -7.045274851910423e+01   
1.020300000000000e+10    -1.228909324895886e+01   -7.044341638738291e+01   
1.020400000000000e+10    -1.228199200971185e+01   -7.048513579688348e+01   
1.020500000000000e+10    -1.229343254537718e+01   -7.051617946242369e+01   
1.020600000000000e+10    -1.228102082994242e+01   -7.048271911977659e+01   
1.020700000000000e+10    -1.229369271255124e+01   -7.049738130386928e+01   
1.020800000000000e+10    -1.230346284521728e+01   -7.052123313782829e+01   
1.020900000000000e+10    -1.229340206399283e+01   -7.055691771894047e+01   
1.021000000000000e+10    -1.229769818220343e+01   -7.055748713177030e+01   
1.021100000000000e+10    -1.229917814737217e+01   -7.058260088481155e+01   
1.021200000000000e+10    -1.230228531570695e+01   -7.051141999951727e+01   
1.021300000000000e+10    -1.229763723188420e+01   -7.061172939549918e+01   
1.021400000000000e+10    -1.230776144573446e+01   -7.056418541380501e+01   
1.021500000000000e+10    -1.229699240790336e+01   -7.068748343422693e+01   
1.021600000000000e+10    -1.230428022840333e+01   -7.072026554046786e+01   
1.021700000000000e+10    -1.229696200220850e+01   -7.064512506161789e+01   
1.021800000000000e+10    -1.230140202019457e+01   -7.066374038456476e+01   
1.021900000000000e+10    -1.229063491042996e+01   -7.062957644906005e+01   
1.022000000000000e+10    -1.230140836940715e+01   -7.064981032695093e+01   
1.022100000000000e+10    -1.228349644089673e+01   -7.072837563064857e+01   
1.022200000000000e+10    -1.229212294950481e+01   -7.067525278700899e+01   
1.022300000000000e+10    -1.229266512246423e+01   -7.072624942971302e+01   
1.022400000000000e+10    -1.229675189771589e+01   -7.072277877789936e+01   
1.022500000000000e+10    -1.228567054722676e+01   -7.074036451665424e+01   
1.022600000000000e+10    -1.229193937790020e+01   -7.070814180151785e+01   
1.022700000000000e+10    -1.228749663532351e+01   -7.075476133811517e+01   
1.022800000000000e+10    -1.228748167723114e+01   -7.069954458153896e+01   
1.022900000000000e+10    -1.227682235170596e+01   -7.079861030550957e+01   
1.023000000000000e+10    -1.228255018127905e+01   -7.077388885750568e+01   
1.023100000000000e+10    -1.226895285781113e+01   -7.080613694370382e+01   
1.023200000000000e+10    -1.228193867711080e+01   -7.079658963165649e+01   
1.023300000000000e+10    -1.226398038624373e+01   -7.086165760160942e+01   
1.023400000000000e+10    -1.227982226758148e+01   -7.084493197910743e+01   
1.023500000000000e+10    -1.226544415496515e+01   -7.089358024060849e+01   
1.023600000000000e+10    -1.227177011651872e+01   -7.085710727938026e+01   
1.023700000000000e+10    -1.226883598010348e+01   -7.085965617369203e+01   
1.023800000000000e+10    -1.227620066217939e+01   -7.088444261539487e+01   
1.023900000000000e+10    -1.227064501227583e+01   -7.086787928200123e+01   
1.024000000000000e+10    -1.227177538532025e+01   -7.082661046319286e+01   
1.024100000000000e+10    -1.226968698774957e+01   -7.090666888289175e+01   
1.024200000000000e+10    -1.226531899490009e+01   -7.093401507630726e+01   
1.024300000000000e+10    -1.225640979479205e+01   -7.085247101433148e+01   
1.024400000000000e+10    -1.225673950889732e+01   -7.092145516292183e+01   
1.024500000000000e+10    -1.225573505417516e+01   -7.085263906471583e+01   
1.024600000000000e+10    -1.225424047157924e+01   -7.096880060089799e+01   
1.024700000000000e+10    -1.225093387590408e+01   -7.090821317537603e+01   
1.024800000000000e+10    -1.226473827870925e+01   -7.097844849585979e+01   
1.024900000000000e+10    -1.224686077205787e+01   -7.102145464280333e+01   
1.025000000000000e+10    -1.224148634457571e+01   -7.097657045947255e+01   
1.025100000000000e+10    -1.224677119229062e+01   -7.092378958776033e+01   
1.025200000000000e+10    -1.224995533180007e+01   -7.101134979992570e+01   
1.025300000000000e+10    -1.223406275591155e+01   -7.104073960574740e+01   
1.025400000000000e+10    -1.222929380640124e+01   -7.103237115608108e+01   
1.025500000000000e+10    -1.223499003151192e+01   -7.099974838430647e+01   
1.025600000000000e+10    -1.223536432675831e+01   -7.105549597899707e+01   
