[Version] 2.0
! Rohde & Schwarz Vector Network Analyzer
! Rohde-Schwarz,ZNL20-2Port,1323001220200009,1.71.1.10-23.02.1.238
! 
! Port Assignments:
! Nominal Port -> Actual Test Port
! --------------------------------
!   1 -> 1

! Created: GMT 2024-09-04 14:20:58

# Hz S DB R 50

[Number of Ports] 1
[Number of Frequencies] 2001

[Network Data] 
! freq[Hz]               S11[mag dB]              S11[ang]                 
1.000000000000000e+10    -1.372558084837137e+01   -6.263151672099097e+01   
1.000100000000000e+10    -1.372806479573423e+01   -6.259704369624971e+01   
1.000200000000000e+10    -1.372563991354829e+01   -6.250309690302591e+01   
1.000300000000000e+10    -1.371817935395376e+01   -6.248109947181459e+01   
1.000400000000000e+10    -1.372328952953701e+01   -6.248261930916073e+01   
1.000500000000000e+10    -1.371493883994748e+01   -6.253599469907624e+01   
1.000600000000000e+10    -1.372477806934205e+01   -6.245017314292561e+01   
1.000700000000000e+10    -1.370440654957862e+01   -6.254273698956496e+01   
1.000800000000000e+10    -1.372505174960556e+01   -6.248740562898769e+01   
1.000900000000000e+10    -1.369537543827581e+01   -6.242460681944959e+01   
1.001000000000000e+10    -1.371049775020349e+01   -6.249495670252219e+01   
1.001100000000000e+10    -1.370586641359843e+01   -6.243687252514340e+01   
1.001200000000000e+10    -1.370491896331477e+01   -6.247386502797197e+01   
1.001300000000000e+10    -1.370125547797553e+01   -6.248160962670599e+01   
1.001400000000000e+10    -1.371062139726127e+01   -6.240427201375265e+01   
1.001500000000000e+10    -1.370992541651295e+01   -6.255870124276238e+01   
1.001600000000000e+10    -1.371136963135283e+01   -6.247624253077716e+01   
1.001700000000000e+10    -1.371859379274167e+01   -6.247602222446965e+01   
1.001800000000000e+10    -1.371734422980492e+01   -6.248686358652213e+01   
1.001900000000000e+10    -1.371737859912735e+01   -6.252281697088795e+01   
1.002000000000000e+10    -1.372134719031463e+01   -6.246531186881043e+01   
1.002100000000000e+10    -1.371902380649738e+01   -6.246167085828839e+01   
1.002200000000000e+10    -1.371857441192632e+01   -6.256432662554489e+01   
1.002300000000000e+10    -1.372364137620640e+01   -6.254307641975250e+01   
1.002400000000000e+10    -1.373030244358354e+01   -6.267037074265320e+01   
1.002500000000000e+10    -1.372814589326041e+01   -6.267876975919650e+01   
1.002600000000000e+10    -1.372575284143755e+01   -6.266421672422312e+01   
1.002700000000000e+10    -1.372484396880472e+01   -6.269726486367900e+01   
1.002800000000000e+10    -1.371338718415269e+01   -6.279987715540561e+01   
1.002900000000000e+10    -1.371637827387948e+01   -6.277626065017072e+01   
1.003000000000000e+10    -1.371459776831057e+01   -6.288092002813077e+01   
1.003100000000000e+10    -1.371400500125048e+01   -6.299466621451095e+01   
1.003200000000000e+10    -1.371804218857777e+01   -6.295826740791829e+01   
1.003300000000000e+10    -1.372311993852461e+01   -6.299221313169691e+01   
1.003400000000000e+10    -1.371654138655473e+01   -6.313349189447517e+01   
1.003500000000000e+10    -1.371607517178146e+01   -6.313720411781414e+01   
1.003600000000000e+10    -1.372184687762745e+01   -6.315470261835164e+01   
1.003700000000000e+10    -1.370885457114959e+01   -6.328656106730116e+01   
1.003800000000000e+10    -1.371682612026856e+01   -6.327411331135600e+01   
1.003900000000000e+10    -1.371174773600862e+01   -6.345930109906584e+01   
1.004000000000000e+10    -1.370382555373266e+01   -6.334069580736300e+01   
1.004100000000000e+10    -1.368939315607707e+01   -6.349596046382746e+01   
1.004200000000000e+10    -1.369200705382778e+01   -6.338914890108580e+01   
1.004300000000000e+10    -1.369158032356980e+01   -6.354448258931131e+01   
1.004400000000000e+10    -1.367980097914874e+01   -6.367669678153523e+01   
1.004500000000000e+10    -1.368870365567251e+01   -6.365820116487715e+01   
1.004600000000000e+10    -1.366686750815677e+01   -6.368722220037122e+01   
1.004700000000000e+10    -1.366649725098723e+01   -6.383375269710443e+01   
1.004800000000000e+10    -1.365759363330948e+01   -6.390450809166860e+01   
1.004900000000000e+10    -1.366609639732562e+01   -6.388222221593795e+01   
1.005000000000000e+10    -1.366341695554265e+01   -6.387529144472172e+01   
1.005100000000000e+10    -1.363612790382442e+01   -6.395178311861065e+01   
1.005200000000000e+10    -1.362356980127885e+01   -6.401513709314212e+01   
1.005300000000000e+10    -1.361937575119441e+01   -6.411295278382855e+01   
1.005400000000000e+10    -1.361563185475821e+01   -6.412308802565066e+01   
1.005500000000000e+10    -1.361057075503633e+01   -6.421271652324916e+01   
1.005600000000000e+10    -1.359281920779061e+01   -6.416299074272645e+01   
1.005700000000000e+10    -1.359404249249699e+01   -6.423128755143408e+01   
1.005800000000000e+10    -1.356871334607037e+01   -6.421148785910204e+01   
1.005900000000000e+10    -1.356352534961857e+01   -6.431932251075531e+01   
1.006000000000000e+10    -1.355407118084458e+01   -6.438731334711086e+01   
1.006100000000000e+10    -1.354794185808499e+01   -6.439710806108585e+01   
1.006200000000000e+10    -1.353751341074861e+01   -6.439211312005816e+01   
1.006300000000000e+10    -1.351047094874594e+01   -6.437362377164069e+01   
1.006400000000000e+10    -1.351506575326201e+01   -6.438643256462291e+01   
1.006500000000000e+10    -1.350450902885221e+01   -6.446540130865928e+01   
1.006600000000000e+10    -1.349963493641171e+01   -6.443422248692161e+01   
1.006700000000000e+10    -1.348968118327665e+01   -6.436941035286763e+01   
1.006800000000000e+10    -1.349650250329900e+01   -6.454428706429108e+01   
1.006900000000000e+10    -1.346587353832721e+01   -6.446754664042648e+01   
1.007000000000000e+10    -1.346656381329284e+01   -6.450087403547887e+01   
1.007100000000000e+10    -1.345158096402322e+01   -6.446599967565638e+01   
1.007200000000000e+10    -1.345610099424959e+01   -6.453660855983371e+01   
1.007300000000000e+10    -1.343686529673975e+01   -6.446090272003663e+01   
1.007400000000000e+10    -1.342722369450001e+01   -6.447817333098531e+01   
1.007500000000000e+10    -1.342420786753422e+01   -6.443310418043970e+01   
1.007600000000000e+10    -1.341334146899399e+01   -6.451770521594766e+01   
1.007700000000000e+10    -1.340684436445494e+01   -6.444349651625780e+01   
1.007800000000000e+10    -1.339437947189011e+01   -6.445471122619246e+01   
1.007900000000000e+10    -1.337833879505479e+01   -6.434136585451031e+01   
1.008000000000000e+10    -1.337670035268534e+01   -6.434783319172755e+01   
1.008100000000000e+10    -1.338517442868822e+01   -6.449120885321207e+01   
1.008200000000000e+10    -1.337566102978912e+01   -6.444172243361753e+01   
1.008300000000000e+10    -1.337048438322572e+01   -6.430012271155479e+01   
1.008400000000000e+10    -1.336868332026777e+01   -6.437022213504220e+01   
1.008500000000000e+10    -1.335478515107120e+01   -6.436149908405804e+01   
1.008600000000000e+10    -1.335093741224282e+01   -6.432913196878692e+01   
1.008700000000000e+10    -1.335004679580433e+01   -6.431528885978899e+01   
1.008800000000000e+10    -1.334979502293164e+01   -6.436915285064811e+01   
1.008900000000000e+10    -1.334344059705234e+01   -6.423717957782149e+01   
1.009000000000000e+10    -1.333622320451467e+01   -6.428313846993824e+01   
1.009100000000000e+10    -1.333732051556044e+01   -6.432746022966072e+01   
1.009200000000000e+10    -1.333277515824789e+01   -6.425414019911726e+01   
1.009300000000000e+10    -1.333391832524306e+01   -6.422412947086976e+01   
1.009400000000000e+10    -1.334053615392507e+01   -6.424752974829447e+01   
1.009500000000000e+10    -1.333570784154281e+01   -6.426966807888505e+01   
1.009600000000000e+10    -1.333109603898937e+01   -6.420677895748696e+01   
1.009700000000000e+10    -1.333093364458566e+01   -6.421777880919863e+01   
1.009800000000000e+10    -1.333672290020384e+01   -6.415892631375803e+01   
1.009900000000000e+10    -1.334222385186549e+01   -6.416028897819177e+01   
1.010000000000000e+10    -1.333864361248255e+01   -6.422209208563510e+01   
1.010100000000000e+10    -1.333331564224727e+01   -6.415297073594961e+01   
1.010200000000000e+10    -1.334368481084324e+01   -6.415524103310449e+01   
1.010300000000000e+10    -1.334728659590682e+01   -6.419952454710690e+01   
1.010400000000000e+10    -1.334088430263689e+01   -6.417927296054165e+01   
1.010500000000000e+10    -1.335316383431211e+01   -6.420592139549203e+01   
1.010600000000000e+10    -1.333500353766608e+01   -6.412117105942941e+01   
1.010700000000000e+10    -1.335777536140207e+01   -6.426825530350180e+01   
1.010800000000000e+10    -1.335759535086189e+01   -6.413923746123722e+01   
1.010900000000000e+10    -1.335247594589906e+01   -6.424806287766727e+01   
1.011000000000000e+10    -1.335228473343790e+01   -6.417648325426038e+01   
1.011100000000000e+10    -1.334830620536031e+01   -6.432850855407007e+01   
1.011200000000000e+10    -1.335830875532733e+01   -6.431694551086996e+01   
1.011300000000000e+10    -1.335508930852347e+01   -6.440789960926958e+01   
1.011400000000000e+10    -1.336117893442593e+01   -6.436863239524568e+01   
1.011500000000000e+10    -1.335790387926842e+01   -6.443590501186844e+01   
1.011600000000000e+10    -1.336941283620161e+01   -6.439919127111303e+01   
1.011700000000000e+10    -1.337914632982299e+01   -6.446750242897002e+01   
1.011800000000000e+10    -1.337576700106076e+01   -6.451792035304649e+01   
1.011900000000000e+10    -1.337539083070909e+01   -6.457324811967283e+01   
1.012000000000000e+10    -1.336642002519906e+01   -6.466442887381338e+01   
1.012100000000000e+10    -1.338529741677523e+01   -6.471373267489408e+01   
1.012200000000000e+10    -1.336829852488142e+01   -6.468960081208147e+01   
1.012300000000000e+10    -1.337310851559004e+01   -6.475520237388305e+01   
1.012400000000000e+10    -1.338225227838434e+01   -6.481253568961095e+01   
1.012500000000000e+10    -1.337749735288998e+01   -6.483180777929822e+01   
1.012600000000000e+10    -1.338099410906031e+01   -6.485077216335416e+01   
1.012700000000000e+10    -1.338418741249937e+01   -6.496912446981166e+01   
1.012800000000000e+10    -1.337665085968429e+01   -6.499967780136701e+01   
1.012900000000000e+10    -1.337273961730564e+01   -6.508865580441677e+01   
1.013000000000000e+10    -1.337591205260264e+01   -6.503858081777081e+01   
1.013100000000000e+10    -1.337124880537673e+01   -6.516734979647394e+01   
1.013200000000000e+10    -1.337623013770350e+01   -6.523086064474772e+01   
1.013300000000000e+10    -1.338366539210981e+01   -6.530169720872723e+01   
1.013400000000000e+10    -1.336709986711662e+01   -6.535057398877873e+01   
1.013500000000000e+10    -1.337031606867336e+01   -6.542129271399762e+01   
1.013600000000000e+10    -1.336044747558289e+01   -6.546323552217447e+01   
1.013700000000000e+10    -1.335560601955042e+01   -6.553227608899763e+01   
1.013800000000000e+10    -1.335103790915888e+01   -6.557212713111674e+01   
1.013900000000000e+10    -1.334874615258361e+01   -6.565782283085223e+01   
1.014000000000000e+10    -1.334040474014378e+01   -6.566406356530014e+01   
1.014100000000000e+10    -1.334768326848796e+01   -6.570952244149358e+01   
1.014200000000000e+10    -1.333146932112893e+01   -6.578208320705751e+01   
1.014300000000000e+10    -1.333697295135767e+01   -6.582003224885574e+01   
1.014400000000000e+10    -1.332991975881407e+01   -6.585460114261129e+01   
1.014500000000000e+10    -1.333280132021210e+01   -6.596037863994027e+01   
1.014600000000000e+10    -1.331437787083792e+01   -6.597936398797998e+01   
1.014700000000000e+10    -1.331060689643981e+01   -6.595421494013351e+01   
1.014800000000000e+10    -1.331794720128880e+01   -6.601057054266485e+01   
1.014900000000000e+10    -1.330709723430332e+01   -6.611574465407236e+01   
1.015000000000000e+10    -1.330382721411216e+01   -6.613187668771367e+01   
1.015100000000000e+10    -1.330011311929576e+01   -6.615248992665344e+01   
1.015200000000000e+10    -1.328589184970143e+01   -6.618489269905896e+01   
1.015300000000000e+10    -1.329362484461824e+01   -6.624317343775354e+01   
1.015400000000000e+10    -1.327994406018870e+01   -6.626129984662468e+01   
1.015500000000000e+10    -1.329659389832843e+01   -6.627509946618623e+01   
1.015600000000000e+10    -1.328348299673598e+01   -6.630041179857324e+01   
1.015700000000000e+10    -1.326848562248722e+01   -6.628706407662064e+01   
1.015800000000000e+10    -1.326921475293837e+01   -6.640369824506354e+01   
1.015900000000000e+10    -1.326228725768076e+01   -6.637255567475857e+01   
1.016000000000000e+10    -1.325747817628813e+01   -6.645656182094694e+01   
1.016100000000000e+10    -1.325965197340862e+01   -6.644473566729977e+01   
1.016200000000000e+10    -1.324515612290918e+01   -6.640062255297291e+01   
1.016300000000000e+10    -1.324163440397489e+01   -6.641726534195128e+01   
1.016400000000000e+10    -1.325597159590656e+01   -6.641049474885203e+01   
1.016500000000000e+10    -1.323283937450639e+01   -6.642278840542791e+01   
1.016600000000000e+10    -1.324338887843511e+01   -6.646427604931297e+01   
1.016700000000000e+10    -1.323022507653379e+01   -6.650348257396725e+01   
1.016800000000000e+10    -1.322696041360112e+01   -6.645902490528216e+01   
1.016900000000000e+10    -1.322567069244434e+01   -6.644570371998542e+01   
1.017000000000000e+10    -1.323345232988560e+01   -6.648865235315711e+01   
1.017100000000000e+10    -1.322962943962251e+01   -6.657621226946395e+01   
1.017200000000000e+10    -1.321760365164032e+01   -6.648813839054792e+01   
1.017300000000000e+10    -1.322340449653334e+01   -6.652725581014890e+01   
1.017400000000000e+10    -1.322086285309438e+01   -6.650521610698227e+01   
1.017500000000000e+10    -1.321577180868269e+01   -6.655637906007587e+01   
1.017600000000000e+10    -1.320696266898570e+01   -6.651888482047821e+01   
1.017700000000000e+10    -1.322072374393306e+01   -6.646197668037156e+01   
1.017800000000000e+10    -1.321429411206122e+01   -6.653861506564817e+01   
1.017900000000000e+10    -1.321171935113662e+01   -6.645460553352505e+01   
1.018000000000000e+10    -1.321397604781060e+01   -6.650406934973510e+01   
1.018100000000000e+10    -1.321327781025141e+01   -6.646961408698516e+01   
1.018200000000000e+10    -1.321508560492055e+01   -6.644612466560929e+01   
1.018300000000000e+10    -1.320643372475361e+01   -6.648998942440315e+01   
1.018400000000000e+10    -1.322054390732708e+01   -6.647027727666834e+01   
1.018500000000000e+10    -1.321561638262372e+01   -6.649426217745091e+01   
1.018600000000000e+10    -1.322432151340867e+01   -6.658284995387264e+01   
1.018700000000000e+10    -1.322013638590294e+01   -6.649586760115876e+01   
1.018800000000000e+10    -1.323113664821600e+01   -6.650292490713056e+01   
1.018900000000000e+10    -1.323391735299468e+01   -6.652023944187344e+01   
1.019000000000000e+10    -1.323272890333636e+01   -6.645624021284655e+01   
1.019100000000000e+10    -1.323672868988346e+01   -6.650063702808129e+01   
1.019200000000000e+10    -1.323060420409868e+01   -6.646698670792490e+01   
1.019300000000000e+10    -1.325205935897556e+01   -6.653842812513088e+01   
1.019400000000000e+10    -1.324635690736979e+01   -6.648242468998649e+01   
1.019500000000000e+10    -1.325092144035441e+01   -6.649259366336871e+01   
1.019600000000000e+10    -1.324354934923082e+01   -6.654237043227066e+01   
1.019700000000000e+10    -1.324882510130846e+01   -6.650796138142816e+01   
1.019800000000000e+10    -1.325640022084175e+01   -6.656428816999127e+01   
1.019900000000000e+10    -1.325294957715141e+01   -6.648254115137210e+01   
1.020000000000000e+10    -1.326270429197790e+01   -6.656891466809594e+01   
1.020100000000000e+10    -1.326656792974293e+01   -6.657472378078651e+01   
1.020200000000000e+10    -1.326288312900554e+01   -6.657201538202294e+01   
1.020300000000000e+10    -1.327080922228720e+01   -6.658009842738237e+01   
1.020400000000000e+10    -1.326800126400394e+01   -6.660196040065840e+01   
1.020500000000000e+10    -1.328284057278507e+01   -6.663654412395347e+01   
1.020600000000000e+10    -1.327034547447072e+01   -6.663037972846173e+01   
1.020700000000000e+10    -1.328801169525218e+01   -6.665167078592464e+01   
1.020800000000000e+10    -1.329847142644285e+01   -6.665488835856385e+01   
1.020900000000000e+10    -1.329398906108217e+01   -6.672275162919988e+01   
1.021000000000000e+10    -1.329000930488110e+01   -6.672167727558430e+01   
1.021100000000000e+10    -1.330031031068845e+01   -6.674221137345658e+01   
1.021200000000000e+10    -1.330516512162293e+01   -6.669162725539995e+01   
1.021300000000000e+10    -1.330333525597225e+01   -6.678764461970721e+01   
1.021400000000000e+10    -1.330600072537570e+01   -6.676398498634390e+01   
1.021500000000000e+10    -1.330773905129491e+01   -6.686862636885539e+01   
1.021600000000000e+10    -1.331701091298958e+01   -6.690519214845665e+01   
1.021700000000000e+10    -1.331012671404858e+01   -6.687312648551351e+01   
1.021800000000000e+10    -1.331827953890158e+01   -6.686416615712679e+01   
1.021900000000000e+10    -1.330796734636084e+01   -6.687149623744395e+01   
1.022000000000000e+10    -1.331927921842796e+01   -6.687910175696125e+01   
1.022100000000000e+10    -1.330130419372110e+01   -6.697728832038484e+01   
1.022200000000000e+10    -1.331190772975609e+01   -6.694406667826499e+01   
1.022300000000000e+10    -1.331481106887563e+01   -6.697310014235623e+01   
1.022400000000000e+10    -1.332224798715515e+01   -6.698343914821918e+01   
1.022500000000000e+10    -1.331488857835198e+01   -6.703088908485230e+01   
1.022600000000000e+10    -1.332262176170867e+01   -6.699700781664757e+01   
1.022700000000000e+10    -1.331938434853185e+01   -6.705257411340735e+01   
1.022800000000000e+10    -1.332374492115914e+01   -6.696507512802610e+01   
1.022900000000000e+10    -1.330915963869680e+01   -6.708735995940570e+01   
1.023000000000000e+10    -1.332243539418335e+01   -6.707161615154330e+01   
1.023100000000000e+10    -1.330564948027099e+01   -6.710375350251482e+01   
1.023200000000000e+10    -1.332098338995483e+01   -6.709168795922494e+01   
1.023300000000000e+10    -1.331562085401556e+01   -6.719870010414095e+01   
1.023400000000000e+10    -1.333331836511928e+01   -6.716654386780293e+01   
1.023500000000000e+10    -1.331551624769442e+01   -6.719338100666047e+01   
1.023600000000000e+10    -1.332564122643387e+01   -6.712822596682022e+01   
1.023700000000000e+10    -1.332934436988537e+01   -6.717038758740128e+01   
1.023800000000000e+10    -1.334087568504458e+01   -6.719470440449024e+01   
1.023900000000000e+10    -1.332813243964615e+01   -6.717251051449681e+01   
1.024000000000000e+10    -1.333601786191248e+01   -6.713206449553599e+01   
1.024100000000000e+10    -1.334127693228151e+01   -6.721740998446599e+01   
1.024200000000000e+10    -1.333405383876903e+01   -6.721720415672397e+01   
1.024300000000000e+10    -1.332934374851145e+01   -6.713652938647458e+01   
1.024400000000000e+10    -1.333133716119122e+01   -6.724098702561126e+01   
1.024500000000000e+10    -1.333473341974612e+01   -6.714865850123314e+01   
1.024600000000000e+10    -1.333276614728526e+01   -6.723646943977838e+01   
1.024700000000000e+10    -1.333259296607702e+01   -6.718756852576404e+01   
1.024800000000000e+10    -1.334930836488863e+01   -6.722319295189276e+01   
1.024900000000000e+10    -1.333290580042493e+01   -6.727303752631799e+01   
1.025000000000000e+10    -1.333289669103998e+01   -6.719377175108005e+01   
1.025100000000000e+10    -1.333918492168578e+01   -6.717169969553565e+01   
1.025200000000000e+10    -1.334008648057974e+01   -6.721864866980775e+01   
1.025300000000000e+10    -1.332853216157380e+01   -6.729393738899412e+01   
1.025400000000000e+10    -1.332571742997562e+01   -6.725933452756507e+01   
1.025500000000000e+10    -1.333535315725144e+01   -6.722294419019239e+01   
1.025600000000000e+10    -1.333815913223135e+01   -6.726374497119792e+01   
