[Version] 2.0
! Rohde & Schwarz Vector Network Analyzer
! Rohde-Schwarz,ZNL20-2Port,1323001220200009,1.71.1.10-23.02.1.238
! 
! Port Assignments:
! Nominal Port -> Actual Test Port
! --------------------------------
!   1 -> 1

! Created: GMT 2024-09-04 14:21:05

# Hz S DB R 50

[Number of Ports] 1
[Number of Frequencies] 2001

[Network Data] 
! freq[Hz]               S11[mag dB]              S11[ang]                 
1.000000000000000e+10    -1.387288213130734e+01   -6.240252620330151e+01   
1.000100000000000e+10    -1.387631658827240e+01   -6.238832003612488e+01   
1.000200000000000e+10    -1.387098474948743e+01   -6.227148338968180e+01   
1.000300000000000e+10    -1.386205890959307e+01   -6.221871072745633e+01   
1.000400000000000e+10    -1.386443166132438e+01   -6.222425047013102e+01   
1.000500000000000e+10    -1.385401621260449e+01   -6.229108867800246e+01   
1.000600000000000e+10    -1.386294535863722e+01   -6.218879425844881e+01   
1.000700000000000e+10    -1.384716182299363e+01   -6.230338990560529e+01   
1.000800000000000e+10    -1.386516476267035e+01   -6.225029106867479e+01   
1.000900000000000e+10    -1.383552905740784e+01   -6.216205515057833e+01   
1.001000000000000e+10    -1.384936659515019e+01   -6.223685200157244e+01   
1.001100000000000e+10    -1.384648976810975e+01   -6.215815597910071e+01   
1.001200000000000e+10    -1.384623131688389e+01   -6.223637499216766e+01   
1.001300000000000e+10    -1.383987956347879e+01   -6.220938689522084e+01   
1.001400000000000e+10    -1.384552207667788e+01   -6.213849692093795e+01   
1.001500000000000e+10    -1.384305283637513e+01   -6.228937695732154e+01   
1.001600000000000e+10    -1.384789130617082e+01   -6.220810042718534e+01   
1.001700000000000e+10    -1.385400105675077e+01   -6.219484899536837e+01   
1.001800000000000e+10    -1.384790501607251e+01   -6.224460266767628e+01   
1.001900000000000e+10    -1.385303680036845e+01   -6.226997093545320e+01   
1.002000000000000e+10    -1.385396650035080e+01   -6.215977517603905e+01   
1.002100000000000e+10    -1.385339192498485e+01   -6.220205060228622e+01   
1.002200000000000e+10    -1.384838400751324e+01   -6.229630728703597e+01   
1.002300000000000e+10    -1.385729561752567e+01   -6.227472655970200e+01   
1.002400000000000e+10    -1.386039914480764e+01   -6.242451616538013e+01   
1.002500000000000e+10    -1.385865164131235e+01   -6.240504744347608e+01   
1.002600000000000e+10    -1.385138026200225e+01   -6.242954401615097e+01   
1.002700000000000e+10    -1.384683653155120e+01   -6.241352712663208e+01   
1.002800000000000e+10    -1.383988713072636e+01   -6.253634972190743e+01   
1.002900000000000e+10    -1.384057067042503e+01   -6.252732086102482e+01   
1.003000000000000e+10    -1.384030766116713e+01   -6.260212642798615e+01   
1.003100000000000e+10    -1.383992926713798e+01   -6.272445940734541e+01   
1.003200000000000e+10    -1.384065648582949e+01   -6.269522905516835e+01   
1.003300000000000e+10    -1.384752348323240e+01   -6.273264864757137e+01   
1.003400000000000e+10    -1.383976754921485e+01   -6.287420946081890e+01   
1.003500000000000e+10    -1.383226780583038e+01   -6.285279603111044e+01   
1.003600000000000e+10    -1.384241735696732e+01   -6.291615907871837e+01   
1.003700000000000e+10    -1.383264698836032e+01   -6.303381438481995e+01   
1.003800000000000e+10    -1.383274633189256e+01   -6.302375903892059e+01   
1.003900000000000e+10    -1.382965610154704e+01   -6.322698632386096e+01   
1.004000000000000e+10    -1.382329118749029e+01   -6.309755580123966e+01   
1.004100000000000e+10    -1.380716166654447e+01   -6.324065516935830e+01   
1.004200000000000e+10    -1.380960050521802e+01   -6.318371844691824e+01   
1.004300000000000e+10    -1.381148266668244e+01   -6.331523087528735e+01   
1.004400000000000e+10    -1.379782979009658e+01   -6.342071443996854e+01   
1.004500000000000e+10    -1.380171186018114e+01   -6.342527726047032e+01   
1.004600000000000e+10    -1.378713532450530e+01   -6.343230970862474e+01   
1.004700000000000e+10    -1.378072081523817e+01   -6.361053228967029e+01   
1.004800000000000e+10    -1.377646974322289e+01   -6.366244546437579e+01   
1.004900000000000e+10    -1.377928801166364e+01   -6.366388961106652e+01   
1.005000000000000e+10    -1.377428066164445e+01   -6.367847077614035e+01   
1.005100000000000e+10    -1.374444756521898e+01   -6.370517565678227e+01   
1.005200000000000e+10    -1.373878834537685e+01   -6.377563333213734e+01   
1.005300000000000e+10    -1.373077902237434e+01   -6.389269889589955e+01   
1.005400000000000e+10    -1.373005355416910e+01   -6.389995951738413e+01   
1.005500000000000e+10    -1.372199983340838e+01   -6.401120985357701e+01   
1.005600000000000e+10    -1.370631999816043e+01   -6.394240008937778e+01   
1.005700000000000e+10    -1.370680564247649e+01   -6.400852174635962e+01   
1.005800000000000e+10    -1.367986379952637e+01   -6.399007989189266e+01   
1.005900000000000e+10    -1.367605495539454e+01   -6.413358981801984e+01   
1.006000000000000e+10    -1.366568384221260e+01   -6.416343488160165e+01   
1.006100000000000e+10    -1.365989818661418e+01   -6.418228825735928e+01   
1.006200000000000e+10    -1.364292488627435e+01   -6.417602023503541e+01   
1.006300000000000e+10    -1.361961457988355e+01   -6.416432102767997e+01   
1.006400000000000e+10    -1.362286882487287e+01   -6.417651284882375e+01   
1.006500000000000e+10    -1.361347570443067e+01   -6.427025977216189e+01   
1.006600000000000e+10    -1.360506040705367e+01   -6.424943991706316e+01   
1.006700000000000e+10    -1.359853051400017e+01   -6.416068716531991e+01   
1.006800000000000e+10    -1.360258282945003e+01   -6.434947993350777e+01   
1.006900000000000e+10    -1.357695665819106e+01   -6.423554004824817e+01   
1.007000000000000e+10    -1.357307821067524e+01   -6.428610945129428e+01   
1.007100000000000e+10    -1.355960601458185e+01   -6.425936316755990e+01   
1.007200000000000e+10    -1.355994359679960e+01   -6.436292431521541e+01   
1.007300000000000e+10    -1.354317107367347e+01   -6.427419527881705e+01   
1.007400000000000e+10    -1.353442305341872e+01   -6.426738295012819e+01   
1.007500000000000e+10    -1.353176925477466e+01   -6.424523269790180e+01   
1.007600000000000e+10    -1.352033700270473e+01   -6.430615187576483e+01   
1.007700000000000e+10    -1.351488358697789e+01   -6.425077149499080e+01   
1.007800000000000e+10    -1.350060785961387e+01   -6.423975826064682e+01   
1.007900000000000e+10    -1.348175856855835e+01   -6.413343650629390e+01   
1.008000000000000e+10    -1.348273715918726e+01   -6.415895668084868e+01   
1.008100000000000e+10    -1.348721825174218e+01   -6.427538544668535e+01   
1.008200000000000e+10    -1.347952417841190e+01   -6.426065471509845e+01   
1.008300000000000e+10    -1.347326844556676e+01   -6.411361976065629e+01   
1.008400000000000e+10    -1.347249047105756e+01   -6.418532042435056e+01   
1.008500000000000e+10    -1.345995313343478e+01   -6.416839299544667e+01   
1.008600000000000e+10    -1.345175861194955e+01   -6.414814074872599e+01   
1.008700000000000e+10    -1.345269741708050e+01   -6.410093571365857e+01   
1.008800000000000e+10    -1.345161701808582e+01   -6.416277316634509e+01   
1.008900000000000e+10    -1.344411749476883e+01   -6.402839968456770e+01   
1.009000000000000e+10    -1.343510299376205e+01   -6.410099821505013e+01   
1.009100000000000e+10    -1.343447138632576e+01   -6.413448510004589e+01   
1.009200000000000e+10    -1.343450573511701e+01   -6.401566032399487e+01   
1.009300000000000e+10    -1.343678085628871e+01   -6.404520807750073e+01   
1.009400000000000e+10    -1.343948818481908e+01   -6.404847095904519e+01   
1.009500000000000e+10    -1.343666548710279e+01   -6.408277773006157e+01   
1.009600000000000e+10    -1.342669748857350e+01   -6.402673325936146e+01   
1.009700000000000e+10    -1.342918019428624e+01   -6.402755773219782e+01   
1.009800000000000e+10    -1.343769203272478e+01   -6.394687249095792e+01   
1.009900000000000e+10    -1.343826343940717e+01   -6.397178834941808e+01   
1.010000000000000e+10    -1.343836936204432e+01   -6.403761438259104e+01   
1.010100000000000e+10    -1.343781019284748e+01   -6.397719799194480e+01   
1.010200000000000e+10    -1.344186227184782e+01   -6.399529650289409e+01   
1.010300000000000e+10    -1.345308725235324e+01   -6.401406640467704e+01   
1.010400000000000e+10    -1.344220229093242e+01   -6.398068792600080e+01   
1.010500000000000e+10    -1.345165475448582e+01   -6.401987460447489e+01   
1.010600000000000e+10    -1.343840315855712e+01   -6.393684662192604e+01   
1.010700000000000e+10    -1.346003726275315e+01   -6.410445726963127e+01   
1.010800000000000e+10    -1.346330566105626e+01   -6.394861231310733e+01   
1.010900000000000e+10    -1.345385864341469e+01   -6.403890272904965e+01   
1.011000000000000e+10    -1.345209124158560e+01   -6.397491634660089e+01   
1.011100000000000e+10    -1.345151003953990e+01   -6.412617690654626e+01   
1.011200000000000e+10    -1.345871892504880e+01   -6.409751651987547e+01   
1.011300000000000e+10    -1.345449830504435e+01   -6.422706492278164e+01   
1.011400000000000e+10    -1.345580356994664e+01   -6.416252084317236e+01   
1.011500000000000e+10    -1.345759516362323e+01   -6.424923409479835e+01   
1.011600000000000e+10    -1.346678161291335e+01   -6.416794803557950e+01   
1.011700000000000e+10    -1.348194238167027e+01   -6.424847150719404e+01   
1.011800000000000e+10    -1.347493937716034e+01   -6.431845931289402e+01   
1.011900000000000e+10    -1.347457039943390e+01   -6.437269102553329e+01   
1.012000000000000e+10    -1.346373086295053e+01   -6.445184005944688e+01   
1.012100000000000e+10    -1.348044277924910e+01   -6.452367413330988e+01   
1.012200000000000e+10    -1.346690799784999e+01   -6.449934322750137e+01   
1.012300000000000e+10    -1.347384731741805e+01   -6.458151574843887e+01   
1.012400000000000e+10    -1.347837066254716e+01   -6.459461063127887e+01   
1.012500000000000e+10    -1.347118586343447e+01   -6.464789478618678e+01   
1.012600000000000e+10    -1.347775108570065e+01   -6.463615252494878e+01   
1.012700000000000e+10    -1.347895804681979e+01   -6.480005836399620e+01   
1.012800000000000e+10    -1.347472491319727e+01   -6.478062810827497e+01   
1.012900000000000e+10    -1.347292747158505e+01   -6.488357524137855e+01   
1.013000000000000e+10    -1.347179297965977e+01   -6.484170055592219e+01   
1.013100000000000e+10    -1.347007259574647e+01   -6.492931543787297e+01   
1.013200000000000e+10    -1.347459272216362e+01   -6.500567413270625e+01   
1.013300000000000e+10    -1.347634586952042e+01   -6.508651961683572e+01   
1.013400000000000e+10    -1.346157041656256e+01   -6.513224247638129e+01   
1.013500000000000e+10    -1.346314228620212e+01   -6.521213982579830e+01   
1.013600000000000e+10    -1.345400246664028e+01   -6.521478888411529e+01   
1.013700000000000e+10    -1.344623915333155e+01   -6.529546428849349e+01   
1.013800000000000e+10    -1.344592916539016e+01   -6.539288888818700e+01   
1.013900000000000e+10    -1.344368890800527e+01   -6.542711876558410e+01   
1.014000000000000e+10    -1.343002101439377e+01   -6.545244157767804e+01   
1.014100000000000e+10    -1.344062659479976e+01   -6.552238442144765e+01   
1.014200000000000e+10    -1.342615715757192e+01   -6.558353155547694e+01   
1.014300000000000e+10    -1.342777737178845e+01   -6.558199849343765e+01   
1.014400000000000e+10    -1.341983873123876e+01   -6.565762992483759e+01   
1.014500000000000e+10    -1.342000778512649e+01   -6.572404191123690e+01   
1.014600000000000e+10    -1.340732241648901e+01   -6.577094293264994e+01   
1.014700000000000e+10    -1.339906493679738e+01   -6.577120615145840e+01   
1.014800000000000e+10    -1.340651446495051e+01   -6.583063660764275e+01   
1.014900000000000e+10    -1.339607099381815e+01   -6.589948804604668e+01   
1.015000000000000e+10    -1.339142959542327e+01   -6.592815125194701e+01   
1.015100000000000e+10    -1.338284884043007e+01   -6.593221704935529e+01   
1.015200000000000e+10    -1.337715815775021e+01   -6.598389561710671e+01   
1.015300000000000e+10    -1.337482476610997e+01   -6.605105796381478e+01   
1.015400000000000e+10    -1.336689162885572e+01   -6.606400863277133e+01   
1.015500000000000e+10    -1.338365384059177e+01   -6.606892149309348e+01   
1.015600000000000e+10    -1.337232445561354e+01   -6.611082041144373e+01   
1.015700000000000e+10    -1.335237831161013e+01   -6.609821171782343e+01   
1.015800000000000e+10    -1.335251291056028e+01   -6.618302697312077e+01   
1.015900000000000e+10    -1.334809881408314e+01   -6.619138111720220e+01   
1.016000000000000e+10    -1.333924448950624e+01   -6.624625865187932e+01   
1.016100000000000e+10    -1.334484327524021e+01   -6.626615982360966e+01   
1.016200000000000e+10    -1.333358353224092e+01   -6.620547575643921e+01   
1.016300000000000e+10    -1.332246623425021e+01   -6.622535064747778e+01   
1.016400000000000e+10    -1.333629446532824e+01   -6.622960825082859e+01   
1.016500000000000e+10    -1.331975009563088e+01   -6.624179011992008e+01   
1.016600000000000e+10    -1.332862534847654e+01   -6.628219203530992e+01   
1.016700000000000e+10    -1.331419432188540e+01   -6.629195318768495e+01   
1.016800000000000e+10    -1.330761075173463e+01   -6.629032033904889e+01   
1.016900000000000e+10    -1.331157410398628e+01   -6.627962398423726e+01   
1.017000000000000e+10    -1.331477727085556e+01   -6.631057870695389e+01   
1.017100000000000e+10    -1.331542651917105e+01   -6.639997565839832e+01   
1.017200000000000e+10    -1.330035968432442e+01   -6.629483010348464e+01   
1.017300000000000e+10    -1.330777994122370e+01   -6.636394502992727e+01   
1.017400000000000e+10    -1.330185729235649e+01   -6.633366119575128e+01   
1.017500000000000e+10    -1.329663423373713e+01   -6.636844931392035e+01   
1.017600000000000e+10    -1.328524942970184e+01   -6.633240622376749e+01   
1.017700000000000e+10    -1.330080082971141e+01   -6.631320645227531e+01   
1.017800000000000e+10    -1.329695776013143e+01   -6.635408551875112e+01   
1.017900000000000e+10    -1.329260915784580e+01   -6.628173894801657e+01   
1.018000000000000e+10    -1.328860321243279e+01   -6.633881834280191e+01   
1.018100000000000e+10    -1.328979709635277e+01   -6.627340432442539e+01   
1.018200000000000e+10    -1.329381264452091e+01   -6.626346094013897e+01   
1.018300000000000e+10    -1.328790874106831e+01   -6.629390758621953e+01   
1.018400000000000e+10    -1.330178349758697e+01   -6.627937767935988e+01   
1.018500000000000e+10    -1.329416427586199e+01   -6.630228542017547e+01   
1.018600000000000e+10    -1.330750868230083e+01   -6.643204945728384e+01   
1.018700000000000e+10    -1.329769406870125e+01   -6.631317361940678e+01   
1.018800000000000e+10    -1.331150336778255e+01   -6.636034143919352e+01   
1.018900000000000e+10    -1.331361109362182e+01   -6.630967854296965e+01   
1.019000000000000e+10    -1.331309621797525e+01   -6.630163924734089e+01   
1.019100000000000e+10    -1.331117605981097e+01   -6.630959080751498e+01   
1.019200000000000e+10    -1.331234339781330e+01   -6.629778143770777e+01   
1.019300000000000e+10    -1.332817555801243e+01   -6.636790662717260e+01   
1.019400000000000e+10    -1.331868094020203e+01   -6.634094070851151e+01   
1.019500000000000e+10    -1.332868578432145e+01   -6.634777878624388e+01   
1.019600000000000e+10    -1.331830804639358e+01   -6.638504869018794e+01   
1.019700000000000e+10    -1.332545341916541e+01   -6.636982792269671e+01   
1.019800000000000e+10    -1.333094314010832e+01   -6.639810380248926e+01   
1.019900000000000e+10    -1.332937833446473e+01   -6.637674382529644e+01   
1.020000000000000e+10    -1.334048868888890e+01   -6.644346386954612e+01   
1.020100000000000e+10    -1.334307146218358e+01   -6.643237286722110e+01   
1.020200000000000e+10    -1.333704668784856e+01   -6.643733031568924e+01   
1.020300000000000e+10    -1.335135341429945e+01   -6.641729021161919e+01   
1.020400000000000e+10    -1.334825891541241e+01   -6.646776547283858e+01   
1.020500000000000e+10    -1.335817590481263e+01   -6.651401578934257e+01   
1.020600000000000e+10    -1.334658508895558e+01   -6.648846066931502e+01   
1.020700000000000e+10    -1.336084733328099e+01   -6.651235899594077e+01   
1.020800000000000e+10    -1.337365097083035e+01   -6.653957173266522e+01   
1.020900000000000e+10    -1.336658525159943e+01   -6.657651838827741e+01   
1.021000000000000e+10    -1.336771618863192e+01   -6.661504021825444e+01   
1.021100000000000e+10    -1.337551534005385e+01   -6.662122143738254e+01   
1.021200000000000e+10    -1.338243745784368e+01   -6.657601171620360e+01   
1.021300000000000e+10    -1.337965749094144e+01   -6.669055276005012e+01   
1.021400000000000e+10    -1.338292162632099e+01   -6.663903358181517e+01   
1.021500000000000e+10    -1.338274806506831e+01   -6.677340414794331e+01   
1.021600000000000e+10    -1.338890104124892e+01   -6.680651083689717e+01   
1.021700000000000e+10    -1.338302482626785e+01   -6.677812273391901e+01   
1.021800000000000e+10    -1.339052275291593e+01   -6.677163062820446e+01   
1.021900000000000e+10    -1.338271072638298e+01   -6.678547753934873e+01   
1.022000000000000e+10    -1.339813206748941e+01   -6.679719157040354e+01   
1.022100000000000e+10    -1.338208920253299e+01   -6.684863226004336e+01   
1.022200000000000e+10    -1.339303406022552e+01   -6.682049232178647e+01   
1.022300000000000e+10    -1.339018220843601e+01   -6.688282094734454e+01   
1.022400000000000e+10    -1.339518774213927e+01   -6.688700212847085e+01   
1.022500000000000e+10    -1.339505451905541e+01   -6.690101531710283e+01   
1.022600000000000e+10    -1.339707994980495e+01   -6.689448621755389e+01   
1.022700000000000e+10    -1.339841067465589e+01   -6.693960632953325e+01   
1.022800000000000e+10    -1.340348574035244e+01   -6.686211709619801e+01   
1.022900000000000e+10    -1.339475570300742e+01   -6.698504306150326e+01   
1.023000000000000e+10    -1.339977620583055e+01   -6.695747132144702e+01   
1.023100000000000e+10    -1.338679500091337e+01   -6.701277042919060e+01   
1.023200000000000e+10    -1.340710627469048e+01   -6.695672348176814e+01   
1.023300000000000e+10    -1.339179269989934e+01   -6.708048251069278e+01   
1.023400000000000e+10    -1.341083071576040e+01   -6.704553565205829e+01   
1.023500000000000e+10    -1.339553554205044e+01   -6.711583131290934e+01   
1.023600000000000e+10    -1.340591173517740e+01   -6.706890559371207e+01   
1.023700000000000e+10    -1.340509521540944e+01   -6.706952597134826e+01   
1.023800000000000e+10    -1.341526943569361e+01   -6.709982567068199e+01   
1.023900000000000e+10    -1.340800832847231e+01   -6.708985131115857e+01   
1.024000000000000e+10    -1.341582219317815e+01   -6.706932916154213e+01   
1.024100000000000e+10    -1.341812306086265e+01   -6.710352541375232e+01   
1.024200000000000e+10    -1.341278251744148e+01   -6.712381918848733e+01   
1.024300000000000e+10    -1.340942687367967e+01   -6.703613493875463e+01   
1.024400000000000e+10    -1.341227686791521e+01   -6.713032173620356e+01   
1.024500000000000e+10    -1.341550367940412e+01   -6.706373148629503e+01   
1.024600000000000e+10    -1.341321737292990e+01   -6.714620150065785e+01   
1.024700000000000e+10    -1.341793601061026e+01   -6.708864260099182e+01   
1.024800000000000e+10    -1.343137510219859e+01   -6.715879091793595e+01   
1.024900000000000e+10    -1.341788385463731e+01   -6.717023384835517e+01   
1.025000000000000e+10    -1.341476302571120e+01   -6.715532880920858e+01   
1.025100000000000e+10    -1.341960042409835e+01   -6.706442810033251e+01   
1.025200000000000e+10    -1.342559895289374e+01   -6.713611427016995e+01   
1.025300000000000e+10    -1.341105230506255e+01   -6.718766807875630e+01   
1.025400000000000e+10    -1.340636229192708e+01   -6.716370723212557e+01   
1.025500000000000e+10    -1.342105327806984e+01   -6.714283295387891e+01   
1.025600000000000e+10    -1.342313490609929e+01   -6.718824120592171e+01   
