[Version] 2.0
! Rohde & Schwarz Vector Network Analyzer
! Rohde-Schwarz,ZNL20-2Port,1323001220200009,1.71.1.10-23.02.1.238
! 
! Port Assignments:
! Nominal Port -> Actual Test Port
! --------------------------------
!   1 -> 1

! Created: GMT 2024-09-04 14:21:24

# Hz S DB R 50

[Number of Ports] 1
[Number of Frequencies] 2001

[Network Data] 
! freq[Hz]               S11[mag dB]              S11[ang]                 
1.000000000000000e+10    -1.417563873960507e+01   -6.247828846407140e+01   
1.000100000000000e+10    -1.417449321383695e+01   -6.246179744168526e+01   
1.000200000000000e+10    -1.417012392307712e+01   -6.233259506619753e+01   
1.000300000000000e+10    -1.415971120767452e+01   -6.224848409638575e+01   
1.000400000000000e+10    -1.416741799108628e+01   -6.225885265277841e+01   
1.000500000000000e+10    -1.415454804068976e+01   -6.230390718600909e+01   
1.000600000000000e+10    -1.416190154523871e+01   -6.217853134557271e+01   
1.000700000000000e+10    -1.414031076015634e+01   -6.227980667432498e+01   
1.000800000000000e+10    -1.416263292097200e+01   -6.222409447441612e+01   
1.000900000000000e+10    -1.413015974825330e+01   -6.213384667675494e+01   
1.001000000000000e+10    -1.414708020559331e+01   -6.221492299855105e+01   
1.001100000000000e+10    -1.413933704628154e+01   -6.212705343694799e+01   
1.001200000000000e+10    -1.414137507300114e+01   -6.213892925759280e+01   
1.001300000000000e+10    -1.413523272065512e+01   -6.212475521062726e+01   
1.001400000000000e+10    -1.413859807521737e+01   -6.206017809434257e+01   
1.001500000000000e+10    -1.413460060236111e+01   -6.218726492513297e+01   
1.001600000000000e+10    -1.413843669092923e+01   -6.212556411081607e+01   
1.001700000000000e+10    -1.413989025469355e+01   -6.209301449874184e+01   
1.001800000000000e+10    -1.413879740658389e+01   -6.212045556958074e+01   
1.001900000000000e+10    -1.414372477855356e+01   -6.214427117746695e+01   
1.002000000000000e+10    -1.414474022555274e+01   -6.203369394374172e+01   
1.002100000000000e+10    -1.413415532777443e+01   -6.208211762340819e+01   
1.002200000000000e+10    -1.413659323808603e+01   -6.214823402591163e+01   
1.002300000000000e+10    -1.414046498204006e+01   -6.212347660240153e+01   
1.002400000000000e+10    -1.414681591591722e+01   -6.222813506346780e+01   
1.002500000000000e+10    -1.414448541623604e+01   -6.223215067829921e+01   
1.002600000000000e+10    -1.413778336695712e+01   -6.224138427315657e+01   
1.002700000000000e+10    -1.413934699370688e+01   -6.222855733344922e+01   
1.002800000000000e+10    -1.412527218582747e+01   -6.234892051147168e+01   
1.002900000000000e+10    -1.412508939815681e+01   -6.229109710605687e+01   
1.003000000000000e+10    -1.412949092504909e+01   -6.238064370721742e+01   
1.003100000000000e+10    -1.412629094126843e+01   -6.251277694111738e+01   
1.003200000000000e+10    -1.412424060933644e+01   -6.244082276048139e+01   
1.003300000000000e+10    -1.413021343560870e+01   -6.248686742902166e+01   
1.003400000000000e+10    -1.412337579536700e+01   -6.261672997967894e+01   
1.003500000000000e+10    -1.411415240528205e+01   -6.260722981267053e+01   
1.003600000000000e+10    -1.412771417454769e+01   -6.261336823400372e+01   
1.003700000000000e+10    -1.410975369783556e+01   -6.273677633827734e+01   
1.003800000000000e+10    -1.411034718773025e+01   -6.272565330835376e+01   
1.003900000000000e+10    -1.410158864272448e+01   -6.293099006185593e+01   
1.004000000000000e+10    -1.409720009130232e+01   -6.278397547792513e+01   
1.004100000000000e+10    -1.407691663358322e+01   -6.291356477648408e+01   
1.004200000000000e+10    -1.407833636678479e+01   -6.283413576513914e+01   
1.004300000000000e+10    -1.407609677256070e+01   -6.299385868517678e+01   
1.004400000000000e+10    -1.406863730635460e+01   -6.311184246272408e+01   
1.004500000000000e+10    -1.407218176762422e+01   -6.309562251584524e+01   
1.004600000000000e+10    -1.405134298830935e+01   -6.312886863384098e+01   
1.004700000000000e+10    -1.404743813542141e+01   -6.325323251066725e+01   
1.004800000000000e+10    -1.403805894704424e+01   -6.330061822332123e+01   
1.004900000000000e+10    -1.404344632726297e+01   -6.329365058740095e+01   
1.005000000000000e+10    -1.403741173580800e+01   -6.332115165310699e+01   
1.005100000000000e+10    -1.401034137688686e+01   -6.335129131684273e+01   
1.005200000000000e+10    -1.399558829935836e+01   -6.340227829271156e+01   
1.005300000000000e+10    -1.398560470893199e+01   -6.350166705539723e+01   
1.005400000000000e+10    -1.398668510364495e+01   -6.352215775443229e+01   
1.005500000000000e+10    -1.397836088778888e+01   -6.361197274245427e+01   
1.005600000000000e+10    -1.395657542846445e+01   -6.356635469940245e+01   
1.005700000000000e+10    -1.395658508919496e+01   -6.360978830823372e+01   
1.005800000000000e+10    -1.392720954242088e+01   -6.361242777433834e+01   
1.005900000000000e+10    -1.392664664321743e+01   -6.371013523073739e+01   
1.006000000000000e+10    -1.390934931830946e+01   -6.376693432251775e+01   
1.006100000000000e+10    -1.390419744805036e+01   -6.378103820664164e+01   
1.006200000000000e+10    -1.388916372923302e+01   -6.374414873629276e+01   
1.006300000000000e+10    -1.386065557518629e+01   -6.373427622213428e+01   
1.006400000000000e+10    -1.386352089773577e+01   -6.374801867066079e+01   
1.006500000000000e+10    -1.385242330112312e+01   -6.383845450195005e+01   
1.006600000000000e+10    -1.384229136773130e+01   -6.383213108422052e+01   
1.006700000000000e+10    -1.383664234867066e+01   -6.374975115994139e+01   
1.006800000000000e+10    -1.383401768692873e+01   -6.388756024394945e+01   
1.006900000000000e+10    -1.380611131331342e+01   -6.381449598729206e+01   
1.007000000000000e+10    -1.380191084772595e+01   -6.386594443755665e+01   
1.007100000000000e+10    -1.378695803842504e+01   -6.384210780584139e+01   
1.007200000000000e+10    -1.378866124765730e+01   -6.390541641434108e+01   
1.007300000000000e+10    -1.376904318054955e+01   -6.381084344494673e+01   
1.007400000000000e+10    -1.375919356920632e+01   -6.386343213335918e+01   
1.007500000000000e+10    -1.375381903140175e+01   -6.381865953645526e+01   
1.007600000000000e+10    -1.374126176796894e+01   -6.386952842697666e+01   
1.007700000000000e+10    -1.372839880029427e+01   -6.380019434557622e+01   
1.007800000000000e+10    -1.372037416337472e+01   -6.379386092789662e+01   
1.007900000000000e+10    -1.369988371886715e+01   -6.369342464362284e+01   
1.008000000000000e+10    -1.369593008647689e+01   -6.368324803114883e+01   
1.008100000000000e+10    -1.370545841347455e+01   -6.381562521045532e+01   
1.008200000000000e+10    -1.369310437304527e+01   -6.378098427100789e+01   
1.008300000000000e+10    -1.368945707841340e+01   -6.363159222096289e+01   
1.008400000000000e+10    -1.368219824503180e+01   -6.369850467557102e+01   
1.008500000000000e+10    -1.367035712310997e+01   -6.367968108474115e+01   
1.008600000000000e+10    -1.366179849971756e+01   -6.364410152732020e+01   
1.008700000000000e+10    -1.365848943037451e+01   -6.361602859217271e+01   
1.008800000000000e+10    -1.365566575350754e+01   -6.368772419256332e+01   
1.008900000000000e+10    -1.364910312692223e+01   -6.354399212402913e+01   
1.009000000000000e+10    -1.363943416702408e+01   -6.360120471442622e+01   
1.009100000000000e+10    -1.363800330716959e+01   -6.364462983550435e+01   
1.009200000000000e+10    -1.363192956222090e+01   -6.353770975688710e+01   
1.009300000000000e+10    -1.363243880047441e+01   -6.352178079246699e+01   
1.009400000000000e+10    -1.363653862409461e+01   -6.355741990503307e+01   
1.009500000000000e+10    -1.363521816272609e+01   -6.359139960827211e+01   
1.009600000000000e+10    -1.362485106511444e+01   -6.353406194483902e+01   
1.009700000000000e+10    -1.362663643457985e+01   -6.353477207324408e+01   
1.009800000000000e+10    -1.363337065115731e+01   -6.348015222442839e+01   
1.009900000000000e+10    -1.363118143212329e+01   -6.347681865827902e+01   
1.010000000000000e+10    -1.363495197360840e+01   -6.354572664003741e+01   
1.010100000000000e+10    -1.362847276117800e+01   -6.349227762273021e+01   
1.010200000000000e+10    -1.363919407641839e+01   -6.343868416117638e+01   
1.010300000000000e+10    -1.363843172825008e+01   -6.347010990149374e+01   
1.010400000000000e+10    -1.363399284494867e+01   -6.346608729073861e+01   
1.010500000000000e+10    -1.363973980930090e+01   -6.350176765178063e+01   
1.010600000000000e+10    -1.362303534057480e+01   -6.341466210524274e+01   
1.010700000000000e+10    -1.364551953765830e+01   -6.356105592158217e+01   
1.010800000000000e+10    -1.364488110810679e+01   -6.342712315167519e+01   
1.010900000000000e+10    -1.363746875748142e+01   -6.353503722153543e+01   
1.011000000000000e+10    -1.363223420556437e+01   -6.346490254538362e+01   
1.011100000000000e+10    -1.363023084117931e+01   -6.363757994821434e+01   
1.011200000000000e+10    -1.364107048845016e+01   -6.358964382623016e+01   
1.011300000000000e+10    -1.363265704457664e+01   -6.368859565204939e+01   
1.011400000000000e+10    -1.363856526030710e+01   -6.363462109565984e+01   
1.011500000000000e+10    -1.363909935168360e+01   -6.370335607154198e+01   
1.011600000000000e+10    -1.364406203915858e+01   -6.365242975628603e+01   
1.011700000000000e+10    -1.365774287357983e+01   -6.376001336911827e+01   
1.011800000000000e+10    -1.364604265824905e+01   -6.379585090409211e+01   
1.011900000000000e+10    -1.364691897893259e+01   -6.384639193409063e+01   
1.012000000000000e+10    -1.363651269275588e+01   -6.392534648431162e+01   
1.012100000000000e+10    -1.365493832239844e+01   -6.399058296013189e+01   
1.012200000000000e+10    -1.363648174806171e+01   -6.397569875272402e+01   
1.012300000000000e+10    -1.364188883021011e+01   -6.404398415719375e+01   
1.012400000000000e+10    -1.365196469353659e+01   -6.409510421780115e+01   
1.012500000000000e+10    -1.364493114085425e+01   -6.414143408474041e+01   
1.012600000000000e+10    -1.364644776528794e+01   -6.413924522140587e+01   
1.012700000000000e+10    -1.365248764233766e+01   -6.428231373586068e+01   
1.012800000000000e+10    -1.364019453046277e+01   -6.427040930807213e+01   
1.012900000000000e+10    -1.363923992748217e+01   -6.437094233554116e+01   
1.013000000000000e+10    -1.363578963417173e+01   -6.435177202014023e+01   
1.013100000000000e+10    -1.363643354944832e+01   -6.444640114905900e+01   
1.013200000000000e+10    -1.363799895971974e+01   -6.451729397909340e+01   
1.013300000000000e+10    -1.363947299366493e+01   -6.461933437661580e+01   
1.013400000000000e+10    -1.362410420678609e+01   -6.467706123106468e+01   
1.013500000000000e+10    -1.362455139780677e+01   -6.473082198999759e+01   
1.013600000000000e+10    -1.361269544599913e+01   -6.478630751385973e+01   
1.013700000000000e+10    -1.360713253296128e+01   -6.483517415341639e+01   
1.013800000000000e+10    -1.360326000181372e+01   -6.490266428180162e+01   
1.013900000000000e+10    -1.360522136973625e+01   -6.497875810711641e+01   
1.014000000000000e+10    -1.358665796759168e+01   -6.500285737143186e+01   
1.014100000000000e+10    -1.360140872385401e+01   -6.507655975012790e+01   
1.014200000000000e+10    -1.358042392577063e+01   -6.511877075128209e+01   
1.014300000000000e+10    -1.358375733798181e+01   -6.516346507183701e+01   
1.014400000000000e+10    -1.357092519356081e+01   -6.519587233581288e+01   
1.014500000000000e+10    -1.357488622113464e+01   -6.531277723961088e+01   
1.014600000000000e+10    -1.356109665265857e+01   -6.534798836816066e+01   
1.014700000000000e+10    -1.355419315578997e+01   -6.531741828255213e+01   
1.014800000000000e+10    -1.355896917086637e+01   -6.537926281205735e+01   
1.014900000000000e+10    -1.354832673336016e+01   -6.547002573213787e+01   
1.015000000000000e+10    -1.354483764714861e+01   -6.549407191922668e+01   
1.015100000000000e+10    -1.353556164940237e+01   -6.552165825675044e+01   
1.015200000000000e+10    -1.352297354369388e+01   -6.554111193860314e+01   
1.015300000000000e+10    -1.352941757061008e+01   -6.563587381798172e+01   
1.015400000000000e+10    -1.351173714534205e+01   -6.562394803983391e+01   
1.015500000000000e+10    -1.352931491929888e+01   -6.566036864176463e+01   
1.015600000000000e+10    -1.351357841370050e+01   -6.566632731571565e+01   
1.015700000000000e+10    -1.349842098914072e+01   -6.566105451386707e+01   
1.015800000000000e+10    -1.349746412491810e+01   -6.576903546002978e+01   
1.015900000000000e+10    -1.349219862347432e+01   -6.577130988004710e+01   
1.016000000000000e+10    -1.348610290184197e+01   -6.583371139552115e+01   
1.016100000000000e+10    -1.348339867905637e+01   -6.582530623568269e+01   
1.016200000000000e+10    -1.347048116842663e+01   -6.579032158655231e+01   
1.016300000000000e+10    -1.346361737612857e+01   -6.582325617546702e+01   
1.016400000000000e+10    -1.347932472527897e+01   -6.579737552536851e+01   
1.016500000000000e+10    -1.345659635971702e+01   -6.583691543099209e+01   
1.016600000000000e+10    -1.346667326426647e+01   -6.586947001286723e+01   
1.016700000000000e+10    -1.345320532219476e+01   -6.590930358040747e+01   
1.016800000000000e+10    -1.344410165084645e+01   -6.590445454887956e+01   
1.016900000000000e+10    -1.344686946725811e+01   -6.588963197387049e+01   
1.017000000000000e+10    -1.345258210236790e+01   -6.590970587407342e+01   
1.017100000000000e+10    -1.344659101652506e+01   -6.599273393422470e+01   
1.017200000000000e+10    -1.343630489801654e+01   -6.589815297900543e+01   
1.017300000000000e+10    -1.344112543373983e+01   -6.598792198644706e+01   
1.017400000000000e+10    -1.343136662895281e+01   -6.595506351353690e+01   
1.017500000000000e+10    -1.342708663108466e+01   -6.600455781224684e+01   
1.017600000000000e+10    -1.341665696812171e+01   -6.597430912144527e+01   
1.017700000000000e+10    -1.343082169429224e+01   -6.594888606812590e+01   
1.017800000000000e+10    -1.342697496851622e+01   -6.600774214842973e+01   
1.017900000000000e+10    -1.342472478883349e+01   -6.594105889902161e+01   
1.018000000000000e+10    -1.342117983650949e+01   -6.598711970684356e+01   
1.018100000000000e+10    -1.342234771984968e+01   -6.596071097735197e+01   
1.018200000000000e+10    -1.342108566555799e+01   -6.592943616321899e+01   
1.018300000000000e+10    -1.341987954084705e+01   -6.596720525324736e+01   
1.018400000000000e+10    -1.343044100891856e+01   -6.595108978028100e+01   
1.018500000000000e+10    -1.342781364827276e+01   -6.598415228297772e+01   
1.018600000000000e+10    -1.343879923470407e+01   -6.606392121396955e+01   
1.018700000000000e+10    -1.342854302258893e+01   -6.599102910612513e+01   
1.018800000000000e+10    -1.344095536474278e+01   -6.601511278948890e+01   
1.018900000000000e+10    -1.344375860684472e+01   -6.602114910822276e+01   
1.019000000000000e+10    -1.343975386844070e+01   -6.597873603757694e+01   
1.019100000000000e+10    -1.344364340606176e+01   -6.603014184975439e+01   
1.019200000000000e+10    -1.344179060399452e+01   -6.596273293201806e+01   
1.019300000000000e+10    -1.345787801998402e+01   -6.603209431654669e+01   
1.019400000000000e+10    -1.345084239640775e+01   -6.597816224311848e+01   
1.019500000000000e+10    -1.346128177718976e+01   -6.603473519502677e+01   
1.019600000000000e+10    -1.344632926829131e+01   -6.606610140285234e+01   
1.019700000000000e+10    -1.345441189760277e+01   -6.603523337203210e+01   
1.019800000000000e+10    -1.346591728496572e+01   -6.608802941349984e+01   
1.019900000000000e+10    -1.345851882657826e+01   -6.602789492779141e+01   
1.020000000000000e+10    -1.346873975826408e+01   -6.611872132496843e+01   
1.020100000000000e+10    -1.347158226338434e+01   -6.612351579954920e+01   
1.020200000000000e+10    -1.346426443788858e+01   -6.611651314033733e+01   
1.020300000000000e+10    -1.347764906327684e+01   -6.610959089730939e+01   
1.020400000000000e+10    -1.347032358533767e+01   -6.615293915868781e+01   
1.020500000000000e+10    -1.348356921314495e+01   -6.619951061611086e+01   
1.020600000000000e+10    -1.347303306770449e+01   -6.618454367009473e+01   
1.020700000000000e+10    -1.348948685551731e+01   -6.620376634554309e+01   
1.020800000000000e+10    -1.350013803211811e+01   -6.622774151128252e+01   
1.020900000000000e+10    -1.349313920105081e+01   -6.627199179582874e+01   
1.021000000000000e+10    -1.349666019277791e+01   -6.630337126323087e+01   
1.021100000000000e+10    -1.350055567461614e+01   -6.633246203628002e+01   
1.021200000000000e+10    -1.350626294722904e+01   -6.624928699548758e+01   
1.021300000000000e+10    -1.350652133110863e+01   -6.636728197316047e+01   
1.021400000000000e+10    -1.350977114254274e+01   -6.633846725449077e+01   
1.021500000000000e+10    -1.350920762695518e+01   -6.648056400133613e+01   
1.021600000000000e+10    -1.351938665631944e+01   -6.654021206892965e+01   
1.021700000000000e+10    -1.351324811293044e+01   -6.647280352194554e+01   
1.021800000000000e+10    -1.352138622459698e+01   -6.650068335249311e+01   
1.021900000000000e+10    -1.350804691171981e+01   -6.647541067124698e+01   
1.022000000000000e+10    -1.352313923879678e+01   -6.649320004206645e+01   
1.022100000000000e+10    -1.350860519102406e+01   -6.659476294185272e+01   
1.022200000000000e+10    -1.351572138843173e+01   -6.655634335210193e+01   
1.022300000000000e+10    -1.351836725753762e+01   -6.661144279233534e+01   
1.022400000000000e+10    -1.352139163663919e+01   -6.662157834493983e+01   
1.022500000000000e+10    -1.351858354566977e+01   -6.664967505696448e+01   
1.022600000000000e+10    -1.352428390806520e+01   -6.664814810017282e+01   
1.022700000000000e+10    -1.352133361395575e+01   -6.670840588155721e+01   
1.022800000000000e+10    -1.352338007584232e+01   -6.662722167721508e+01   
1.022900000000000e+10    -1.351356138340625e+01   -6.674617913089020e+01   
1.023000000000000e+10    -1.352378008793009e+01   -6.670518804469356e+01   
1.023100000000000e+10    -1.350890703279742e+01   -6.673798342365750e+01   
1.023200000000000e+10    -1.352837165893360e+01   -6.671845268281798e+01   
1.023300000000000e+10    -1.351409680170509e+01   -6.684637657951045e+01   
1.023400000000000e+10    -1.352921138596403e+01   -6.682671259186580e+01   
1.023500000000000e+10    -1.352128770521923e+01   -6.688113164484486e+01   
1.023600000000000e+10    -1.353024478880976e+01   -6.682946826876250e+01   
1.023700000000000e+10    -1.352882208816907e+01   -6.687472476144210e+01   
1.023800000000000e+10    -1.354032492452100e+01   -6.688022816373056e+01   
1.023900000000000e+10    -1.353431180118771e+01   -6.686451753828270e+01   
1.024000000000000e+10    -1.354144367203087e+01   -6.680255517639365e+01   
1.024100000000000e+10    -1.354212309029482e+01   -6.691875464858488e+01   
1.024200000000000e+10    -1.353704666905363e+01   -6.689360042964536e+01   
1.024300000000000e+10    -1.353346216230539e+01   -6.684018435655761e+01   
1.024400000000000e+10    -1.353733682233347e+01   -6.689761809760853e+01   
1.024500000000000e+10    -1.353843199213737e+01   -6.687346633301532e+01   
1.024600000000000e+10    -1.353683380713098e+01   -6.695976128478337e+01   
1.024700000000000e+10    -1.353872725013330e+01   -6.691737777465266e+01   
1.024800000000000e+10    -1.355579906899390e+01   -6.695076147556993e+01   
1.024900000000000e+10    -1.353860857178919e+01   -6.700647412027143e+01   
1.025000000000000e+10    -1.353975367967737e+01   -6.692199742525129e+01   
1.025100000000000e+10    -1.354228881188816e+01   -6.685091530330072e+01   
1.025200000000000e+10    -1.354695634014662e+01   -6.695283450607742e+01   
1.025300000000000e+10    -1.353747568326082e+01   -6.700539837740683e+01   
1.025400000000000e+10    -1.353506809741985e+01   -6.698406186638545e+01   
1.025500000000000e+10    -1.354296475717233e+01   -6.696790559817805e+01   
1.025600000000000e+10    -1.354729091842514e+01   -6.700375333691274e+01   
