[Version] 2.0
! Rohde & Schwarz Vector Network Analyzer
! Rohde-Schwarz,ZNL20-2Port,1323001220200009,1.71.1.10-23.02.1.238
! 
! Port Assignments:
! Nominal Port -> Actual Test Port
! --------------------------------
!   1 -> 1

! Created: GMT 2024-09-04 14:21:39

# Hz S DB R 50

[Number of Ports] 1
[Number of Frequencies] 2001

[Network Data] 
! freq[Hz]               S11[mag dB]              S11[ang]                 
1.000000000000000e+10    -1.425219444597768e+01   -6.283774215728893e+01   
1.000100000000000e+10    -1.425480231857926e+01   -6.281762498616698e+01   
1.000200000000000e+10    -1.424934311733013e+01   -6.266177221048680e+01   
1.000300000000000e+10    -1.424241338471986e+01   -6.262198695093956e+01   
1.000400000000000e+10    -1.425033820286569e+01   -6.260273756129513e+01   
1.000500000000000e+10    -1.424041865959092e+01   -6.265511945935994e+01   
1.000600000000000e+10    -1.424771491252319e+01   -6.253798302329365e+01   
1.000700000000000e+10    -1.422806118212185e+01   -6.262717654351937e+01   
1.000800000000000e+10    -1.424497703225884e+01   -6.255916339721043e+01   
1.000900000000000e+10    -1.421747222808188e+01   -6.247316494920535e+01   
1.001000000000000e+10    -1.423329245320011e+01   -6.255211847790308e+01   
1.001100000000000e+10    -1.422829345136982e+01   -6.245886031428184e+01   
1.001200000000000e+10    -1.422888536517986e+01   -6.250273654326489e+01   
1.001300000000000e+10    -1.422183300274358e+01   -6.246469846850612e+01   
1.001400000000000e+10    -1.423065852118109e+01   -6.240631331118821e+01   
1.001500000000000e+10    -1.422797664526005e+01   -6.255346991099740e+01   
1.001600000000000e+10    -1.423132934014620e+01   -6.244076669347942e+01   
1.001700000000000e+10    -1.423775409782913e+01   -6.241905211849832e+01   
1.001800000000000e+10    -1.423704817932364e+01   -6.240908862218363e+01   
1.001900000000000e+10    -1.424065686971884e+01   -6.245455558231951e+01   
1.002000000000000e+10    -1.423942063839108e+01   -6.235880308242866e+01   
1.002100000000000e+10    -1.423942198068838e+01   -6.235173112657115e+01   
1.002200000000000e+10    -1.423502302109369e+01   -6.246369394827886e+01   
1.002300000000000e+10    -1.423651190203415e+01   -6.241699791146220e+01   
1.002400000000000e+10    -1.424674348966547e+01   -6.254754503546680e+01   
1.002500000000000e+10    -1.424240103205324e+01   -6.253276370334182e+01   
1.002600000000000e+10    -1.423543103170259e+01   -6.251336501744927e+01   
1.002700000000000e+10    -1.423107824352462e+01   -6.251988941708309e+01   
1.002800000000000e+10    -1.422415575523278e+01   -6.264149164647419e+01   
1.002900000000000e+10    -1.422924016587690e+01   -6.258205696538213e+01   
1.003000000000000e+10    -1.423023795194928e+01   -6.266511291022653e+01   
1.003100000000000e+10    -1.422399359407044e+01   -6.278435692545652e+01   
1.003200000000000e+10    -1.422370452681457e+01   -6.274228553860686e+01   
1.003300000000000e+10    -1.423094361363797e+01   -6.274988482338143e+01   
1.003400000000000e+10    -1.421916267155995e+01   -6.290486929245895e+01   
1.003500000000000e+10    -1.421821634432367e+01   -6.286904830391315e+01   
1.003600000000000e+10    -1.422572939943436e+01   -6.287065354127680e+01   
1.003700000000000e+10    -1.421603555179414e+01   -6.300133558351322e+01   
1.003800000000000e+10    -1.421638324911104e+01   -6.299797433011377e+01   
1.003900000000000e+10    -1.421336151329749e+01   -6.317041406224489e+01   
1.004000000000000e+10    -1.420591148370085e+01   -6.303818815582810e+01   
1.004100000000000e+10    -1.418139820183616e+01   -6.317825564579370e+01   
1.004200000000000e+10    -1.418519354167682e+01   -6.308184988475654e+01   
1.004300000000000e+10    -1.418819622283683e+01   -6.323723852383599e+01   
1.004400000000000e+10    -1.417143634358012e+01   -6.336890417177094e+01   
1.004500000000000e+10    -1.418214637097907e+01   -6.331991467308781e+01   
1.004600000000000e+10    -1.415969812366588e+01   -6.331519789648067e+01   
1.004700000000000e+10    -1.415309153087114e+01   -6.346991622004344e+01   
1.004800000000000e+10    -1.414760093152549e+01   -6.352423716274751e+01   
1.004900000000000e+10    -1.414956363058800e+01   -6.350049767708582e+01   
1.005000000000000e+10    -1.414600492037390e+01   -6.351911440530802e+01   
1.005100000000000e+10    -1.411870404277931e+01   -6.351358528201928e+01   
1.005200000000000e+10    -1.410182818120716e+01   -6.360295913565898e+01   
1.005300000000000e+10    -1.409360351440277e+01   -6.372911452204803e+01   
1.005400000000000e+10    -1.409228309975939e+01   -6.370106441468540e+01   
1.005500000000000e+10    -1.408387648156794e+01   -6.380182084130947e+01   
1.005600000000000e+10    -1.406775407132671e+01   -6.374435466857570e+01   
1.005700000000000e+10    -1.406603999307231e+01   -6.378141505771089e+01   
1.005800000000000e+10    -1.403841733150943e+01   -6.377126709578545e+01   
1.005900000000000e+10    -1.403210510191801e+01   -6.389357256102326e+01   
1.006000000000000e+10    -1.401681871060145e+01   -6.393874043623669e+01   
1.006100000000000e+10    -1.401426449747686e+01   -6.391022892436184e+01   
1.006200000000000e+10    -1.399843779188745e+01   -6.388434187229939e+01   
1.006300000000000e+10    -1.397123403006975e+01   -6.385949558899048e+01   
1.006400000000000e+10    -1.397242193049008e+01   -6.390138043436936e+01   
1.006500000000000e+10    -1.396087740601747e+01   -6.397659820106454e+01   
1.006600000000000e+10    -1.395043951707787e+01   -6.394662495627463e+01   
1.006700000000000e+10    -1.394108193585351e+01   -6.385790089218458e+01   
1.006800000000000e+10    -1.394357480126481e+01   -6.399064840400627e+01   
1.006900000000000e+10    -1.391494545036399e+01   -6.393239522395540e+01   
1.007000000000000e+10    -1.390266155462564e+01   -6.393809537299126e+01   
1.007100000000000e+10    -1.389551787825071e+01   -6.393511137918465e+01   
1.007200000000000e+10    -1.389794721844616e+01   -6.396679819499884e+01   
1.007300000000000e+10    -1.387666746352505e+01   -6.390019357637776e+01   
1.007400000000000e+10    -1.386386231719822e+01   -6.391554508503344e+01   
1.007500000000000e+10    -1.386206223951692e+01   -6.386097157482725e+01   
1.007600000000000e+10    -1.384706303622120e+01   -6.391978833532250e+01   
1.007700000000000e+10    -1.384071399098657e+01   -6.385000991636092e+01   
1.007800000000000e+10    -1.382308161560976e+01   -6.385100146648347e+01   
1.007900000000000e+10    -1.380137516964870e+01   -6.374083817553763e+01   
1.008000000000000e+10    -1.379929824942215e+01   -6.373212850914416e+01   
1.008100000000000e+10    -1.381008172007165e+01   -6.386090633586350e+01   
1.008200000000000e+10    -1.379682769084833e+01   -6.378737601057517e+01   
1.008300000000000e+10    -1.379069933188063e+01   -6.367890360690615e+01   
1.008400000000000e+10    -1.378629476883876e+01   -6.372315658399162e+01   
1.008500000000000e+10    -1.377409481173120e+01   -6.370767501302615e+01   
1.008600000000000e+10    -1.376490257137102e+01   -6.365523740514184e+01   
1.008700000000000e+10    -1.375984435209710e+01   -6.363674433402623e+01   
1.008800000000000e+10    -1.375865508092007e+01   -6.371906635391728e+01   
1.008900000000000e+10    -1.374924587022181e+01   -6.356033883727336e+01   
1.009000000000000e+10    -1.373989684457660e+01   -6.359624908446157e+01   
1.009100000000000e+10    -1.374604983950201e+01   -6.364658131576974e+01   
1.009200000000000e+10    -1.373751555386885e+01   -6.354659091257361e+01   
1.009300000000000e+10    -1.373399858140239e+01   -6.352759639966060e+01   
1.009400000000000e+10    -1.374297948096915e+01   -6.353973201164184e+01   
1.009500000000000e+10    -1.373925725444930e+01   -6.357848437381947e+01   
1.009600000000000e+10    -1.372506172609120e+01   -6.349478545712510e+01   
1.009700000000000e+10    -1.372882689865770e+01   -6.349838224409221e+01   
1.009800000000000e+10    -1.373373318101138e+01   -6.343416945866377e+01   
1.009900000000000e+10    -1.373038865478001e+01   -6.340662708177843e+01   
1.010000000000000e+10    -1.373268858113857e+01   -6.350455991518798e+01   
1.010100000000000e+10    -1.373093993949458e+01   -6.342244768370513e+01   
1.010200000000000e+10    -1.373364103644811e+01   -6.341473756482851e+01   
1.010300000000000e+10    -1.373737336301143e+01   -6.342030648903496e+01   
1.010400000000000e+10    -1.373275192718529e+01   -6.339977697260542e+01   
1.010500000000000e+10    -1.373543313979803e+01   -6.344474885644345e+01   
1.010600000000000e+10    -1.371732364998853e+01   -6.336707409373949e+01   
1.010700000000000e+10    -1.374334590693161e+01   -6.351567498811477e+01   
1.010800000000000e+10    -1.374350428357607e+01   -6.337796770670457e+01   
1.010900000000000e+10    -1.373380014639588e+01   -6.345347720099772e+01   
1.011000000000000e+10    -1.372553348116255e+01   -6.342491712328338e+01   
1.011100000000000e+10    -1.372542663547270e+01   -6.358069980178597e+01   
1.011200000000000e+10    -1.373616960561913e+01   -6.352987508387066e+01   
1.011300000000000e+10    -1.373096120928353e+01   -6.365114066785315e+01   
1.011400000000000e+10    -1.373020547341989e+01   -6.357452366166562e+01   
1.011500000000000e+10    -1.372829961766567e+01   -6.364739437856802e+01   
1.011600000000000e+10    -1.374576644861033e+01   -6.361042195307628e+01   
1.011700000000000e+10    -1.375279705340004e+01   -6.367029453130344e+01   
1.011800000000000e+10    -1.374346840248185e+01   -6.371389848084684e+01   
1.011900000000000e+10    -1.374378471497952e+01   -6.375616058662074e+01   
1.012000000000000e+10    -1.373012198862047e+01   -6.385198507071541e+01   
1.012100000000000e+10    -1.375054127131955e+01   -6.390528839596067e+01   
1.012200000000000e+10    -1.372998718192001e+01   -6.390110577592513e+01   
1.012300000000000e+10    -1.373677486983315e+01   -6.396606601524643e+01   
1.012400000000000e+10    -1.374270584641745e+01   -6.398279901860925e+01   
1.012500000000000e+10    -1.373443864559988e+01   -6.401289581475686e+01   
1.012600000000000e+10    -1.373715434523459e+01   -6.405517938281970e+01   
1.012700000000000e+10    -1.373992311194229e+01   -6.419831860262133e+01   
1.012800000000000e+10    -1.373690915485492e+01   -6.417431980057017e+01   
1.012900000000000e+10    -1.373278429729270e+01   -6.429717055375298e+01   
1.013000000000000e+10    -1.373127775291334e+01   -6.424539431468546e+01   
1.013100000000000e+10    -1.372546228078094e+01   -6.434160369864435e+01   
1.013200000000000e+10    -1.372864521921940e+01   -6.438396165821760e+01   
1.013300000000000e+10    -1.373133576123734e+01   -6.449237216008461e+01   
1.013400000000000e+10    -1.371289220565806e+01   -6.450994767207713e+01   
1.013500000000000e+10    -1.371940449526974e+01   -6.459233890584424e+01   
1.013600000000000e+10    -1.370382740770525e+01   -6.463263295791565e+01   
1.013700000000000e+10    -1.369228570652754e+01   -6.470841077651413e+01   
1.013800000000000e+10    -1.369232680629056e+01   -6.477045201557777e+01   
1.013900000000000e+10    -1.368968330970282e+01   -6.485100341622039e+01   
1.014000000000000e+10    -1.367301112693927e+01   -6.483814435866235e+01   
1.014100000000000e+10    -1.368273329698465e+01   -6.492092934158254e+01   
1.014200000000000e+10    -1.366558288124402e+01   -6.497194811904873e+01   
1.014300000000000e+10    -1.366838792136341e+01   -6.500292824506784e+01   
1.014400000000000e+10    -1.365530184446049e+01   -6.505319376622765e+01   
1.014500000000000e+10    -1.365498837047629e+01   -6.514417380213888e+01   
1.014600000000000e+10    -1.363842811502449e+01   -6.518657972821269e+01   
1.014700000000000e+10    -1.362957579321844e+01   -6.517087178363342e+01   
1.014800000000000e+10    -1.363750928658655e+01   -6.521581760751626e+01   
1.014900000000000e+10    -1.362644850666579e+01   -6.533672098816621e+01   
1.015000000000000e+10    -1.362169289359447e+01   -6.534909377015379e+01   
1.015100000000000e+10    -1.361476218437896e+01   -6.537981746983141e+01   
1.015200000000000e+10    -1.360165016935597e+01   -6.538948463930353e+01   
1.015300000000000e+10    -1.360310813206612e+01   -6.546954522665622e+01   
1.015400000000000e+10    -1.358405013380692e+01   -6.548426133828788e+01   
1.015500000000000e+10    -1.360331507074268e+01   -6.548858920788506e+01   
1.015600000000000e+10    -1.358981397827427e+01   -6.554477447917813e+01   
1.015700000000000e+10    -1.357152574441061e+01   -6.551789471937425e+01   
1.015800000000000e+10    -1.357117209015876e+01   -6.562441113929748e+01   
1.015900000000000e+10    -1.356038990926463e+01   -6.559885196012733e+01   
1.016000000000000e+10    -1.355463981940069e+01   -6.567913346914442e+01   
1.016100000000000e+10    -1.355500585673141e+01   -6.571718517465641e+01   
1.016200000000000e+10    -1.354169186764880e+01   -6.566253071018193e+01   
1.016300000000000e+10    -1.353457970754459e+01   -6.566090234252734e+01   
1.016400000000000e+10    -1.354855784485560e+01   -6.568939744099991e+01   
1.016500000000000e+10    -1.352524787540032e+01   -6.569042370967932e+01   
1.016600000000000e+10    -1.353650848328987e+01   -6.574580466877364e+01   
1.016700000000000e+10    -1.352063480234009e+01   -6.578986896099167e+01   
1.016800000000000e+10    -1.351001098072732e+01   -6.577173492066196e+01   
1.016900000000000e+10    -1.351386965940410e+01   -6.576181173726455e+01   
1.017000000000000e+10    -1.351916570077579e+01   -6.577390184144188e+01   
1.017100000000000e+10    -1.351138933443725e+01   -6.587922673691963e+01   
1.017200000000000e+10    -1.350362042637208e+01   -6.578657598204556e+01   
1.017300000000000e+10    -1.350796961118662e+01   -6.586715586342770e+01   
1.017400000000000e+10    -1.349823941149652e+01   -6.582829441394571e+01   
1.017500000000000e+10    -1.349390327900703e+01   -6.588673999423919e+01   
1.017600000000000e+10    -1.348298893844976e+01   -6.585284020163888e+01   
1.017700000000000e+10    -1.349545400312128e+01   -6.583228813955118e+01   
1.017800000000000e+10    -1.349354249038483e+01   -6.586628891469610e+01   
1.017900000000000e+10    -1.348713902496813e+01   -6.583489746648866e+01   
1.018000000000000e+10    -1.348244037317280e+01   -6.582131721168570e+01   
1.018100000000000e+10    -1.348170988073206e+01   -6.582725881299936e+01   
1.018200000000000e+10    -1.348417144267610e+01   -6.579616486116767e+01   
1.018300000000000e+10    -1.347434368154508e+01   -6.579948194379978e+01   
1.018400000000000e+10    -1.348959723922809e+01   -6.582451133002648e+01   
1.018500000000000e+10    -1.348566621680199e+01   -6.586298233819187e+01   
1.018600000000000e+10    -1.349389803683524e+01   -6.595955353490852e+01   
1.018700000000000e+10    -1.348681016259836e+01   -6.585154305379254e+01   
1.018800000000000e+10    -1.349395645448508e+01   -6.587349266380522e+01   
1.018900000000000e+10    -1.350024595356317e+01   -6.588872106522193e+01   
1.019000000000000e+10    -1.349503854239027e+01   -6.584068516654955e+01   
1.019100000000000e+10    -1.349755599218032e+01   -6.591714744488226e+01   
1.019200000000000e+10    -1.349553115790862e+01   -6.586125243440674e+01   
1.019300000000000e+10    -1.350953965691282e+01   -6.594707783187474e+01   
1.019400000000000e+10    -1.350190345652152e+01   -6.588465320379002e+01   
1.019500000000000e+10    -1.350857144516228e+01   -6.592424146767327e+01   
1.019600000000000e+10    -1.349583327502245e+01   -6.595440578702660e+01   
1.019700000000000e+10    -1.351164510488734e+01   -6.596308846814922e+01   
1.019800000000000e+10    -1.351064992542462e+01   -6.599163076074905e+01   
1.019900000000000e+10    -1.350935751645211e+01   -6.595086629548689e+01   
1.020000000000000e+10    -1.351469693239676e+01   -6.605833522442454e+01   
1.020100000000000e+10    -1.352015430194605e+01   -6.604708539614974e+01   
1.020200000000000e+10    -1.351191376380709e+01   -6.605411186782828e+01   
1.020300000000000e+10    -1.352555018328258e+01   -6.602835598518456e+01   
1.020400000000000e+10    -1.352265150998244e+01   -6.609264234440148e+01   
1.020500000000000e+10    -1.353246487878414e+01   -6.616329590271346e+01   
1.020600000000000e+10    -1.352214446675458e+01   -6.616119729753510e+01   
1.020700000000000e+10    -1.353606571614426e+01   -6.618197993588154e+01   
1.020800000000000e+10    -1.354784248792737e+01   -6.622264653267983e+01   
1.020900000000000e+10    -1.354209337816281e+01   -6.624649156084442e+01   
1.021000000000000e+10    -1.354612562129389e+01   -6.629429433549437e+01   
1.021100000000000e+10    -1.355152575662847e+01   -6.630778534511825e+01   
1.021200000000000e+10    -1.355550440839877e+01   -6.626426061672959e+01   
1.021300000000000e+10    -1.355313081918150e+01   -6.637921515012899e+01   
1.021400000000000e+10    -1.356144902895575e+01   -6.633984284208404e+01   
1.021500000000000e+10    -1.355913529508069e+01   -6.647896120597301e+01   
1.021600000000000e+10    -1.356664125347549e+01   -6.654126541456590e+01   
1.021700000000000e+10    -1.355889656259509e+01   -6.646924969169133e+01   
1.021800000000000e+10    -1.356673666970739e+01   -6.648861201509037e+01   
1.021900000000000e+10    -1.356253074768839e+01   -6.649713072382011e+01   
1.022000000000000e+10    -1.357028189357731e+01   -6.651031742296117e+01   
1.022100000000000e+10    -1.356082130216897e+01   -6.659797635726201e+01   
1.022200000000000e+10    -1.356788657157291e+01   -6.659251490618371e+01   
1.022300000000000e+10    -1.357045819086164e+01   -6.661760614965154e+01   
1.022400000000000e+10    -1.357585812030372e+01   -6.663040934380048e+01   
1.022500000000000e+10    -1.356882355783728e+01   -6.664024680018147e+01   
1.022600000000000e+10    -1.357602515745262e+01   -6.663834219156281e+01   
1.022700000000000e+10    -1.357630183539151e+01   -6.672444027484913e+01   
1.022800000000000e+10    -1.357871618874860e+01   -6.662822747807787e+01   
1.022900000000000e+10    -1.356594991448840e+01   -6.675011750361985e+01   
1.023000000000000e+10    -1.358124130513293e+01   -6.675410879137256e+01   
1.023100000000000e+10    -1.356579192030190e+01   -6.678731937475881e+01   
1.023200000000000e+10    -1.358146142728540e+01   -6.675487062672158e+01   
1.023300000000000e+10    -1.356863849028090e+01   -6.686027079055597e+01   
1.023400000000000e+10    -1.359033770298911e+01   -6.684038739807437e+01   
1.023500000000000e+10    -1.357324479162263e+01   -6.687381132930854e+01   
1.023600000000000e+10    -1.358564001454882e+01   -6.684527874900600e+01   
1.023700000000000e+10    -1.358474013142594e+01   -6.683422276516072e+01   
1.023800000000000e+10    -1.359583232345310e+01   -6.689870879875704e+01   
1.023900000000000e+10    -1.358813888657344e+01   -6.685198114958274e+01   
1.024000000000000e+10    -1.359176061161774e+01   -6.683183636839348e+01   
1.024100000000000e+10    -1.359771709927458e+01   -6.690926420306484e+01   
1.024200000000000e+10    -1.359236861754643e+01   -6.690219125188659e+01   
1.024300000000000e+10    -1.358802779872310e+01   -6.685534637719711e+01   
1.024400000000000e+10    -1.359028789604157e+01   -6.691421792674385e+01   
1.024500000000000e+10    -1.359309649193239e+01   -6.687748908384187e+01   
1.024600000000000e+10    -1.359447809170607e+01   -6.697584780171536e+01   
1.024700000000000e+10    -1.359715915415872e+01   -6.691202615044699e+01   
1.024800000000000e+10    -1.361176359520963e+01   -6.693847542405334e+01   
1.024900000000000e+10    -1.359783813228843e+01   -6.702096699827094e+01   
1.025000000000000e+10    -1.359194835293879e+01   -6.694323728813450e+01   
1.025100000000000e+10    -1.360036647440162e+01   -6.687674174417231e+01   
1.025200000000000e+10    -1.360795464018367e+01   -6.698764017337693e+01   
1.025300000000000e+10    -1.359153216095958e+01   -6.701570642183329e+01   
1.025400000000000e+10    -1.359234129328954e+01   -6.699829780409688e+01   
1.025500000000000e+10    -1.360128366185679e+01   -6.697783174330014e+01   
1.025600000000000e+10    -1.360651409853678e+01   -6.702174010762164e+01   
