[Version] 2.0
! Rohde & Schwarz Vector Network Analyzer
! Rohde-Schwarz,ZNL20-2Port,1323001220200009,1.71.1.10-23.02.1.238
! 
! Port Assignments:
! Nominal Port -> Actual Test Port
! --------------------------------
!   1 -> 1

! Created: GMT 2024-09-04 14:21:50

# Hz S DB R 50

[Number of Ports] 1
[Number of Frequencies] 2001

[Network Data] 
! freq[Hz]               S11[mag dB]              S11[ang]                 
1.000000000000000e+10    -1.423430581275826e+01   -6.269082291720284e+01   
1.000100000000000e+10    -1.423755650998895e+01   -6.267920991324187e+01   
1.000200000000000e+10    -1.423290483934066e+01   -6.255209061995900e+01   
1.000300000000000e+10    -1.422456682634934e+01   -6.254937299027161e+01   
1.000400000000000e+10    -1.422803349843306e+01   -6.251845181438092e+01   
1.000500000000000e+10    -1.421857421743619e+01   -6.257515785060673e+01   
1.000600000000000e+10    -1.422609839897461e+01   -6.247989785395216e+01   
1.000700000000000e+10    -1.420709112207978e+01   -6.257132473025785e+01   
1.000800000000000e+10    -1.422800980363976e+01   -6.255510463494238e+01   
1.000900000000000e+10    -1.419724949273251e+01   -6.244840864855195e+01   
1.001000000000000e+10    -1.421486736395369e+01   -6.254489826692669e+01   
1.001100000000000e+10    -1.420717567611164e+01   -6.246073209897406e+01   
1.001200000000000e+10    -1.420754841547759e+01   -6.249570341235547e+01   
1.001300000000000e+10    -1.420482164683000e+01   -6.250124072441379e+01   
1.001400000000000e+10    -1.421233264000101e+01   -6.238600319642041e+01   
1.001500000000000e+10    -1.420861783335418e+01   -6.255743729344470e+01   
1.001600000000000e+10    -1.421246351765761e+01   -6.249883759642913e+01   
1.001700000000000e+10    -1.421379892029555e+01   -6.248445122479667e+01   
1.001800000000000e+10    -1.421882875708370e+01   -6.248771291994601e+01   
1.001900000000000e+10    -1.421866637176831e+01   -6.254610814662866e+01   
1.002000000000000e+10    -1.422144282328757e+01   -6.248544195145256e+01   
1.002100000000000e+10    -1.421993637375268e+01   -6.247889551482190e+01   
1.002200000000000e+10    -1.421896497738350e+01   -6.260393593078688e+01   
1.002300000000000e+10    -1.422578592815859e+01   -6.258185487421900e+01   
1.002400000000000e+10    -1.423099104137664e+01   -6.268752928621405e+01   
1.002500000000000e+10    -1.422825519830480e+01   -6.270878312860108e+01   
1.002600000000000e+10    -1.422535778115815e+01   -6.271813377711941e+01   
1.002700000000000e+10    -1.422918931039424e+01   -6.269713304719691e+01   
1.002800000000000e+10    -1.421634747015458e+01   -6.282917020875862e+01   
1.002900000000000e+10    -1.422104167254519e+01   -6.281387993590411e+01   
1.003000000000000e+10    -1.422208674132074e+01   -6.289041603522085e+01   
1.003100000000000e+10    -1.422076184900479e+01   -6.303107154579310e+01   
1.003200000000000e+10    -1.422512834575448e+01   -6.297388490718744e+01   
1.003300000000000e+10    -1.423140794210305e+01   -6.297898557486359e+01   
1.003400000000000e+10    -1.422057658138039e+01   -6.315538595783950e+01   
1.003500000000000e+10    -1.421617945801245e+01   -6.310252529288371e+01   
1.003600000000000e+10    -1.422596169717749e+01   -6.316228051365951e+01   
1.003700000000000e+10    -1.421652769880090e+01   -6.327745729871303e+01   
1.003800000000000e+10    -1.421893253802787e+01   -6.329139269938224e+01   
1.003900000000000e+10    -1.420930376056250e+01   -6.345071830849096e+01   
1.004000000000000e+10    -1.420821553935417e+01   -6.334230128918578e+01   
1.004100000000000e+10    -1.419105215337307e+01   -6.345915579274438e+01   
1.004200000000000e+10    -1.419304325327925e+01   -6.337846833287557e+01   
1.004300000000000e+10    -1.419058919408682e+01   -6.351543263764145e+01   
1.004400000000000e+10    -1.418399055113962e+01   -6.364424158777055e+01   
1.004500000000000e+10    -1.419097728245926e+01   -6.361337014983521e+01   
1.004600000000000e+10    -1.416734610126515e+01   -6.362793315468355e+01   
1.004700000000000e+10    -1.416924641653240e+01   -6.381851475740297e+01   
1.004800000000000e+10    -1.416415383713244e+01   -6.384370301098979e+01   
1.004900000000000e+10    -1.416464833335368e+01   -6.384029158230765e+01   
1.005000000000000e+10    -1.415895181804397e+01   -6.384451142863105e+01   
1.005100000000000e+10    -1.413495839864545e+01   -6.389822944713217e+01   
1.005200000000000e+10    -1.411646937137401e+01   -6.395628304557948e+01   
1.005300000000000e+10    -1.411219007809908e+01   -6.403815983526457e+01   
1.005400000000000e+10    -1.411231276334785e+01   -6.407688747644534e+01   
1.005500000000000e+10    -1.410509286127456e+01   -6.416397342404137e+01   
1.005600000000000e+10    -1.408904027290217e+01   -6.409449064287327e+01   
1.005700000000000e+10    -1.408994659415553e+01   -6.413916853500696e+01   
1.005800000000000e+10    -1.406433984217495e+01   -6.414030142506078e+01   
1.005900000000000e+10    -1.405639679842039e+01   -6.424248960221260e+01   
1.006000000000000e+10    -1.404712695938967e+01   -6.428435830909862e+01   
1.006100000000000e+10    -1.404110233986375e+01   -6.429877472300629e+01   
1.006200000000000e+10    -1.402742271438840e+01   -6.426420949756739e+01   
1.006300000000000e+10    -1.400284158534023e+01   -6.425713573751167e+01   
1.006400000000000e+10    -1.400062610239946e+01   -6.427631324656912e+01   
1.006500000000000e+10    -1.399421018156570e+01   -6.434909452200012e+01   
1.006600000000000e+10    -1.398743082766920e+01   -6.431306075391554e+01   
1.006700000000000e+10    -1.397810169898269e+01   -6.424244360039830e+01   
1.006800000000000e+10    -1.398110078269808e+01   -6.441555085358937e+01   
1.006900000000000e+10    -1.394985879308686e+01   -6.427603548367458e+01   
1.007000000000000e+10    -1.394314690301186e+01   -6.433296144506603e+01   
1.007100000000000e+10    -1.393282097354869e+01   -6.428572013276585e+01   
1.007200000000000e+10    -1.393286923046992e+01   -6.435643908618735e+01   
1.007300000000000e+10    -1.391759053897734e+01   -6.429210311755843e+01   
1.007400000000000e+10    -1.390944144181526e+01   -6.428880591723825e+01   
1.007500000000000e+10    -1.390637536046504e+01   -6.422384709203949e+01   
1.007600000000000e+10    -1.389019847788803e+01   -6.429383879937687e+01   
1.007700000000000e+10    -1.388521927046381e+01   -6.419937299352048e+01   
1.007800000000000e+10    -1.386992777932221e+01   -6.420979220062664e+01   
1.007900000000000e+10    -1.384794427031290e+01   -6.413403975431535e+01   
1.008000000000000e+10    -1.384762263722218e+01   -6.410519195452511e+01   
1.008100000000000e+10    -1.385512120166520e+01   -6.422665447122964e+01   
1.008200000000000e+10    -1.384912203915002e+01   -6.417320581035915e+01   
1.008300000000000e+10    -1.384234130481783e+01   -6.402986497575608e+01   
1.008400000000000e+10    -1.384086090387895e+01   -6.409186882644282e+01   
1.008500000000000e+10    -1.382460276731896e+01   -6.404703339730986e+01   
1.008600000000000e+10    -1.382030156056317e+01   -6.400746993793169e+01   
1.008700000000000e+10    -1.381739504145675e+01   -6.398633071553647e+01   
1.008800000000000e+10    -1.381550856875288e+01   -6.402791457792445e+01   
1.008900000000000e+10    -1.380698157986772e+01   -6.389652536876484e+01   
1.009000000000000e+10    -1.380023508192036e+01   -6.393308694106251e+01   
1.009100000000000e+10    -1.380105278769884e+01   -6.397824322859314e+01   
1.009200000000000e+10    -1.379158348599017e+01   -6.386298118313650e+01   
1.009300000000000e+10    -1.379365283459791e+01   -6.386234906402859e+01   
1.009400000000000e+10    -1.379729703298054e+01   -6.388337485887040e+01   
1.009500000000000e+10    -1.379539235001902e+01   -6.387018827410811e+01   
1.009600000000000e+10    -1.378104123621748e+01   -6.381858179799583e+01   
1.009700000000000e+10    -1.378832168709738e+01   -6.382534400228667e+01   
1.009800000000000e+10    -1.379567720360059e+01   -6.376354430672021e+01   
1.009900000000000e+10    -1.379028848733762e+01   -6.374318503826716e+01   
1.010000000000000e+10    -1.379610876061776e+01   -6.380886042556232e+01   
1.010100000000000e+10    -1.378887313239601e+01   -6.375261046896055e+01   
1.010200000000000e+10    -1.379790820699203e+01   -6.370503869655246e+01   
1.010300000000000e+10    -1.379839498514503e+01   -6.373971260058696e+01   
1.010400000000000e+10    -1.379420123882624e+01   -6.374320169614298e+01   
1.010500000000000e+10    -1.380394469143976e+01   -6.375430762147576e+01   
1.010600000000000e+10    -1.378365488714253e+01   -6.363670571393935e+01   
1.010700000000000e+10    -1.381048415190353e+01   -6.381795726154409e+01   
1.010800000000000e+10    -1.381051168628093e+01   -6.367824635599425e+01   
1.010900000000000e+10    -1.380106013341706e+01   -6.377488437413702e+01   
1.011000000000000e+10    -1.379873492836117e+01   -6.368337154597023e+01   
1.011100000000000e+10    -1.379752687569454e+01   -6.384379552032588e+01   
1.011200000000000e+10    -1.380738943287726e+01   -6.381761876507857e+01   
1.011300000000000e+10    -1.380077661431576e+01   -6.391030595085490e+01   
1.011400000000000e+10    -1.380454816189311e+01   -6.383377468851473e+01   
1.011500000000000e+10    -1.380265459388707e+01   -6.390877987984634e+01   
1.011600000000000e+10    -1.381109020980819e+01   -6.386728797295352e+01   
1.011700000000000e+10    -1.382357123226734e+01   -6.389831077853454e+01   
1.011800000000000e+10    -1.381493954380463e+01   -6.394833144767555e+01   
1.011900000000000e+10    -1.381484673083193e+01   -6.399889041538116e+01   
1.012000000000000e+10    -1.380362790815010e+01   -6.409216609985614e+01   
1.012100000000000e+10    -1.381782658441046e+01   -6.413289179914929e+01   
1.012200000000000e+10    -1.379717471000246e+01   -6.412897287217056e+01   
1.012300000000000e+10    -1.380535303505146e+01   -6.417914834333112e+01   
1.012400000000000e+10    -1.381491685413503e+01   -6.422910948075022e+01   
1.012500000000000e+10    -1.380484340396075e+01   -6.424726521390195e+01   
1.012600000000000e+10    -1.380843971469540e+01   -6.424745918939115e+01   
1.012700000000000e+10    -1.381311876494731e+01   -6.441835092091482e+01   
1.012800000000000e+10    -1.380128580283564e+01   -6.440070819647410e+01   
1.012900000000000e+10    -1.380202612498198e+01   -6.449462071380277e+01   
1.013000000000000e+10    -1.380120796068799e+01   -6.445125467307652e+01   
1.013100000000000e+10    -1.379576511333985e+01   -6.455722701485324e+01   
1.013200000000000e+10    -1.380076209087106e+01   -6.459880958362736e+01   
1.013300000000000e+10    -1.380475482556684e+01   -6.467958462498842e+01   
1.013400000000000e+10    -1.378431609918401e+01   -6.474962961956139e+01   
1.013500000000000e+10    -1.378975631943538e+01   -6.481080545818961e+01   
1.013600000000000e+10    -1.377582817847205e+01   -6.484626815268739e+01   
1.013700000000000e+10    -1.377149900896456e+01   -6.489486540700783e+01   
1.013800000000000e+10    -1.376371646915363e+01   -6.495626931270684e+01   
1.013900000000000e+10    -1.376305028208804e+01   -6.502601087036948e+01   
1.014000000000000e+10    -1.374853355172468e+01   -6.502739244067195e+01   
1.014100000000000e+10    -1.375722455195103e+01   -6.509976850110982e+01   
1.014200000000000e+10    -1.373992712549277e+01   -6.516276006836223e+01   
1.014300000000000e+10    -1.374081770667223e+01   -6.517806555272962e+01   
1.014400000000000e+10    -1.373178453996074e+01   -6.522192887635489e+01   
1.014500000000000e+10    -1.373256569910869e+01   -6.533604270139307e+01   
1.014600000000000e+10    -1.371598857533820e+01   -6.535015842097079e+01   
1.014700000000000e+10    -1.370582044617126e+01   -6.535031635630605e+01   
1.014800000000000e+10    -1.371240175573979e+01   -6.537897454077364e+01   
1.014900000000000e+10    -1.369773253075871e+01   -6.549398775233000e+01   
1.015000000000000e+10    -1.369429092256875e+01   -6.551546848863526e+01   
1.015100000000000e+10    -1.368960757581965e+01   -6.554751839701731e+01   
1.015200000000000e+10    -1.367790213150858e+01   -6.555251083458654e+01   
1.015300000000000e+10    -1.367866025539317e+01   -6.562978643284025e+01   
1.015400000000000e+10    -1.366362993038951e+01   -6.562254147346536e+01   
1.015500000000000e+10    -1.368104881295554e+01   -6.564469324099063e+01   
1.015600000000000e+10    -1.366639622334360e+01   -6.567629098476951e+01   
1.015700000000000e+10    -1.364823691134140e+01   -6.564328560486869e+01   
1.015800000000000e+10    -1.364728761688839e+01   -6.574868845581426e+01   
1.015900000000000e+10    -1.363759963421104e+01   -6.575167239998196e+01   
1.016000000000000e+10    -1.363193138722503e+01   -6.581445711845073e+01   
1.016100000000000e+10    -1.363121424385177e+01   -6.584355075816460e+01   
1.016200000000000e+10    -1.361739716874629e+01   -6.577346224006173e+01   
1.016300000000000e+10    -1.360987140233231e+01   -6.577334104501247e+01   
1.016400000000000e+10    -1.362747816066589e+01   -6.581035472835521e+01   
1.016500000000000e+10    -1.359720070097850e+01   -6.580735291071996e+01   
1.016600000000000e+10    -1.361016289873081e+01   -6.582690409133136e+01   
1.016700000000000e+10    -1.359365474506274e+01   -6.585047151401797e+01   
1.016800000000000e+10    -1.358584443498513e+01   -6.587096298254508e+01   
1.016900000000000e+10    -1.358976805204900e+01   -6.584380570631707e+01   
1.017000000000000e+10    -1.359455306820584e+01   -6.586496886560245e+01   
1.017100000000000e+10    -1.358673715805308e+01   -6.595440910816691e+01   
1.017200000000000e+10    -1.357507751358922e+01   -6.588368559825496e+01   
1.017300000000000e+10    -1.357709953170994e+01   -6.595864638577719e+01   
1.017400000000000e+10    -1.357235829800809e+01   -6.587918861642802e+01   
1.017500000000000e+10    -1.356850543665333e+01   -6.595441970544839e+01   
1.017600000000000e+10    -1.355660658530343e+01   -6.590282168890943e+01   
1.017700000000000e+10    -1.356703114641791e+01   -6.587855261299894e+01   
1.017800000000000e+10    -1.356418227562963e+01   -6.593751703111303e+01   
1.017900000000000e+10    -1.355738597384351e+01   -6.586674074399912e+01   
1.018000000000000e+10    -1.355756669258191e+01   -6.590332196522564e+01   
1.018100000000000e+10    -1.355535941541829e+01   -6.586528677365585e+01   
1.018200000000000e+10    -1.355623431597323e+01   -6.588255688063465e+01   
1.018300000000000e+10    -1.355136836194098e+01   -6.589577484720803e+01   
1.018400000000000e+10    -1.356132725623789e+01   -6.587411964602221e+01   
1.018500000000000e+10    -1.355814170424788e+01   -6.591039134348377e+01   
1.018600000000000e+10    -1.356637361718041e+01   -6.601078272591154e+01   
1.018700000000000e+10    -1.355692395499033e+01   -6.592077367394027e+01   
1.018800000000000e+10    -1.356896883555243e+01   -6.592003425484234e+01   
1.018900000000000e+10    -1.357129714614547e+01   -6.594495383952317e+01   
1.019000000000000e+10    -1.356898696833024e+01   -6.590797124949526e+01   
1.019100000000000e+10    -1.357338451499484e+01   -6.593148431748702e+01   
1.019200000000000e+10    -1.356942295067330e+01   -6.588617434890016e+01   
1.019300000000000e+10    -1.358365635722559e+01   -6.598694826483326e+01   
1.019400000000000e+10    -1.358212612245779e+01   -6.589734476140133e+01   
1.019500000000000e+10    -1.358533618129366e+01   -6.592487142589350e+01   
1.019600000000000e+10    -1.357582668090457e+01   -6.598360196357253e+01   
1.019700000000000e+10    -1.357927281449134e+01   -6.595886558545595e+01   
1.019800000000000e+10    -1.358161600745610e+01   -6.598720735840284e+01   
1.019900000000000e+10    -1.358124534933314e+01   -6.596453493217813e+01   
1.020000000000000e+10    -1.359194337928531e+01   -6.602046741094397e+01   
1.020100000000000e+10    -1.358979322177067e+01   -6.605385421211756e+01   
1.020200000000000e+10    -1.358692967845187e+01   -6.606789780226944e+01   
1.020300000000000e+10    -1.359392292626616e+01   -6.604541796723773e+01   
1.020400000000000e+10    -1.359636755587209e+01   -6.608009748858424e+01   
1.020500000000000e+10    -1.360659502258302e+01   -6.611146551741712e+01   
1.020600000000000e+10    -1.359566462045116e+01   -6.614197070873993e+01   
1.020700000000000e+10    -1.360898543475607e+01   -6.612837351099731e+01   
1.020800000000000e+10    -1.362233105092820e+01   -6.618149296436033e+01   
1.020900000000000e+10    -1.361224968051741e+01   -6.624183491794346e+01   
1.021000000000000e+10    -1.361532200443987e+01   -6.624064547126895e+01   
1.021100000000000e+10    -1.362070769751107e+01   -6.628189585593691e+01   
1.021200000000000e+10    -1.362566434402580e+01   -6.621813891309544e+01   
1.021300000000000e+10    -1.361822997848378e+01   -6.632930229321146e+01   
1.021400000000000e+10    -1.362424549678399e+01   -6.626721759889962e+01   
1.021500000000000e+10    -1.362680809115144e+01   -6.644699029433755e+01   
1.021600000000000e+10    -1.363444150391714e+01   -6.649233991852184e+01   
1.021700000000000e+10    -1.362528789800106e+01   -6.642666694967761e+01   
1.021800000000000e+10    -1.362973562394793e+01   -6.645218774993988e+01   
1.021900000000000e+10    -1.362501061268673e+01   -6.648155354307769e+01   
1.022000000000000e+10    -1.363642013182710e+01   -6.645699573478110e+01   
1.022100000000000e+10    -1.362351253322888e+01   -6.656786062801039e+01   
1.022200000000000e+10    -1.362615220533363e+01   -6.652583437498453e+01   
1.022300000000000e+10    -1.362582262317137e+01   -6.658029825735868e+01   
1.022400000000000e+10    -1.363375213653493e+01   -6.658987583597884e+01   
1.022500000000000e+10    -1.362847076836467e+01   -6.662659476862689e+01   
1.022600000000000e+10    -1.363642962581064e+01   -6.662359165842999e+01   
1.022700000000000e+10    -1.363813013347669e+01   -6.667058185579832e+01   
1.022800000000000e+10    -1.363931940383290e+01   -6.659202341516125e+01   
1.022900000000000e+10    -1.363110468417453e+01   -6.671749440850668e+01   
1.023000000000000e+10    -1.364067322878473e+01   -6.671190449895504e+01   
1.023100000000000e+10    -1.362672009303564e+01   -6.674881238698511e+01   
1.023200000000000e+10    -1.364346049529191e+01   -6.670657109464292e+01   
1.023300000000000e+10    -1.362830106020746e+01   -6.684906620076362e+01   
1.023400000000000e+10    -1.364453415054028e+01   -6.682168701906188e+01   
1.023500000000000e+10    -1.363351305025422e+01   -6.685688021248620e+01   
1.023600000000000e+10    -1.364478103907209e+01   -6.680191617264769e+01   
1.023700000000000e+10    -1.364220640015739e+01   -6.682443024453585e+01   
1.023800000000000e+10    -1.365561167145437e+01   -6.687722386547331e+01   
1.023900000000000e+10    -1.364870705912014e+01   -6.682079635084976e+01   
1.024000000000000e+10    -1.365551011794513e+01   -6.676641683609367e+01   
1.024100000000000e+10    -1.365423162589479e+01   -6.689170294515978e+01   
1.024200000000000e+10    -1.364840577890907e+01   -6.685901823885921e+01   
1.024300000000000e+10    -1.364346663969196e+01   -6.680832533463030e+01   
1.024400000000000e+10    -1.364825953088835e+01   -6.688818910711362e+01   
1.024500000000000e+10    -1.364787579960774e+01   -6.683920380072453e+01   
1.024600000000000e+10    -1.365003283706671e+01   -6.694053054880936e+01   
1.024700000000000e+10    -1.365349873223774e+01   -6.687163259943574e+01   
1.024800000000000e+10    -1.366846726834861e+01   -6.694653499237448e+01   
1.024900000000000e+10    -1.364962293611970e+01   -6.699635466191287e+01   
1.025000000000000e+10    -1.364878376961434e+01   -6.695721509349272e+01   
1.025100000000000e+10    -1.365680230454991e+01   -6.687608481244453e+01   
1.025200000000000e+10    -1.366130851886115e+01   -6.696184947461569e+01   
1.025300000000000e+10    -1.365090288683060e+01   -6.698302326219427e+01   
1.025400000000000e+10    -1.365012513690436e+01   -6.697947666678641e+01   
1.025500000000000e+10    -1.365633060664244e+01   -6.693884006476792e+01   
1.025600000000000e+10    -1.365868267401857e+01   -6.700583284538773e+01   
