[Version] 2.0
! Rohde & Schwarz Vector Network Analyzer
! Rohde-Schwarz,ZNL20-2Port,1323001220200009,1.71.1.10-23.02.1.238
! 
! Port Assignments:
! Nominal Port -> Actual Test Port
! --------------------------------
!   1 -> 1

! Created: GMT 2024-09-04 14:19:18

# Hz S DB R 50

[Number of Ports] 1
[Number of Frequencies] 2001

[Network Data] 
! freq[Hz]               S11[mag dB]              S11[ang]                 
1.000000000000000e+10    -1.235034443304564e+01   -6.703387815012520e+01   
1.000100000000000e+10    -1.235126411997800e+01   -6.704709756249359e+01   
1.000200000000000e+10    -1.235437734590074e+01   -6.696365675577755e+01   
1.000300000000000e+10    -1.234819706108343e+01   -6.693443357720339e+01   
1.000400000000000e+10    -1.235358085408199e+01   -6.694399146177817e+01   
1.000500000000000e+10    -1.234995541197388e+01   -6.700422232913306e+01   
1.000600000000000e+10    -1.235864335550811e+01   -6.698026647380107e+01   
1.000700000000000e+10    -1.234827756676561e+01   -6.704530054781037e+01   
1.000800000000000e+10    -1.236274622793149e+01   -6.702961429071932e+01   
1.000900000000000e+10    -1.234650976713447e+01   -6.697111078518242e+01   
1.001000000000000e+10    -1.236125307699653e+01   -6.705307603630494e+01   
1.001100000000000e+10    -1.236056301878394e+01   -6.700765084965359e+01   
1.001200000000000e+10    -1.236362118859485e+01   -6.706611074102726e+01   
1.001300000000000e+10    -1.236594319031513e+01   -6.706171641147731e+01   
1.001400000000000e+10    -1.237470323210019e+01   -6.700090915248938e+01   
1.001500000000000e+10    -1.237087623953180e+01   -6.715228480271116e+01   
1.001600000000000e+10    -1.238086672546845e+01   -6.708312121378611e+01   
1.001700000000000e+10    -1.238718922435646e+01   -6.709782295858938e+01   
1.001800000000000e+10    -1.238582514743743e+01   -6.712015415688734e+01   
1.001900000000000e+10    -1.239350316850212e+01   -6.718129863005615e+01   
1.002000000000000e+10    -1.239403292959748e+01   -6.710355564591617e+01   
1.002100000000000e+10    -1.239977506964372e+01   -6.713302183065242e+01   
1.002200000000000e+10    -1.239969928633230e+01   -6.722563178256901e+01   
1.002300000000000e+10    -1.240697423021871e+01   -6.722776420212091e+01   
1.002400000000000e+10    -1.241622481759181e+01   -6.734645696838858e+01   
1.002500000000000e+10    -1.241553134993828e+01   -6.735663287975623e+01   
1.002600000000000e+10    -1.241240764206850e+01   -6.739241490791531e+01   
1.002700000000000e+10    -1.241301459980292e+01   -6.738224334314270e+01   
1.002800000000000e+10    -1.241114834996841e+01   -6.750007026517390e+01   
1.002900000000000e+10    -1.241677788028270e+01   -6.747636060241663e+01   
1.003000000000000e+10    -1.241757598964029e+01   -6.757310867791357e+01   
1.003100000000000e+10    -1.241775735570786e+01   -6.770478806862371e+01   
1.003200000000000e+10    -1.241896045963520e+01   -6.768820581334855e+01   
1.003300000000000e+10    -1.243268241496697e+01   -6.771346211109729e+01   
1.003400000000000e+10    -1.242053796010101e+01   -6.784470797251826e+01   
1.003500000000000e+10    -1.242492489899056e+01   -6.787131262820678e+01   
1.003600000000000e+10    -1.243410387833503e+01   -6.788760770698784e+01   
1.003700000000000e+10    -1.242762873329514e+01   -6.799329809727546e+01   
1.003800000000000e+10    -1.243196865110657e+01   -6.801404304157828e+01   
1.003900000000000e+10    -1.243010130153812e+01   -6.819166597177208e+01   
1.004000000000000e+10    -1.243134859961342e+01   -6.808677653568957e+01   
1.004100000000000e+10    -1.241502746772754e+01   -6.820602979701857e+01   
1.004200000000000e+10    -1.242123368499028e+01   -6.813394066540395e+01   
1.004300000000000e+10    -1.242134459100103e+01   -6.827895375773477e+01   
1.004400000000000e+10    -1.241375163828453e+01   -6.838804835933621e+01   
1.004500000000000e+10    -1.242699069371952e+01   -6.837975338424984e+01   
1.004600000000000e+10    -1.241029651760439e+01   -6.839575980109950e+01   
1.004700000000000e+10    -1.241057873403544e+01   -6.853611064199603e+01   
1.004800000000000e+10    -1.240741508354819e+01   -6.859580793506822e+01   
1.004900000000000e+10    -1.241530901941116e+01   -6.858883566233084e+01   
1.005000000000000e+10    -1.241291778924964e+01   -6.860699873929296e+01   
1.005100000000000e+10    -1.239248368279246e+01   -6.863747711951369e+01   
1.005200000000000e+10    -1.238083854071443e+01   -6.871589832770060e+01   
1.005300000000000e+10    -1.238131392598112e+01   -6.882079984198623e+01   
1.005400000000000e+10    -1.238164509049740e+01   -6.882407711562465e+01   
1.005500000000000e+10    -1.237688586086582e+01   -6.891568628608849e+01   
1.005600000000000e+10    -1.236991874942406e+01   -6.886439921480337e+01   
1.005700000000000e+10    -1.237193451462961e+01   -6.893898066865074e+01   
1.005800000000000e+10    -1.235377552694893e+01   -6.889926890622826e+01   
1.005900000000000e+10    -1.235248993865154e+01   -6.901264604607910e+01   
1.006000000000000e+10    -1.234305093408656e+01   -6.907158028134585e+01   
1.006100000000000e+10    -1.234276993113649e+01   -6.906881305421253e+01   
1.006200000000000e+10    -1.233696972825273e+01   -6.905128372753477e+01   
1.006300000000000e+10    -1.231851854442685e+01   -6.903495547723239e+01   
1.006400000000000e+10    -1.232283769099117e+01   -6.907894046105635e+01   
1.006500000000000e+10    -1.231792048940781e+01   -6.913899480351073e+01   
1.006600000000000e+10    -1.231681146885267e+01   -6.913972682596675e+01   
1.006700000000000e+10    -1.231293327538796e+01   -6.906215068204115e+01   
1.006800000000000e+10    -1.232280851194368e+01   -6.919314088738636e+01   
1.006900000000000e+10    -1.229714422402341e+01   -6.913776513409675e+01   
1.007000000000000e+10    -1.229124662146824e+01   -6.914436113087689e+01   
1.007100000000000e+10    -1.228910164368814e+01   -6.913479256806846e+01   
1.007200000000000e+10    -1.229057340922905e+01   -6.922086187998475e+01   
1.007300000000000e+10    -1.228309765294436e+01   -6.914347225376892e+01   
1.007400000000000e+10    -1.227604183755885e+01   -6.916233154273549e+01   
1.007500000000000e+10    -1.227662157126865e+01   -6.911753789468135e+01   
1.007600000000000e+10    -1.226960951457676e+01   -6.919077287177359e+01   
1.007700000000000e+10    -1.226757643621034e+01   -6.910297640199597e+01   
1.007800000000000e+10    -1.225763565356637e+01   -6.912142288503588e+01   
1.007900000000000e+10    -1.224756691795560e+01   -6.902554591727593e+01   
1.008000000000000e+10    -1.225053293913775e+01   -6.903188807571318e+01   
1.008100000000000e+10    -1.225858009837793e+01   -6.917147229980463e+01   
1.008200000000000e+10    -1.225804582541668e+01   -6.914310531723883e+01   
1.008300000000000e+10    -1.225704909863058e+01   -6.900895066832240e+01   
1.008400000000000e+10    -1.225109394776011e+01   -6.907991164345155e+01   
1.008500000000000e+10    -1.225036129125675e+01   -6.903943288965638e+01   
1.008600000000000e+10    -1.224657412564656e+01   -6.901367664431989e+01   
1.008700000000000e+10    -1.224701889823121e+01   -6.899131462896375e+01   
1.008800000000000e+10    -1.225032355688467e+01   -6.905553537941780e+01   
1.008900000000000e+10    -1.224634862629603e+01   -6.892352893566334e+01   
1.009000000000000e+10    -1.224433182507881e+01   -6.897357935456402e+01   
1.009100000000000e+10    -1.224817644309430e+01   -6.900749310338207e+01   
1.009200000000000e+10    -1.224924057630255e+01   -6.895546700100883e+01   
1.009300000000000e+10    -1.225244780809351e+01   -6.892292003335444e+01   
1.009400000000000e+10    -1.225899606354318e+01   -6.895221189214831e+01   
1.009500000000000e+10    -1.225999321046777e+01   -6.900582526463461e+01   
1.009600000000000e+10    -1.225539394592889e+01   -6.891229493158527e+01   
1.009700000000000e+10    -1.226274907837619e+01   -6.894952066340525e+01   
1.009800000000000e+10    -1.226998425283238e+01   -6.888543034398640e+01   
1.009900000000000e+10    -1.227532726551964e+01   -6.886658203969526e+01   
1.010000000000000e+10    -1.227851429605142e+01   -6.894515751843930e+01   
1.010100000000000e+10    -1.227976314763855e+01   -6.890678700764494e+01   
1.010200000000000e+10    -1.228980479919762e+01   -6.890479826967976e+01   
1.010300000000000e+10    -1.229715246775271e+01   -6.890781769702760e+01   
1.010400000000000e+10    -1.229020882818009e+01   -6.892282218278893e+01   
1.010500000000000e+10    -1.230124413614026e+01   -6.896309907899520e+01   
1.010600000000000e+10    -1.229280180893215e+01   -6.886986786844041e+01   
1.010700000000000e+10    -1.231555196913105e+01   -6.900649626009263e+01   
1.010800000000000e+10    -1.232461006176882e+01   -6.889953159183742e+01   
1.010900000000000e+10    -1.232217272178259e+01   -6.897154533860034e+01   
1.011000000000000e+10    -1.231859140001139e+01   -6.893369769305971e+01   
1.011100000000000e+10    -1.232166821646235e+01   -6.906687798581757e+01   
1.011200000000000e+10    -1.233299176739440e+01   -6.901193227659924e+01   
1.011300000000000e+10    -1.233031988483866e+01   -6.915483981690775e+01   
1.011400000000000e+10    -1.233934798955319e+01   -6.908177290027902e+01   
1.011500000000000e+10    -1.233970149009796e+01   -6.914005532739878e+01   
1.011600000000000e+10    -1.235167894803668e+01   -6.910186428465352e+01   
1.011700000000000e+10    -1.236762291422139e+01   -6.914895344078958e+01   
1.011800000000000e+10    -1.236419723343715e+01   -6.920409509139407e+01   
1.011900000000000e+10    -1.236321689889069e+01   -6.924599140878473e+01   
1.012000000000000e+10    -1.236029065165126e+01   -6.931658617381983e+01   
1.012100000000000e+10    -1.237384451985178e+01   -6.938159272266773e+01   
1.012200000000000e+10    -1.236454304663085e+01   -6.935715609862541e+01   
1.012300000000000e+10    -1.237306596962354e+01   -6.940849717115680e+01   
1.012400000000000e+10    -1.238542665198089e+01   -6.942101723157276e+01   
1.012500000000000e+10    -1.238010926539041e+01   -6.946556055772328e+01   
1.012600000000000e+10    -1.238722211797036e+01   -6.946183449581447e+01   
1.012700000000000e+10    -1.239063566441709e+01   -6.958391920569372e+01   
1.012800000000000e+10    -1.238710526562147e+01   -6.957654664574696e+01   
1.012900000000000e+10    -1.239081372255034e+01   -6.967556847277697e+01   
1.013000000000000e+10    -1.238670305023902e+01   -6.961925203979963e+01   
1.013100000000000e+10    -1.239070812883726e+01   -6.972842392345430e+01   
1.013200000000000e+10    -1.239600412615152e+01   -6.975277100725462e+01   
1.013300000000000e+10    -1.240042849324655e+01   -6.985047233557114e+01   
1.013400000000000e+10    -1.238808038122280e+01   -6.985145294897337e+01   
1.013500000000000e+10    -1.238954543473978e+01   -6.990667883110068e+01   
1.013600000000000e+10    -1.238524963500076e+01   -6.992574277512283e+01   
1.013700000000000e+10    -1.238225144725739e+01   -6.998633404066480e+01   
1.013800000000000e+10    -1.237996511950795e+01   -7.005437510999100e+01   
1.013900000000000e+10    -1.238430438338943e+01   -7.008483072052520e+01   
1.014000000000000e+10    -1.237198921114888e+01   -7.008492065382035e+01   
1.014100000000000e+10    -1.238562465277034e+01   -7.012647947738715e+01   
1.014200000000000e+10    -1.237235379936874e+01   -7.020171175827255e+01   
1.014300000000000e+10    -1.237998524342894e+01   -7.018606644745373e+01   
1.014400000000000e+10    -1.237355718220901e+01   -7.020567656190707e+01   
1.014500000000000e+10    -1.237821852445317e+01   -7.028256792969364e+01   
1.014600000000000e+10    -1.236709868406612e+01   -7.029287610661804e+01   
1.014700000000000e+10    -1.236317732155460e+01   -7.025312746705976e+01   
1.014800000000000e+10    -1.237249452838267e+01   -7.030045355580671e+01   
1.014900000000000e+10    -1.236199870387487e+01   -7.037187274000931e+01   
1.015000000000000e+10    -1.236239392218984e+01   -7.036604473592662e+01   
1.015100000000000e+10    -1.235985776168558e+01   -7.037427828162005e+01   
1.015200000000000e+10    -1.234920576276114e+01   -7.038619436546946e+01   
1.015300000000000e+10    -1.235416906536965e+01   -7.041477112096138e+01   
1.015400000000000e+10    -1.234351857923898e+01   -7.039563609648991e+01   
1.015500000000000e+10    -1.236225312538813e+01   -7.042485768227947e+01   
1.015600000000000e+10    -1.235212213862959e+01   -7.044268857093103e+01   
1.015700000000000e+10    -1.234206547994469e+01   -7.037951371903677e+01   
1.015800000000000e+10    -1.234152641519264e+01   -7.048726218338248e+01   
1.015900000000000e+10    -1.233483342474494e+01   -7.044530076369917e+01   
1.016000000000000e+10    -1.233437136711472e+01   -7.049101544962441e+01   
1.016100000000000e+10    -1.233750532990287e+01   -7.049177516997572e+01   
1.016200000000000e+10    -1.232580094662049e+01   -7.040785142571470e+01   
1.016300000000000e+10    -1.232214892514788e+01   -7.041310163321720e+01   
1.016400000000000e+10    -1.233479032678346e+01   -7.040736619536594e+01   
1.016500000000000e+10    -1.232068927742325e+01   -7.040144954634742e+01   
1.016600000000000e+10    -1.233107140454089e+01   -7.043023544383348e+01   
1.016700000000000e+10    -1.231652403843642e+01   -7.043573621662843e+01   
1.016800000000000e+10    -1.231296311903159e+01   -7.038787358279538e+01   
1.016900000000000e+10    -1.231698748080974e+01   -7.036199644506249e+01   
1.017000000000000e+10    -1.232298283654445e+01   -7.036361811602360e+01   
1.017100000000000e+10    -1.231584904894042e+01   -7.043908110573008e+01   
1.017200000000000e+10    -1.231119758076301e+01   -7.033526174336509e+01   
1.017300000000000e+10    -1.231411438939814e+01   -7.040844408425772e+01   
1.017400000000000e+10    -1.230704080330420e+01   -7.033297604867286e+01   
1.017500000000000e+10    -1.230686005887095e+01   -7.035387664849996e+01   
1.017600000000000e+10    -1.229640803895844e+01   -7.031961956361648e+01   
1.017700000000000e+10    -1.231123402673628e+01   -7.028467512126215e+01   
1.017800000000000e+10    -1.230847291772989e+01   -7.030040521549759e+01   
1.017900000000000e+10    -1.230324107388504e+01   -7.023373853724652e+01   
1.018000000000000e+10    -1.230328659244040e+01   -7.026431960828624e+01   
1.018100000000000e+10    -1.230473231244956e+01   -7.019339208368646e+01   
1.018200000000000e+10    -1.230760118780852e+01   -7.018015879329639e+01   
1.018300000000000e+10    -1.230123289139130e+01   -7.018868374100099e+01   
1.018400000000000e+10    -1.231490378488661e+01   -7.015194157148370e+01   
1.018500000000000e+10    -1.230887417231210e+01   -7.017737972405803e+01   
1.018600000000000e+10    -1.232033534688297e+01   -7.022152865470159e+01   
1.018700000000000e+10    -1.231358304421976e+01   -7.012854654900003e+01   
1.018800000000000e+10    -1.232096474350053e+01   -7.016069382090882e+01   
1.018900000000000e+10    -1.232605288175643e+01   -7.013135948925284e+01   
1.019000000000000e+10    -1.232436226530172e+01   -7.009124400151381e+01   
1.019100000000000e+10    -1.232210373173336e+01   -7.010279044208401e+01   
1.019200000000000e+10    -1.232461839541110e+01   -7.005450168784061e+01   
1.019300000000000e+10    -1.233768897358540e+01   -7.011787452757024e+01   
1.019400000000000e+10    -1.233061290337673e+01   -7.006252760312921e+01   
1.019500000000000e+10    -1.233852296513220e+01   -7.009467594152649e+01   
1.019600000000000e+10    -1.232453014037203e+01   -7.008333030625543e+01   
1.019700000000000e+10    -1.233325220477593e+01   -7.005308718197229e+01   
1.019800000000000e+10    -1.234291293414475e+01   -7.008405662389275e+01   
1.019900000000000e+10    -1.233889039641732e+01   -7.002510560991051e+01   
1.020000000000000e+10    -1.234417499123143e+01   -7.009349896348110e+01   
1.020100000000000e+10    -1.234514955984143e+01   -7.009003229551875e+01   
1.020200000000000e+10    -1.234025509964004e+01   -7.007472541952870e+01   
1.020300000000000e+10    -1.235177884853084e+01   -7.006272295538635e+01   
1.020400000000000e+10    -1.234721762300961e+01   -7.008119107152001e+01   
1.020500000000000e+10    -1.235494392943385e+01   -7.011167436323313e+01   
1.020600000000000e+10    -1.234601608547941e+01   -7.007731296358683e+01   
1.020700000000000e+10    -1.235423905636057e+01   -7.010213728902536e+01   
1.020800000000000e+10    -1.236420563218871e+01   -7.010882489677513e+01   
1.020900000000000e+10    -1.236047324568026e+01   -7.014582013183062e+01   
1.021000000000000e+10    -1.235715793873421e+01   -7.015690129657534e+01   
1.021100000000000e+10    -1.236370531114115e+01   -7.018108041817015e+01   
1.021200000000000e+10    -1.236574301188554e+01   -7.008720367435420e+01   
1.021300000000000e+10    -1.236472574281718e+01   -7.022694005625809e+01   
1.021400000000000e+10    -1.236769184703585e+01   -7.016403422115084e+01   
1.021500000000000e+10    -1.236207170934569e+01   -7.029518801680746e+01   
1.021600000000000e+10    -1.237068215648909e+01   -7.030777455418608e+01   
1.021700000000000e+10    -1.236181169821309e+01   -7.022369875431608e+01   
1.021800000000000e+10    -1.236857263738277e+01   -7.026505059306741e+01   
1.021900000000000e+10    -1.235752011386287e+01   -7.023556540745498e+01   
1.022000000000000e+10    -1.236726519182517e+01   -7.025873732302294e+01   
1.022100000000000e+10    -1.235112653896416e+01   -7.031293419163048e+01   
1.022200000000000e+10    -1.235509435893716e+01   -7.027020439903757e+01   
1.022300000000000e+10    -1.235681154660325e+01   -7.031207678783761e+01   
1.022400000000000e+10    -1.236181211823874e+01   -7.031182090984862e+01   
1.022500000000000e+10    -1.234936720499434e+01   -7.031432097667812e+01   
1.022600000000000e+10    -1.235666647171260e+01   -7.030776142747727e+01   
1.022700000000000e+10    -1.235479525706278e+01   -7.033233466968450e+01   
1.022800000000000e+10    -1.235463343293216e+01   -7.025190800913772e+01   
1.022900000000000e+10    -1.234380304089647e+01   -7.040160582216210e+01   
1.023000000000000e+10    -1.234899014410756e+01   -7.036452483029838e+01   
1.023100000000000e+10    -1.233790124012256e+01   -7.039212834380402e+01   
1.023200000000000e+10    -1.234907168230466e+01   -7.034535086836758e+01   
1.023300000000000e+10    -1.233539641409758e+01   -7.045808470249798e+01   
1.023400000000000e+10    -1.234791126518470e+01   -7.043051280925485e+01   
1.023500000000000e+10    -1.233458659208309e+01   -7.046800226023726e+01   
1.023600000000000e+10    -1.234256717741920e+01   -7.042292985325969e+01   
1.023700000000000e+10    -1.233876882467039e+01   -7.043569437803080e+01   
1.023800000000000e+10    -1.234530709407444e+01   -7.048319618028631e+01   
1.023900000000000e+10    -1.233995408383459e+01   -7.047780964074424e+01   
1.024000000000000e+10    -1.234174587347097e+01   -7.040384165257220e+01   
1.024100000000000e+10    -1.233929171010970e+01   -7.052583025754426e+01   
1.024200000000000e+10    -1.233368905030856e+01   -7.048370962058634e+01   
1.024300000000000e+10    -1.232861337169210e+01   -7.045135164807650e+01   
1.024400000000000e+10    -1.232730048249883e+01   -7.049316703925217e+01   
1.024500000000000e+10    -1.232592386912641e+01   -7.044780039710771e+01   
1.024600000000000e+10    -1.232258865011071e+01   -7.053192642008487e+01   
1.024700000000000e+10    -1.232412716907356e+01   -7.048471175414956e+01   
1.024800000000000e+10    -1.233390176927021e+01   -7.054993258592260e+01   
1.024900000000000e+10    -1.231962701318612e+01   -7.059510349371817e+01   
1.025000000000000e+10    -1.231593412980520e+01   -7.055091211296997e+01   
1.025100000000000e+10    -1.231901759594438e+01   -7.050542310148747e+01   
1.025200000000000e+10    -1.232172463451581e+01   -7.060067115406876e+01   
1.025300000000000e+10    -1.230663263000597e+01   -7.062686794284987e+01   
1.025400000000000e+10    -1.230628182469272e+01   -7.060262464686413e+01   
1.025500000000000e+10    -1.231126830369760e+01   -7.057131920310175e+01   
1.025600000000000e+10    -1.230966745443435e+01   -7.061708389771066e+01   
