[Version] 2.0
! Rohde & Schwarz Vector Network Analyzer
! Rohde-Schwarz,ZNL20-2Port,1323001220200009,1.71.1.10-23.02.1.238
! 
! Port Assignments:
! Nominal Port -> Actual Test Port
! --------------------------------
!   1 -> 1

! Created: GMT 2024-09-04 14:19:26

# Hz S DB R 50

[Number of Ports] 1
[Number of Frequencies] 2001

[Network Data] 
! freq[Hz]               S11[mag dB]              S11[ang]                 
1.000000000000000e+10    -1.242588676809722e+01   -6.661063593704390e+01   
1.000100000000000e+10    -1.242625052211443e+01   -6.660084900158365e+01   
1.000200000000000e+10    -1.242749013365332e+01   -6.649884057333611e+01   
1.000300000000000e+10    -1.242480635363995e+01   -6.648057331167691e+01   
1.000400000000000e+10    -1.242929602200760e+01   -6.648290602772666e+01   
1.000500000000000e+10    -1.241961877130849e+01   -6.654949278816697e+01   
1.000600000000000e+10    -1.243289897648182e+01   -6.650269642355127e+01   
1.000700000000000e+10    -1.241973079427318e+01   -6.658494307606948e+01   
1.000800000000000e+10    -1.244039383730715e+01   -6.656254163348881e+01   
1.000900000000000e+10    -1.242068116863954e+01   -6.648932536930081e+01   
1.001000000000000e+10    -1.243253893738272e+01   -6.657876399482794e+01   
1.001100000000000e+10    -1.243145642736053e+01   -6.652419464026795e+01   
1.001200000000000e+10    -1.243501671283513e+01   -6.659135667873421e+01   
1.001300000000000e+10    -1.243515640007512e+01   -6.660636697434752e+01   
1.001400000000000e+10    -1.244328707640443e+01   -6.653956320423809e+01   
1.001500000000000e+10    -1.244435080483349e+01   -6.669820696778359e+01   
1.001600000000000e+10    -1.245298955927697e+01   -6.663235053365317e+01   
1.001700000000000e+10    -1.245667447198366e+01   -6.662480105020104e+01   
1.001800000000000e+10    -1.246151974615549e+01   -6.665476352487694e+01   
1.001900000000000e+10    -1.246664680751070e+01   -6.671551426839456e+01   
1.002000000000000e+10    -1.247561399509919e+01   -6.664278726514587e+01   
1.002100000000000e+10    -1.247120704193226e+01   -6.667338876600756e+01   
1.002200000000000e+10    -1.247335456054828e+01   -6.678960283428954e+01   
1.002300000000000e+10    -1.247499129165309e+01   -6.676934688111922e+01   
1.002400000000000e+10    -1.248392060472185e+01   -6.690006049889521e+01   
1.002500000000000e+10    -1.248988319756109e+01   -6.688955048360953e+01   
1.002600000000000e+10    -1.248386818329964e+01   -6.691341471421366e+01   
1.002700000000000e+10    -1.248727568755589e+01   -6.689988352149904e+01   
1.002800000000000e+10    -1.248404725550187e+01   -6.703351487570825e+01   
1.002900000000000e+10    -1.248986850855948e+01   -6.703320486584059e+01   
1.003000000000000e+10    -1.249250647799199e+01   -6.710335465808957e+01   
1.003100000000000e+10    -1.249085440771481e+01   -6.722737314120023e+01   
1.003200000000000e+10    -1.249597012761888e+01   -6.722496922737338e+01   
1.003300000000000e+10    -1.250249713734732e+01   -6.726185169314898e+01   
1.003400000000000e+10    -1.249753177792760e+01   -6.737238957359105e+01   
1.003500000000000e+10    -1.249663768448347e+01   -6.737138557039721e+01   
1.003600000000000e+10    -1.250680299287397e+01   -6.740888143650420e+01   
1.003700000000000e+10    -1.250158405978165e+01   -6.752369101087966e+01   
1.003800000000000e+10    -1.250416938099681e+01   -6.753909372792920e+01   
1.003900000000000e+10    -1.250276395406642e+01   -6.771186484751695e+01   
1.004000000000000e+10    -1.250094931393327e+01   -6.760077657980702e+01   
1.004100000000000e+10    -1.249059196862295e+01   -6.771377758124527e+01   
1.004200000000000e+10    -1.248976670599650e+01   -6.766373874616094e+01   
1.004300000000000e+10    -1.249398572263188e+01   -6.780205335717221e+01   
1.004400000000000e+10    -1.248924467639555e+01   -6.792186483286909e+01   
1.004500000000000e+10    -1.249606018507558e+01   -6.789839483476148e+01   
1.004600000000000e+10    -1.248162664846252e+01   -6.793004349028887e+01   
1.004700000000000e+10    -1.248129705719949e+01   -6.808152691488087e+01   
1.004800000000000e+10    -1.247741511203940e+01   -6.812506582343936e+01   
1.004900000000000e+10    -1.248748563220851e+01   -6.811675332831227e+01   
1.005000000000000e+10    -1.248402376550463e+01   -6.816093546077657e+01   
1.005100000000000e+10    -1.246719334490755e+01   -6.817419836238048e+01   
1.005200000000000e+10    -1.245375575222533e+01   -6.824457954184189e+01   
1.005300000000000e+10    -1.245394887592717e+01   -6.833274403195597e+01   
1.005400000000000e+10    -1.245718508521217e+01   -6.837426947117494e+01   
1.005500000000000e+10    -1.245268876578661e+01   -6.845515218699656e+01   
1.005600000000000e+10    -1.244085883799559e+01   -6.839060981939693e+01   
1.005700000000000e+10    -1.244470334686198e+01   -6.845765023150973e+01   
1.005800000000000e+10    -1.242409813599790e+01   -6.841325647886741e+01   
1.005900000000000e+10    -1.242135602931580e+01   -6.852789719080097e+01   
1.006000000000000e+10    -1.241417286008074e+01   -6.859754997017855e+01   
1.006100000000000e+10    -1.241315371629708e+01   -6.857581120604192e+01   
1.006200000000000e+10    -1.240544897833642e+01   -6.857117160220128e+01   
1.006300000000000e+10    -1.238234860061612e+01   -6.855740008140188e+01   
1.006400000000000e+10    -1.239129278254645e+01   -6.858252545902694e+01   
1.006500000000000e+10    -1.238765960947054e+01   -6.866704754662403e+01   
1.006600000000000e+10    -1.238637147387756e+01   -6.863939901807740e+01   
1.006700000000000e+10    -1.237897877756556e+01   -6.858137969454739e+01   
1.006800000000000e+10    -1.239074701438250e+01   -6.870521682443659e+01   
1.006900000000000e+10    -1.236515051139216e+01   -6.864058055743286e+01   
1.007000000000000e+10    -1.236344083918787e+01   -6.866758463003085e+01   
1.007100000000000e+10    -1.235635058923989e+01   -6.864488141119206e+01   
1.007200000000000e+10    -1.236258502792364e+01   -6.872024117045888e+01   
1.007300000000000e+10    -1.234813944066260e+01   -6.865634601960164e+01   
1.007400000000000e+10    -1.234200660636152e+01   -6.867425946225279e+01   
1.007500000000000e+10    -1.234692394533840e+01   -6.864838708657912e+01   
1.007600000000000e+10    -1.233483658228051e+01   -6.868741589618229e+01   
1.007700000000000e+10    -1.233229084260516e+01   -6.860412601957596e+01   
1.007800000000000e+10    -1.232404105251936e+01   -6.863791629898749e+01   
1.007900000000000e+10    -1.231462708600806e+01   -6.855150303215852e+01   
1.008000000000000e+10    -1.231590004679293e+01   -6.852258420347302e+01   
1.008100000000000e+10    -1.232354153133784e+01   -6.864611326372759e+01   
1.008200000000000e+10    -1.232263603876623e+01   -6.863713636658589e+01   
1.008300000000000e+10    -1.231937671003850e+01   -6.849877677953167e+01   
1.008400000000000e+10    -1.231628866175489e+01   -6.858961491838306e+01   
1.008500000000000e+10    -1.230902758103469e+01   -6.854311101536283e+01   
1.008600000000000e+10    -1.230940067066437e+01   -6.852128573400972e+01   
1.008700000000000e+10    -1.231025549521212e+01   -6.851555446945518e+01   
1.008800000000000e+10    -1.230905346429911e+01   -6.856982214238265e+01   
1.008900000000000e+10    -1.230763652587714e+01   -6.845125380884065e+01   
1.009000000000000e+10    -1.230470075752147e+01   -6.850776383360329e+01   
1.009100000000000e+10    -1.230984673142050e+01   -6.853520295204358e+01   
1.009200000000000e+10    -1.230774243767175e+01   -6.847913762535538e+01   
1.009300000000000e+10    -1.231430102631530e+01   -6.845637921308716e+01   
1.009400000000000e+10    -1.232090505028324e+01   -6.845803426058561e+01   
1.009500000000000e+10    -1.232197433340359e+01   -6.849260800826683e+01   
1.009600000000000e+10    -1.231596760678498e+01   -6.842170561972375e+01   
1.009700000000000e+10    -1.232379023873756e+01   -6.845392924225807e+01   
1.009800000000000e+10    -1.233083569772985e+01   -6.839935869882176e+01   
1.009900000000000e+10    -1.233214745283078e+01   -6.842233119350443e+01   
1.010000000000000e+10    -1.233698963937962e+01   -6.847517045089181e+01   
1.010100000000000e+10    -1.233629083749928e+01   -6.842344198996832e+01   
1.010200000000000e+10    -1.234895957226696e+01   -6.840793231601036e+01   
1.010300000000000e+10    -1.235345372095607e+01   -6.844671672843491e+01   
1.010400000000000e+10    -1.235093340320644e+01   -6.841773467452883e+01   
1.010500000000000e+10    -1.236415328555420e+01   -6.846978017368713e+01   
1.010600000000000e+10    -1.235293233107514e+01   -6.836891782655222e+01   
1.010700000000000e+10    -1.237266416382724e+01   -6.854150366173486e+01   
1.010800000000000e+10    -1.237876081969950e+01   -6.841119070405050e+01   
1.010900000000000e+10    -1.237691177818436e+01   -6.848282247134041e+01   
1.011000000000000e+10    -1.237371879979607e+01   -6.845401518519319e+01   
1.011100000000000e+10    -1.237260810661433e+01   -6.858136005080434e+01   
1.011200000000000e+10    -1.238748099257690e+01   -6.851867003331655e+01   
1.011300000000000e+10    -1.238501822896868e+01   -6.864350342593535e+01   
1.011400000000000e+10    -1.239390219901982e+01   -6.856858943724383e+01   
1.011500000000000e+10    -1.239683129625877e+01   -6.865246049173940e+01   
1.011600000000000e+10    -1.240381510197009e+01   -6.860098734273885e+01   
1.011700000000000e+10    -1.241971848026573e+01   -6.866628580148148e+01   
1.011800000000000e+10    -1.241637204052093e+01   -6.870966474659201e+01   
1.011900000000000e+10    -1.241928325330079e+01   -6.878727031740783e+01   
1.012000000000000e+10    -1.241012369727263e+01   -6.883550558712935e+01   
1.012100000000000e+10    -1.242688469020237e+01   -6.891277197616579e+01   
1.012200000000000e+10    -1.241748101693091e+01   -6.885836310611887e+01   
1.012300000000000e+10    -1.242542539092537e+01   -6.893014589193633e+01   
1.012400000000000e+10    -1.243521520485558e+01   -6.896003309851052e+01   
1.012500000000000e+10    -1.243129156636141e+01   -6.897237037441995e+01   
1.012600000000000e+10    -1.243826116949007e+01   -6.899475684322292e+01   
1.012700000000000e+10    -1.244326033101286e+01   -6.909950970737572e+01   
1.012800000000000e+10    -1.244078674842205e+01   -6.910418937066611e+01   
1.012900000000000e+10    -1.243853574732358e+01   -6.919231702958191e+01   
1.013000000000000e+10    -1.243910907106301e+01   -6.915193365590828e+01   
1.013100000000000e+10    -1.244149121203060e+01   -6.924638511178669e+01   
1.013200000000000e+10    -1.244461660761737e+01   -6.930708589817712e+01   
1.013300000000000e+10    -1.245356199639134e+01   -6.937454321747725e+01   
1.013400000000000e+10    -1.243805269628921e+01   -6.939230942989825e+01   
1.013500000000000e+10    -1.244551123759366e+01   -6.943873127915161e+01   
1.013600000000000e+10    -1.243909878413267e+01   -6.949595520567003e+01   
1.013700000000000e+10    -1.243213453553239e+01   -6.952496016897841e+01   
1.013800000000000e+10    -1.243412077018179e+01   -6.960180045799177e+01   
1.013900000000000e+10    -1.243414510846534e+01   -6.961911493283536e+01   
1.014000000000000e+10    -1.242561720263865e+01   -6.962382134278897e+01   
1.014100000000000e+10    -1.243772163860696e+01   -6.968803788743452e+01   
1.014200000000000e+10    -1.242379092366216e+01   -6.974322900149959e+01   
1.014300000000000e+10    -1.243208071393973e+01   -6.973128446612576e+01   
1.014400000000000e+10    -1.242245234770521e+01   -6.976944042957122e+01   
1.014500000000000e+10    -1.242797670933176e+01   -6.984942233954671e+01   
1.014600000000000e+10    -1.241624810930140e+01   -6.984348305302184e+01   
1.014700000000000e+10    -1.241001022640610e+01   -6.981689893752741e+01   
1.014800000000000e+10    -1.242114758424723e+01   -6.986233448459016e+01   
1.014900000000000e+10    -1.241191499921298e+01   -6.994509732548246e+01   
1.015000000000000e+10    -1.241364754150478e+01   -6.992891812207367e+01   
1.015100000000000e+10    -1.240852186044439e+01   -6.993974352686885e+01   
1.015200000000000e+10    -1.240020650458532e+01   -6.995801579814515e+01   
1.015300000000000e+10    -1.240425291314014e+01   -7.004587399542673e+01   
1.015400000000000e+10    -1.239427400603861e+01   -7.000246581864046e+01   
1.015500000000000e+10    -1.241145379331124e+01   -7.002667670900603e+01   
1.015600000000000e+10    -1.240147522019415e+01   -7.003363631414494e+01   
1.015700000000000e+10    -1.239333932794443e+01   -6.997716720106183e+01   
1.015800000000000e+10    -1.239275353707830e+01   -7.004499748603877e+01   
1.015900000000000e+10    -1.239030851531245e+01   -7.003921386950030e+01   
1.016000000000000e+10    -1.238611558472145e+01   -7.007325254080752e+01   
1.016100000000000e+10    -1.238676755919934e+01   -7.009241003935401e+01   
1.016200000000000e+10    -1.237790902787354e+01   -7.000977508572710e+01   
1.016300000000000e+10    -1.237207715190345e+01   -7.000729976573164e+01   
1.016400000000000e+10    -1.238432915888686e+01   -7.001457374791636e+01   
1.016500000000000e+10    -1.237121561671022e+01   -6.998513800514904e+01   
1.016600000000000e+10    -1.238095592887097e+01   -7.002697194358296e+01   
1.016700000000000e+10    -1.237208716624617e+01   -7.000036764173294e+01   
1.016800000000000e+10    -1.236400395628229e+01   -7.001607254828289e+01   
1.016900000000000e+10    -1.236615187773989e+01   -6.994528801370583e+01   
1.017000000000000e+10    -1.237050315318035e+01   -6.998897234307543e+01   
1.017100000000000e+10    -1.236942825822137e+01   -7.005888405461832e+01   
1.017200000000000e+10    -1.236327457559686e+01   -6.995305018874548e+01   
1.017300000000000e+10    -1.236445732380855e+01   -7.000283823320375e+01   
1.017400000000000e+10    -1.236037935347463e+01   -6.993488477310221e+01   
1.017500000000000e+10    -1.236169078252391e+01   -6.996365713515686e+01   
1.017600000000000e+10    -1.235006889248088e+01   -6.992260195471125e+01   
1.017700000000000e+10    -1.236298963626879e+01   -6.987581813302116e+01   
1.017800000000000e+10    -1.235932544331241e+01   -6.989885894505173e+01   
1.017900000000000e+10    -1.235654110853351e+01   -6.982943437774163e+01   
1.018000000000000e+10    -1.235658745979996e+01   -6.985065268757558e+01   
1.018100000000000e+10    -1.235563612323469e+01   -6.980609320434625e+01   
1.018200000000000e+10    -1.235895485292818e+01   -6.974842316959916e+01   
1.018300000000000e+10    -1.235388352859621e+01   -6.976579117342331e+01   
1.018400000000000e+10    -1.236509355894576e+01   -6.973998082173580e+01   
1.018500000000000e+10    -1.236332036394657e+01   -6.977812365365104e+01   
1.018600000000000e+10    -1.236962483877264e+01   -6.981521998441798e+01   
1.018700000000000e+10    -1.236289576804372e+01   -6.973525414157419e+01   
1.018800000000000e+10    -1.237191970995861e+01   -6.975440897005133e+01   
1.018900000000000e+10    -1.237564669121678e+01   -6.972515174740614e+01   
1.019000000000000e+10    -1.237508378496946e+01   -6.967181656368470e+01   
1.019100000000000e+10    -1.237657391767209e+01   -6.969067442035683e+01   
1.019200000000000e+10    -1.237631436829635e+01   -6.964574493653652e+01   
1.019300000000000e+10    -1.239095341041732e+01   -6.972744212513885e+01   
1.019400000000000e+10    -1.238704843157620e+01   -6.966644091630941e+01   
1.019500000000000e+10    -1.239117769463396e+01   -6.969483675593179e+01   
1.019600000000000e+10    -1.237966643046702e+01   -6.968600003565670e+01   
1.019700000000000e+10    -1.238946842420863e+01   -6.966539144250511e+01   
1.019800000000000e+10    -1.239300857245529e+01   -6.968440883357422e+01   
1.019900000000000e+10    -1.239025190186588e+01   -6.962574137991128e+01   
1.020000000000000e+10    -1.240349541205397e+01   -6.972668705057535e+01   
1.020100000000000e+10    -1.240029891054234e+01   -6.966603705534799e+01   
1.020200000000000e+10    -1.239373348177312e+01   -6.967979240002255e+01   
1.020300000000000e+10    -1.241027455719349e+01   -6.964653446174837e+01   
1.020400000000000e+10    -1.240295973999328e+01   -6.970171139562373e+01   
1.020500000000000e+10    -1.241688588486268e+01   -6.971913931615443e+01   
1.020600000000000e+10    -1.240236110042291e+01   -6.968471606053343e+01   
1.020700000000000e+10    -1.241436431830321e+01   -6.970791644707140e+01   
1.020800000000000e+10    -1.242192605766095e+01   -6.969883676514763e+01   
1.020900000000000e+10    -1.241802187881673e+01   -6.973081887707991e+01   
1.021000000000000e+10    -1.241733346710856e+01   -6.973435601340192e+01   
1.021100000000000e+10    -1.241902346007253e+01   -6.976953887121435e+01   
1.021200000000000e+10    -1.242494049018816e+01   -6.970062611539598e+01   
1.021300000000000e+10    -1.241900088449696e+01   -6.977766428796511e+01   
1.021400000000000e+10    -1.242406285493751e+01   -6.972799365760002e+01   
1.021500000000000e+10    -1.242003759414243e+01   -6.986881405682833e+01   
1.021600000000000e+10    -1.242512559368511e+01   -6.988208463364715e+01   
1.021700000000000e+10    -1.242110038869976e+01   -6.983941273017606e+01   
1.021800000000000e+10    -1.242622351403791e+01   -6.984367304360670e+01   
1.021900000000000e+10    -1.241669557027020e+01   -6.984882196980720e+01   
1.022000000000000e+10    -1.242586733759416e+01   -6.982378652220038e+01   
1.022100000000000e+10    -1.241442438317095e+01   -6.991713575931580e+01   
1.022200000000000e+10    -1.241529278224116e+01   -6.988115139707399e+01   
1.022300000000000e+10    -1.241358392844421e+01   -6.990880676142034e+01   
1.022400000000000e+10    -1.242442188426259e+01   -6.987341543399143e+01   
1.022500000000000e+10    -1.241341087163602e+01   -6.991898820390801e+01   
1.022600000000000e+10    -1.242057049214586e+01   -6.992319997935904e+01   
1.022700000000000e+10    -1.241731885197887e+01   -6.995620756259601e+01   
1.022800000000000e+10    -1.241433813553202e+01   -6.988844598575054e+01   
1.022900000000000e+10    -1.240433133450857e+01   -6.996405790532462e+01   
1.023000000000000e+10    -1.241118999971188e+01   -6.994581539370338e+01   
1.023100000000000e+10    -1.239517315796498e+01   -6.998925619447122e+01   
1.023200000000000e+10    -1.241283054959803e+01   -6.995396210757013e+01   
1.023300000000000e+10    -1.239409944450281e+01   -7.005693154026220e+01   
1.023400000000000e+10    -1.241212895257708e+01   -7.002064450106005e+01   
1.023500000000000e+10    -1.239321766093525e+01   -7.005826451014993e+01   
1.023600000000000e+10    -1.240694351825770e+01   -7.002320514311469e+01   
1.023700000000000e+10    -1.240082093901585e+01   -7.003408793514203e+01   
1.023800000000000e+10    -1.240924452980754e+01   -7.008956456290298e+01   
1.023900000000000e+10    -1.239889502919682e+01   -7.002841811071939e+01   
1.024000000000000e+10    -1.240332633007185e+01   -7.001917492073795e+01   
1.024100000000000e+10    -1.240408174350176e+01   -7.008411506815482e+01   
1.024200000000000e+10    -1.239833342389978e+01   -7.007601417869584e+01   
1.024300000000000e+10    -1.238992674554052e+01   -7.001325971669490e+01   
1.024400000000000e+10    -1.239100569107838e+01   -7.008616622960028e+01   
1.024500000000000e+10    -1.239065737238628e+01   -7.005418566252848e+01   
1.024600000000000e+10    -1.238471271477244e+01   -7.013091647458702e+01   
1.024700000000000e+10    -1.238551181338682e+01   -7.006737481141063e+01   
1.024800000000000e+10    -1.239914835063876e+01   -7.013929741903040e+01   
1.024900000000000e+10    -1.238058374208148e+01   -7.016622740250200e+01   
1.025000000000000e+10    -1.237511289771182e+01   -7.015247985845551e+01   
1.025100000000000e+10    -1.237959872027997e+01   -7.007275408302118e+01   
1.025200000000000e+10    -1.238298703250296e+01   -7.017567156521122e+01   
1.025300000000000e+10    -1.237242761784276e+01   -7.019846217155961e+01   
1.025400000000000e+10    -1.236708812562086e+01   -7.020196953366701e+01   
1.025500000000000e+10    -1.237108375927490e+01   -7.017919678357181e+01   
1.025600000000000e+10    -1.237302675116339e+01   -7.021943267236129e+01   
