[Version] 2.0
! Rohde & Schwarz Vector Network Analyzer
! Rohde-Schwarz,ZNL20-2Port,1323001220200009,1.71.1.10-23.02.1.238
! 
! Port Assignments:
! Nominal Port -> Actual Test Port
! --------------------------------
!   1 -> 1

! Created: GMT 2024-09-04 14:19:38

# Hz S DB R 50

[Number of Ports] 1
[Number of Frequencies] 2001

[Network Data] 
! freq[Hz]               S11[mag dB]              S11[ang]                 
1.000000000000000e+10    -1.252265295384690e+01   -6.604698081330433e+01   
1.000100000000000e+10    -1.252439147865665e+01   -6.605764222276927e+01   
1.000200000000000e+10    -1.252609012109662e+01   -6.597334284781992e+01   
1.000300000000000e+10    -1.252064810874747e+01   -6.595644994424131e+01   
1.000400000000000e+10    -1.253231105155325e+01   -6.598103906371171e+01   
1.000500000000000e+10    -1.252033206779949e+01   -6.600570377773053e+01   
1.000600000000000e+10    -1.253487417397896e+01   -6.595769021074497e+01   
1.000700000000000e+10    -1.251758629357456e+01   -6.605039675715071e+01   
1.000800000000000e+10    -1.254180204180500e+01   -6.602208236180519e+01   
1.000900000000000e+10    -1.251862159222852e+01   -6.595860560794448e+01   
1.001000000000000e+10    -1.253396257513179e+01   -6.605103373846107e+01   
1.001100000000000e+10    -1.253452866878021e+01   -6.599567408621125e+01   
1.001200000000000e+10    -1.253422245593869e+01   -6.604326280835107e+01   
1.001300000000000e+10    -1.253715672400982e+01   -6.604764100663120e+01   
1.001400000000000e+10    -1.254391934835679e+01   -6.599303994182719e+01   
1.001500000000000e+10    -1.254505252810839e+01   -6.613670996989771e+01   
1.001600000000000e+10    -1.254745190769409e+01   -6.605326188230190e+01   
1.001700000000000e+10    -1.255741618966202e+01   -6.605844838277081e+01   
1.001800000000000e+10    -1.255729258749190e+01   -6.608933093640438e+01   
1.001900000000000e+10    -1.256521404934292e+01   -6.616341794534920e+01   
1.002000000000000e+10    -1.256750107459563e+01   -6.607126615330385e+01   
1.002100000000000e+10    -1.256732547927318e+01   -6.611543747049028e+01   
1.002200000000000e+10    -1.256736725058712e+01   -6.620079398624898e+01   
1.002300000000000e+10    -1.257530835084731e+01   -6.620184514725253e+01   
1.002400000000000e+10    -1.258656535741640e+01   -6.632081828924186e+01   
1.002500000000000e+10    -1.258435670678755e+01   -6.633536953386383e+01   
1.002600000000000e+10    -1.257931529587521e+01   -6.635658905877959e+01   
1.002700000000000e+10    -1.258413200607512e+01   -6.635510679374842e+01   
1.002800000000000e+10    -1.257609697344067e+01   -6.647300633035191e+01   
1.002900000000000e+10    -1.258114086318487e+01   -6.647012504483301e+01   
1.003000000000000e+10    -1.258407277286174e+01   -6.654253137722041e+01   
1.003100000000000e+10    -1.258779064598419e+01   -6.666195040617106e+01   
1.003200000000000e+10    -1.258940315057061e+01   -6.665560339999973e+01   
1.003300000000000e+10    -1.259814421317421e+01   -6.667568728873024e+01   
1.003400000000000e+10    -1.259270281847708e+01   -6.681519391394056e+01   
1.003500000000000e+10    -1.259104027348713e+01   -6.678389675454763e+01   
1.003600000000000e+10    -1.260236630203521e+01   -6.684529258822030e+01   
1.003700000000000e+10    -1.259467248470025e+01   -6.694017889835231e+01   
1.003800000000000e+10    -1.259838486587872e+01   -6.695612260232748e+01   
1.003900000000000e+10    -1.259534328157867e+01   -6.713900138746848e+01   
1.004000000000000e+10    -1.259135632067066e+01   -6.702070735725447e+01   
1.004100000000000e+10    -1.257897742909243e+01   -6.715968934104045e+01   
1.004200000000000e+10    -1.258193169420424e+01   -6.708411163241408e+01   
1.004300000000000e+10    -1.258308044792989e+01   -6.723530491962160e+01   
1.004400000000000e+10    -1.257550099437236e+01   -6.734921788105940e+01   
1.004500000000000e+10    -1.258615039643466e+01   -6.735056779827099e+01   
1.004600000000000e+10    -1.257049167005068e+01   -6.736934817118112e+01   
1.004700000000000e+10    -1.257241539864389e+01   -6.749476274356506e+01   
1.004800000000000e+10    -1.256723368329909e+01   -6.754236681972196e+01   
1.004900000000000e+10    -1.257821280419438e+01   -6.753139670972442e+01   
1.005000000000000e+10    -1.257593003349654e+01   -6.756104533680521e+01   
1.005100000000000e+10    -1.255048350560332e+01   -6.759507450057508e+01   
1.005200000000000e+10    -1.254305854315808e+01   -6.767402549990445e+01   
1.005300000000000e+10    -1.254151493609596e+01   -6.773171277139946e+01   
1.005400000000000e+10    -1.254223220844842e+01   -6.776699876825650e+01   
1.005500000000000e+10    -1.253777568987472e+01   -6.787958102589266e+01   
1.005600000000000e+10    -1.252777038822992e+01   -6.779735835693374e+01   
1.005700000000000e+10    -1.253088770443185e+01   -6.786065127400904e+01   
1.005800000000000e+10    -1.250866558836027e+01   -6.784055357722093e+01   
1.005900000000000e+10    -1.250611606565659e+01   -6.795480740827163e+01   
1.006000000000000e+10    -1.250239921490774e+01   -6.800601404563817e+01   
1.006100000000000e+10    -1.249719866185237e+01   -6.801695480763867e+01   
1.006200000000000e+10    -1.249145244339491e+01   -6.799092353712173e+01   
1.006300000000000e+10    -1.246566353126765e+01   -6.797173518412346e+01   
1.006400000000000e+10    -1.247379433699038e+01   -6.799140294383359e+01   
1.006500000000000e+10    -1.246622650840811e+01   -6.808894625138818e+01   
1.006600000000000e+10    -1.246448883020595e+01   -6.806970685190583e+01   
1.006700000000000e+10    -1.245751346508413e+01   -6.801092635194985e+01   
1.006800000000000e+10    -1.246597406236137e+01   -6.813767291579100e+01   
1.006900000000000e+10    -1.244655813755445e+01   -6.804117261953832e+01   
1.007000000000000e+10    -1.244287259530502e+01   -6.808652926116039e+01   
1.007100000000000e+10    -1.243532579095612e+01   -6.807915747948873e+01   
1.007200000000000e+10    -1.243762701476613e+01   -6.813949672146479e+01   
1.007300000000000e+10    -1.242506921538319e+01   -6.806934402906110e+01   
1.007400000000000e+10    -1.242020079595347e+01   -6.811593361261916e+01   
1.007500000000000e+10    -1.242122151481814e+01   -6.807168476673034e+01   
1.007600000000000e+10    -1.241358472948255e+01   -6.814951372428612e+01   
1.007700000000000e+10    -1.241059870315687e+01   -6.805536093020865e+01   
1.007800000000000e+10    -1.240511251113033e+01   -6.804688829038224e+01   
1.007900000000000e+10    -1.238861613379776e+01   -6.797977687443181e+01   
1.008000000000000e+10    -1.239272250221284e+01   -6.797239979654977e+01   
1.008100000000000e+10    -1.240035261182932e+01   -6.811000783852396e+01   
1.008200000000000e+10    -1.239507348158729e+01   -6.807125698591972e+01   
1.008300000000000e+10    -1.239412898798565e+01   -6.793327907953523e+01   
1.008400000000000e+10    -1.239076024757806e+01   -6.803020650797890e+01   
1.008500000000000e+10    -1.238781312850343e+01   -6.798992032683326e+01   
1.008600000000000e+10    -1.238664824850335e+01   -6.797272636493297e+01   
1.008700000000000e+10    -1.238500252240851e+01   -6.795310351418203e+01   
1.008800000000000e+10    -1.238466690158611e+01   -6.801565945308056e+01   
1.008900000000000e+10    -1.238237757681909e+01   -6.786565761820384e+01   
1.009000000000000e+10    -1.237490164233295e+01   -6.794292284567020e+01   
1.009100000000000e+10    -1.238219162650942e+01   -6.797651527430556e+01   
1.009200000000000e+10    -1.238184233492868e+01   -6.786820334627993e+01   
1.009300000000000e+10    -1.238639141725424e+01   -6.789044075258811e+01   
1.009400000000000e+10    -1.239366573928564e+01   -6.791410184359164e+01   
1.009500000000000e+10    -1.239370993637642e+01   -6.793944986978603e+01   
1.009600000000000e+10    -1.238579020612869e+01   -6.788499972510627e+01   
1.009700000000000e+10    -1.239298063877151e+01   -6.789616882716047e+01   
1.009800000000000e+10    -1.240228201820638e+01   -6.786335224003879e+01   
1.009900000000000e+10    -1.240530905651624e+01   -6.784627494647297e+01   
1.010000000000000e+10    -1.240489406265070e+01   -6.790591345194180e+01   
1.010100000000000e+10    -1.240627724759818e+01   -6.786671653092881e+01   
1.010200000000000e+10    -1.241338242481675e+01   -6.784081461273446e+01   
1.010300000000000e+10    -1.242246012158817e+01   -6.788197508755032e+01   
1.010400000000000e+10    -1.241860925239584e+01   -6.789288996789877e+01   
1.010500000000000e+10    -1.243320162839171e+01   -6.790641834103612e+01   
1.010600000000000e+10    -1.241975534678144e+01   -6.783309603170481e+01   
1.010700000000000e+10    -1.244270517676378e+01   -6.797778692882277e+01   
1.010800000000000e+10    -1.244937293946742e+01   -6.786739266533012e+01   
1.010900000000000e+10    -1.244706394189763e+01   -6.795017145307928e+01   
1.011000000000000e+10    -1.244331853448022e+01   -6.789555435119574e+01   
1.011100000000000e+10    -1.244463898861376e+01   -6.800937076937208e+01   
1.011200000000000e+10    -1.245781099575175e+01   -6.801445587398348e+01   
1.011300000000000e+10    -1.245739394527538e+01   -6.809360920650496e+01   
1.011400000000000e+10    -1.246455627952240e+01   -6.804669781300167e+01   
1.011500000000000e+10    -1.246710991348851e+01   -6.810271151401183e+01   
1.011600000000000e+10    -1.247600196330747e+01   -6.806516523840050e+01   
1.011700000000000e+10    -1.248951982681779e+01   -6.812640001902678e+01   
1.011800000000000e+10    -1.248451820310926e+01   -6.816920929920832e+01   
1.011900000000000e+10    -1.248792721972784e+01   -6.819774654453185e+01   
1.012000000000000e+10    -1.248395335412432e+01   -6.826630334821928e+01   
1.012100000000000e+10    -1.249900396058558e+01   -6.836098051791946e+01   
1.012200000000000e+10    -1.248658121462615e+01   -6.833159661110736e+01   
1.012300000000000e+10    -1.249326843483436e+01   -6.839802766312208e+01   
1.012400000000000e+10    -1.250480249044035e+01   -6.841063810898568e+01   
1.012500000000000e+10    -1.249950595802371e+01   -6.844414574991012e+01   
1.012600000000000e+10    -1.250714195788236e+01   -6.845141047600727e+01   
1.012700000000000e+10    -1.250707317959469e+01   -6.856769737503686e+01   
1.012800000000000e+10    -1.250590014141149e+01   -6.858963096387886e+01   
1.012900000000000e+10    -1.250827879027023e+01   -6.868709288859830e+01   
1.013000000000000e+10    -1.250929271041550e+01   -6.861883124197074e+01   
1.013100000000000e+10    -1.251022410120560e+01   -6.871643557593426e+01   
1.013200000000000e+10    -1.251412508360128e+01   -6.877241597911910e+01   
1.013300000000000e+10    -1.251631887297456e+01   -6.881580712428737e+01   
1.013400000000000e+10    -1.250505750817861e+01   -6.887136019602819e+01   
1.013500000000000e+10    -1.250879415545293e+01   -6.891725716294879e+01   
1.013600000000000e+10    -1.250177169967969e+01   -6.894476825871949e+01   
1.013700000000000e+10    -1.249816538621581e+01   -6.899578083927594e+01   
1.013800000000000e+10    -1.249494081371481e+01   -6.904436419439278e+01   
1.013900000000000e+10    -1.249732255967788e+01   -6.912134573251835e+01   
1.014000000000000e+10    -1.248815797101313e+01   -6.910655843302303e+01   
1.014100000000000e+10    -1.250262706382528e+01   -6.917022305440716e+01   
1.014200000000000e+10    -1.248676443339414e+01   -6.922143398704553e+01   
1.014300000000000e+10    -1.249274770422184e+01   -6.923201831813189e+01   
1.014400000000000e+10    -1.248439774394240e+01   -6.926140866541297e+01   
1.014500000000000e+10    -1.249310196196851e+01   -6.932889154058138e+01   
1.014600000000000e+10    -1.248294743946210e+01   -6.934906066403138e+01   
1.014700000000000e+10    -1.247403717409323e+01   -6.931885890796583e+01   
1.014800000000000e+10    -1.248079235431739e+01   -6.934335729217509e+01   
1.014900000000000e+10    -1.247372224158625e+01   -6.944064929849303e+01   
1.015000000000000e+10    -1.247403782550901e+01   -6.944409506857738e+01   
1.015100000000000e+10    -1.247315097685058e+01   -6.946319353525951e+01   
1.015200000000000e+10    -1.246294007883690e+01   -6.946452018999922e+01   
1.015300000000000e+10    -1.246438124733812e+01   -6.953924841612721e+01   
1.015400000000000e+10    -1.245683366661080e+01   -6.950313180341814e+01   
1.015500000000000e+10    -1.247334885158155e+01   -6.953923115699307e+01   
1.015600000000000e+10    -1.246356778830095e+01   -6.954720476705369e+01   
1.015700000000000e+10    -1.245215349837771e+01   -6.950150581529103e+01   
1.015800000000000e+10    -1.245141689954928e+01   -6.958171206630058e+01   
1.015900000000000e+10    -1.244915220953488e+01   -6.957835187643565e+01   
1.016000000000000e+10    -1.244261158850041e+01   -6.959834669565363e+01   
1.016100000000000e+10    -1.244600371301528e+01   -6.960578318656917e+01   
1.016200000000000e+10    -1.243770751481450e+01   -6.953173954155947e+01   
1.016300000000000e+10    -1.243261445471127e+01   -6.954557562166532e+01   
1.016400000000000e+10    -1.244518372783024e+01   -6.954413142552468e+01   
1.016500000000000e+10    -1.243156654200494e+01   -6.954263540320156e+01   
1.016600000000000e+10    -1.244211950637312e+01   -6.956777706011884e+01   
1.016700000000000e+10    -1.242853283807917e+01   -6.956891705618906e+01   
1.016800000000000e+10    -1.242398485033799e+01   -6.956687194451987e+01   
1.016900000000000e+10    -1.242751916079320e+01   -6.952297968390299e+01   
1.017000000000000e+10    -1.243360647161470e+01   -6.950626274242003e+01   
1.017100000000000e+10    -1.242790461367336e+01   -6.961551858085819e+01   
1.017200000000000e+10    -1.242540897954577e+01   -6.949182980515867e+01   
1.017300000000000e+10    -1.242969629152106e+01   -6.956068066916040e+01   
1.017400000000000e+10    -1.242185305012466e+01   -6.951418055675870e+01   
1.017500000000000e+10    -1.242139921543265e+01   -6.950833215633300e+01   
1.017600000000000e+10    -1.240978775229453e+01   -6.946417955247631e+01   
1.017700000000000e+10    -1.242533715209245e+01   -6.944178471253221e+01   
1.017800000000000e+10    -1.242289446875288e+01   -6.945792674272451e+01   
1.017900000000000e+10    -1.241664068448565e+01   -6.937908046972886e+01   
1.018000000000000e+10    -1.241917492201138e+01   -6.938594201864662e+01   
1.018100000000000e+10    -1.242044919750584e+01   -6.937116236319955e+01   
1.018200000000000e+10    -1.242450981706677e+01   -6.932512320596406e+01   
1.018300000000000e+10    -1.241449815962076e+01   -6.933864933009909e+01   
1.018400000000000e+10    -1.243143145267414e+01   -6.931761019640950e+01   
1.018500000000000e+10    -1.242594679115206e+01   -6.931678085994983e+01   
1.018600000000000e+10    -1.243463433783150e+01   -6.941541497796608e+01   
1.018700000000000e+10    -1.242925758730944e+01   -6.929904822857354e+01   
1.018800000000000e+10    -1.243700565399257e+01   -6.932675998448444e+01   
1.018900000000000e+10    -1.244647537200966e+01   -6.928433794898775e+01   
1.019000000000000e+10    -1.244136909319183e+01   -6.925775288932755e+01   
1.019100000000000e+10    -1.244592874141039e+01   -6.926301182279208e+01   
1.019200000000000e+10    -1.244346400967090e+01   -6.924862001686387e+01   
1.019300000000000e+10    -1.245788243359430e+01   -6.929504623562596e+01   
1.019400000000000e+10    -1.245311306955947e+01   -6.922560187128580e+01   
1.019500000000000e+10    -1.245696684800691e+01   -6.925688684932678e+01   
1.019600000000000e+10    -1.244989914435206e+01   -6.927419702060045e+01   
1.019700000000000e+10    -1.245736430695996e+01   -6.921878402593474e+01   
1.019800000000000e+10    -1.246154649381968e+01   -6.925005554239077e+01   
1.019900000000000e+10    -1.245910244847142e+01   -6.921624768257729e+01   
1.020000000000000e+10    -1.247079469744046e+01   -6.929034298380635e+01   
1.020100000000000e+10    -1.247278651242469e+01   -6.925549879982525e+01   
1.020200000000000e+10    -1.246650962286025e+01   -6.922517072114059e+01   
1.020300000000000e+10    -1.247873944176060e+01   -6.922705521235558e+01   
1.020400000000000e+10    -1.247313684410958e+01   -6.925885344282183e+01   
1.020500000000000e+10    -1.248162066520963e+01   -6.927407637373628e+01   
1.020600000000000e+10    -1.247479109252755e+01   -6.927890301397701e+01   
1.020700000000000e+10    -1.249025861202527e+01   -6.927709863594085e+01   
1.020800000000000e+10    -1.249823079869530e+01   -6.926418973512385e+01   
1.020900000000000e+10    -1.249283802094665e+01   -6.930893252404883e+01   
1.021000000000000e+10    -1.249236142648820e+01   -6.931379749767750e+01   
1.021100000000000e+10    -1.249488311312099e+01   -6.933982777401012e+01   
1.021200000000000e+10    -1.249978007523103e+01   -6.929005301374526e+01   
1.021300000000000e+10    -1.249905658094137e+01   -6.935876429276956e+01   
1.021400000000000e+10    -1.250400603385356e+01   -6.928568986882378e+01   
1.021500000000000e+10    -1.250075004957432e+01   -6.943182097396173e+01   
1.021600000000000e+10    -1.250462522086766e+01   -6.945589295592788e+01   
1.021700000000000e+10    -1.249966605689264e+01   -6.939588773609013e+01   
1.021800000000000e+10    -1.250554500210115e+01   -6.940013863392775e+01   
1.021900000000000e+10    -1.249155940022601e+01   -6.937937928356942e+01   
1.022000000000000e+10    -1.250594681804133e+01   -6.940478523005910e+01   
1.022100000000000e+10    -1.249139043972391e+01   -6.945943556896766e+01   
1.022200000000000e+10    -1.249697195980341e+01   -6.943066153426597e+01   
1.022300000000000e+10    -1.249754253103767e+01   -6.944476578846974e+01   
1.022400000000000e+10    -1.250344092860486e+01   -6.943952035984877e+01   
1.022500000000000e+10    -1.249697038038919e+01   -6.946228270432283e+01   
1.022600000000000e+10    -1.250058226817529e+01   -6.944878820582130e+01   
1.022700000000000e+10    -1.249420324980083e+01   -6.949693792748805e+01   
1.022800000000000e+10    -1.249628526474433e+01   -6.940694128358398e+01   
1.022900000000000e+10    -1.248287183452879e+01   -6.950126463248473e+01   
1.023000000000000e+10    -1.249568953547133e+01   -6.948275569781802e+01   
1.023100000000000e+10    -1.247601633298855e+01   -6.953026007311210e+01   
1.023200000000000e+10    -1.249521878599842e+01   -6.949513362215198e+01   
1.023300000000000e+10    -1.248169074458968e+01   -6.959573153374636e+01   
1.023400000000000e+10    -1.249156677376284e+01   -6.954417160882277e+01   
1.023500000000000e+10    -1.247563724410154e+01   -6.958130568475919e+01   
1.023600000000000e+10    -1.248800166640146e+01   -6.956291186959862e+01   
1.023700000000000e+10    -1.248296039252367e+01   -6.955455238007401e+01   
1.023800000000000e+10    -1.249262966921110e+01   -6.958677914406506e+01   
1.023900000000000e+10    -1.248502039816909e+01   -6.954534418586431e+01   
1.024000000000000e+10    -1.248668526692563e+01   -6.952545577300216e+01   
1.024100000000000e+10    -1.248717922434264e+01   -6.961807219350852e+01   
1.024200000000000e+10    -1.247910796968416e+01   -6.960612258769227e+01   
1.024300000000000e+10    -1.247860797025755e+01   -6.950657657992753e+01   
1.024400000000000e+10    -1.247317373958888e+01   -6.957844430355294e+01   
1.024500000000000e+10    -1.247536380441450e+01   -6.952436877432304e+01   
1.024600000000000e+10    -1.247008154011989e+01   -6.960256456916568e+01   
1.024700000000000e+10    -1.247435410056543e+01   -6.956234258106016e+01   
1.024800000000000e+10    -1.248294325104003e+01   -6.961283272764521e+01   
1.024900000000000e+10    -1.246685511225738e+01   -6.964367746677398e+01   
1.025000000000000e+10    -1.245974323002714e+01   -6.960968081228465e+01   
1.025100000000000e+10    -1.246300550213689e+01   -6.955867027561004e+01   
1.025200000000000e+10    -1.246945015703842e+01   -6.963692526401313e+01   
1.025300000000000e+10    -1.245766569513907e+01   -6.965688407383122e+01   
1.025400000000000e+10    -1.245061047946523e+01   -6.964751165403261e+01   
1.025500000000000e+10    -1.245537015047185e+01   -6.964096721347605e+01   
1.025600000000000e+10    -1.245408811417773e+01   -6.964749111225458e+01   
