[Version] 2.0
! Rohde & Schwarz Vector Network Analyzer
! Rohde-Schwarz,ZNL20-2Port,1323001220200009,1.71.1.10-23.02.1.238
! 
! Port Assignments:
! Nominal Port -> Actual Test Port
! --------------------------------
!   1 -> 1

! Created: GMT 2024-09-04 14:19:50

# Hz S DB R 50

[Number of Ports] 1
[Number of Frequencies] 2001

[Network Data] 
! freq[Hz]               S11[mag dB]              S11[ang]                 
1.000000000000000e+10    -1.261200152545983e+01   -6.555554136268829e+01   
1.000100000000000e+10    -1.261669943721909e+01   -6.556541759954865e+01   
1.000200000000000e+10    -1.261801039400641e+01   -6.545581898285117e+01   
1.000300000000000e+10    -1.261257257729106e+01   -6.544907311736408e+01   
1.000400000000000e+10    -1.261775476202938e+01   -6.547122637100409e+01   
1.000500000000000e+10    -1.261750485031088e+01   -6.552441774238798e+01   
1.000600000000000e+10    -1.262528124763386e+01   -6.546953887299036e+01   
1.000700000000000e+10    -1.261486329135095e+01   -6.554701532899212e+01   
1.000800000000000e+10    -1.263460789277142e+01   -6.554013440141738e+01   
1.000900000000000e+10    -1.260815903733590e+01   -6.546834736110237e+01   
1.001000000000000e+10    -1.262279214821570e+01   -6.555120150580792e+01   
1.001100000000000e+10    -1.262347404485737e+01   -6.548183540134862e+01   
1.001200000000000e+10    -1.262621147245623e+01   -6.555792957227764e+01   
1.001300000000000e+10    -1.262655920417491e+01   -6.557235351348800e+01   
1.001400000000000e+10    -1.263728876517304e+01   -6.550470900236476e+01   
1.001500000000000e+10    -1.263620183280094e+01   -6.564387946829723e+01   
1.001600000000000e+10    -1.264138404067718e+01   -6.558234864159259e+01   
1.001700000000000e+10    -1.264744077741538e+01   -6.557963475682547e+01   
1.001800000000000e+10    -1.264987660785760e+01   -6.559314526596459e+01   
1.001900000000000e+10    -1.265369865427305e+01   -6.567265065503237e+01   
1.002000000000000e+10    -1.266238184984455e+01   -6.561461687759547e+01   
1.002100000000000e+10    -1.266150675550352e+01   -6.560334935132771e+01   
1.002200000000000e+10    -1.266147900071321e+01   -6.570616716228015e+01   
1.002300000000000e+10    -1.266641424238024e+01   -6.571611945266800e+01   
1.002400000000000e+10    -1.267932154430994e+01   -6.584793937326583e+01   
1.002500000000000e+10    -1.267819834392936e+01   -6.583635360914523e+01   
1.002600000000000e+10    -1.267383474226157e+01   -6.584523072263308e+01   
1.002700000000000e+10    -1.267648273836606e+01   -6.586377502013268e+01   
1.002800000000000e+10    -1.267279434220949e+01   -6.599461748962020e+01   
1.002900000000000e+10    -1.267551059139201e+01   -6.596485804213329e+01   
1.003000000000000e+10    -1.268287883923410e+01   -6.604912634699377e+01   
1.003100000000000e+10    -1.267879990331218e+01   -6.617686334077180e+01   
1.003200000000000e+10    -1.268549441122815e+01   -6.619198139783423e+01   
1.003300000000000e+10    -1.269557546642646e+01   -6.621382138295036e+01   
1.003400000000000e+10    -1.268488729403042e+01   -6.631788751453591e+01   
1.003500000000000e+10    -1.268773855478095e+01   -6.634270863871792e+01   
1.003600000000000e+10    -1.269940541584793e+01   -6.636452137650645e+01   
1.003700000000000e+10    -1.268757972066275e+01   -6.646613087071158e+01   
1.003800000000000e+10    -1.269548980881359e+01   -6.648244932096526e+01   
1.003900000000000e+10    -1.269515830536387e+01   -6.663823241209401e+01   
1.004000000000000e+10    -1.269077066869929e+01   -6.655752602719362e+01   
1.004100000000000e+10    -1.267545720687594e+01   -6.669886780631145e+01   
1.004200000000000e+10    -1.267885222163004e+01   -6.664124461320336e+01   
1.004300000000000e+10    -1.268133764916574e+01   -6.675639088296722e+01   
1.004400000000000e+10    -1.267517581927058e+01   -6.687920121925482e+01   
1.004500000000000e+10    -1.268671407937373e+01   -6.685534592167889e+01   
1.004600000000000e+10    -1.267088041092334e+01   -6.687737089202022e+01   
1.004700000000000e+10    -1.267089885864324e+01   -6.703169682822633e+01   
1.004800000000000e+10    -1.266730474618165e+01   -6.707012213616601e+01   
1.004900000000000e+10    -1.267801774478074e+01   -6.707545327634190e+01   
1.005000000000000e+10    -1.267235187872833e+01   -6.709102712756322e+01   
1.005100000000000e+10    -1.265057532418945e+01   -6.710375288566429e+01   
1.005200000000000e+10    -1.264030214244229e+01   -6.718541890705465e+01   
1.005300000000000e+10    -1.263672720307113e+01   -6.729028476591998e+01   
1.005400000000000e+10    -1.264244942952752e+01   -6.730691635263288e+01   
1.005500000000000e+10    -1.263586049835867e+01   -6.739666466071935e+01   
1.005600000000000e+10    -1.262420279596975e+01   -6.732420590663976e+01   
1.005700000000000e+10    -1.262889041883546e+01   -6.741511483880230e+01   
1.005800000000000e+10    -1.260746986574854e+01   -6.737381710161584e+01   
1.005900000000000e+10    -1.260628995389704e+01   -6.747574837183753e+01   
1.006000000000000e+10    -1.259578839986321e+01   -6.753217307860020e+01   
1.006100000000000e+10    -1.259671187729128e+01   -6.753270947365812e+01   
1.006200000000000e+10    -1.258560892328751e+01   -6.753166336481225e+01   
1.006300000000000e+10    -1.256792473468817e+01   -6.751624670867184e+01   
1.006400000000000e+10    -1.257280455342381e+01   -6.754057656893987e+01   
1.006500000000000e+10    -1.256673365329842e+01   -6.761985100216985e+01   
1.006600000000000e+10    -1.256478364587985e+01   -6.759141163760043e+01   
1.006700000000000e+10    -1.256077183055868e+01   -6.754113484927997e+01   
1.006800000000000e+10    -1.256784125345671e+01   -6.767301264312871e+01   
1.006900000000000e+10    -1.254328202881762e+01   -6.760358271431431e+01   
1.007000000000000e+10    -1.254138982422750e+01   -6.763853312876030e+01   
1.007100000000000e+10    -1.253183190233026e+01   -6.761042447209942e+01   
1.007200000000000e+10    -1.253749993807510e+01   -6.766592494832061e+01   
1.007300000000000e+10    -1.252456017450691e+01   -6.762382475833532e+01   
1.007400000000000e+10    -1.252037091191309e+01   -6.761598793025641e+01   
1.007500000000000e+10    -1.252013549015655e+01   -6.760077863341581e+01   
1.007600000000000e+10    -1.251180254728921e+01   -6.764646345665683e+01   
1.007700000000000e+10    -1.250944778595898e+01   -6.757934721527428e+01   
1.007800000000000e+10    -1.250228285825060e+01   -6.757575409554522e+01   
1.007900000000000e+10    -1.248888702310760e+01   -6.750877712145160e+01   
1.008000000000000e+10    -1.248563616681039e+01   -6.749879324268758e+01   
1.008100000000000e+10    -1.249805457538293e+01   -6.763002062524693e+01   
1.008200000000000e+10    -1.249317096347706e+01   -6.757267192909627e+01   
1.008300000000000e+10    -1.249405877358165e+01   -6.746214162056864e+01   
1.008400000000000e+10    -1.249184516974762e+01   -6.752466734457826e+01   
1.008500000000000e+10    -1.248281434927304e+01   -6.750349907888283e+01   
1.008600000000000e+10    -1.247879601263328e+01   -6.747222327661559e+01   
1.008700000000000e+10    -1.248581227641069e+01   -6.745057865045810e+01   
1.008800000000000e+10    -1.248508566960082e+01   -6.751182158985273e+01   
1.008900000000000e+10    -1.248155003724529e+01   -6.739177176329392e+01   
1.009000000000000e+10    -1.247517274213840e+01   -6.745099146551796e+01   
1.009100000000000e+10    -1.248033013602736e+01   -6.746616171478620e+01   
1.009200000000000e+10    -1.248215890828029e+01   -6.737500822269833e+01   
1.009300000000000e+10    -1.248392111290310e+01   -6.737363923828342e+01   
1.009400000000000e+10    -1.249244744923325e+01   -6.740813331348730e+01   
1.009500000000000e+10    -1.249290493862350e+01   -6.743227921527287e+01   
1.009600000000000e+10    -1.248249471032464e+01   -6.735168990578558e+01   
1.009700000000000e+10    -1.249131744161307e+01   -6.738539523250719e+01   
1.009800000000000e+10    -1.250045109581313e+01   -6.732097504647993e+01   
1.009900000000000e+10    -1.250025227839926e+01   -6.732411943249221e+01   
1.010000000000000e+10    -1.250450227825573e+01   -6.738637206259547e+01   
1.010100000000000e+10    -1.250603533671003e+01   -6.731480234948386e+01   
1.010200000000000e+10    -1.251552265861396e+01   -6.730438482751067e+01   
1.010300000000000e+10    -1.251981772061604e+01   -6.734380981785469e+01   
1.010400000000000e+10    -1.251997809227219e+01   -6.734844853971215e+01   
1.010500000000000e+10    -1.253106786511370e+01   -6.737627574322276e+01   
1.010600000000000e+10    -1.251714476110732e+01   -6.730629251270534e+01   
1.010700000000000e+10    -1.253972606226107e+01   -6.743252344621821e+01   
1.010800000000000e+10    -1.254731251657775e+01   -6.730442777246898e+01   
1.010900000000000e+10    -1.254569915598576e+01   -6.739987905710146e+01   
1.011000000000000e+10    -1.253945986654096e+01   -6.734531514553001e+01   
1.011100000000000e+10    -1.254216707381512e+01   -6.747052871372354e+01   
1.011200000000000e+10    -1.255232992238108e+01   -6.745745810673472e+01   
1.011300000000000e+10    -1.255136623824509e+01   -6.756029138807979e+01   
1.011400000000000e+10    -1.255974984517890e+01   -6.749451750107953e+01   
1.011500000000000e+10    -1.255733113262868e+01   -6.755361430890629e+01   
1.011600000000000e+10    -1.257035839787905e+01   -6.751501233570127e+01   
1.011700000000000e+10    -1.258515570730229e+01   -6.755887763245796e+01   
1.011800000000000e+10    -1.258254410743212e+01   -6.762263167715616e+01   
1.011900000000000e+10    -1.258108684043298e+01   -6.766754414747953e+01   
1.012000000000000e+10    -1.257537008647860e+01   -6.773694276851599e+01   
1.012100000000000e+10    -1.259241019578274e+01   -6.779869085658815e+01   
1.012200000000000e+10    -1.257635883856130e+01   -6.777138822999001e+01   
1.012300000000000e+10    -1.258688533853095e+01   -6.783134035647116e+01   
1.012400000000000e+10    -1.259455246024760e+01   -6.787734138611278e+01   
1.012500000000000e+10    -1.259430272274204e+01   -6.789730677059838e+01   
1.012600000000000e+10    -1.259787843592871e+01   -6.789854827997914e+01   
1.012700000000000e+10    -1.260365086438073e+01   -6.803024268217175e+01   
1.012800000000000e+10    -1.259657119904184e+01   -6.801348285651609e+01   
1.012900000000000e+10    -1.260016019134452e+01   -6.812097028984071e+01   
1.013000000000000e+10    -1.259889407902676e+01   -6.805139165890945e+01   
1.013100000000000e+10    -1.260186892549416e+01   -6.814330699423419e+01   
1.013200000000000e+10    -1.260370218735612e+01   -6.820481718722262e+01   
1.013300000000000e+10    -1.261091682664034e+01   -6.829147065448146e+01   
1.013400000000000e+10    -1.259570244126324e+01   -6.830400077256226e+01   
1.013500000000000e+10    -1.260089948907865e+01   -6.836976355207882e+01   
1.013600000000000e+10    -1.259301523111906e+01   -6.838721319965822e+01   
1.013700000000000e+10    -1.258955831247857e+01   -6.843258990925291e+01   
1.013800000000000e+10    -1.259145846453290e+01   -6.850476820779582e+01   
1.013900000000000e+10    -1.259081073056343e+01   -6.853792595749657e+01   
1.014000000000000e+10    -1.258012889261638e+01   -6.854962647140815e+01   
1.014100000000000e+10    -1.258953794927042e+01   -6.860968534012150e+01   
1.014200000000000e+10    -1.258002279548624e+01   -6.866204057781263e+01   
1.014300000000000e+10    -1.258196489309936e+01   -6.866268790406622e+01   
1.014400000000000e+10    -1.257744203849161e+01   -6.869782716148637e+01   
1.014500000000000e+10    -1.257942060343565e+01   -6.877756152338623e+01   
1.014600000000000e+10    -1.257213160421084e+01   -6.880252055749351e+01   
1.014700000000000e+10    -1.256249207963126e+01   -6.876442718674286e+01   
1.014800000000000e+10    -1.257287537518418e+01   -6.880461364771961e+01   
1.014900000000000e+10    -1.256115602355767e+01   -6.889482568423982e+01   
1.015000000000000e+10    -1.256083601472456e+01   -6.890046063684026e+01   
1.015100000000000e+10    -1.255869730567511e+01   -6.891360611373389e+01   
1.015200000000000e+10    -1.254981762823610e+01   -6.893040858942533e+01   
1.015300000000000e+10    -1.255164275571845e+01   -6.896805986309664e+01   
1.015400000000000e+10    -1.254340809648640e+01   -6.897323558563716e+01   
1.015500000000000e+10    -1.256151526946302e+01   -6.898684723349022e+01   
1.015600000000000e+10    -1.254990723714035e+01   -6.899573282723676e+01   
1.015700000000000e+10    -1.254023979119171e+01   -6.896341369686229e+01   
1.015800000000000e+10    -1.254095162759454e+01   -6.903156277537892e+01   
1.015900000000000e+10    -1.253617160082596e+01   -6.903235893490847e+01   
1.016000000000000e+10    -1.252982204601992e+01   -6.905951542601746e+01   
1.016100000000000e+10    -1.253662876878542e+01   -6.908156512981432e+01   
1.016200000000000e+10    -1.252561210233452e+01   -6.898633136986339e+01   
1.016300000000000e+10    -1.252019065662383e+01   -6.899445953754039e+01   
1.016400000000000e+10    -1.252811948621386e+01   -6.899800408837962e+01   
1.016500000000000e+10    -1.251768276714816e+01   -6.900930068738786e+01   
1.016600000000000e+10    -1.252687514166251e+01   -6.904520323393287e+01   
1.016700000000000e+10    -1.251450238672378e+01   -6.903321075078718e+01   
1.016800000000000e+10    -1.251047486999204e+01   -6.902102905062961e+01   
1.016900000000000e+10    -1.251436822147037e+01   -6.897368605157678e+01   
1.017000000000000e+10    -1.251860258547652e+01   -6.899867774812182e+01   
1.017100000000000e+10    -1.251635405341145e+01   -6.906256848278592e+01   
1.017200000000000e+10    -1.250673466424560e+01   -6.897572564931622e+01   
1.017300000000000e+10    -1.251288855572596e+01   -6.905115766070725e+01   
1.017400000000000e+10    -1.251086419438770e+01   -6.898310826878722e+01   
1.017500000000000e+10    -1.250729829808637e+01   -6.900307592862100e+01   
1.017600000000000e+10    -1.249340685083662e+01   -6.897371282669623e+01   
1.017700000000000e+10    -1.251193501704722e+01   -6.893209038528468e+01   
1.017800000000000e+10    -1.251065406996965e+01   -6.897356861377732e+01   
1.017900000000000e+10    -1.250422286701907e+01   -6.887755711478388e+01   
1.018000000000000e+10    -1.250271245094206e+01   -6.890205735758175e+01   
1.018100000000000e+10    -1.250522546817259e+01   -6.884843836628902e+01   
1.018200000000000e+10    -1.250999215502884e+01   -6.882646121515126e+01   
1.018300000000000e+10    -1.250394682907724e+01   -6.884268149212770e+01   
1.018400000000000e+10    -1.251909916292453e+01   -6.881476629218355e+01   
1.018500000000000e+10    -1.251540692816753e+01   -6.882343711454664e+01   
1.018600000000000e+10    -1.252247652231862e+01   -6.890675044332554e+01   
1.018700000000000e+10    -1.251584325939556e+01   -6.880696025267974e+01   
1.018800000000000e+10    -1.252711072440073e+01   -6.882022150804212e+01   
1.018900000000000e+10    -1.252997012839262e+01   -6.881734822833910e+01   
1.019000000000000e+10    -1.253183383899698e+01   -6.874322778815392e+01   
1.019100000000000e+10    -1.253456583490653e+01   -6.877917925147015e+01   
1.019200000000000e+10    -1.253167435655414e+01   -6.874585971108107e+01   
1.019300000000000e+10    -1.254597137706092e+01   -6.879837584031600e+01   
1.019400000000000e+10    -1.253924448208297e+01   -6.872307207097452e+01   
1.019500000000000e+10    -1.254517494860222e+01   -6.877365972573809e+01   
1.019600000000000e+10    -1.253273003161370e+01   -6.879039229159224e+01   
1.019700000000000e+10    -1.254637780000031e+01   -6.872883366545433e+01   
1.019800000000000e+10    -1.255054382361729e+01   -6.876700070659159e+01   
1.019900000000000e+10    -1.254493729642029e+01   -6.872522621648507e+01   
1.020000000000000e+10    -1.255588201516422e+01   -6.879849853912832e+01   
1.020100000000000e+10    -1.255873691489541e+01   -6.874959171680953e+01   
1.020200000000000e+10    -1.255527247608494e+01   -6.873514501880999e+01   
1.020300000000000e+10    -1.256842888467519e+01   -6.873277845872201e+01   
1.020400000000000e+10    -1.256025413332768e+01   -6.875921978169036e+01   
1.020500000000000e+10    -1.257361733247216e+01   -6.881030733999768e+01   
1.020600000000000e+10    -1.256385375751234e+01   -6.876361864548066e+01   
1.020700000000000e+10    -1.257381098996948e+01   -6.878472113429427e+01   
1.020800000000000e+10    -1.258596673276170e+01   -6.880703392451878e+01   
1.020900000000000e+10    -1.258187046738218e+01   -6.882939703564502e+01   
1.021000000000000e+10    -1.258131177583114e+01   -6.884051310903597e+01   
1.021100000000000e+10    -1.259032447507799e+01   -6.885894956367805e+01   
1.021200000000000e+10    -1.258998314392902e+01   -6.876683265737049e+01   
1.021300000000000e+10    -1.258194359898713e+01   -6.887307112967579e+01   
1.021400000000000e+10    -1.259206280310103e+01   -6.881651925734313e+01   
1.021500000000000e+10    -1.259102681322178e+01   -6.894236308541706e+01   
1.021600000000000e+10    -1.259630939367319e+01   -6.899109744893151e+01   
1.021700000000000e+10    -1.258839872907332e+01   -6.890827333312082e+01   
1.021800000000000e+10    -1.259375810174942e+01   -6.891269283972608e+01   
1.021900000000000e+10    -1.258889741312842e+01   -6.889484292555592e+01   
1.022000000000000e+10    -1.259514766810914e+01   -6.890846656798601e+01   
1.022100000000000e+10    -1.258269442332159e+01   -6.896278520975164e+01   
1.022200000000000e+10    -1.258640516087177e+01   -6.895135638588513e+01   
1.022300000000000e+10    -1.258977232731257e+01   -6.893698941852475e+01   
1.022400000000000e+10    -1.259185683458860e+01   -6.896244620584496e+01   
1.022500000000000e+10    -1.258497143737178e+01   -6.896760437674945e+01   
1.022600000000000e+10    -1.259131444760368e+01   -6.895543712858662e+01   
1.022700000000000e+10    -1.258796282583733e+01   -6.900383888813718e+01   
1.022800000000000e+10    -1.259161447433363e+01   -6.889986653940248e+01   
1.022900000000000e+10    -1.257990878960455e+01   -6.901575982926677e+01   
1.023000000000000e+10    -1.258803213493291e+01   -6.899912520430833e+01   
1.023100000000000e+10    -1.257319412952906e+01   -6.902476541699431e+01   
1.023200000000000e+10    -1.258811851038629e+01   -6.898982961188511e+01   
1.023300000000000e+10    -1.257297605750530e+01   -6.909368420771868e+01   
1.023400000000000e+10    -1.258894825668799e+01   -6.905912882693322e+01   
1.023500000000000e+10    -1.257544217736520e+01   -6.909164455296548e+01   
1.023600000000000e+10    -1.258534217033611e+01   -6.904198207428966e+01   
1.023700000000000e+10    -1.258015917216871e+01   -6.904132571231621e+01   
1.023800000000000e+10    -1.258906785944635e+01   -6.907017961439519e+01   
1.023900000000000e+10    -1.257795024626249e+01   -6.904716707337202e+01   
1.024000000000000e+10    -1.258483506188627e+01   -6.901707509366162e+01   
1.024100000000000e+10    -1.258236125057444e+01   -6.906519932935251e+01   
1.024200000000000e+10    -1.257661507070830e+01   -6.905838943516812e+01   
1.024300000000000e+10    -1.257311538618267e+01   -6.900489397617878e+01   
1.024400000000000e+10    -1.257025590993680e+01   -6.905943174716400e+01   
1.024500000000000e+10    -1.257298593767509e+01   -6.901222347969832e+01   
1.024600000000000e+10    -1.256948780662013e+01   -6.907941262447044e+01   
1.024700000000000e+10    -1.257048878692907e+01   -6.904491252769667e+01   
1.024800000000000e+10    -1.258363222224769e+01   -6.909991137167140e+01   
1.024900000000000e+10    -1.256479874458353e+01   -6.914363531383100e+01   
1.025000000000000e+10    -1.255895252101594e+01   -6.910050987540933e+01   
1.025100000000000e+10    -1.256370311078241e+01   -6.903964434483095e+01   
1.025200000000000e+10    -1.256839155187253e+01   -6.911377424468942e+01   
1.025300000000000e+10    -1.255748023452222e+01   -6.914135989381360e+01   
1.025400000000000e+10    -1.255156308924591e+01   -6.912325220648114e+01   
1.025500000000000e+10    -1.255490561129704e+01   -6.910893255028627e+01   
1.025600000000000e+10    -1.255805824667114e+01   -6.912366482606706e+01   
