[Version] 2.0
! Rohde & Schwarz Vector Network Analyzer
! Rohde-Schwarz,ZNL20-2Port,1323001220200009,1.71.1.10-23.02.1.238
! 
! Port Assignments:
! Nominal Port -> Actual Test Port
! --------------------------------
!   1 -> 1

! Created: GMT 2024-09-04 14:20:09

# Hz S DB R 50

[Number of Ports] 1
[Number of Frequencies] 2001

[Network Data] 
! freq[Hz]               S11[mag dB]              S11[ang]                 
1.000000000000000e+10    -1.299723535708417e+01   -6.374842020578321e+01   
1.000100000000000e+10    -1.300542436583145e+01   -6.374216133626685e+01   
1.000200000000000e+10    -1.300221265917530e+01   -6.366218959431009e+01   
1.000300000000000e+10    -1.299411370367842e+01   -6.359952196262604e+01   
1.000400000000000e+10    -1.300116133821491e+01   -6.362047505790429e+01   
1.000500000000000e+10    -1.299136623777750e+01   -6.367353892696313e+01   
1.000600000000000e+10    -1.299977277411220e+01   -6.362175052820808e+01   
1.000700000000000e+10    -1.298688370719677e+01   -6.371293973944466e+01   
1.000800000000000e+10    -1.300693290905437e+01   -6.367993412230467e+01   
1.000900000000000e+10    -1.298040177840537e+01   -6.358990319503332e+01   
1.001000000000000e+10    -1.299611275422066e+01   -6.368329592951346e+01   
1.001100000000000e+10    -1.299372956923284e+01   -6.364264112540729e+01   
1.001200000000000e+10    -1.299553313565471e+01   -6.368762331892533e+01   
1.001300000000000e+10    -1.299252078255246e+01   -6.367584020356240e+01   
1.001400000000000e+10    -1.299941744696873e+01   -6.364114862361307e+01   
1.001500000000000e+10    -1.299624982802058e+01   -6.377041688200400e+01   
1.001600000000000e+10    -1.300279742589097e+01   -6.368956483418695e+01   
1.001700000000000e+10    -1.300937787353598e+01   -6.369318284428341e+01   
1.001800000000000e+10    -1.300607093317785e+01   -6.373288788263574e+01   
1.001900000000000e+10    -1.301191459524757e+01   -6.377692533725799e+01   
1.002000000000000e+10    -1.301729722759401e+01   -6.369955824679392e+01   
1.002100000000000e+10    -1.301390677579560e+01   -6.373267043868650e+01   
1.002200000000000e+10    -1.301421256858849e+01   -6.383631142185573e+01   
1.002300000000000e+10    -1.301909435373092e+01   -6.379967178482276e+01   
1.002400000000000e+10    -1.302805953720878e+01   -6.391063963261123e+01   
1.002500000000000e+10    -1.302604881365190e+01   -6.393918658018621e+01   
1.002600000000000e+10    -1.302688025417387e+01   -6.396261092121635e+01   
1.002700000000000e+10    -1.302382349792534e+01   -6.396742608432940e+01   
1.002800000000000e+10    -1.301852679111798e+01   -6.407560801526790e+01   
1.002900000000000e+10    -1.301882174449660e+01   -6.405395919017275e+01   
1.003000000000000e+10    -1.302359923215107e+01   -6.415037090983174e+01   
1.003100000000000e+10    -1.302020434864282e+01   -6.425610824896008e+01   
1.003200000000000e+10    -1.302535086350922e+01   -6.423386479386174e+01   
1.003300000000000e+10    -1.303513475391731e+01   -6.427066633461693e+01   
1.003400000000000e+10    -1.302175670327535e+01   -6.439855723361453e+01   
1.003500000000000e+10    -1.302197414598674e+01   -6.440952629700402e+01   
1.003600000000000e+10    -1.303139133719146e+01   -6.444309399377353e+01   
1.003700000000000e+10    -1.301985279269095e+01   -6.453314282686219e+01   
1.003800000000000e+10    -1.302362495326257e+01   -6.456120948738827e+01   
1.003900000000000e+10    -1.301997722501837e+01   -6.474192744788843e+01   
1.004000000000000e+10    -1.301575430472676e+01   -6.462179758017930e+01   
1.004100000000000e+10    -1.299845984981273e+01   -6.475968722196798e+01   
1.004200000000000e+10    -1.300122971799924e+01   -6.469619897219326e+01   
1.004300000000000e+10    -1.300108704935160e+01   -6.484108344302160e+01   
1.004400000000000e+10    -1.299316426343905e+01   -6.497430898014231e+01   
1.004500000000000e+10    -1.300266617179268e+01   -6.494329702221121e+01   
1.004600000000000e+10    -1.298648476249896e+01   -6.495944565769366e+01   
1.004700000000000e+10    -1.298325038986654e+01   -6.514925978064031e+01   
1.004800000000000e+10    -1.297899880411295e+01   -6.518994056996723e+01   
1.004900000000000e+10    -1.298549805199346e+01   -6.518668671658133e+01   
1.005000000000000e+10    -1.297839856240227e+01   -6.519613226438975e+01   
1.005100000000000e+10    -1.295833322221343e+01   -6.523021271696010e+01   
1.005200000000000e+10    -1.294479652590653e+01   -6.530896408630957e+01   
1.005300000000000e+10    -1.294292926036487e+01   -6.543389369003826e+01   
1.005400000000000e+10    -1.294157047715592e+01   -6.543352606405264e+01   
1.005500000000000e+10    -1.293719401256913e+01   -6.552701416320488e+01   
1.005600000000000e+10    -1.292892438648197e+01   -6.547927272381830e+01   
1.005700000000000e+10    -1.292819672070774e+01   -6.552368564399309e+01   
1.005800000000000e+10    -1.290211330268544e+01   -6.550407854275939e+01   
1.005900000000000e+10    -1.290055498920886e+01   -6.563574273741344e+01   
1.006000000000000e+10    -1.288886169066140e+01   -6.569923801457961e+01   
1.006100000000000e+10    -1.288620974157866e+01   -6.568451561359531e+01   
1.006200000000000e+10    -1.287493941699671e+01   -6.568035477081753e+01   
1.006300000000000e+10    -1.285042073237610e+01   -6.566791332983728e+01   
1.006400000000000e+10    -1.285437380748895e+01   -6.570233861786942e+01   
1.006500000000000e+10    -1.284980349954558e+01   -6.577613826126577e+01   
1.006600000000000e+10    -1.284449947889816e+01   -6.577325574865998e+01   
1.006700000000000e+10    -1.283427578755253e+01   -6.569921078460158e+01   
1.006800000000000e+10    -1.284609997918711e+01   -6.584952387495638e+01   
1.006900000000000e+10    -1.281583900330974e+01   -6.578115536077888e+01   
1.007000000000000e+10    -1.281025615694659e+01   -6.581362586921524e+01   
1.007100000000000e+10    -1.280183963774327e+01   -6.577345929463993e+01   
1.007200000000000e+10    -1.280249941367944e+01   -6.586502763535425e+01   
1.007300000000000e+10    -1.279155702874710e+01   -6.581314235460368e+01   
1.007400000000000e+10    -1.277998136137219e+01   -6.581335008184530e+01   
1.007500000000000e+10    -1.278254110528905e+01   -6.579716457604415e+01   
1.007600000000000e+10    -1.277053252438794e+01   -6.584704299678511e+01   
1.007700000000000e+10    -1.276434757404904e+01   -6.580254944853692e+01   
1.007800000000000e+10    -1.275267811895868e+01   -6.581950412950910e+01   
1.007900000000000e+10    -1.274141820188908e+01   -6.574264248806847e+01   
1.008000000000000e+10    -1.273740865043977e+01   -6.571983555728568e+01   
1.008100000000000e+10    -1.274616899267416e+01   -6.589934859592866e+01   
1.008200000000000e+10    -1.274233381153268e+01   -6.583065016746333e+01   
1.008300000000000e+10    -1.273840103837106e+01   -6.572544788549099e+01   
1.008400000000000e+10    -1.273509509036385e+01   -6.578761255448343e+01   
1.008500000000000e+10    -1.272176818517183e+01   -6.578171617068648e+01   
1.008600000000000e+10    -1.272132620863126e+01   -6.574316874662019e+01   
1.008700000000000e+10    -1.271936678535633e+01   -6.572838455604706e+01   
1.008800000000000e+10    -1.271678514214701e+01   -6.581939604112728e+01   
1.008900000000000e+10    -1.271625909371517e+01   -6.570293406138919e+01   
1.009000000000000e+10    -1.270814405550197e+01   -6.575837720619661e+01   
1.009100000000000e+10    -1.270930525272245e+01   -6.579272856513593e+01   
1.009200000000000e+10    -1.270861636454105e+01   -6.571592017852713e+01   
1.009300000000000e+10    -1.271108490995494e+01   -6.571352748778020e+01   
1.009400000000000e+10    -1.271459825558237e+01   -6.572213170076738e+01   
1.009500000000000e+10    -1.271381118213846e+01   -6.577067564256780e+01   
1.009600000000000e+10    -1.270954007903817e+01   -6.572288137303065e+01   
1.009700000000000e+10    -1.270996274522487e+01   -6.573918774601361e+01   
1.009800000000000e+10    -1.272006736677323e+01   -6.568690119917646e+01   
1.009900000000000e+10    -1.271780146720952e+01   -6.570115976612534e+01   
1.010000000000000e+10    -1.272116030862074e+01   -6.578913810435454e+01   
1.010100000000000e+10    -1.272214537470179e+01   -6.573180243190679e+01   
1.010200000000000e+10    -1.273093561293653e+01   -6.573139918869518e+01   
1.010300000000000e+10    -1.273674520489366e+01   -6.575354911591121e+01   
1.010400000000000e+10    -1.273326998771024e+01   -6.576519789619026e+01   
1.010500000000000e+10    -1.274133231470626e+01   -6.582216176680481e+01   
1.010600000000000e+10    -1.272972968731203e+01   -6.573770853422201e+01   
1.010700000000000e+10    -1.275064231760187e+01   -6.587625588762606e+01   
1.010800000000000e+10    -1.275583458429541e+01   -6.577078856920527e+01   
1.010900000000000e+10    -1.274950147041695e+01   -6.586892685652428e+01   
1.011000000000000e+10    -1.274508737937400e+01   -6.584536220092399e+01   
1.011100000000000e+10    -1.274715258391032e+01   -6.595964462607263e+01   
1.011200000000000e+10    -1.275822821259908e+01   -6.597030348012466e+01   
1.011300000000000e+10    -1.275617879536302e+01   -6.607987861595022e+01   
1.011400000000000e+10    -1.276205009396997e+01   -6.599624711273897e+01   
1.011500000000000e+10    -1.276262068293769e+01   -6.609770606534649e+01   
1.011600000000000e+10    -1.277262983983300e+01   -6.606654060827671e+01   
1.011700000000000e+10    -1.279003772564632e+01   -6.612278716977320e+01   
1.011800000000000e+10    -1.278194286385087e+01   -6.617343282334755e+01   
1.011900000000000e+10    -1.278600779116577e+01   -6.625001277948135e+01   
1.012000000000000e+10    -1.277679838781297e+01   -6.631585057318091e+01   
1.012100000000000e+10    -1.279686055179302e+01   -6.638695573364448e+01   
1.012200000000000e+10    -1.278081491341506e+01   -6.639580302533652e+01   
1.012300000000000e+10    -1.278671960901460e+01   -6.641571165267919e+01   
1.012400000000000e+10    -1.279821867435389e+01   -6.647822868960164e+01   
1.012500000000000e+10    -1.279354229648505e+01   -6.651603660882846e+01   
1.012600000000000e+10    -1.280111084167419e+01   -6.655491415670225e+01   
1.012700000000000e+10    -1.279900073994662e+01   -6.667343401668724e+01   
1.012800000000000e+10    -1.279813148281814e+01   -6.666268894680994e+01   
1.012900000000000e+10    -1.279950401648165e+01   -6.677073305558552e+01   
1.013000000000000e+10    -1.279438409724287e+01   -6.673732229930596e+01   
1.013100000000000e+10    -1.279825952011928e+01   -6.687551491380428e+01   
1.013200000000000e+10    -1.280333406525397e+01   -6.690630252093224e+01   
1.013300000000000e+10    -1.280457859996440e+01   -6.699263998897527e+01   
1.013400000000000e+10    -1.279122758868859e+01   -6.703562755466001e+01   
1.013500000000000e+10    -1.279767754157414e+01   -6.710199135314058e+01   
1.013600000000000e+10    -1.278958728244990e+01   -6.714067993899643e+01   
1.013700000000000e+10    -1.278473093517295e+01   -6.722187110182587e+01   
1.013800000000000e+10    -1.278250442274189e+01   -6.728555942783264e+01   
1.013900000000000e+10    -1.278704686957950e+01   -6.733527077061029e+01   
1.014000000000000e+10    -1.277533646935005e+01   -6.734956258725765e+01   
1.014100000000000e+10    -1.278661280006378e+01   -6.740788384544642e+01   
1.014200000000000e+10    -1.277457759440740e+01   -6.748873747233539e+01   
1.014300000000000e+10    -1.277856892302364e+01   -6.751576947044369e+01   
1.014400000000000e+10    -1.276577758936477e+01   -6.756192041619245e+01   
1.014500000000000e+10    -1.277482534790115e+01   -6.764088102893507e+01   
1.014600000000000e+10    -1.276354400780507e+01   -6.766091229317900e+01   
1.014700000000000e+10    -1.275678995334591e+01   -6.764254727616830e+01   
1.014800000000000e+10    -1.276852738659742e+01   -6.770506713652853e+01   
1.014900000000000e+10    -1.275754394766191e+01   -6.779709223021641e+01   
1.015000000000000e+10    -1.275897358354884e+01   -6.781472984357558e+01   
1.015100000000000e+10    -1.275334002892511e+01   -6.783550610534095e+01   
1.015200000000000e+10    -1.274598429744534e+01   -6.784435154177827e+01   
1.015300000000000e+10    -1.275251222799893e+01   -6.793057617249745e+01   
1.015400000000000e+10    -1.273693951806101e+01   -6.794053687869653e+01   
1.015500000000000e+10    -1.276085773902616e+01   -6.794494959992750e+01   
1.015600000000000e+10    -1.275005125904891e+01   -6.797961894972040e+01   
1.015700000000000e+10    -1.273436513350060e+01   -6.796202155480039e+01   
1.015800000000000e+10    -1.273694867252793e+01   -6.804023653621057e+01   
1.015900000000000e+10    -1.273306577872273e+01   -6.804697425294758e+01   
1.016000000000000e+10    -1.273092253446121e+01   -6.808639025740253e+01   
1.016100000000000e+10    -1.273344111814174e+01   -6.810660869714573e+01   
1.016200000000000e+10    -1.272230485606741e+01   -6.805814557201099e+01   
1.016300000000000e+10    -1.271904332246467e+01   -6.806489948591748e+01   
1.016400000000000e+10    -1.273152141548026e+01   -6.805881437334536e+01   
1.016500000000000e+10    -1.271503779141304e+01   -6.806150248171002e+01   
1.016600000000000e+10    -1.272645892830323e+01   -6.812156218695522e+01   
1.016700000000000e+10    -1.271577171655578e+01   -6.812573018830510e+01   
1.016800000000000e+10    -1.271181306782940e+01   -6.812752076299464e+01   
1.016900000000000e+10    -1.271671588753226e+01   -6.805525362678318e+01   
1.017000000000000e+10    -1.272512920985936e+01   -6.809185138306916e+01   
1.017100000000000e+10    -1.271623340290830e+01   -6.818705927432372e+01   
1.017200000000000e+10    -1.271286027206512e+01   -6.810489554024623e+01   
1.017300000000000e+10    -1.271793180308608e+01   -6.817745463251754e+01   
1.017400000000000e+10    -1.271199900539645e+01   -6.814554263595916e+01   
1.017500000000000e+10    -1.271426148955095e+01   -6.817938880541323e+01   
1.017600000000000e+10    -1.270209792587022e+01   -6.813660120144623e+01   
1.017700000000000e+10    -1.271981103904783e+01   -6.810269874947217e+01   
1.017800000000000e+10    -1.271932849722803e+01   -6.812819449841146e+01   
1.017900000000000e+10    -1.271487866660512e+01   -6.806208444161635e+01   
1.018000000000000e+10    -1.271680023960085e+01   -6.809620328582304e+01   
1.018100000000000e+10    -1.271396694762763e+01   -6.804738265029162e+01   
1.018200000000000e+10    -1.272046450756248e+01   -6.801741443299699e+01   
1.018300000000000e+10    -1.271483243227202e+01   -6.807306982851129e+01   
1.018400000000000e+10    -1.272904075301785e+01   -6.805336539760039e+01   
1.018500000000000e+10    -1.272530263798630e+01   -6.806941931981864e+01   
1.018600000000000e+10    -1.273742199757712e+01   -6.815680643194312e+01   
1.018700000000000e+10    -1.272908715160062e+01   -6.807381891605786e+01   
1.018800000000000e+10    -1.274270337675878e+01   -6.808338588359049e+01   
1.018900000000000e+10    -1.274881149147985e+01   -6.807343663554673e+01   
1.019000000000000e+10    -1.274876943986366e+01   -6.806244321104035e+01   
1.019100000000000e+10    -1.275078256160232e+01   -6.807742260087207e+01   
1.019200000000000e+10    -1.274901048241551e+01   -6.803757488342677e+01   
1.019300000000000e+10    -1.277017378012825e+01   -6.809837720812901e+01   
1.019400000000000e+10    -1.276348894871404e+01   -6.804598865130590e+01   
1.019500000000000e+10    -1.277236114526188e+01   -6.805554386227728e+01   
1.019600000000000e+10    -1.276060366289744e+01   -6.810247759727163e+01   
1.019700000000000e+10    -1.277021323893759e+01   -6.805224623758973e+01   
1.019800000000000e+10    -1.277599098762111e+01   -6.810636684646963e+01   
1.019900000000000e+10    -1.277661632933677e+01   -6.805005285573624e+01   
1.020000000000000e+10    -1.279269755100324e+01   -6.813777008000544e+01   
1.020100000000000e+10    -1.279336417147043e+01   -6.811733037944019e+01   
1.020200000000000e+10    -1.279043194376216e+01   -6.810312742850574e+01   
1.020300000000000e+10    -1.280307364727144e+01   -6.809166695047830e+01   
1.020400000000000e+10    -1.280210280244669e+01   -6.813283292500863e+01   
1.020500000000000e+10    -1.281349448087284e+01   -6.815895302551164e+01   
1.020600000000000e+10    -1.280478947767991e+01   -6.814064330324015e+01   
1.020700000000000e+10    -1.282031015811819e+01   -6.818205980692937e+01   
1.020800000000000e+10    -1.283446118282968e+01   -6.817128114087909e+01   
1.020900000000000e+10    -1.282689268157970e+01   -6.820122103070462e+01   
1.021000000000000e+10    -1.283053645936507e+01   -6.820010070864275e+01   
1.021100000000000e+10    -1.283835629659307e+01   -6.821311261936611e+01   
1.021200000000000e+10    -1.284556964601873e+01   -6.817190487606567e+01   
1.021300000000000e+10    -1.283831153611935e+01   -6.827228898605593e+01   
1.021400000000000e+10    -1.284896981812229e+01   -6.818120293567699e+01   
1.021500000000000e+10    -1.284621951395737e+01   -6.831279677712047e+01   
1.021600000000000e+10    -1.285372152380873e+01   -6.837237856870242e+01   
1.021700000000000e+10    -1.284913705160677e+01   -6.830108249545226e+01   
1.021800000000000e+10    -1.285579896960531e+01   -6.832191928614877e+01   
1.021900000000000e+10    -1.284753833907702e+01   -6.831619470110520e+01   
1.022000000000000e+10    -1.286153488144715e+01   -6.830795006251948e+01   
1.022100000000000e+10    -1.284608323770558e+01   -6.838408726669209e+01   
1.022200000000000e+10    -1.285624926223552e+01   -6.831533894911055e+01   
1.022300000000000e+10    -1.285840857900901e+01   -6.836733612952651e+01   
1.022400000000000e+10    -1.286108886887184e+01   -6.838635608241471e+01   
1.022500000000000e+10    -1.285739776119944e+01   -6.842768835912061e+01   
1.022600000000000e+10    -1.286674318195972e+01   -6.838937849241101e+01   
1.022700000000000e+10    -1.286241269867927e+01   -6.843595116831189e+01   
1.022800000000000e+10    -1.286807284956501e+01   -6.833451322675113e+01   
1.022900000000000e+10    -1.285636769378727e+01   -6.843775366815564e+01   
1.023000000000000e+10    -1.286528639787428e+01   -6.843568546749317e+01   
1.023100000000000e+10    -1.285417167431667e+01   -6.844854912155262e+01   
1.023200000000000e+10    -1.287246099377486e+01   -6.839437641941095e+01   
1.023300000000000e+10    -1.286195309110493e+01   -6.851104226476279e+01   
1.023400000000000e+10    -1.287587706045099e+01   -6.846659323085564e+01   
1.023500000000000e+10    -1.286448334391315e+01   -6.849914817506875e+01   
1.023600000000000e+10    -1.287514481645601e+01   -6.845662385946868e+01   
1.023700000000000e+10    -1.287310236969632e+01   -6.847699555901768e+01   
1.023800000000000e+10    -1.288139326877898e+01   -6.847708607089545e+01   
1.023900000000000e+10    -1.287386238106108e+01   -6.846674416207665e+01   
1.024000000000000e+10    -1.287845440238655e+01   -6.842793182979614e+01   
1.024100000000000e+10    -1.288082124791902e+01   -6.849840337453786e+01   
1.024200000000000e+10    -1.288010641806772e+01   -6.848496214813569e+01   
1.024300000000000e+10    -1.287489422950780e+01   -6.839938840128480e+01   
1.024400000000000e+10    -1.287635457155303e+01   -6.846127947029518e+01   
1.024500000000000e+10    -1.287848501447296e+01   -6.840265571315358e+01   
1.024600000000000e+10    -1.287611854656405e+01   -6.850128472884681e+01   
1.024700000000000e+10    -1.287810590511195e+01   -6.843496551558513e+01   
1.024800000000000e+10    -1.289388867064049e+01   -6.848841415125953e+01   
1.024900000000000e+10    -1.287819843224326e+01   -6.851644790843970e+01   
1.025000000000000e+10    -1.287327055444020e+01   -6.845709809596843e+01   
1.025100000000000e+10    -1.288157227031573e+01   -6.840994458207084e+01   
1.025200000000000e+10    -1.288334884549658e+01   -6.847510133436681e+01   
1.025300000000000e+10    -1.287532131280257e+01   -6.850392199572097e+01   
1.025400000000000e+10    -1.287077099398264e+01   -6.849061794886751e+01   
1.025500000000000e+10    -1.287366651874233e+01   -6.845830776164027e+01   
1.025600000000000e+10    -1.287758939184238e+01   -6.847712707980806e+01   
