[Version] 2.0
! Rohde & Schwarz Vector Network Analyzer
! Rohde-Schwarz,ZNL20-2Port,1323001220200009,1.71.1.10-23.02.1.238
! 
! Port Assignments:
! Nominal Port -> Actual Test Port
! --------------------------------
!   1 -> 1

! Created: GMT 2024-09-04 14:20:18

# Hz S DB R 50

[Number of Ports] 1
[Number of Frequencies] 2001

[Network Data] 
! freq[Hz]               S11[mag dB]              S11[ang]                 
1.000000000000000e+10    -1.321810557967426e+01   -6.330654084107061e+01   
1.000100000000000e+10    -1.321984495092374e+01   -6.330874699638771e+01   
1.000200000000000e+10    -1.321672471455861e+01   -6.322545857028044e+01   
1.000300000000000e+10    -1.321033691185008e+01   -6.315031645184861e+01   
1.000400000000000e+10    -1.321333481911970e+01   -6.315266484023137e+01   
1.000500000000000e+10    -1.320405633097469e+01   -6.320877202894371e+01   
1.000600000000000e+10    -1.321669643439462e+01   -6.315899943398041e+01   
1.000700000000000e+10    -1.319763427791758e+01   -6.326111473162742e+01   
1.000800000000000e+10    -1.322024326952282e+01   -6.322616277007077e+01   
1.000900000000000e+10    -1.319076367608710e+01   -6.313674248172398e+01   
1.001000000000000e+10    -1.320422153133802e+01   -6.323882980238611e+01   
1.001100000000000e+10    -1.320205277886273e+01   -6.316872034046270e+01   
1.001200000000000e+10    -1.320284984119359e+01   -6.321953317679441e+01   
1.001300000000000e+10    -1.320285707730008e+01   -6.321799702001002e+01   
1.001400000000000e+10    -1.320940775432040e+01   -6.316128209198026e+01   
1.001500000000000e+10    -1.320502210371674e+01   -6.329622004705291e+01   
1.001600000000000e+10    -1.321147438559297e+01   -6.326470209394833e+01   
1.001700000000000e+10    -1.321975732228494e+01   -6.324661651694630e+01   
1.001800000000000e+10    -1.321617142696366e+01   -6.326246584768184e+01   
1.001900000000000e+10    -1.322005298960807e+01   -6.331435273202580e+01   
1.002000000000000e+10    -1.322015635269195e+01   -6.324840032245788e+01   
1.002100000000000e+10    -1.322070406236312e+01   -6.327757450717899e+01   
1.002200000000000e+10    -1.322031130599532e+01   -6.335904250860623e+01   
1.002300000000000e+10    -1.322659337351041e+01   -6.335434393642795e+01   
1.002400000000000e+10    -1.323610597618199e+01   -6.346531660599621e+01   
1.002500000000000e+10    -1.322915486246933e+01   -6.345393212171013e+01   
1.002600000000000e+10    -1.322688110065977e+01   -6.349224643772671e+01   
1.002700000000000e+10    -1.322598276326772e+01   -6.349833035748466e+01   
1.002800000000000e+10    -1.322216449201929e+01   -6.361577923643688e+01   
1.002900000000000e+10    -1.322439041634299e+01   -6.358659572912757e+01   
1.003000000000000e+10    -1.322801766631761e+01   -6.367555856602380e+01   
1.003100000000000e+10    -1.322270982714575e+01   -6.382385872023674e+01   
1.003200000000000e+10    -1.322927517099851e+01   -6.376431366276672e+01   
1.003300000000000e+10    -1.323925899263075e+01   -6.381000264112430e+01   
1.003400000000000e+10    -1.322544044550828e+01   -6.394229900312875e+01   
1.003500000000000e+10    -1.322563388517286e+01   -6.393962240155727e+01   
1.003600000000000e+10    -1.323686377338845e+01   -6.396295792783344e+01   
1.003700000000000e+10    -1.322865830657314e+01   -6.408780369769435e+01   
1.003800000000000e+10    -1.323057881047068e+01   -6.407363732915920e+01   
1.003900000000000e+10    -1.322945301235560e+01   -6.424484097150008e+01   
1.004000000000000e+10    -1.322228852845432e+01   -6.414275941399160e+01   
1.004100000000000e+10    -1.320746262075234e+01   -6.431498186336711e+01   
1.004200000000000e+10    -1.320784402353638e+01   -6.420207028653263e+01   
1.004300000000000e+10    -1.321073029397132e+01   -6.437274986936244e+01   
1.004400000000000e+10    -1.319984697441712e+01   -6.448282960723265e+01   
1.004500000000000e+10    -1.320827970401960e+01   -6.446290365441487e+01   
1.004600000000000e+10    -1.318979699748404e+01   -6.449920001730911e+01   
1.004700000000000e+10    -1.318860409196297e+01   -6.462939185569353e+01   
1.004800000000000e+10    -1.318272662459289e+01   -6.468465517538581e+01   
1.004900000000000e+10    -1.318963307667524e+01   -6.467392618342114e+01   
1.005000000000000e+10    -1.318406240171939e+01   -6.469167946710620e+01   
1.005100000000000e+10    -1.315924658133732e+01   -6.472026658165065e+01   
1.005200000000000e+10    -1.314656692695143e+01   -6.480230979183716e+01   
1.005300000000000e+10    -1.314139567131224e+01   -6.490346451456291e+01   
1.005400000000000e+10    -1.314644517237728e+01   -6.495149475339548e+01   
1.005500000000000e+10    -1.313912848226309e+01   -6.502959822905810e+01   
1.005600000000000e+10    -1.312843222756429e+01   -6.497690374321296e+01   
1.005700000000000e+10    -1.312648345902465e+01   -6.503183455900113e+01   
1.005800000000000e+10    -1.310211236748682e+01   -6.499076337653450e+01   
1.005900000000000e+10    -1.310179328503304e+01   -6.512177079287660e+01   
1.006000000000000e+10    -1.308976536571144e+01   -6.516667104798852e+01   
1.006100000000000e+10    -1.308516335871776e+01   -6.518241368170293e+01   
1.006200000000000e+10    -1.307251996698174e+01   -6.516476909786891e+01   
1.006300000000000e+10    -1.304928070399295e+01   -6.515488313672235e+01   
1.006400000000000e+10    -1.305341378173340e+01   -6.516218049598803e+01   
1.006500000000000e+10    -1.304239076924798e+01   -6.525687907410436e+01   
1.006600000000000e+10    -1.303935078651964e+01   -6.524578938225129e+01   
1.006700000000000e+10    -1.303064017948953e+01   -6.517540774713663e+01   
1.006800000000000e+10    -1.303882232369730e+01   -6.530588027662205e+01   
1.006900000000000e+10    -1.301021563275397e+01   -6.522329292805003e+01   
1.007000000000000e+10    -1.300753692963803e+01   -6.528009661719751e+01   
1.007100000000000e+10    -1.299319106613252e+01   -6.524320382787602e+01   
1.007200000000000e+10    -1.299672573051582e+01   -6.534042876229363e+01   
1.007300000000000e+10    -1.298377690340762e+01   -6.525833523721448e+01   
1.007400000000000e+10    -1.297612774980081e+01   -6.527868096678844e+01   
1.007500000000000e+10    -1.297502733787538e+01   -6.522433126723774e+01   
1.007600000000000e+10    -1.296068908585300e+01   -6.529805275775675e+01   
1.007700000000000e+10    -1.295435920375793e+01   -6.524930112315633e+01   
1.007800000000000e+10    -1.294187642630262e+01   -6.523709821645564e+01   
1.007900000000000e+10    -1.292705171680210e+01   -6.516272782223355e+01   
1.008000000000000e+10    -1.292654224729547e+01   -6.514933790412567e+01   
1.008100000000000e+10    -1.293545647587790e+01   -6.530281334401472e+01   
1.008200000000000e+10    -1.293144489023117e+01   -6.528286294174117e+01   
1.008300000000000e+10    -1.292365633622995e+01   -6.513810295457124e+01   
1.008400000000000e+10    -1.291765730198449e+01   -6.519510622592446e+01   
1.008500000000000e+10    -1.290903530958551e+01   -6.520023651293984e+01   
1.008600000000000e+10    -1.290545109038160e+01   -6.514840767535662e+01   
1.008700000000000e+10    -1.290530502162761e+01   -6.515333579616701e+01   
1.008800000000000e+10    -1.290488090861621e+01   -6.521650557512628e+01   
1.008900000000000e+10    -1.289846602136478e+01   -6.508133069884296e+01   
1.009000000000000e+10    -1.289226415724055e+01   -6.514963668898697e+01   
1.009100000000000e+10    -1.289405896631794e+01   -6.516338855200820e+01   
1.009200000000000e+10    -1.288811839182841e+01   -6.510421968365041e+01   
1.009300000000000e+10    -1.289342706096287e+01   -6.509248676802899e+01   
1.009400000000000e+10    -1.289903183339764e+01   -6.513623914060278e+01   
1.009500000000000e+10    -1.289579029471233e+01   -6.516646521107343e+01   
1.009600000000000e+10    -1.288898674116449e+01   -6.508385067471698e+01   
1.009700000000000e+10    -1.289232793003292e+01   -6.510985703116634e+01   
1.009800000000000e+10    -1.289952975035976e+01   -6.505398786386333e+01   
1.009900000000000e+10    -1.290044492977115e+01   -6.506738371711836e+01   
1.010000000000000e+10    -1.289876169546696e+01   -6.515524176846557e+01   
1.010100000000000e+10    -1.290173674267391e+01   -6.508869551336947e+01   
1.010200000000000e+10    -1.290934593843970e+01   -6.507355114411922e+01   
1.010300000000000e+10    -1.291115416036207e+01   -6.509906819683212e+01   
1.010400000000000e+10    -1.290612473745740e+01   -6.510837817889849e+01   
1.010500000000000e+10    -1.291366034978194e+01   -6.514615130407044e+01   
1.010600000000000e+10    -1.290274830128739e+01   -6.506822871356796e+01   
1.010700000000000e+10    -1.292219553105189e+01   -6.521979946236158e+01   
1.010800000000000e+10    -1.292640088294032e+01   -6.510138587335315e+01   
1.010900000000000e+10    -1.292366932230756e+01   -6.521104201395997e+01   
1.011000000000000e+10    -1.292003193764899e+01   -6.516412426950968e+01   
1.011100000000000e+10    -1.291918014156567e+01   -6.529841638740177e+01   
1.011200000000000e+10    -1.293065875183242e+01   -6.529197519361949e+01   
1.011300000000000e+10    -1.292448046503835e+01   -6.539491351665794e+01   
1.011400000000000e+10    -1.293330568497312e+01   -6.535090218622324e+01   
1.011500000000000e+10    -1.292983100026616e+01   -6.542050415560792e+01   
1.011600000000000e+10    -1.294235731640191e+01   -6.537720941624816e+01   
1.011700000000000e+10    -1.295327134511652e+01   -6.548196169752049e+01   
1.011800000000000e+10    -1.294708175215192e+01   -6.549795398853402e+01   
1.011900000000000e+10    -1.294771429966577e+01   -6.556278734446684e+01   
1.012000000000000e+10    -1.293698879919964e+01   -6.563883488572272e+01   
1.012100000000000e+10    -1.295903536290818e+01   -6.572610452031350e+01   
1.012200000000000e+10    -1.294463456471624e+01   -6.570923742300545e+01   
1.012300000000000e+10    -1.294857329951797e+01   -6.577992246036494e+01   
1.012400000000000e+10    -1.295562513230612e+01   -6.578423361151265e+01   
1.012500000000000e+10    -1.295384342400097e+01   -6.584090612501797e+01   
1.012600000000000e+10    -1.295732356846712e+01   -6.587161814232923e+01   
1.012700000000000e+10    -1.296753038364632e+01   -6.601449145679418e+01   
1.012800000000000e+10    -1.295463834164578e+01   -6.601634288447471e+01   
1.012900000000000e+10    -1.295673972560805e+01   -6.610584834951405e+01   
1.013000000000000e+10    -1.295446321696425e+01   -6.608987624786370e+01   
1.013100000000000e+10    -1.295755383161603e+01   -6.617347536056462e+01   
1.013200000000000e+10    -1.296284395821452e+01   -6.622542444558634e+01   
1.013300000000000e+10    -1.296348742558015e+01   -6.630884214810062e+01   
1.013400000000000e+10    -1.295337431008144e+01   -6.637368060934462e+01   
1.013500000000000e+10    -1.295698279514555e+01   -6.645488759698662e+01   
1.013600000000000e+10    -1.294318919691533e+01   -6.645903914704536e+01   
1.013700000000000e+10    -1.293923559652885e+01   -6.653922919123895e+01   
1.013800000000000e+10    -1.293756816474902e+01   -6.659740759512401e+01   
1.013900000000000e+10    -1.293807984302937e+01   -6.666227206308905e+01   
1.014000000000000e+10    -1.292525270365064e+01   -6.665478866748688e+01   
1.014100000000000e+10    -1.293752523206854e+01   -6.673988668416349e+01   
1.014200000000000e+10    -1.292363182167310e+01   -6.681161259654613e+01   
1.014300000000000e+10    -1.292838587455764e+01   -6.681540724327485e+01   
1.014400000000000e+10    -1.291718914667580e+01   -6.687799309113277e+01   
1.014500000000000e+10    -1.292274165914528e+01   -6.698562232132990e+01   
1.014600000000000e+10    -1.290842742888061e+01   -6.702122794036070e+01   
1.014700000000000e+10    -1.290388735420814e+01   -6.699240168158512e+01   
1.014800000000000e+10    -1.291222890639775e+01   -6.706895225086147e+01   
1.014900000000000e+10    -1.290027809337607e+01   -6.714332795791374e+01   
1.015000000000000e+10    -1.290321726197628e+01   -6.716094218500594e+01   
1.015100000000000e+10    -1.289570867499837e+01   -6.718290209135284e+01   
1.015200000000000e+10    -1.288532193439898e+01   -6.721814806285589e+01   
1.015300000000000e+10    -1.289072632611198e+01   -6.730954570657040e+01   
1.015400000000000e+10    -1.287638290994144e+01   -6.726780141194835e+01   
1.015500000000000e+10    -1.289904344101020e+01   -6.733413924507204e+01   
1.015600000000000e+10    -1.288684668761173e+01   -6.734529170232271e+01   
1.015700000000000e+10    -1.287284533352341e+01   -6.733723952840039e+01   
1.015800000000000e+10    -1.287415728018763e+01   -6.740051462320284e+01   
1.015900000000000e+10    -1.286905752125780e+01   -6.741546845126256e+01   
1.016000000000000e+10    -1.286466853920131e+01   -6.749570254326925e+01   
1.016100000000000e+10    -1.287166621141798e+01   -6.751807666496127e+01   
1.016200000000000e+10    -1.285954579999814e+01   -6.745197763609940e+01   
1.016300000000000e+10    -1.285244556350442e+01   -6.745165612206914e+01   
1.016400000000000e+10    -1.286691823435751e+01   -6.747904296498778e+01   
1.016500000000000e+10    -1.285062138078557e+01   -6.746298670266526e+01   
1.016600000000000e+10    -1.286047969988544e+01   -6.751504448651777e+01   
1.016700000000000e+10    -1.284968162470875e+01   -6.754674882961010e+01   
1.016800000000000e+10    -1.284525314934107e+01   -6.752564112536371e+01   
1.016900000000000e+10    -1.284524759723222e+01   -6.751108345402830e+01   
1.017000000000000e+10    -1.285438973004462e+01   -6.752816978655638e+01   
1.017100000000000e+10    -1.285130989886251e+01   -6.762632381008154e+01   
1.017200000000000e+10    -1.284335530302265e+01   -6.754702742886539e+01   
1.017300000000000e+10    -1.284827897360036e+01   -6.759231205761250e+01   
1.017400000000000e+10    -1.284288649644281e+01   -6.756684196373533e+01   
1.017500000000000e+10    -1.284081762558969e+01   -6.760731687781687e+01   
1.017600000000000e+10    -1.283102997058243e+01   -6.757200577995346e+01   
1.017700000000000e+10    -1.284605567445480e+01   -6.753321745555129e+01   
1.017800000000000e+10    -1.284077069945127e+01   -6.759199306491261e+01   
1.017900000000000e+10    -1.284062159761256e+01   -6.750787609614585e+01   
1.018000000000000e+10    -1.284064396280602e+01   -6.755206664464724e+01   
1.018100000000000e+10    -1.283870696391575e+01   -6.752177036086961e+01   
1.018200000000000e+10    -1.284633869211659e+01   -6.749472397490676e+01   
1.018300000000000e+10    -1.284258816957582e+01   -6.753493572580405e+01   
1.018400000000000e+10    -1.285404884628314e+01   -6.753675646164768e+01   
1.018500000000000e+10    -1.284884951801915e+01   -6.755975483236982e+01   
1.018600000000000e+10    -1.285856749198221e+01   -6.763258027767560e+01   
1.018700000000000e+10    -1.285419105257025e+01   -6.753281814264736e+01   
1.018800000000000e+10    -1.287021810121413e+01   -6.757793240833395e+01   
1.018900000000000e+10    -1.286996217196338e+01   -6.753961878201055e+01   
1.019000000000000e+10    -1.286982854478251e+01   -6.750893825484015e+01   
1.019100000000000e+10    -1.287512788483726e+01   -6.757593743549178e+01   
1.019200000000000e+10    -1.287170183102124e+01   -6.751300085430071e+01   
1.019300000000000e+10    -1.288937564241081e+01   -6.757586923246943e+01   
1.019400000000000e+10    -1.288626459286624e+01   -6.755742719338343e+01   
1.019500000000000e+10    -1.289409628244103e+01   -6.757355948591328e+01   
1.019600000000000e+10    -1.287901552062417e+01   -6.761370593197867e+01   
1.019700000000000e+10    -1.289091161155552e+01   -6.756593266999012e+01   
1.019800000000000e+10    -1.289361525554254e+01   -6.761780735677004e+01   
1.019900000000000e+10    -1.289510253820107e+01   -6.757379633371497e+01   
1.020000000000000e+10    -1.290877741189003e+01   -6.765243594873321e+01   
1.020100000000000e+10    -1.291246403727259e+01   -6.767636922022588e+01   
1.020200000000000e+10    -1.290859090425429e+01   -6.768931558175026e+01   
1.020300000000000e+10    -1.292486127719759e+01   -6.766274617003906e+01   
1.020400000000000e+10    -1.292226257945670e+01   -6.769803365622427e+01   
1.020500000000000e+10    -1.293215194413362e+01   -6.772393235064013e+01   
1.020600000000000e+10    -1.292577731993461e+01   -6.773807386486861e+01   
1.020700000000000e+10    -1.294055236172568e+01   -6.772426081555005e+01   
1.020800000000000e+10    -1.294895437914972e+01   -6.774359293802209e+01   
1.020900000000000e+10    -1.295167779284440e+01   -6.777461993631258e+01   
1.021000000000000e+10    -1.295202233402870e+01   -6.782487516399884e+01   
1.021100000000000e+10    -1.295998149332863e+01   -6.781472557825829e+01   
1.021200000000000e+10    -1.296457594475328e+01   -6.775324587769811e+01   
1.021300000000000e+10    -1.296105904994468e+01   -6.788483099754205e+01   
1.021400000000000e+10    -1.297063216227276e+01   -6.782370567994710e+01   
1.021500000000000e+10    -1.296675371322433e+01   -6.794368533645492e+01   
1.021600000000000e+10    -1.297814271666882e+01   -6.802226599126693e+01   
1.021700000000000e+10    -1.297406476240208e+01   -6.793107311016782e+01   
1.021800000000000e+10    -1.297997137674592e+01   -6.794722962040362e+01   
1.021900000000000e+10    -1.297310660978392e+01   -6.792968483615384e+01   
1.022000000000000e+10    -1.298497425662378e+01   -6.795451158690666e+01   
1.022100000000000e+10    -1.297250673442146e+01   -6.802829245131092e+01   
1.022200000000000e+10    -1.297897798384104e+01   -6.798409748964350e+01   
1.022300000000000e+10    -1.298418854331087e+01   -6.801071468363220e+01   
1.022400000000000e+10    -1.299058770455657e+01   -6.802572610664475e+01   
1.022500000000000e+10    -1.298551151863077e+01   -6.801923381683524e+01   
1.022600000000000e+10    -1.299668216522909e+01   -6.805726277637011e+01   
1.022700000000000e+10    -1.299255334670461e+01   -6.805320600679272e+01   
1.022800000000000e+10    -1.299768211476968e+01   -6.799426066039423e+01   
1.022900000000000e+10    -1.298739303844826e+01   -6.810128885669582e+01   
1.023000000000000e+10    -1.299574986270759e+01   -6.808525037278970e+01   
1.023100000000000e+10    -1.298543942542890e+01   -6.814100508892551e+01   
1.023200000000000e+10    -1.299855079043508e+01   -6.806534727251315e+01   
1.023300000000000e+10    -1.298925247314096e+01   -6.817801504046510e+01   
1.023400000000000e+10    -1.300281797410072e+01   -6.817569514364527e+01   
1.023500000000000e+10    -1.298946544394630e+01   -6.820211454105849e+01   
1.023600000000000e+10    -1.300510068280394e+01   -6.816615373309678e+01   
1.023700000000000e+10    -1.300355808848195e+01   -6.816014376052212e+01   
1.023800000000000e+10    -1.301315498429959e+01   -6.820080231607599e+01   
1.023900000000000e+10    -1.301133552861452e+01   -6.817570665223599e+01   
1.024000000000000e+10    -1.301558681187302e+01   -6.814386518207121e+01   
1.024100000000000e+10    -1.301592534479830e+01   -6.820120178350963e+01   
1.024200000000000e+10    -1.301329226125436e+01   -6.820384924653973e+01   
1.024300000000000e+10    -1.301257276231906e+01   -6.811267954871521e+01   
1.024400000000000e+10    -1.301328580201320e+01   -6.818134531440295e+01   
1.024500000000000e+10    -1.301819998897822e+01   -6.813555706304751e+01   
1.024600000000000e+10    -1.301633097769639e+01   -6.821725123407896e+01   
1.024700000000000e+10    -1.302049868247105e+01   -6.813791407622311e+01   
1.024800000000000e+10    -1.303494908862583e+01   -6.819801660076217e+01   
1.024900000000000e+10    -1.301642665422453e+01   -6.823563490996121e+01   
1.025000000000000e+10    -1.301481659386542e+01   -6.818422968331207e+01   
1.025100000000000e+10    -1.302227716581076e+01   -6.811509078618197e+01   
1.025200000000000e+10    -1.302474313353598e+01   -6.819182391580230e+01   
1.025300000000000e+10    -1.301357684560409e+01   -6.822703296300764e+01   
1.025400000000000e+10    -1.301454812441384e+01   -6.820789812366166e+01   
1.025500000000000e+10    -1.301971973072250e+01   -6.816044497902450e+01   
1.025600000000000e+10    -1.302357236517094e+01   -6.820062290977374e+01   
