[Version] 2.0
! Rohde & Schwarz Vector Network Analyzer
! Rohde-Schwarz,ZNL20-2Port,1323001220200009,1.71.1.10-23.02.1.238
! 
! Port Assignments:
! Nominal Port -> Actual Test Port
! --------------------------------
!   1 -> 1

! Created: GMT 2024-09-04 14:20:27

# Hz S DB R 50

[Number of Ports] 1
[Number of Frequencies] 2001

[Network Data] 
! freq[Hz]               S11[mag dB]              S11[ang]                 
1.000000000000000e+10    -1.341242907133978e+01   -6.305925257214202e+01   
1.000100000000000e+10    -1.341077693730048e+01   -6.307513271430405e+01   
1.000200000000000e+10    -1.341188425204980e+01   -6.294952748277866e+01   
1.000300000000000e+10    -1.339849101488509e+01   -6.290511117520403e+01   
1.000400000000000e+10    -1.340766203361058e+01   -6.292757732640857e+01   
1.000500000000000e+10    -1.339923857126139e+01   -6.297459695062929e+01   
1.000600000000000e+10    -1.341299189148699e+01   -6.287781061281195e+01   
1.000700000000000e+10    -1.339127397478140e+01   -6.297892381728036e+01   
1.000800000000000e+10    -1.341001529696977e+01   -6.292818790627145e+01   
1.000900000000000e+10    -1.338316045523943e+01   -6.286768702031753e+01   
1.001000000000000e+10    -1.339935980508240e+01   -6.294504597451395e+01   
1.001100000000000e+10    -1.339662534250604e+01   -6.287600880330004e+01   
1.001200000000000e+10    -1.339518489466911e+01   -6.294556993807155e+01   
1.001300000000000e+10    -1.339179910150800e+01   -6.295422309807106e+01   
1.001400000000000e+10    -1.339957579800592e+01   -6.287784027875990e+01   
1.001500000000000e+10    -1.339709023969594e+01   -6.302986964510948e+01   
1.001600000000000e+10    -1.340305946441282e+01   -6.297384937034122e+01   
1.001700000000000e+10    -1.340996062980939e+01   -6.293459497794054e+01   
1.001800000000000e+10    -1.340817491667639e+01   -6.297447484582043e+01   
1.001900000000000e+10    -1.341444422914687e+01   -6.305559816383880e+01   
1.002000000000000e+10    -1.341805247887733e+01   -6.296511747697708e+01   
1.002100000000000e+10    -1.341341244717784e+01   -6.295056621210416e+01   
1.002200000000000e+10    -1.341161920272167e+01   -6.303420943299275e+01   
1.002300000000000e+10    -1.341538850553858e+01   -6.303622313313433e+01   
1.002400000000000e+10    -1.342600420302569e+01   -6.316546802022495e+01   
1.002500000000000e+10    -1.342410723102275e+01   -6.314174616638977e+01   
1.002600000000000e+10    -1.342228404889758e+01   -6.319035982154861e+01   
1.002700000000000e+10    -1.341888491817181e+01   -6.319119619634773e+01   
1.002800000000000e+10    -1.341677015986880e+01   -6.331315759131429e+01   
1.002900000000000e+10    -1.341829111033848e+01   -6.327352789719564e+01   
1.003000000000000e+10    -1.342176003747673e+01   -6.338941104123260e+01   
1.003100000000000e+10    -1.341831430421651e+01   -6.348956515889819e+01   
1.003200000000000e+10    -1.342097686960176e+01   -6.345451984568124e+01   
1.003300000000000e+10    -1.343141058683999e+01   -6.349933907563194e+01   
1.003400000000000e+10    -1.341968584220369e+01   -6.365759929376470e+01   
1.003500000000000e+10    -1.341716099074051e+01   -6.362547847950069e+01   
1.003600000000000e+10    -1.342921704449444e+01   -6.365947630562724e+01   
1.003700000000000e+10    -1.342206583327195e+01   -6.376678718069729e+01   
1.003800000000000e+10    -1.342396892145021e+01   -6.377745815311453e+01   
1.003900000000000e+10    -1.341929839166900e+01   -6.394308795628211e+01   
1.004000000000000e+10    -1.341305769886682e+01   -6.384058194733500e+01   
1.004100000000000e+10    -1.339459851603614e+01   -6.399461101205297e+01   
1.004200000000000e+10    -1.339613133273833e+01   -6.390721730595208e+01   
1.004300000000000e+10    -1.339780215981689e+01   -6.404665833699373e+01   
1.004400000000000e+10    -1.339005030336726e+01   -6.414826779798490e+01   
1.004500000000000e+10    -1.339630183566868e+01   -6.413629022265594e+01   
1.004600000000000e+10    -1.337636144572519e+01   -6.416880048047298e+01   
1.004700000000000e+10    -1.337602271349524e+01   -6.435342959034610e+01   
1.004800000000000e+10    -1.337154758917992e+01   -6.437572071336915e+01   
1.004900000000000e+10    -1.337815230084075e+01   -6.439211516334967e+01   
1.005000000000000e+10    -1.337112260982122e+01   -6.438901992283249e+01   
1.005100000000000e+10    -1.334803960577918e+01   -6.442083117831240e+01   
1.005200000000000e+10    -1.333625234727411e+01   -6.451762351194752e+01   
1.005300000000000e+10    -1.332882325506304e+01   -6.459232847249343e+01   
1.005400000000000e+10    -1.333154959938468e+01   -6.462154575366731e+01   
1.005500000000000e+10    -1.332519661164161e+01   -6.471240219681958e+01   
1.005600000000000e+10    -1.331246452851396e+01   -6.464450205876945e+01   
1.005700000000000e+10    -1.331492062948361e+01   -6.471255371703519e+01   
1.005800000000000e+10    -1.329002412254433e+01   -6.469250116595191e+01   
1.005900000000000e+10    -1.328412761115973e+01   -6.480925027524805e+01   
1.006000000000000e+10    -1.327141035925357e+01   -6.484958890379731e+01   
1.006100000000000e+10    -1.326867002964422e+01   -6.486005890141543e+01   
1.006200000000000e+10    -1.325623283492044e+01   -6.484072164386211e+01   
1.006300000000000e+10    -1.323578349030104e+01   -6.480750168513941e+01   
1.006400000000000e+10    -1.323575237876273e+01   -6.482641373458168e+01   
1.006500000000000e+10    -1.322930977755776e+01   -6.494545185061054e+01   
1.006600000000000e+10    -1.321896758170384e+01   -6.493404636442474e+01   
1.006700000000000e+10    -1.321210309882842e+01   -6.486124554814265e+01   
1.006800000000000e+10    -1.322131933966745e+01   -6.499307538728820e+01   
1.006900000000000e+10    -1.319215344268099e+01   -6.491850421596081e+01   
1.007000000000000e+10    -1.318624656459231e+01   -6.494961720941751e+01   
1.007100000000000e+10    -1.317863553203883e+01   -6.493516797915461e+01   
1.007200000000000e+10    -1.317763796797929e+01   -6.498808412162502e+01   
1.007300000000000e+10    -1.316456102609439e+01   -6.491767899460443e+01   
1.007400000000000e+10    -1.315892857268736e+01   -6.495222626772320e+01   
1.007500000000000e+10    -1.315333001161107e+01   -6.494716060436947e+01   
1.007600000000000e+10    -1.314422175895573e+01   -6.498388736046689e+01   
1.007700000000000e+10    -1.313566157255181e+01   -6.491503375219853e+01   
1.007800000000000e+10    -1.312754932532268e+01   -6.490901734393159e+01   
1.007900000000000e+10    -1.310650632741480e+01   -6.483533030388504e+01   
1.008000000000000e+10    -1.310937050576845e+01   -6.482043701177200e+01   
1.008100000000000e+10    -1.311596457970812e+01   -6.495635916997968e+01   
1.008200000000000e+10    -1.311306607500254e+01   -6.487944563977828e+01   
1.008300000000000e+10    -1.310553716826624e+01   -6.477574601773473e+01   
1.008400000000000e+10    -1.310224959850501e+01   -6.484806408902305e+01   
1.008500000000000e+10    -1.309112627765886e+01   -6.481940647681131e+01   
1.008600000000000e+10    -1.308511772711778e+01   -6.479153977803463e+01   
1.008700000000000e+10    -1.308481847043540e+01   -6.476260398675608e+01   
1.008800000000000e+10    -1.308533470654615e+01   -6.482491758982140e+01   
1.008900000000000e+10    -1.307685696406807e+01   -6.467833438590945e+01   
1.009000000000000e+10    -1.306738216207510e+01   -6.474049179869959e+01   
1.009100000000000e+10    -1.307203031557435e+01   -6.480775648307058e+01   
1.009200000000000e+10    -1.306749167715230e+01   -6.470600326550061e+01   
1.009300000000000e+10    -1.307290371362369e+01   -6.470226185804758e+01   
1.009400000000000e+10    -1.307424688997084e+01   -6.469896022960609e+01   
1.009500000000000e+10    -1.307142674216147e+01   -6.473900961876707e+01   
1.009600000000000e+10    -1.306261079728175e+01   -6.466710566824064e+01   
1.009700000000000e+10    -1.306997640498327e+01   -6.468305306675285e+01   
1.009800000000000e+10    -1.307324375771607e+01   -6.464291215325225e+01   
1.009900000000000e+10    -1.307448604988947e+01   -6.462205474104606e+01   
1.010000000000000e+10    -1.307592889812105e+01   -6.472949450033163e+01   
1.010100000000000e+10    -1.307657302010701e+01   -6.465406827681191e+01   
1.010200000000000e+10    -1.308211156859974e+01   -6.465454484747804e+01   
1.010300000000000e+10    -1.308673156890493e+01   -6.466381267789328e+01   
1.010400000000000e+10    -1.307981824117173e+01   -6.466914104148152e+01   
1.010500000000000e+10    -1.308912172304239e+01   -6.471499936613786e+01   
1.010600000000000e+10    -1.307565950418600e+01   -6.463012848346919e+01   
1.010700000000000e+10    -1.309654520303593e+01   -6.477357686810500e+01   
1.010800000000000e+10    -1.310010792249559e+01   -6.464296291142975e+01   
1.010900000000000e+10    -1.309569513271450e+01   -6.473919932437077e+01   
1.011000000000000e+10    -1.309283086363880e+01   -6.467592288371243e+01   
1.011100000000000e+10    -1.308983292565208e+01   -6.483739593218000e+01   
1.011200000000000e+10    -1.310070888730163e+01   -6.480158929682847e+01   
1.011300000000000e+10    -1.309601476379810e+01   -6.492996724666136e+01   
1.011400000000000e+10    -1.309977072402030e+01   -6.485258593076615e+01   
1.011500000000000e+10    -1.310165707683233e+01   -6.492948778701653e+01   
1.011600000000000e+10    -1.310901624444085e+01   -6.490671049843245e+01   
1.011700000000000e+10    -1.312421705211777e+01   -6.494903857778723e+01   
1.011800000000000e+10    -1.311936496116878e+01   -6.501311087693161e+01   
1.011900000000000e+10    -1.312134605245990e+01   -6.505463438548652e+01   
1.012000000000000e+10    -1.310957557863815e+01   -6.514942490764780e+01   
1.012100000000000e+10    -1.312446123915110e+01   -6.520730018447880e+01   
1.012200000000000e+10    -1.310899946702667e+01   -6.520819933764444e+01   
1.012300000000000e+10    -1.311737473044438e+01   -6.523257469066603e+01   
1.012400000000000e+10    -1.312735682848460e+01   -6.531294655727089e+01   
1.012500000000000e+10    -1.312388746395709e+01   -6.534081777248703e+01   
1.012600000000000e+10    -1.312714257948913e+01   -6.535843495399864e+01   
1.012700000000000e+10    -1.312511862833254e+01   -6.550405239717996e+01   
1.012800000000000e+10    -1.312233581459169e+01   -6.550058789859582e+01   
1.012900000000000e+10    -1.312116032816869e+01   -6.558669557574748e+01   
1.013000000000000e+10    -1.311680512826922e+01   -6.553899026586309e+01   
1.013100000000000e+10    -1.312091311306857e+01   -6.564402472324316e+01   
1.013200000000000e+10    -1.312319569487583e+01   -6.571830710277393e+01   
1.013300000000000e+10    -1.312623444354373e+01   -6.580277393011690e+01   
1.013400000000000e+10    -1.311157166532733e+01   -6.584474706991222e+01   
1.013500000000000e+10    -1.311634989111341e+01   -6.590976359464638e+01   
1.013600000000000e+10    -1.310666229642150e+01   -6.593813001763024e+01   
1.013700000000000e+10    -1.309756426511130e+01   -6.601749517428858e+01   
1.013800000000000e+10    -1.309587702814246e+01   -6.609554381918866e+01   
1.013900000000000e+10    -1.309433533352714e+01   -6.613302614529138e+01   
1.014000000000000e+10    -1.308560571419368e+01   -6.615776345160261e+01   
1.014100000000000e+10    -1.309224029188355e+01   -6.622110285369300e+01   
1.014200000000000e+10    -1.307969353402211e+01   -6.627376218854819e+01   
1.014300000000000e+10    -1.308354050816445e+01   -6.630345186352690e+01   
1.014400000000000e+10    -1.307331260639734e+01   -6.638049747755869e+01   
1.014500000000000e+10    -1.307546112399144e+01   -6.645906730516572e+01   
1.014600000000000e+10    -1.306173033790412e+01   -6.648267962943710e+01   
1.014700000000000e+10    -1.305587529162251e+01   -6.647247747966151e+01   
1.014800000000000e+10    -1.306310668374145e+01   -6.653505299474932e+01   
1.014900000000000e+10    -1.305169317733467e+01   -6.662435183059181e+01   
1.015000000000000e+10    -1.305209017418976e+01   -6.665439023216368e+01   
1.015100000000000e+10    -1.304393267999570e+01   -6.666289799718108e+01   
1.015200000000000e+10    -1.303685573783507e+01   -6.669848104362424e+01   
1.015300000000000e+10    -1.304031321950885e+01   -6.680121220445704e+01   
1.015400000000000e+10    -1.302915736463447e+01   -6.678610119847991e+01   
1.015500000000000e+10    -1.304677043367288e+01   -6.681236186526712e+01   
1.015600000000000e+10    -1.303207358546713e+01   -6.684379622132703e+01   
1.015700000000000e+10    -1.302034304758508e+01   -6.682842963189157e+01   
1.015800000000000e+10    -1.302196386443498e+01   -6.691072318913064e+01   
1.015900000000000e+10    -1.301126025584853e+01   -6.690169709262956e+01   
1.016000000000000e+10    -1.301117064692549e+01   -6.697256974182004e+01   
1.016100000000000e+10    -1.301159433873183e+01   -6.698322087078161e+01   
1.016200000000000e+10    -1.300249939754984e+01   -6.693539015232690e+01   
1.016300000000000e+10    -1.299463407362835e+01   -6.695591995000787e+01   
1.016400000000000e+10    -1.301034081864951e+01   -6.694416345788133e+01   
1.016500000000000e+10    -1.299064661144241e+01   -6.695968525602285e+01   
1.016600000000000e+10    -1.300237905804842e+01   -6.699517410667774e+01   
1.016700000000000e+10    -1.298786873216265e+01   -6.701917821921185e+01   
1.016800000000000e+10    -1.298141505508682e+01   -6.701955556920780e+01   
1.016900000000000e+10    -1.298297903102815e+01   -6.698812696060216e+01   
1.017000000000000e+10    -1.299048321303331e+01   -6.699839706038155e+01   
1.017100000000000e+10    -1.298546695249764e+01   -6.709399890183327e+01   
1.017200000000000e+10    -1.297779088721707e+01   -6.701660637392155e+01   
1.017300000000000e+10    -1.298509368242426e+01   -6.708259064641625e+01   
1.017400000000000e+10    -1.297669183881336e+01   -6.704571121348503e+01   
1.017500000000000e+10    -1.297389482271923e+01   -6.708919139524900e+01   
1.017600000000000e+10    -1.296433135452007e+01   -6.705118976680268e+01   
1.017700000000000e+10    -1.297567823099241e+01   -6.703631205245824e+01   
1.017800000000000e+10    -1.297402307191697e+01   -6.706428880088193e+01   
1.017900000000000e+10    -1.297071860873212e+01   -6.701250266355970e+01   
1.018000000000000e+10    -1.297009790636668e+01   -6.705277094276593e+01   
1.018100000000000e+10    -1.297076815627100e+01   -6.703012261267570e+01   
1.018200000000000e+10    -1.297266913512281e+01   -6.700260395110926e+01   
1.018300000000000e+10    -1.296638947730199e+01   -6.702205442495112e+01   
1.018400000000000e+10    -1.297757052186149e+01   -6.701223584412786e+01   
1.018500000000000e+10    -1.297954145529016e+01   -6.705151698727747e+01   
1.018600000000000e+10    -1.298484808130448e+01   -6.714591733270808e+01   
1.018700000000000e+10    -1.297683769751707e+01   -6.705425352665692e+01   
1.018800000000000e+10    -1.298795016985820e+01   -6.706724776039736e+01   
1.018900000000000e+10    -1.299444801470457e+01   -6.705149336418209e+01   
1.019000000000000e+10    -1.299393502695041e+01   -6.706262187718816e+01   
1.019100000000000e+10    -1.299419682780059e+01   -6.706576039151584e+01   
1.019200000000000e+10    -1.299568158127901e+01   -6.704003718703670e+01   
1.019300000000000e+10    -1.301062717704428e+01   -6.712030211029844e+01   
1.019400000000000e+10    -1.300752164377127e+01   -6.706202553683930e+01   
1.019500000000000e+10    -1.301178736198350e+01   -6.709026568616574e+01   
1.019600000000000e+10    -1.300349285797377e+01   -6.712643176415278e+01   
1.019700000000000e+10    -1.301021650704386e+01   -6.709772921858617e+01   
1.019800000000000e+10    -1.301794996295522e+01   -6.712326337168821e+01   
1.019900000000000e+10    -1.302104324274643e+01   -6.711082202758215e+01   
1.020000000000000e+10    -1.302537664809537e+01   -6.717571021944532e+01   
1.020100000000000e+10    -1.303012208731537e+01   -6.718837195866348e+01   
1.020200000000000e+10    -1.302604076768924e+01   -6.717279039182698e+01   
1.020300000000000e+10    -1.303770842132901e+01   -6.718370128664435e+01   
1.020400000000000e+10    -1.303106562599299e+01   -6.722524277077102e+01   
1.020500000000000e+10    -1.304554235515814e+01   -6.727293208409053e+01   
1.020600000000000e+10    -1.303507946764537e+01   -6.726056703695896e+01   
1.020700000000000e+10    -1.304975595541089e+01   -6.726352249408319e+01   
1.020800000000000e+10    -1.306121526136185e+01   -6.730823059801202e+01   
1.020900000000000e+10    -1.305769414131840e+01   -6.735212888338830e+01   
1.021000000000000e+10    -1.306020676927978e+01   -6.734524969367672e+01   
1.021100000000000e+10    -1.306505892094162e+01   -6.740851020567608e+01   
1.021200000000000e+10    -1.307024299035472e+01   -6.734076984195399e+01   
1.021300000000000e+10    -1.306879356107331e+01   -6.743565927549616e+01   
1.021400000000000e+10    -1.307728232825248e+01   -6.739873692597622e+01   
1.021500000000000e+10    -1.307991826830826e+01   -6.753440016879715e+01   
1.021600000000000e+10    -1.308980930255129e+01   -6.758825128303353e+01   
1.021700000000000e+10    -1.307979628290202e+01   -6.749527638346161e+01   
1.021800000000000e+10    -1.308627990470756e+01   -6.754734636088061e+01   
1.021900000000000e+10    -1.308276632077671e+01   -6.754278989799127e+01   
1.022000000000000e+10    -1.309133870568526e+01   -6.754194122281736e+01   
1.022100000000000e+10    -1.308004107000408e+01   -6.762134997481181e+01   
1.022200000000000e+10    -1.308279491319556e+01   -6.758601559895183e+01   
1.022300000000000e+10    -1.309101040980707e+01   -6.761312400044771e+01   
1.022400000000000e+10    -1.309248726607455e+01   -6.768271786580461e+01   
1.022500000000000e+10    -1.308764896245229e+01   -6.765458565103302e+01   
1.022600000000000e+10    -1.310044575719683e+01   -6.765537217357340e+01   
1.022700000000000e+10    -1.309915172575446e+01   -6.770133730664439e+01   
1.022800000000000e+10    -1.310428234135418e+01   -6.761144788240641e+01   
1.022900000000000e+10    -1.309186372355713e+01   -6.774514061926958e+01   
1.023000000000000e+10    -1.310108835809035e+01   -6.773436102486963e+01   
1.023100000000000e+10    -1.309079550080961e+01   -6.776653757380221e+01   
1.023200000000000e+10    -1.310752333040935e+01   -6.770857390658334e+01   
1.023300000000000e+10    -1.309400955371671e+01   -6.783088328721632e+01   
1.023400000000000e+10    -1.311620145309618e+01   -6.780141237176582e+01   
1.023500000000000e+10    -1.309997388936219e+01   -6.786138129049836e+01   
1.023600000000000e+10    -1.311147705563421e+01   -6.781526205862961e+01   
1.023700000000000e+10    -1.311421628648617e+01   -6.783050188839613e+01   
1.023800000000000e+10    -1.311954272375683e+01   -6.785140767428520e+01   
1.023900000000000e+10    -1.311592673555879e+01   -6.782225029329243e+01   
1.024000000000000e+10    -1.312277740319986e+01   -6.778634739695298e+01   
1.024100000000000e+10    -1.312538011264450e+01   -6.788142744599261e+01   
1.024200000000000e+10    -1.312096651144256e+01   -6.783931576437845e+01   
1.024300000000000e+10    -1.311732220476666e+01   -6.781230008273388e+01   
1.024400000000000e+10    -1.311877266769750e+01   -6.787739031693526e+01   
1.024500000000000e+10    -1.311886571102122e+01   -6.781000075266186e+01   
1.024600000000000e+10    -1.312262734005425e+01   -6.790159451688783e+01   
1.024700000000000e+10    -1.312323126145062e+01   -6.785320574883328e+01   
1.024800000000000e+10    -1.314010517255022e+01   -6.788555353085327e+01   
1.024900000000000e+10    -1.312443520226724e+01   -6.794359670040599e+01   
1.025000000000000e+10    -1.312274907366318e+01   -6.789839383280940e+01   
1.025100000000000e+10    -1.313023042040419e+01   -6.785415229551215e+01   
1.025200000000000e+10    -1.313669377215861e+01   -6.790021261247888e+01   
1.025300000000000e+10    -1.312284654245132e+01   -6.794745585853062e+01   
1.025400000000000e+10    -1.312292362192859e+01   -6.793605369286095e+01   
1.025500000000000e+10    -1.312979633365736e+01   -6.789879112533839e+01   
1.025600000000000e+10    -1.313215271616670e+01   -6.794176288445981e+01   
