[Version] 2.0
! Rohde & Schwarz Vector Network Analyzer
! Rohde-Schwarz,ZNL20-2Port,1323001220200009,1.71.1.10-23.02.1.238
! 
! Port Assignments:
! Nominal Port -> Actual Test Port
! --------------------------------
!   1 -> 1

! Created: GMT 2024-09-04 14:06:40

# Hz S DB R 50

[Number of Ports] 1
[Number of Frequencies] 2001

[Network Data] 
! freq[Hz]               S11[mag dB]              S11[ang]                 
1.000000000000000e+10    -1.726405720752520e+01   -7.249285970811965e+01   
1.000100000000000e+10    -1.726292139253380e+01   -7.247956665990385e+01   
1.000200000000000e+10    -1.725795152488373e+01   -7.225612792097481e+01   
1.000300000000000e+10    -1.724381518294033e+01   -7.213199342187609e+01   
1.000400000000000e+10    -1.724632609773342e+01   -7.208258631691791e+01   
1.000500000000000e+10    -1.723040514526606e+01   -7.206501717600320e+01   
1.000600000000000e+10    -1.724555449457194e+01   -7.188497815134494e+01   
1.000700000000000e+10    -1.721355131246450e+01   -7.194032555031363e+01   
1.000800000000000e+10    -1.723676793696167e+01   -7.181785084649138e+01   
1.000900000000000e+10    -1.719237710327277e+01   -7.157810490050812e+01   
1.001000000000000e+10    -1.720935617845492e+01   -7.169835875896096e+01   
1.001100000000000e+10    -1.720205981077484e+01   -7.152241727810176e+01   
1.001200000000000e+10    -1.719239986489279e+01   -7.147412590752727e+01   
1.001300000000000e+10    -1.718317084613770e+01   -7.142583098944226e+01   
1.001400000000000e+10    -1.719402772417933e+01   -7.124512672074873e+01   
1.001500000000000e+10    -1.718037355689922e+01   -7.137420157052910e+01   
1.001600000000000e+10    -1.718682686831937e+01   -7.120930763561439e+01   
1.001700000000000e+10    -1.719031862534504e+01   -7.114824698621911e+01   
1.001800000000000e+10    -1.718425255894762e+01   -7.110555571320782e+01   
1.001900000000000e+10    -1.718552349051827e+01   -7.110033134020419e+01   
1.002000000000000e+10    -1.718312091374654e+01   -7.090547895089982e+01   
1.002100000000000e+10    -1.717865337657629e+01   -7.086335579878927e+01   
1.002200000000000e+10    -1.717095986802450e+01   -7.092511457246640e+01   
1.002300000000000e+10    -1.717696545540442e+01   -7.084288367003236e+01   
1.002400000000000e+10    -1.717858801763962e+01   -7.093806384760185e+01   
1.002500000000000e+10    -1.717295704778673e+01   -7.086186946906989e+01   
1.002600000000000e+10    -1.716680204589846e+01   -7.080060806550433e+01   
1.002700000000000e+10    -1.716372722359769e+01   -7.072559522447129e+01   
1.002800000000000e+10    -1.714998804558138e+01   -7.079294717865680e+01   
1.002900000000000e+10    -1.714851963108939e+01   -7.071171154511268e+01   
1.003000000000000e+10    -1.714718120310612e+01   -7.073629321511457e+01   
1.003100000000000e+10    -1.713786759186404e+01   -7.083168437797227e+01   
1.003200000000000e+10    -1.713965323558187e+01   -7.071908201653730e+01   
1.003300000000000e+10    -1.715240902276108e+01   -7.064290654672538e+01   
1.003400000000000e+10    -1.712593989957537e+01   -7.079145997222338e+01   
1.003500000000000e+10    -1.712386669206723e+01   -7.069988343574657e+01   
1.003600000000000e+10    -1.713728106195148e+01   -7.067786550706514e+01   
1.003700000000000e+10    -1.711536020681422e+01   -7.073515686755616e+01   
1.003800000000000e+10    -1.712266210523210e+01   -7.067298747748683e+01   
1.003900000000000e+10    -1.711266968055358e+01   -7.085236152104358e+01   
1.004000000000000e+10    -1.710144300943365e+01   -7.061545563957425e+01   
1.004100000000000e+10    -1.707626502625285e+01   -7.073286751896478e+01   
1.004200000000000e+10    -1.707747539217192e+01   -7.054566320297273e+01   
1.004300000000000e+10    -1.707629249903729e+01   -7.066111919789611e+01   
1.004400000000000e+10    -1.705852810657794e+01   -7.079051076798685e+01   
1.004500000000000e+10    -1.707352130845568e+01   -7.070631914529207e+01   
1.004600000000000e+10    -1.704614076125944e+01   -7.065521681415896e+01   
1.004700000000000e+10    -1.704016717984521e+01   -7.081331658407380e+01   
1.004800000000000e+10    -1.702903669893105e+01   -7.080029827021855e+01   
1.004900000000000e+10    -1.703920970902282e+01   -7.071094517540169e+01   
1.005000000000000e+10    -1.703384213145325e+01   -7.069626912571727e+01   
1.005100000000000e+10    -1.699788665049976e+01   -7.063600548172322e+01   
1.005200000000000e+10    -1.697778753599565e+01   -7.069521414824327e+01   
1.005300000000000e+10    -1.696382232348531e+01   -7.076130447149177e+01   
1.005400000000000e+10    -1.696632787213678e+01   -7.071595129660112e+01   
1.005500000000000e+10    -1.694463567752854e+01   -7.079905850374345e+01   
1.005600000000000e+10    -1.692726867466097e+01   -7.063534428066603e+01   
1.005700000000000e+10    -1.692673273053464e+01   -7.070974999201340e+01   
1.005800000000000e+10    -1.688558021872530e+01   -7.057274579616306e+01   
1.005900000000000e+10    -1.687980557472374e+01   -7.070396496173255e+01   
1.006000000000000e+10    -1.686424017946012e+01   -7.071890456722626e+01   
1.006100000000000e+10    -1.685372624325838e+01   -7.065948606352947e+01   
1.006200000000000e+10    -1.683062919750983e+01   -7.053815745778580e+01   
1.006300000000000e+10    -1.679333705791508e+01   -7.048375282008982e+01   
1.006400000000000e+10    -1.679588662662735e+01   -7.044323990710475e+01   
1.006500000000000e+10    -1.677966321589194e+01   -7.052552188102098e+01   
1.006600000000000e+10    -1.676767975498561e+01   -7.046404185941779e+01   
1.006700000000000e+10    -1.675479739498369e+01   -7.030656408421919e+01   
1.006800000000000e+10    -1.676120120937081e+01   -7.044925285963353e+01   
1.006900000000000e+10    -1.671633977245195e+01   -7.028397810265497e+01   
1.007000000000000e+10    -1.670540819127398e+01   -7.028361579557681e+01   
1.007100000000000e+10    -1.668580408900543e+01   -7.021233460042994e+01   
1.007200000000000e+10    -1.668371228087253e+01   -7.026171513521575e+01   
1.007300000000000e+10    -1.665901133314679e+01   -7.008148739256323e+01   
1.007400000000000e+10    -1.664699456024263e+01   -7.005756770853050e+01   
1.007500000000000e+10    -1.663931067055359e+01   -6.994773273124497e+01   
1.007600000000000e+10    -1.661562288129112e+01   -6.998757589746245e+01   
1.007700000000000e+10    -1.660741365432326e+01   -6.981165732418258e+01   
1.007800000000000e+10    -1.658721072001553e+01   -6.977931377917683e+01   
1.007900000000000e+10    -1.655763537577004e+01   -6.957877906719031e+01   
1.008000000000000e+10    -1.655070253918407e+01   -6.952321511935587e+01   
1.008100000000000e+10    -1.655601450547190e+01   -6.963166002275135e+01   
1.008200000000000e+10    -1.654548498271215e+01   -6.955610680573405e+01   
1.008300000000000e+10    -1.653580587366073e+01   -6.931852710341283e+01   
1.008400000000000e+10    -1.652697706687881e+01   -6.937222518327148e+01   
1.008500000000000e+10    -1.650935327246959e+01   -6.927092503680693e+01   
1.008600000000000e+10    -1.649915367629751e+01   -6.918755664658066e+01   
1.008700000000000e+10    -1.649374119434868e+01   -6.908355368891164e+01   
1.008800000000000e+10    -1.648654657112878e+01   -6.911713804772299e+01   
1.008900000000000e+10    -1.647613298716252e+01   -6.888728078408276e+01   
1.009000000000000e+10    -1.646276101955025e+01   -6.892459187514130e+01   
1.009100000000000e+10    -1.645739092767035e+01   -6.890578853195417e+01   
1.009200000000000e+10    -1.645128358966637e+01   -6.873807987589062e+01   
1.009300000000000e+10    -1.644645777851495e+01   -6.866567455345134e+01   
1.009400000000000e+10    -1.644876524869115e+01   -6.865937754838497e+01   
1.009500000000000e+10    -1.644159302028693e+01   -6.864945437538955e+01   
1.009600000000000e+10    -1.642620000316293e+01   -6.848791690153645e+01   
1.009700000000000e+10    -1.642581757808769e+01   -6.846243177175259e+01   
1.009800000000000e+10    -1.643076517200645e+01   -6.835193507934427e+01   
1.009900000000000e+10    -1.642681154672848e+01   -6.829608497099882e+01   
1.010000000000000e+10    -1.642318551360366e+01   -6.836191363277388e+01   
1.010100000000000e+10    -1.641729915677487e+01   -6.823714242068669e+01   
1.010200000000000e+10    -1.642435914699835e+01   -6.815685540096231e+01   
1.010300000000000e+10    -1.642296730712245e+01   -6.814550477363609e+01   
1.010400000000000e+10    -1.640910079871444e+01   -6.810026078686867e+01   
1.010500000000000e+10    -1.642049420887689e+01   -6.807275315714543e+01   
1.010600000000000e+10    -1.639296192079435e+01   -6.787499877359875e+01   
1.010700000000000e+10    -1.642098126087092e+01   -6.804396589062434e+01   
1.010800000000000e+10    -1.642228948582398e+01   -6.783727434515893e+01   
1.010900000000000e+10    -1.640922589311116e+01   -6.790194200197166e+01   
1.011000000000000e+10    -1.639350792350367e+01   -6.778232600753458e+01   
1.011100000000000e+10    -1.638331793090793e+01   -6.790774296039480e+01   
1.011200000000000e+10    -1.639802297324360e+01   -6.783424993377196e+01   
1.011300000000000e+10    -1.638320016768065e+01   -6.793957958319406e+01   
1.011400000000000e+10    -1.638668537989403e+01   -6.777692520566697e+01   
1.011500000000000e+10    -1.638275934135849e+01   -6.783781029413467e+01   
1.011600000000000e+10    -1.638532718610142e+01   -6.770875244025120e+01   
1.011700000000000e+10    -1.639711577735330e+01   -6.778378284978473e+01   
1.011800000000000e+10    -1.638634673108200e+01   -6.777536460887356e+01   
1.011900000000000e+10    -1.637838716313954e+01   -6.783078732099516e+01   
1.012000000000000e+10    -1.636127295941466e+01   -6.786779695046734e+01   
1.012100000000000e+10    -1.637685407317604e+01   -6.790165482471362e+01   
1.012200000000000e+10    -1.634984533981821e+01   -6.783709704502945e+01   
1.012300000000000e+10    -1.635276053820600e+01   -6.788817947115730e+01   
1.012400000000000e+10    -1.635676419460155e+01   -6.792281455526286e+01   
1.012500000000000e+10    -1.634710292551733e+01   -6.792773243146947e+01   
1.012600000000000e+10    -1.634381846242259e+01   -6.792336261509764e+01   
1.012700000000000e+10    -1.634183117877229e+01   -6.807592860384023e+01   
1.012800000000000e+10    -1.632746450351048e+01   -6.804942739981415e+01   
1.012900000000000e+10    -1.632414786741658e+01   -6.817843791051064e+01   
1.013000000000000e+10    -1.631553705197713e+01   -6.810042034798585e+01   
1.013100000000000e+10    -1.631218363341749e+01   -6.817523374855323e+01   
1.013200000000000e+10    -1.631209235979191e+01   -6.822637774530691e+01   
1.013300000000000e+10    -1.631268271684894e+01   -6.831477827662951e+01   
1.013400000000000e+10    -1.628514633413456e+01   -6.834056526696878e+01   
1.013500000000000e+10    -1.628557766048477e+01   -6.841699740689369e+01   
1.013600000000000e+10    -1.626624524750511e+01   -6.841292732619003e+01   
1.013700000000000e+10    -1.624940219711510e+01   -6.844563004589830e+01   
1.013800000000000e+10    -1.623988191782943e+01   -6.852315981293739e+01   
1.013900000000000e+10    -1.623387604818895e+01   -6.856910028736615e+01   
1.014000000000000e+10    -1.620806615164151e+01   -6.853032229221471e+01   
1.014100000000000e+10    -1.621601043750382e+01   -6.863512271219636e+01   
1.014200000000000e+10    -1.618692351186277e+01   -6.867353056433376e+01   
1.014300000000000e+10    -1.618089613008522e+01   -6.866911468568993e+01   
1.014400000000000e+10    -1.616139680855638e+01   -6.872926806716720e+01   
1.014500000000000e+10    -1.615326000669650e+01   -6.884358702791518e+01   
1.014600000000000e+10    -1.612566411100427e+01   -6.886453857915144e+01   
1.014700000000000e+10    -1.610678870924588e+01   -6.880190158313174e+01   
1.014800000000000e+10    -1.610828417911188e+01   -6.885722348570536e+01   
1.014900000000000e+10    -1.608671978650691e+01   -6.895575978418344e+01   
1.015000000000000e+10    -1.607627595645009e+01   -6.897771126648070e+01   
1.015100000000000e+10    -1.605885890130001e+01   -6.897720233157665e+01   
1.015200000000000e+10    -1.603480803740130e+01   -6.897839163974849e+01   
1.015300000000000e+10    -1.603092030990043e+01   -6.905830374382562e+01   
1.015400000000000e+10    -1.600286753659460e+01   -6.900595585625966e+01   
1.015500000000000e+10    -1.602180263461699e+01   -6.902689473267706e+01   
1.015600000000000e+10    -1.599291426831576e+01   -6.902881401886270e+01   
1.015700000000000e+10    -1.596603016707451e+01   -6.896670001361866e+01   
1.015800000000000e+10    -1.595758741809396e+01   -6.904446314845177e+01   
1.015900000000000e+10    -1.593899696561071e+01   -6.899077865143681e+01   
1.016000000000000e+10    -1.592217990286268e+01   -6.903168363720037e+01   
1.016100000000000e+10    -1.591259367446809e+01   -6.903150249116374e+01   
1.016200000000000e+10    -1.588737941958431e+01   -6.891603604980061e+01   
1.016300000000000e+10    -1.586864103461878e+01   -6.890616683769186e+01   
1.016400000000000e+10    -1.587811794381811e+01   -6.887357934391987e+01   
1.016500000000000e+10    -1.584552687616290e+01   -6.886555505196412e+01   
1.016600000000000e+10    -1.584936743374356e+01   -6.885939267044067e+01   
1.016700000000000e+10    -1.581705463506144e+01   -6.886681708937911e+01   
1.016800000000000e+10    -1.580490343273073e+01   -6.881257396550640e+01   
1.016900000000000e+10    -1.579684366913662e+01   -6.873608272229855e+01   
1.017000000000000e+10    -1.579890760394061e+01   -6.876046031570867e+01   
1.017100000000000e+10    -1.578255941505558e+01   -6.884532452851894e+01   
1.017200000000000e+10    -1.576381236824998e+01   -6.869985115393568e+01   
1.017300000000000e+10    -1.576294973632935e+01   -6.874877291744033e+01   
1.017400000000000e+10    -1.574426937833421e+01   -6.866744886801577e+01   
1.017500000000000e+10    -1.573532240609356e+01   -6.871828571676951e+01   
1.017600000000000e+10    -1.571262833517934e+01   -6.862552802445036e+01   
1.017700000000000e+10    -1.572740558102053e+01   -6.856432355766763e+01   
1.017800000000000e+10    -1.571130132186190e+01   -6.860611164303599e+01   
1.017900000000000e+10    -1.570221679734132e+01   -6.849648278580554e+01   
1.018000000000000e+10    -1.569388081766937e+01   -6.849445003392384e+01   
1.018100000000000e+10    -1.568797575974879e+01   -6.842876842671099e+01   
1.018200000000000e+10    -1.568281222275110e+01   -6.837995434045895e+01   
1.018300000000000e+10    -1.567236454513094e+01   -6.838577793851020e+01   
1.018400000000000e+10    -1.567999159049861e+01   -6.831534497687873e+01   
1.018500000000000e+10    -1.567209070106825e+01   -6.835287484531484e+01   
1.018600000000000e+10    -1.567791022446460e+01   -6.844897892477611e+01   
1.018700000000000e+10    -1.566360397122153e+01   -6.832236263318119e+01   
1.018800000000000e+10    -1.567249998383629e+01   -6.833973949876992e+01   
1.018900000000000e+10    -1.566884975689191e+01   -6.829206364344772e+01   
1.019000000000000e+10    -1.566641515949765e+01   -6.826190468933694e+01   
1.019100000000000e+10    -1.566576564676375e+01   -6.831020981960405e+01   
1.019200000000000e+10    -1.566264171484585e+01   -6.821448474745485e+01   
1.019300000000000e+10    -1.567902743324783e+01   -6.829742566601288e+01   
1.019400000000000e+10    -1.566935654670320e+01   -6.821955440247389e+01   
1.019500000000000e+10    -1.567312674515673e+01   -6.822479136920960e+01   
1.019600000000000e+10    -1.565927278676942e+01   -6.825631489749001e+01   
1.019700000000000e+10    -1.566701577567549e+01   -6.822040490370831e+01   
1.019800000000000e+10    -1.567194524732763e+01   -6.822427651422890e+01   
1.019900000000000e+10    -1.566512994626877e+01   -6.814833060644870e+01   
1.020000000000000e+10    -1.567696695314774e+01   -6.825506128457393e+01   
1.020100000000000e+10    -1.567285622466751e+01   -6.825585490102090e+01   
1.020200000000000e+10    -1.566172533968120e+01   -6.827243607615699e+01   
1.020300000000000e+10    -1.567722957628928e+01   -6.823655607418493e+01   
1.020400000000000e+10    -1.567175117466365e+01   -6.830678324637830e+01   
1.020500000000000e+10    -1.568444966166760e+01   -6.833734934799284e+01   
1.020600000000000e+10    -1.567025123813488e+01   -6.836745926454698e+01   
1.020700000000000e+10    -1.568499957142935e+01   -6.837641619137189e+01   
1.020800000000000e+10    -1.569561723299090e+01   -6.844428641862444e+01   
1.020900000000000e+10    -1.569008573392252e+01   -6.850619976036512e+01   
1.021000000000000e+10    -1.569516725124193e+01   -6.856292111326388e+01   
1.021100000000000e+10    -1.569906195334528e+01   -6.861862936455213e+01   
1.021200000000000e+10    -1.570325511096660e+01   -6.855214417346481e+01   
1.021300000000000e+10    -1.569990742572653e+01   -6.874603612634492e+01   
1.021400000000000e+10    -1.571045357541057e+01   -6.869174431775680e+01   
1.021500000000000e+10    -1.570398597438414e+01   -6.888549917144748e+01   
1.021600000000000e+10    -1.571880685857920e+01   -6.899711761193622e+01   
1.021700000000000e+10    -1.570763445733922e+01   -6.892921060288671e+01   
1.021800000000000e+10    -1.571658404235803e+01   -6.899605861317582e+01   
1.021900000000000e+10    -1.570401757442713e+01   -6.903831931934606e+01   
1.022000000000000e+10    -1.571872923344711e+01   -6.904585202250479e+01   
1.022100000000000e+10    -1.569727016746791e+01   -6.920223251686652e+01   
1.022200000000000e+10    -1.570611316977705e+01   -6.918969724938127e+01   
1.022300000000000e+10    -1.570550668217206e+01   -6.928781861301384e+01   
1.022400000000000e+10    -1.570737165141920e+01   -6.935413661411668e+01   
1.022500000000000e+10    -1.569914044934110e+01   -6.941087037869168e+01   
1.022600000000000e+10    -1.570887249373746e+01   -6.945161688482634e+01   
1.022700000000000e+10    -1.570174483494190e+01   -6.955810284470857e+01   
1.022800000000000e+10    -1.570385268524498e+01   -6.947439811409009e+01   
1.022900000000000e+10    -1.568114661602820e+01   -6.966876413912863e+01   
1.023000000000000e+10    -1.569290567910294e+01   -6.968731862803889e+01   
1.023100000000000e+10    -1.566743778989211e+01   -6.977311537906985e+01   
1.023200000000000e+10    -1.568678739396113e+01   -6.974711469475216e+01   
1.023300000000000e+10    -1.566478505315001e+01   -6.992358882207510e+01   
1.023400000000000e+10    -1.568017070287359e+01   -6.993983610230592e+01   
1.023500000000000e+10    -1.565621881285899e+01   -7.002517457679214e+01   
1.023600000000000e+10    -1.566589901451859e+01   -7.000210846677376e+01   
1.023700000000000e+10    -1.565407042574359e+01   -7.004673873271146e+01   
1.023800000000000e+10    -1.565972172303334e+01   -7.011472875774693e+01   
1.023900000000000e+10    -1.564423011925213e+01   -7.010473859455443e+01   
1.024000000000000e+10    -1.564780578216985e+01   -7.008695664423786e+01   
1.024100000000000e+10    -1.563991637826628e+01   -7.021857471205197e+01   
1.024200000000000e+10    -1.562641550326505e+01   -7.022661845659587e+01   
1.024300000000000e+10    -1.561126428313085e+01   -7.016196432416491e+01   
1.024400000000000e+10    -1.560772789695325e+01   -7.025681949092638e+01   
1.024500000000000e+10    -1.560666771748354e+01   -7.021774586590843e+01   
1.024600000000000e+10    -1.559463969102537e+01   -7.035757120804898e+01   
1.024700000000000e+10    -1.559532058910628e+01   -7.029731374013164e+01   
1.024800000000000e+10    -1.560507139373007e+01   -7.040040331901929e+01   
1.024900000000000e+10    -1.558258584396014e+01   -7.042552647869837e+01   
1.025000000000000e+10    -1.557169929363496e+01   -7.035790430287852e+01   
1.025100000000000e+10    -1.557354037949088e+01   -7.029872270834237e+01   
1.025200000000000e+10    -1.556986978882523e+01   -7.038141679196855e+01   
1.025300000000000e+10    -1.555113708562108e+01   -7.040027061754992e+01   
1.025400000000000e+10    -1.553992594344107e+01   -7.037988091185682e+01   
1.025500000000000e+10    -1.554251825158169e+01   -7.036218082610684e+01   
1.025600000000000e+10    -1.554318966955611e+01   -7.037410780439907e+01   
