[Version] 2.0
! Rohde & Schwarz Vector Network Analyzer
! Rohde-Schwarz,ZNL20-2Port,1323001220200009,1.71.1.10-23.02.1.238
! 
! Port Assignments:
! Nominal Port -> Actual Test Port
! --------------------------------
!   1 -> 1

! Created: GMT 2024-09-04 14:18:56

# Hz S DB R 50

[Number of Ports] 1
[Number of Frequencies] 2001

[Network Data] 
! freq[Hz]               S11[mag dB]              S11[ang]                 
1.000000000000000e+10    -1.218952250959906e+01   -6.797236309294587e+01   
1.000100000000000e+10    -1.219505345704681e+01   -6.798694384305999e+01   
1.000200000000000e+10    -1.219494564085141e+01   -6.789467450556442e+01   
1.000300000000000e+10    -1.219381196299977e+01   -6.787159427367064e+01   
1.000400000000000e+10    -1.219806345435543e+01   -6.787839986700708e+01   
1.000500000000000e+10    -1.219336671294325e+01   -6.793333461753107e+01   
1.000600000000000e+10    -1.220726157955451e+01   -6.786487164251047e+01   
1.000700000000000e+10    -1.219093436840685e+01   -6.795910789052790e+01   
1.000800000000000e+10    -1.221323760904375e+01   -6.794520936861572e+01   
1.000900000000000e+10    -1.219571529144566e+01   -6.787915856113538e+01   
1.001000000000000e+10    -1.220647566889840e+01   -6.796227309964995e+01   
1.001100000000000e+10    -1.220678274437509e+01   -6.792668985076972e+01   
1.001200000000000e+10    -1.221266463652334e+01   -6.796526045280176e+01   
1.001300000000000e+10    -1.221327770049466e+01   -6.797816073888870e+01   
1.001400000000000e+10    -1.222171531795509e+01   -6.793236240624999e+01   
1.001500000000000e+10    -1.221847646111238e+01   -6.806873575752580e+01   
1.001600000000000e+10    -1.222707542842734e+01   -6.800020848526466e+01   
1.001700000000000e+10    -1.223368505489161e+01   -6.801547341028299e+01   
1.001800000000000e+10    -1.223552819306615e+01   -6.804078883167638e+01   
1.001900000000000e+10    -1.224266640863354e+01   -6.809641709344233e+01   
1.002000000000000e+10    -1.224839467587542e+01   -6.803717112775088e+01   
1.002100000000000e+10    -1.224834284097352e+01   -6.805202884943687e+01   
1.002200000000000e+10    -1.224810311128548e+01   -6.815321707273164e+01   
1.002300000000000e+10    -1.225646536001254e+01   -6.815684719677921e+01   
1.002400000000000e+10    -1.226646874567137e+01   -6.826405283192764e+01   
1.002500000000000e+10    -1.226552007084449e+01   -6.828962402884277e+01   
1.002600000000000e+10    -1.226390053464620e+01   -6.829539210673505e+01   
1.002700000000000e+10    -1.226532660766973e+01   -6.831378212509743e+01   
1.002800000000000e+10    -1.226037825139993e+01   -6.841102394266710e+01   
1.002900000000000e+10    -1.226876293692942e+01   -6.841619577730710e+01   
1.003000000000000e+10    -1.227209393582722e+01   -6.850274357984230e+01   
1.003100000000000e+10    -1.226922479330738e+01   -6.861716324902673e+01   
1.003200000000000e+10    -1.227564880137922e+01   -6.859280992879378e+01   
1.003300000000000e+10    -1.228606850679246e+01   -6.864382451758060e+01   
1.003400000000000e+10    -1.227610883025888e+01   -6.878205793297703e+01   
1.003500000000000e+10    -1.227837450418300e+01   -6.879874442495822e+01   
1.003600000000000e+10    -1.229157477799392e+01   -6.881915701984870e+01   
1.003700000000000e+10    -1.228257518964648e+01   -6.890317181877163e+01   
1.003800000000000e+10    -1.228823612118829e+01   -6.892715810723188e+01   
1.003900000000000e+10    -1.229015036639243e+01   -6.909613704179699e+01   
1.004000000000000e+10    -1.228716772974719e+01   -6.898446014275117e+01   
1.004100000000000e+10    -1.227103176023687e+01   -6.912337421195690e+01   
1.004200000000000e+10    -1.227561339494462e+01   -6.903905312011376e+01   
1.004300000000000e+10    -1.227724153216625e+01   -6.918326169428275e+01   
1.004400000000000e+10    -1.226795584861751e+01   -6.929733670130253e+01   
1.004500000000000e+10    -1.228081745377171e+01   -6.929938427540576e+01   
1.004600000000000e+10    -1.226960205858611e+01   -6.931080185701710e+01   
1.004700000000000e+10    -1.226846236134126e+01   -6.944634791082584e+01   
1.004800000000000e+10    -1.226670423070622e+01   -6.947093619811332e+01   
1.004900000000000e+10    -1.227447347992095e+01   -6.948940300024343e+01   
1.005000000000000e+10    -1.227180341827790e+01   -6.949499858485872e+01   
1.005100000000000e+10    -1.224958254822818e+01   -6.949887494783175e+01   
1.005200000000000e+10    -1.223935291395309e+01   -6.958731793845809e+01   
1.005300000000000e+10    -1.223943117092101e+01   -6.968073618950321e+01   
1.005400000000000e+10    -1.223894617006050e+01   -6.972104010251491e+01   
1.005500000000000e+10    -1.223529276042198e+01   -6.981863971670546e+01   
1.005600000000000e+10    -1.222875145858965e+01   -6.973222722852417e+01   
1.005700000000000e+10    -1.222908179851855e+01   -6.978657734253602e+01   
1.005800000000000e+10    -1.221071304939691e+01   -6.976965937651516e+01   
1.005900000000000e+10    -1.221079057149783e+01   -6.987754399286706e+01   
1.006000000000000e+10    -1.220354456153620e+01   -6.990991803316476e+01   
1.006100000000000e+10    -1.220174720989664e+01   -6.991830052776902e+01   
1.006200000000000e+10    -1.219281272734802e+01   -6.989181807196769e+01   
1.006300000000000e+10    -1.217416920004710e+01   -6.989535605072894e+01   
1.006400000000000e+10    -1.217928893087367e+01   -6.991593476330162e+01   
1.006500000000000e+10    -1.217637492270891e+01   -6.999306863653990e+01   
1.006600000000000e+10    -1.217172659197460e+01   -6.996633379742654e+01   
1.006700000000000e+10    -1.216920459152513e+01   -6.990304847914054e+01   
1.006800000000000e+10    -1.217799071011993e+01   -7.004349519491991e+01   
1.006900000000000e+10    -1.215682606714953e+01   -6.997093716598127e+01   
1.007000000000000e+10    -1.215164770109849e+01   -7.000790599876184e+01   
1.007100000000000e+10    -1.214426138700406e+01   -6.997114396036160e+01   
1.007200000000000e+10    -1.214931640964882e+01   -7.004415726364027e+01   
1.007300000000000e+10    -1.214005666962627e+01   -6.999767253324764e+01   
1.007400000000000e+10    -1.213190008001670e+01   -6.998786877692835e+01   
1.007500000000000e+10    -1.213713835134410e+01   -6.998802702139487e+01   
1.007600000000000e+10    -1.212562195590434e+01   -7.004298143188281e+01   
1.007700000000000e+10    -1.212482831254057e+01   -6.995505238299705e+01   
1.007800000000000e+10    -1.211693013107574e+01   -6.995184403195792e+01   
1.007900000000000e+10    -1.210280171924373e+01   -6.988693690891517e+01   
1.008000000000000e+10    -1.211131095048468e+01   -6.988945469494260e+01   
1.008100000000000e+10    -1.211780044193707e+01   -7.002290196325309e+01   
1.008200000000000e+10    -1.211573800801033e+01   -6.997417687697316e+01   
1.008300000000000e+10    -1.211339539313841e+01   -6.987541273380937e+01   
1.008400000000000e+10    -1.211276047017939e+01   -6.993810017466218e+01   
1.008500000000000e+10    -1.210782249817094e+01   -6.988681083216490e+01   
1.008600000000000e+10    -1.210986876069532e+01   -6.987372062707992e+01   
1.008700000000000e+10    -1.210644903019373e+01   -6.986666954267943e+01   
1.008800000000000e+10    -1.211349057072878e+01   -6.991805824303906e+01   
1.008900000000000e+10    -1.210728733535474e+01   -6.979951674991199e+01   
1.009000000000000e+10    -1.210472474984717e+01   -6.984237035328299e+01   
1.009100000000000e+10    -1.210829462142274e+01   -6.988129402992631e+01   
1.009200000000000e+10    -1.210857488771970e+01   -6.978606872154883e+01   
1.009300000000000e+10    -1.211308395460833e+01   -6.978881743313835e+01   
1.009400000000000e+10    -1.211986954467054e+01   -6.980697842431718e+01   
1.009500000000000e+10    -1.211926252368765e+01   -6.986777018180912e+01   
1.009600000000000e+10    -1.211835308706909e+01   -6.977532179845433e+01   
1.009700000000000e+10    -1.212441643043852e+01   -6.980904843777681e+01   
1.009800000000000e+10    -1.213919903168374e+01   -6.975719144449005e+01   
1.009900000000000e+10    -1.213612385042720e+01   -6.976063417495043e+01   
1.010000000000000e+10    -1.214009192037739e+01   -6.980024452468196e+01   
1.010100000000000e+10    -1.214069388931511e+01   -6.975886813775139e+01   
1.010200000000000e+10    -1.215198246417348e+01   -6.976257523244277e+01   
1.010300000000000e+10    -1.215556895302458e+01   -6.977587111284113e+01   
1.010400000000000e+10    -1.215559231442013e+01   -6.978826895934613e+01   
1.010500000000000e+10    -1.216804757243489e+01   -6.982206545503946e+01   
1.010600000000000e+10    -1.215541192665506e+01   -6.972430711171037e+01   
1.010700000000000e+10    -1.217686894813546e+01   -6.985544199113923e+01   
1.010800000000000e+10    -1.218617946095433e+01   -6.975075957447612e+01   
1.010900000000000e+10    -1.218443776767785e+01   -6.984312838230746e+01   
1.011000000000000e+10    -1.218212109943448e+01   -6.978945045618597e+01   
1.011100000000000e+10    -1.218202458713155e+01   -6.990712345638455e+01   
1.011200000000000e+10    -1.219474521551909e+01   -6.988897428531325e+01   
1.011300000000000e+10    -1.219186980136407e+01   -7.001099639377564e+01   
1.011400000000000e+10    -1.220148443300934e+01   -6.993675106449219e+01   
1.011500000000000e+10    -1.220428259663878e+01   -7.000673011644362e+01   
1.011600000000000e+10    -1.221524292304580e+01   -6.998607355189927e+01   
1.011700000000000e+10    -1.222909193175373e+01   -7.003540129318995e+01   
1.011800000000000e+10    -1.222686152379199e+01   -7.006754064121289e+01   
1.011900000000000e+10    -1.222841133283912e+01   -7.010369652529815e+01   
1.012000000000000e+10    -1.222069266587160e+01   -7.017264428772910e+01   
1.012100000000000e+10    -1.224071537588638e+01   -7.022927585492710e+01   
1.012200000000000e+10    -1.222871083847210e+01   -7.022536492269730e+01   
1.012300000000000e+10    -1.223611238576051e+01   -7.027091969997177e+01   
1.012400000000000e+10    -1.224556000129583e+01   -7.030992427779678e+01   
1.012500000000000e+10    -1.224181285357643e+01   -7.033785874156388e+01   
1.012600000000000e+10    -1.224703103468226e+01   -7.031852856867965e+01   
1.012700000000000e+10    -1.225054207922247e+01   -7.045872955102352e+01   
1.012800000000000e+10    -1.224729325396228e+01   -7.043646566563450e+01   
1.012900000000000e+10    -1.224910421968888e+01   -7.052892844778931e+01   
1.013000000000000e+10    -1.225121464547254e+01   -7.050525520854632e+01   
1.013100000000000e+10    -1.225497194529916e+01   -7.057324024535534e+01   
1.013200000000000e+10    -1.226026656095489e+01   -7.062836744224818e+01   
1.013300000000000e+10    -1.226413920192076e+01   -7.068177224751547e+01   
1.013400000000000e+10    -1.225538171871920e+01   -7.073289807496340e+01   
1.013500000000000e+10    -1.225611495354255e+01   -7.077031644155599e+01   
1.013600000000000e+10    -1.225061336116992e+01   -7.078267655546937e+01   
1.013700000000000e+10    -1.224901928893330e+01   -7.083241609486718e+01   
1.013800000000000e+10    -1.224568476331927e+01   -7.088528452322190e+01   
1.013900000000000e+10    -1.224670419228857e+01   -7.091120841171266e+01   
1.014000000000000e+10    -1.224089652859340e+01   -7.092546579941069e+01   
1.014100000000000e+10    -1.225030790878965e+01   -7.095545170046076e+01   
1.014200000000000e+10    -1.223868802521931e+01   -7.099187435118661e+01   
1.014300000000000e+10    -1.224416112283512e+01   -7.100478885303026e+01   
1.014400000000000e+10    -1.224004933540517e+01   -7.102732405680038e+01   
1.014500000000000e+10    -1.224203047905452e+01   -7.110334752111541e+01   
1.014600000000000e+10    -1.223126612947104e+01   -7.111766859370988e+01   
1.014700000000000e+10    -1.222468839867764e+01   -7.107173469886267e+01   
1.014800000000000e+10    -1.223259363287726e+01   -7.110027022721536e+01   
1.014900000000000e+10    -1.222281080944389e+01   -7.117775586896776e+01   
1.015000000000000e+10    -1.222334338413853e+01   -7.119237501394225e+01   
1.015100000000000e+10    -1.221890798312304e+01   -7.116782108312498e+01   
1.015200000000000e+10    -1.221247398257847e+01   -7.116309402421766e+01   
1.015300000000000e+10    -1.221738743106676e+01   -7.123335818195532e+01   
1.015400000000000e+10    -1.220378525180457e+01   -7.121667220036841e+01   
1.015500000000000e+10    -1.222207799602849e+01   -7.123537813267612e+01   
1.015600000000000e+10    -1.221300103301361e+01   -7.123658985037358e+01   
1.015700000000000e+10    -1.220007418632823e+01   -7.118752334315374e+01   
1.015800000000000e+10    -1.220071838929204e+01   -7.124982210185058e+01   
1.015900000000000e+10    -1.219631612532261e+01   -7.125230235559873e+01   
1.016000000000000e+10    -1.219331761232564e+01   -7.128003270572881e+01   
1.016100000000000e+10    -1.219311387022559e+01   -7.127743849168985e+01   
1.016200000000000e+10    -1.218640184566444e+01   -7.121535226188193e+01   
1.016300000000000e+10    -1.218074415112496e+01   -7.121249461163954e+01   
1.016400000000000e+10    -1.219364456342125e+01   -7.121749541030614e+01   
1.016500000000000e+10    -1.217798302033010e+01   -7.120249770309198e+01   
1.016600000000000e+10    -1.218887613037141e+01   -7.121088908330596e+01   
1.016700000000000e+10    -1.217350927816417e+01   -7.123369602988316e+01   
1.016800000000000e+10    -1.216755408735377e+01   -7.119525570816634e+01   
1.016900000000000e+10    -1.217022715999237e+01   -7.114303695831521e+01   
1.017000000000000e+10    -1.217979703310485e+01   -7.117271108064530e+01   
1.017100000000000e+10    -1.217070735624653e+01   -7.122742545330796e+01   
1.017200000000000e+10    -1.216609618356015e+01   -7.115599096489380e+01   
1.017300000000000e+10    -1.216972759395385e+01   -7.118228491947153e+01   
1.017400000000000e+10    -1.216507735518539e+01   -7.113982055855823e+01   
1.017500000000000e+10    -1.216105762712480e+01   -7.116288614184920e+01   
1.017600000000000e+10    -1.214769680051519e+01   -7.109808704483157e+01   
1.017700000000000e+10    -1.216487184331598e+01   -7.105102924975364e+01   
1.017800000000000e+10    -1.215960070012340e+01   -7.110061863488401e+01   
1.017900000000000e+10    -1.215427126723565e+01   -7.103134339397762e+01   
1.018000000000000e+10    -1.215659305733768e+01   -7.102664191156019e+01   
1.018100000000000e+10    -1.215261240500407e+01   -7.100080158186530e+01   
1.018200000000000e+10    -1.215931487082731e+01   -7.096446151880383e+01   
1.018300000000000e+10    -1.215141382173698e+01   -7.096344457631986e+01   
1.018400000000000e+10    -1.216242595198883e+01   -7.093726559698543e+01   
1.018500000000000e+10    -1.215558902246399e+01   -7.094804419879301e+01   
1.018600000000000e+10    -1.216478714541799e+01   -7.103216946012316e+01   
1.018700000000000e+10    -1.215993078318542e+01   -7.094744333746254e+01   
1.018800000000000e+10    -1.216765293074845e+01   -7.093993081567291e+01   
1.018900000000000e+10    -1.217259084923560e+01   -7.093473836171643e+01   
1.019000000000000e+10    -1.216927735981791e+01   -7.088059681338257e+01   
1.019100000000000e+10    -1.217043603753171e+01   -7.089809969849752e+01   
1.019200000000000e+10    -1.216794378610957e+01   -7.085969240188989e+01   
1.019300000000000e+10    -1.218451054482229e+01   -7.092529034499073e+01   
1.019400000000000e+10    -1.217406258364697e+01   -7.086786183003002e+01   
1.019500000000000e+10    -1.218096038429537e+01   -7.087957159549204e+01   
1.019600000000000e+10    -1.216939473523452e+01   -7.091092449981724e+01   
1.019700000000000e+10    -1.217436461924006e+01   -7.086692465562767e+01   
1.019800000000000e+10    -1.217855453680979e+01   -7.089587731438421e+01   
1.019900000000000e+10    -1.217717380080506e+01   -7.085593689103654e+01   
1.020000000000000e+10    -1.218211939806057e+01   -7.091123373545300e+01   
1.020100000000000e+10    -1.218398212827281e+01   -7.090299558523604e+01   
1.020200000000000e+10    -1.217961835313951e+01   -7.091129885268364e+01   
1.020300000000000e+10    -1.218866310846217e+01   -7.089663404632823e+01   
1.020400000000000e+10    -1.218492860790282e+01   -7.092812104030725e+01   
1.020500000000000e+10    -1.219610192752722e+01   -7.097826011950110e+01   
1.020600000000000e+10    -1.218058208886097e+01   -7.093765540840478e+01   
1.020700000000000e+10    -1.219747458411194e+01   -7.095535671077819e+01   
1.020800000000000e+10    -1.220450231403894e+01   -7.095191322924406e+01   
1.020900000000000e+10    -1.219775058681611e+01   -7.098197811774567e+01   
1.021000000000000e+10    -1.219962331071579e+01   -7.098104346290403e+01   
1.021100000000000e+10    -1.220029201868615e+01   -7.099331495439149e+01   
1.021200000000000e+10    -1.220296855816173e+01   -7.094653502745386e+01   
1.021300000000000e+10    -1.219795951817430e+01   -7.103947722510215e+01   
1.021400000000000e+10    -1.220273487101188e+01   -7.099125283434624e+01   
1.021500000000000e+10    -1.219999627162807e+01   -7.109954450953910e+01   
1.021600000000000e+10    -1.220252479011458e+01   -7.113720907078832e+01   
1.021700000000000e+10    -1.219735696183546e+01   -7.109004944821733e+01   
1.021800000000000e+10    -1.220384961445894e+01   -7.110324282514284e+01   
1.021900000000000e+10    -1.218924782613616e+01   -7.108373190726539e+01   
1.022000000000000e+10    -1.220148834421945e+01   -7.110424177899228e+01   
1.022100000000000e+10    -1.218287767255647e+01   -7.117212097512025e+01   
1.022200000000000e+10    -1.218982923213556e+01   -7.114605920007706e+01   
1.022300000000000e+10    -1.218906912950928e+01   -7.116370676801969e+01   
1.022400000000000e+10    -1.218890455647158e+01   -7.116069495436420e+01   
1.022500000000000e+10    -1.217895178637181e+01   -7.121216009285070e+01   
1.022600000000000e+10    -1.218830675594253e+01   -7.119285571669833e+01   
1.022700000000000e+10    -1.218434572571853e+01   -7.122937756145872e+01   
1.022800000000000e+10    -1.218285664292267e+01   -7.119607456696228e+01   
1.022900000000000e+10    -1.217060686003419e+01   -7.127080549736009e+01   
1.023000000000000e+10    -1.217932832471371e+01   -7.127382002928539e+01   
1.023100000000000e+10    -1.216394668403438e+01   -7.130954827342509e+01   
1.023200000000000e+10    -1.217980330680263e+01   -7.126564050546450e+01   
1.023300000000000e+10    -1.216384096349380e+01   -7.136919618879283e+01   
1.023400000000000e+10    -1.217937784917497e+01   -7.134264578047706e+01   
1.023500000000000e+10    -1.216407452235087e+01   -7.139482690934206e+01   
1.023600000000000e+10    -1.217208212247347e+01   -7.138910271308400e+01   
1.023700000000000e+10    -1.216784723424284e+01   -7.138729775939289e+01   
1.023800000000000e+10    -1.217338110788999e+01   -7.141720409661372e+01   
1.023900000000000e+10    -1.216420076189444e+01   -7.138605926748362e+01   
1.024000000000000e+10    -1.216985249216290e+01   -7.137413641597992e+01   
1.024100000000000e+10    -1.216696440386070e+01   -7.145070575828717e+01   
1.024200000000000e+10    -1.216302724090203e+01   -7.144903476256967e+01   
1.024300000000000e+10    -1.215308816117531e+01   -7.139379398605759e+01   
1.024400000000000e+10    -1.215134311351982e+01   -7.143582846972781e+01   
1.024500000000000e+10    -1.215326897454115e+01   -7.140676212231428e+01   
1.024600000000000e+10    -1.215064924964238e+01   -7.150547636267947e+01   
1.024700000000000e+10    -1.214586302886567e+01   -7.147014426566412e+01   
1.024800000000000e+10    -1.215856074969895e+01   -7.153402749945124e+01   
1.024900000000000e+10    -1.214422125241834e+01   -7.156855907917262e+01   
1.025000000000000e+10    -1.213715460341078e+01   -7.152711529836097e+01   
1.025100000000000e+10    -1.214174144271973e+01   -7.149192211093133e+01   
1.025200000000000e+10    -1.214456755968714e+01   -7.158475135310258e+01   
1.025300000000000e+10    -1.213301822267785e+01   -7.162896393409090e+01   
1.025400000000000e+10    -1.212754658448261e+01   -7.160332826653068e+01   
1.025500000000000e+10    -1.212882823804758e+01   -7.159904195515583e+01   
1.025600000000000e+10    -1.213020317636005e+01   -7.162275156634679e+01   
