[Version] 2.0
! Rohde & Schwarz Vector Network Analyzer
! Rohde-Schwarz,ZNL20-2Port,1323001220200009,1.71.1.10-23.02.1.238
! 
! Port Assignments:
! Nominal Port -> Actual Test Port
! --------------------------------
!   1 -> 1

! Created: GMT 2024-09-04 14:20:36

# Hz S DB R 50

[Number of Ports] 1
[Number of Frequencies] 2001

[Network Data] 
! freq[Hz]               S11[mag dB]              S11[ang]                 
1.000000000000000e+10    -1.357917776716471e+01   -6.286215191472171e+01   
1.000100000000000e+10    -1.358156261034973e+01   -6.283278854923188e+01   
1.000200000000000e+10    -1.357621084088585e+01   -6.275705684381176e+01   
1.000300000000000e+10    -1.357132969709697e+01   -6.272113338165758e+01   
1.000400000000000e+10    -1.357734867324806e+01   -6.270883787329705e+01   
1.000500000000000e+10    -1.356737340914611e+01   -6.274677052947290e+01   
1.000600000000000e+10    -1.357449535092754e+01   -6.265316622949635e+01   
1.000700000000000e+10    -1.355747497319060e+01   -6.273844702737236e+01   
1.000800000000000e+10    -1.357898730001301e+01   -6.272176744620857e+01   
1.000900000000000e+10    -1.354852583262605e+01   -6.265015011021538e+01   
1.001000000000000e+10    -1.356127535232355e+01   -6.273418169475094e+01   
1.001100000000000e+10    -1.355893354703311e+01   -6.266739969524831e+01   
1.001200000000000e+10    -1.355848227858101e+01   -6.270995132266677e+01   
1.001300000000000e+10    -1.355900388463355e+01   -6.272009101095201e+01   
1.001400000000000e+10    -1.356592944720428e+01   -6.266877799413773e+01   
1.001500000000000e+10    -1.356269188984570e+01   -6.277522094706019e+01   
1.001600000000000e+10    -1.356833379303979e+01   -6.271531957159418e+01   
1.001700000000000e+10    -1.356982811836187e+01   -6.272032597863330e+01   
1.001800000000000e+10    -1.357315276335541e+01   -6.275409605800944e+01   
1.001900000000000e+10    -1.357623048981904e+01   -6.278560040794887e+01   
1.002000000000000e+10    -1.357496026110956e+01   -6.271410575981971e+01   
1.002100000000000e+10    -1.357792123338893e+01   -6.271363809368516e+01   
1.002200000000000e+10    -1.357296710538350e+01   -6.282721073853258e+01   
1.002300000000000e+10    -1.357689641317998e+01   -6.280061249487093e+01   
1.002400000000000e+10    -1.358617618037786e+01   -6.291523852218629e+01   
1.002500000000000e+10    -1.358307979748530e+01   -6.294111732844850e+01   
1.002600000000000e+10    -1.358015012223494e+01   -6.294408182372376e+01   
1.002700000000000e+10    -1.357910488605699e+01   -6.294207753303757e+01   
1.002800000000000e+10    -1.357431146004298e+01   -6.306992780522624e+01   
1.002900000000000e+10    -1.357611479651934e+01   -6.304066379149539e+01   
1.003000000000000e+10    -1.358001097151471e+01   -6.312325404476359e+01   
1.003100000000000e+10    -1.357649767992097e+01   -6.326471629258092e+01   
1.003200000000000e+10    -1.357880214550819e+01   -6.322420838150162e+01   
1.003300000000000e+10    -1.358583886918046e+01   -6.327895116507640e+01   
1.003400000000000e+10    -1.357954396799032e+01   -6.340509084451585e+01   
1.003500000000000e+10    -1.357955058583075e+01   -6.339031258833198e+01   
1.003600000000000e+10    -1.358927139756882e+01   -6.341193685464147e+01   
1.003700000000000e+10    -1.357586282793105e+01   -6.353231792977235e+01   
1.003800000000000e+10    -1.358054823394694e+01   -6.352220679353473e+01   
1.003900000000000e+10    -1.357363172563302e+01   -6.372802118548482e+01   
1.004000000000000e+10    -1.356717480708783e+01   -6.359688722225746e+01   
1.004100000000000e+10    -1.355386952399186e+01   -6.373541461675009e+01   
1.004200000000000e+10    -1.355639122169887e+01   -6.365934427831939e+01   
1.004300000000000e+10    -1.355321061614354e+01   -6.379224470715648e+01   
1.004400000000000e+10    -1.354332093564514e+01   -6.394141552107380e+01   
1.004500000000000e+10    -1.355230441421907e+01   -6.392491502745261e+01   
1.004600000000000e+10    -1.353843539536127e+01   -6.393368093411777e+01   
1.004700000000000e+10    -1.353591704773134e+01   -6.411405888884252e+01   
1.004800000000000e+10    -1.352932958773716e+01   -6.413970264012687e+01   
1.004900000000000e+10    -1.353395494013121e+01   -6.413419907722800e+01   
1.005000000000000e+10    -1.353268752500925e+01   -6.415713848711012e+01   
1.005100000000000e+10    -1.350724834885565e+01   -6.418274450114616e+01   
1.005200000000000e+10    -1.349006274820607e+01   -6.427223268747188e+01   
1.005300000000000e+10    -1.349016134186713e+01   -6.437275342797169e+01   
1.005400000000000e+10    -1.349499756512334e+01   -6.438250334169130e+01   
1.005500000000000e+10    -1.348487672112845e+01   -6.448601056328904e+01   
1.005600000000000e+10    -1.346940799164397e+01   -6.440982541041214e+01   
1.005700000000000e+10    -1.347084533394530e+01   -6.445619628957137e+01   
1.005800000000000e+10    -1.344393420635764e+01   -6.444688766325291e+01   
1.005900000000000e+10    -1.344511437605379e+01   -6.454619879675839e+01   
1.006000000000000e+10    -1.343376189070270e+01   -6.461245797488840e+01   
1.006100000000000e+10    -1.343036833153040e+01   -6.461391396982674e+01   
1.006200000000000e+10    -1.341011125048087e+01   -6.457658073909720e+01   
1.006300000000000e+10    -1.338924394558984e+01   -6.458847725383657e+01   
1.006400000000000e+10    -1.338893437285599e+01   -6.459295842106039e+01   
1.006500000000000e+10    -1.338101728374717e+01   -6.468654002906500e+01   
1.006600000000000e+10    -1.337483365728149e+01   -6.466483990596861e+01   
1.006700000000000e+10    -1.336930191984676e+01   -6.457275205974666e+01   
1.006800000000000e+10    -1.337421638715428e+01   -6.473860643665307e+01   
1.006900000000000e+10    -1.335005152812688e+01   -6.465056400119465e+01   
1.007000000000000e+10    -1.333896685525897e+01   -6.467603059608038e+01   
1.007100000000000e+10    -1.333350422363560e+01   -6.466090415460799e+01   
1.007200000000000e+10    -1.332883792444392e+01   -6.474943151889407e+01   
1.007300000000000e+10    -1.331607418525711e+01   -6.465205660592157e+01   
1.007400000000000e+10    -1.330715342029090e+01   -6.468011178429822e+01   
1.007500000000000e+10    -1.330334692628633e+01   -6.464276020581849e+01   
1.007600000000000e+10    -1.329569236539966e+01   -6.470553772967179e+01   
1.007700000000000e+10    -1.328558265311285e+01   -6.459938466727296e+01   
1.007800000000000e+10    -1.327731191449215e+01   -6.461594785966243e+01   
1.007900000000000e+10    -1.325892774080840e+01   -6.453915490848877e+01   
1.008000000000000e+10    -1.326068024449099e+01   -6.453315052794473e+01   
1.008100000000000e+10    -1.326522020673649e+01   -6.466302155112827e+01   
1.008200000000000e+10    -1.325885746638021e+01   -6.463546413253393e+01   
1.008300000000000e+10    -1.325274390581343e+01   -6.448242449168008e+01   
1.008400000000000e+10    -1.324767609581118e+01   -6.455092973329603e+01   
1.008500000000000e+10    -1.323761395438172e+01   -6.451283250276977e+01   
1.008600000000000e+10    -1.323370900829696e+01   -6.450543214699961e+01   
1.008700000000000e+10    -1.323417403794533e+01   -6.448096178727259e+01   
1.008800000000000e+10    -1.323071499588150e+01   -6.454304691923653e+01   
1.008900000000000e+10    -1.322403989745644e+01   -6.441077824697830e+01   
1.009000000000000e+10    -1.321498220337960e+01   -6.446498468797752e+01   
1.009100000000000e+10    -1.321780204235682e+01   -6.449726638970120e+01   
1.009200000000000e+10    -1.321113629588839e+01   -6.439521845053903e+01   
1.009300000000000e+10    -1.321413658863020e+01   -6.439061232557739e+01   
1.009400000000000e+10    -1.321970979186333e+01   -6.441204267072762e+01   
1.009500000000000e+10    -1.321801660090086e+01   -6.444436551958783e+01   
1.009600000000000e+10    -1.320588716955519e+01   -6.435298028815888e+01   
1.009700000000000e+10    -1.321232637008223e+01   -6.437440772209703e+01   
1.009800000000000e+10    -1.321696708976465e+01   -6.433561734099146e+01   
1.009900000000000e+10    -1.321878609152941e+01   -6.432087860867459e+01   
1.010000000000000e+10    -1.321782161546078e+01   -6.439198534156293e+01   
1.010100000000000e+10    -1.322117377436479e+01   -6.435375605244967e+01   
1.010200000000000e+10    -1.322394303659242e+01   -6.434592848635228e+01   
1.010300000000000e+10    -1.322602856280762e+01   -6.435463400425293e+01   
1.010400000000000e+10    -1.322067462627624e+01   -6.437326553683742e+01   
1.010500000000000e+10    -1.323240332541491e+01   -6.441930644057541e+01   
1.010600000000000e+10    -1.321770813809452e+01   -6.432575624248717e+01   
1.010700000000000e+10    -1.323658969349015e+01   -6.446849050934868e+01   
1.010800000000000e+10    -1.324125961134930e+01   -6.433628150264133e+01   
1.010900000000000e+10    -1.323550274165930e+01   -6.443048437522494e+01   
1.011000000000000e+10    -1.323478710020172e+01   -6.438010328030738e+01   
1.011100000000000e+10    -1.323173926925187e+01   -6.452712101270035e+01   
1.011200000000000e+10    -1.324141271050974e+01   -6.449147040674268e+01   
1.011300000000000e+10    -1.323983336378505e+01   -6.462699502288041e+01   
1.011400000000000e+10    -1.324469630745452e+01   -6.451977530000492e+01   
1.011500000000000e+10    -1.324296930247612e+01   -6.459739014440021e+01   
1.011600000000000e+10    -1.324978012645717e+01   -6.459401494558242e+01   
1.011700000000000e+10    -1.326046252787858e+01   -6.463810577494596e+01   
1.011800000000000e+10    -1.325125344009749e+01   -6.469504828518390e+01   
1.011900000000000e+10    -1.325261351012839e+01   -6.476693288653620e+01   
1.012000000000000e+10    -1.324910345178005e+01   -6.481815587063512e+01   
1.012100000000000e+10    -1.326220446408808e+01   -6.487632141043046e+01   
1.012200000000000e+10    -1.324796303448780e+01   -6.489578683272232e+01   
1.012300000000000e+10    -1.325180950572781e+01   -6.494328584052121e+01   
1.012400000000000e+10    -1.326335586679361e+01   -6.497619659573360e+01   
1.012500000000000e+10    -1.325309611125715e+01   -6.502001153449396e+01   
1.012600000000000e+10    -1.325720768893032e+01   -6.503414832630385e+01   
1.012700000000000e+10    -1.326027548808293e+01   -6.519287906879157e+01   
1.012800000000000e+10    -1.325462019210097e+01   -6.516828466451767e+01   
1.012900000000000e+10    -1.325522246061425e+01   -6.527899198085051e+01   
1.013000000000000e+10    -1.325061723610825e+01   -6.524499566135793e+01   
1.013100000000000e+10    -1.325387162163402e+01   -6.535917345591980e+01   
1.013200000000000e+10    -1.325490600793414e+01   -6.539514039672846e+01   
1.013300000000000e+10    -1.325811356414539e+01   -6.550279052816283e+01   
1.013400000000000e+10    -1.324554618927930e+01   -6.552923995718193e+01   
1.013500000000000e+10    -1.324781022257769e+01   -6.560450567303117e+01   
1.013600000000000e+10    -1.323785825388131e+01   -6.562972337700539e+01   
1.013700000000000e+10    -1.323012144330093e+01   -6.570034837819938e+01   
1.013800000000000e+10    -1.322972065110574e+01   -6.578815729212815e+01   
1.013900000000000e+10    -1.322771713298221e+01   -6.584031443002708e+01   
1.014000000000000e+10    -1.321726246241019e+01   -6.587232388453637e+01   
1.014100000000000e+10    -1.322987911995690e+01   -6.591919539106556e+01   
1.014200000000000e+10    -1.320888102216206e+01   -6.601211090651294e+01   
1.014300000000000e+10    -1.321552002904729e+01   -6.602245448591648e+01   
1.014400000000000e+10    -1.320917538299393e+01   -6.607131203759745e+01   
1.014500000000000e+10    -1.321093284968180e+01   -6.616038854761548e+01   
1.014600000000000e+10    -1.319706674900573e+01   -6.620365729125857e+01   
1.014700000000000e+10    -1.318849177083511e+01   -6.616430744308509e+01   
1.014800000000000e+10    -1.319826603352792e+01   -6.623625218556712e+01   
1.014900000000000e+10    -1.318744695564123e+01   -6.631969022715018e+01   
1.015000000000000e+10    -1.318526499859909e+01   -6.633545170725245e+01   
1.015100000000000e+10    -1.317775309682678e+01   -6.638476986953982e+01   
1.015200000000000e+10    -1.316845334888556e+01   -6.639073493781112e+01   
1.015300000000000e+10    -1.317373457439228e+01   -6.644772497336974e+01   
1.015400000000000e+10    -1.315558867814785e+01   -6.645921936585196e+01   
1.015500000000000e+10    -1.317860532148658e+01   -6.649664436819847e+01   
1.015600000000000e+10    -1.316632510015695e+01   -6.651722882922459e+01   
1.015700000000000e+10    -1.315211355751074e+01   -6.647598635034615e+01   
1.015800000000000e+10    -1.315143783757154e+01   -6.657711641511000e+01   
1.015900000000000e+10    -1.314459462659883e+01   -6.659332565140882e+01   
1.016000000000000e+10    -1.313967473652766e+01   -6.662520975099187e+01   
1.016100000000000e+10    -1.314187190438397e+01   -6.664596341364131e+01   
1.016200000000000e+10    -1.312992974327905e+01   -6.658385832197438e+01   
1.016300000000000e+10    -1.312534441055440e+01   -6.660546253774778e+01   
1.016400000000000e+10    -1.313838858050329e+01   -6.663201956515104e+01   
1.016500000000000e+10    -1.311629021319887e+01   -6.662418455617970e+01   
1.016600000000000e+10    -1.312251973151767e+01   -6.666214753463950e+01   
1.016700000000000e+10    -1.311239067682804e+01   -6.671489482253622e+01   
1.016800000000000e+10    -1.310980710679485e+01   -6.669458431641876e+01   
1.016900000000000e+10    -1.310947546501953e+01   -6.663720403954423e+01   
1.017000000000000e+10    -1.311782833091885e+01   -6.668599118293903e+01   
1.017100000000000e+10    -1.311175420329287e+01   -6.679362929760734e+01   
1.017200000000000e+10    -1.310505004491272e+01   -6.668340485099705e+01   
1.017300000000000e+10    -1.310977803220180e+01   -6.674279866884787e+01   
1.017400000000000e+10    -1.310371905712558e+01   -6.671002339576637e+01   
1.017500000000000e+10    -1.309765046872825e+01   -6.677897416308394e+01   
1.017600000000000e+10    -1.309069057016784e+01   -6.671760047930745e+01   
1.017700000000000e+10    -1.310699411941945e+01   -6.671510681836041e+01   
1.017800000000000e+10    -1.310079412936169e+01   -6.673846620511817e+01   
1.017900000000000e+10    -1.309426039803800e+01   -6.669178603517781e+01   
1.018000000000000e+10    -1.309816559410321e+01   -6.671069029170134e+01   
1.018100000000000e+10    -1.309498624940960e+01   -6.667847264037646e+01   
1.018200000000000e+10    -1.310241505754442e+01   -6.666332571995406e+01   
1.018300000000000e+10    -1.309330057885605e+01   -6.671319620471820e+01   
1.018400000000000e+10    -1.310758147136637e+01   -6.668933796805362e+01   
1.018500000000000e+10    -1.310159564972873e+01   -6.670187646451909e+01   
1.018600000000000e+10    -1.311182571954304e+01   -6.679820787078143e+01   
1.018700000000000e+10    -1.310237404027658e+01   -6.672295349752993e+01   
1.018800000000000e+10    -1.311511679679648e+01   -6.672591601487464e+01   
1.018900000000000e+10    -1.312172377631891e+01   -6.673024272228743e+01   
1.019000000000000e+10    -1.312034219015526e+01   -6.668732150382533e+01   
1.019100000000000e+10    -1.312236475449929e+01   -6.673065844782563e+01   
1.019200000000000e+10    -1.312098383915978e+01   -6.667675368367881e+01   
1.019300000000000e+10    -1.313679697400853e+01   -6.677264975055652e+01   
1.019400000000000e+10    -1.312992562376456e+01   -6.672085967133667e+01   
1.019500000000000e+10    -1.313889937405541e+01   -6.673244095488127e+01   
1.019600000000000e+10    -1.312764681274562e+01   -6.678243546069726e+01   
1.019700000000000e+10    -1.313644112559213e+01   -6.675257638509740e+01   
1.019800000000000e+10    -1.314470983984454e+01   -6.679403049924261e+01   
1.019900000000000e+10    -1.314089921102045e+01   -6.675627612693826e+01   
1.020000000000000e+10    -1.315210459352911e+01   -6.684351353203114e+01   
1.020100000000000e+10    -1.315490618645746e+01   -6.683278150957750e+01   
1.020200000000000e+10    -1.314715371752798e+01   -6.684049402399692e+01   
1.020300000000000e+10    -1.315815756865826e+01   -6.681499639778551e+01   
1.020400000000000e+10    -1.315769927597397e+01   -6.684237756041721e+01   
1.020500000000000e+10    -1.316786412492311e+01   -6.688929793200948e+01   
1.020600000000000e+10    -1.315834399289097e+01   -6.688876017978406e+01   
1.020700000000000e+10    -1.317234596032094e+01   -6.690385527966978e+01   
1.020800000000000e+10    -1.318467382989273e+01   -6.693300679798438e+01   
1.020900000000000e+10    -1.317856616536185e+01   -6.697626534057770e+01   
1.021000000000000e+10    -1.317882868990862e+01   -6.701400390601341e+01   
1.021100000000000e+10    -1.319017867620161e+01   -6.700263018059231e+01   
1.021200000000000e+10    -1.319480996067452e+01   -6.694626669563500e+01   
1.021300000000000e+10    -1.318916808294249e+01   -6.706803925167095e+01   
1.021400000000000e+10    -1.319921864206716e+01   -6.701387164057158e+01   
1.021500000000000e+10    -1.319755810765659e+01   -6.713959143919698e+01   
1.021600000000000e+10    -1.320516624706588e+01   -6.721447652592238e+01   
1.021700000000000e+10    -1.319824666046707e+01   -6.714659022748455e+01   
1.021800000000000e+10    -1.320687165025198e+01   -6.712635771042268e+01   
1.021900000000000e+10    -1.319637943335497e+01   -6.712575651489583e+01   
1.022000000000000e+10    -1.320688111748554e+01   -6.715390400684836e+01   
1.022100000000000e+10    -1.319287438910799e+01   -6.722222538158535e+01   
1.022200000000000e+10    -1.320021256680568e+01   -6.719940759982738e+01   
1.022300000000000e+10    -1.320695361967301e+01   -6.727368409345728e+01   
1.022400000000000e+10    -1.320987027347908e+01   -6.726194745489776e+01   
1.022500000000000e+10    -1.320769283560584e+01   -6.725652347579847e+01   
1.022600000000000e+10    -1.320914637751486e+01   -6.729292864483234e+01   
1.022700000000000e+10    -1.320807989234865e+01   -6.732273082157603e+01   
1.022800000000000e+10    -1.321517061401287e+01   -6.724279295561763e+01   
1.022900000000000e+10    -1.320062265557983e+01   -6.737163562083207e+01   
1.023000000000000e+10    -1.321465579343997e+01   -6.733738788100908e+01   
1.023100000000000e+10    -1.320058585863175e+01   -6.737910810634465e+01   
1.023200000000000e+10    -1.321705878208473e+01   -6.735594772718571e+01   
1.023300000000000e+10    -1.320270737338158e+01   -6.749419430037850e+01   
1.023400000000000e+10    -1.322124916388649e+01   -6.741982287975435e+01   
1.023500000000000e+10    -1.320668046881474e+01   -6.750880630775076e+01   
1.023600000000000e+10    -1.322054910932675e+01   -6.743427575764282e+01   
1.023700000000000e+10    -1.321836979136930e+01   -6.745431620749309e+01   
1.023800000000000e+10    -1.322669686313578e+01   -6.748921740676198e+01   
1.023900000000000e+10    -1.322495809739435e+01   -6.744594688247454e+01   
1.024000000000000e+10    -1.322928415267065e+01   -6.743084133968998e+01   
1.024100000000000e+10    -1.323168564653821e+01   -6.750204649451079e+01   
1.024200000000000e+10    -1.322853441315473e+01   -6.748320188549835e+01   
1.024300000000000e+10    -1.322359446955014e+01   -6.743908000175821e+01   
1.024400000000000e+10    -1.322321000578890e+01   -6.751561332012047e+01   
1.024500000000000e+10    -1.322865809440745e+01   -6.746907761546768e+01   
1.024600000000000e+10    -1.322478134157650e+01   -6.754801359481266e+01   
1.024700000000000e+10    -1.322721095415530e+01   -6.747166782263666e+01   
1.024800000000000e+10    -1.324518061374840e+01   -6.754353469815916e+01   
1.024900000000000e+10    -1.322856688279960e+01   -6.758867462425235e+01   
1.025000000000000e+10    -1.322256488224546e+01   -6.753308881146707e+01   
1.025100000000000e+10    -1.323310235386066e+01   -6.747780498392480e+01   
1.025200000000000e+10    -1.323583335009012e+01   -6.754954698772990e+01   
1.025300000000000e+10    -1.322420184398507e+01   -6.757996576771610e+01   
1.025400000000000e+10    -1.322178585078613e+01   -6.758388262107019e+01   
1.025500000000000e+10    -1.322994569109922e+01   -6.755283807439358e+01   
1.025600000000000e+10    -1.323251683621505e+01   -6.760433726207019e+01   
