[Version] 2.0
! Rohde & Schwarz Vector Network Analyzer
! Rohde-Schwarz,ZNL20-2Port,1323001220200009,1.71.1.10-23.02.1.238
! 
! Port Assignments:
! Nominal Port -> Actual Test Port
! --------------------------------
!   1 -> 1

! Created: GMT 2024-09-04 14:21:15

# Hz S DB R 50

[Number of Ports] 1
[Number of Frequencies] 2001

[Network Data] 
! freq[Hz]               S11[mag dB]              S11[ang]                 
1.000000000000000e+10    -1.402288064125426e+01   -6.234933632216165e+01   
1.000100000000000e+10    -1.402198523272323e+01   -6.232158798334823e+01   
1.000200000000000e+10    -1.401920670754020e+01   -6.220350600406770e+01   
1.000300000000000e+10    -1.400976759316588e+01   -6.214665507199955e+01   
1.000400000000000e+10    -1.401151045441168e+01   -6.215261027589793e+01   
1.000500000000000e+10    -1.399821342386206e+01   -6.219261045400581e+01   
1.000600000000000e+10    -1.401226713122675e+01   -6.209693754146627e+01   
1.000700000000000e+10    -1.399016329799939e+01   -6.218612511568845e+01   
1.000800000000000e+10    -1.401000279338657e+01   -6.214063576262144e+01   
1.000900000000000e+10    -1.398210299139419e+01   -6.205526071863475e+01   
1.001000000000000e+10    -1.399434179682574e+01   -6.214929732555395e+01   
1.001100000000000e+10    -1.399032109823934e+01   -6.206865069173713e+01   
1.001200000000000e+10    -1.398970438915646e+01   -6.210959847209923e+01   
1.001300000000000e+10    -1.398618656580668e+01   -6.208981080983013e+01   
1.001400000000000e+10    -1.399075399629787e+01   -6.203630357189482e+01   
1.001500000000000e+10    -1.398516842978542e+01   -6.216544750213124e+01   
1.001600000000000e+10    -1.399204323571870e+01   -6.209729238860822e+01   
1.001700000000000e+10    -1.399456352502447e+01   -6.208607395827858e+01   
1.001800000000000e+10    -1.399375035194933e+01   -6.209697542647839e+01   
1.001900000000000e+10    -1.400121351694232e+01   -6.214854539307711e+01   
1.002000000000000e+10    -1.399480458450785e+01   -6.207291701141272e+01   
1.002100000000000e+10    -1.399344802114042e+01   -6.208483071407251e+01   
1.002200000000000e+10    -1.398501938599267e+01   -6.215851637495232e+01   
1.002300000000000e+10    -1.399119035143745e+01   -6.213716660447678e+01   
1.002400000000000e+10    -1.399910709615115e+01   -6.228843127304795e+01   
1.002500000000000e+10    -1.399259651057166e+01   -6.228889360649836e+01   
1.002600000000000e+10    -1.399079147524116e+01   -6.230065656295227e+01   
1.002700000000000e+10    -1.398524398198166e+01   -6.228633170087703e+01   
1.002800000000000e+10    -1.397900720621689e+01   -6.241277700283811e+01   
1.002900000000000e+10    -1.398019315438478e+01   -6.239135594308288e+01   
1.003000000000000e+10    -1.398624801938121e+01   -6.246173304573281e+01   
1.003100000000000e+10    -1.398308663489403e+01   -6.257833363620654e+01   
1.003200000000000e+10    -1.398213444101154e+01   -6.255683340886061e+01   
1.003300000000000e+10    -1.398951795055808e+01   -6.258293945708420e+01   
1.003400000000000e+10    -1.397743451051028e+01   -6.275589013256809e+01   
1.003500000000000e+10    -1.397587948334975e+01   -6.272547164386125e+01   
1.003600000000000e+10    -1.397996363850518e+01   -6.274300777432035e+01   
1.003700000000000e+10    -1.397284812820197e+01   -6.287416083253512e+01   
1.003800000000000e+10    -1.397370312471189e+01   -6.289281766867111e+01   
1.003900000000000e+10    -1.396716080833940e+01   -6.306141328448816e+01   
1.004000000000000e+10    -1.396108677877774e+01   -6.292885936962368e+01   
1.004100000000000e+10    -1.394352947379966e+01   -6.307011126239018e+01   
1.004200000000000e+10    -1.394468233331799e+01   -6.296575933829807e+01   
1.004300000000000e+10    -1.394194282801519e+01   -6.313203584852931e+01   
1.004400000000000e+10    -1.393241708794899e+01   -6.324926580278595e+01   
1.004500000000000e+10    -1.394021233192898e+01   -6.324586291203158e+01   
1.004600000000000e+10    -1.392266892714529e+01   -6.327628209894456e+01   
1.004700000000000e+10    -1.391641600669812e+01   -6.344451232677183e+01   
1.004800000000000e+10    -1.391015326586511e+01   -6.349211117382271e+01   
1.004900000000000e+10    -1.391575835949579e+01   -6.349166864110115e+01   
1.005000000000000e+10    -1.390884525298589e+01   -6.347268288357343e+01   
1.005100000000000e+10    -1.388297182155528e+01   -6.351437769582586e+01   
1.005200000000000e+10    -1.386430766499841e+01   -6.359235282969523e+01   
1.005300000000000e+10    -1.386412284090913e+01   -6.370323804295979e+01   
1.005400000000000e+10    -1.386032517880355e+01   -6.370238092280759e+01   
1.005500000000000e+10    -1.385447304252180e+01   -6.379549938982041e+01   
1.005600000000000e+10    -1.384200474133598e+01   -6.376107699381917e+01   
1.005700000000000e+10    -1.383372741664560e+01   -6.379568425950776e+01   
1.005800000000000e+10    -1.380950296118499e+01   -6.378487257974136e+01   
1.005900000000000e+10    -1.380298833486351e+01   -6.390282828233305e+01   
1.006000000000000e+10    -1.379390209753368e+01   -6.395575950848313e+01   
1.006100000000000e+10    -1.378876640327196e+01   -6.394940317095343e+01   
1.006200000000000e+10    -1.377278350993866e+01   -6.392819585982404e+01   
1.006300000000000e+10    -1.374548649077861e+01   -6.392009423990622e+01   
1.006400000000000e+10    -1.374894345877417e+01   -6.393972916859562e+01   
1.006500000000000e+10    -1.373431846908029e+01   -6.401747998869115e+01   
1.006600000000000e+10    -1.373171265351522e+01   -6.400197473916680e+01   
1.006700000000000e+10    -1.371896168295596e+01   -6.393359941031382e+01   
1.006800000000000e+10    -1.372929381377884e+01   -6.407611934461710e+01   
1.006900000000000e+10    -1.369674920398722e+01   -6.398449273304860e+01   
1.007000000000000e+10    -1.368980099044747e+01   -6.402003387363726e+01   
1.007100000000000e+10    -1.367564258070032e+01   -6.402317807893475e+01   
1.007200000000000e+10    -1.368015322818079e+01   -6.407595267503737e+01   
1.007300000000000e+10    -1.365590351384141e+01   -6.401721463577753e+01   
1.007400000000000e+10    -1.364777737081457e+01   -6.402933166348512e+01   
1.007500000000000e+10    -1.364798488431846e+01   -6.399150403532812e+01   
1.007600000000000e+10    -1.363756637465409e+01   -6.404195947580648e+01   
1.007700000000000e+10    -1.362288058128094e+01   -6.396797860770452e+01   
1.007800000000000e+10    -1.361187426916814e+01   -6.397268379132981e+01   
1.007900000000000e+10    -1.359191407900828e+01   -6.386372717990236e+01   
1.008000000000000e+10    -1.358983427860971e+01   -6.386443984532454e+01   
1.008100000000000e+10    -1.359897465285709e+01   -6.400044159729704e+01   
1.008200000000000e+10    -1.359236203614043e+01   -6.394739070616402e+01   
1.008300000000000e+10    -1.358358737399723e+01   -6.377673224150248e+01   
1.008400000000000e+10    -1.358167760435522e+01   -6.388013229446575e+01   
1.008500000000000e+10    -1.356797258570391e+01   -6.385557875605275e+01   
1.008600000000000e+10    -1.356089053648039e+01   -6.383822281729572e+01   
1.008700000000000e+10    -1.355878306389928e+01   -6.379197007064560e+01   
1.008800000000000e+10    -1.355415577630548e+01   -6.385101619519632e+01   
1.008900000000000e+10    -1.354854420646749e+01   -6.371983045062075e+01   
1.009000000000000e+10    -1.353745344388085e+01   -6.377381124062196e+01   
1.009100000000000e+10    -1.354090591056270e+01   -6.382326417813557e+01   
1.009200000000000e+10    -1.353644210211161e+01   -6.373907299511636e+01   
1.009300000000000e+10    -1.353730442991271e+01   -6.370526205502261e+01   
1.009400000000000e+10    -1.354664291915237e+01   -6.375319653040744e+01   
1.009500000000000e+10    -1.353691495532125e+01   -6.375975950324342e+01   
1.009600000000000e+10    -1.352896619615439e+01   -6.368364336765924e+01   
1.009700000000000e+10    -1.353351448804741e+01   -6.370744980899959e+01   
1.009800000000000e+10    -1.353679065793053e+01   -6.365926342919789e+01   
1.009900000000000e+10    -1.353491505870446e+01   -6.366473793107410e+01   
1.010000000000000e+10    -1.353794192306471e+01   -6.371080122796844e+01   
1.010100000000000e+10    -1.353428353042825e+01   -6.366315055530723e+01   
1.010200000000000e+10    -1.354308043236237e+01   -6.363154764175124e+01   
1.010300000000000e+10    -1.354502035971743e+01   -6.367636630793981e+01   
1.010400000000000e+10    -1.353936661073190e+01   -6.364234823905328e+01   
1.010500000000000e+10    -1.354875187134009e+01   -6.368373497768663e+01   
1.010600000000000e+10    -1.353208422544630e+01   -6.359932886703182e+01   
1.010700000000000e+10    -1.355052350084784e+01   -6.376451875598088e+01   
1.010800000000000e+10    -1.355315185746596e+01   -6.363380515491463e+01   
1.010900000000000e+10    -1.354805839434021e+01   -6.372938456533927e+01   
1.011000000000000e+10    -1.353815312976050e+01   -6.366375998530994e+01   
1.011100000000000e+10    -1.353837489698129e+01   -6.382738449145136e+01   
1.011200000000000e+10    -1.355028972553478e+01   -6.378115185834460e+01   
1.011300000000000e+10    -1.354086700994472e+01   -6.388673591600239e+01   
1.011400000000000e+10    -1.354534082170001e+01   -6.383320555759011e+01   
1.011500000000000e+10    -1.354578412072866e+01   -6.389660882988235e+01   
1.011600000000000e+10    -1.355399738106820e+01   -6.386483345633401e+01   
1.011700000000000e+10    -1.356605849206675e+01   -6.392186606004226e+01   
1.011800000000000e+10    -1.356001570931884e+01   -6.400199156920134e+01   
1.011900000000000e+10    -1.355908953153105e+01   -6.405805114379832e+01   
1.012000000000000e+10    -1.354692957254477e+01   -6.416085488636230e+01   
1.012100000000000e+10    -1.356522676651943e+01   -6.420400443916580e+01   
1.012200000000000e+10    -1.354632559404593e+01   -6.420368553927207e+01   
1.012300000000000e+10    -1.355317602052082e+01   -6.426023483499840e+01   
1.012400000000000e+10    -1.356105336958588e+01   -6.428281090740414e+01   
1.012500000000000e+10    -1.355578683937446e+01   -6.432800336823757e+01   
1.012600000000000e+10    -1.355629390662278e+01   -6.433768114295353e+01   
1.012700000000000e+10    -1.355878807181572e+01   -6.449759572889602e+01   
1.012800000000000e+10    -1.355133957345120e+01   -6.448011628019276e+01   
1.012900000000000e+10    -1.354983356823029e+01   -6.460525112941833e+01   
1.013000000000000e+10    -1.354753269940097e+01   -6.455486428345063e+01   
1.013100000000000e+10    -1.354856929095178e+01   -6.468324124509611e+01   
1.013200000000000e+10    -1.354902656069687e+01   -6.475349010701179e+01   
1.013300000000000e+10    -1.355540177215653e+01   -6.482739556359539e+01   
1.013400000000000e+10    -1.353756643541138e+01   -6.486227025212479e+01   
1.013500000000000e+10    -1.354144335738235e+01   -6.493321751036063e+01   
1.013600000000000e+10    -1.353139438528501e+01   -6.495959591534734e+01   
1.013700000000000e+10    -1.352520657754750e+01   -6.506216251411657e+01   
1.013800000000000e+10    -1.351962481864006e+01   -6.513420125138005e+01   
1.013900000000000e+10    -1.352199828673961e+01   -6.517287753577797e+01   
1.014000000000000e+10    -1.350805248779939e+01   -6.520188358208293e+01   
1.014100000000000e+10    -1.351601977011582e+01   -6.527521508338904e+01   
1.014200000000000e+10    -1.350125451541187e+01   -6.532313761507415e+01   
1.014300000000000e+10    -1.350485740240636e+01   -6.534535051169962e+01   
1.014400000000000e+10    -1.349312748582332e+01   -6.538634447742454e+01   
1.014500000000000e+10    -1.349714463079145e+01   -6.548669463238640e+01   
1.014600000000000e+10    -1.348042425746631e+01   -6.553723657420288e+01   
1.014700000000000e+10    -1.347475731630908e+01   -6.552031216252804e+01   
1.014800000000000e+10    -1.348077613500186e+01   -6.556832229250143e+01   
1.014900000000000e+10    -1.346445015742743e+01   -6.565662653353984e+01   
1.015000000000000e+10    -1.346636313163112e+01   -6.568510978393914e+01   
1.015100000000000e+10    -1.345719228470382e+01   -6.570967102503987e+01   
1.015200000000000e+10    -1.344480540337934e+01   -6.571733561430163e+01   
1.015300000000000e+10    -1.345060752760479e+01   -6.580685225397814e+01   
1.015400000000000e+10    -1.343652804646192e+01   -6.580906398422438e+01   
1.015500000000000e+10    -1.345587675962531e+01   -6.581767439955836e+01   
1.015600000000000e+10    -1.343890130289573e+01   -6.586774165695414e+01   
1.015700000000000e+10    -1.342087935990218e+01   -6.585132399294504e+01   
1.015800000000000e+10    -1.341941964200100e+01   -6.593339300456411e+01   
1.015900000000000e+10    -1.341668433574141e+01   -6.592876655479746e+01   
1.016000000000000e+10    -1.340911926720807e+01   -6.601458889773220e+01   
1.016100000000000e+10    -1.340942877973948e+01   -6.602837565611929e+01   
1.016200000000000e+10    -1.339560748627623e+01   -6.594801777585013e+01   
1.016300000000000e+10    -1.338952432689583e+01   -6.599640288726636e+01   
1.016400000000000e+10    -1.340135313920196e+01   -6.598331182746841e+01   
1.016500000000000e+10    -1.338421775944794e+01   -6.601807301055138e+01   
1.016600000000000e+10    -1.339030745513633e+01   -6.606090395715088e+01   
1.016700000000000e+10    -1.337929872676165e+01   -6.607833041602113e+01   
1.016800000000000e+10    -1.337398849701299e+01   -6.610656445821651e+01   
1.016900000000000e+10    -1.337209042098070e+01   -6.608379087214779e+01   
1.017000000000000e+10    -1.337643753955066e+01   -6.608435166215710e+01   
1.017100000000000e+10    -1.337402619142173e+01   -6.618180288854163e+01   
1.017200000000000e+10    -1.336565468481741e+01   -6.609851916775118e+01   
1.017300000000000e+10    -1.336969043011995e+01   -6.617507495827805e+01   
1.017400000000000e+10    -1.336157103231549e+01   -6.614347535271136e+01   
1.017500000000000e+10    -1.335829107135717e+01   -6.619405545552954e+01   
1.017600000000000e+10    -1.334751843789210e+01   -6.616287713672897e+01   
1.017700000000000e+10    -1.336204249411728e+01   -6.612643714354633e+01   
1.017800000000000e+10    -1.335772106263272e+01   -6.614714402478113e+01   
1.017900000000000e+10    -1.334863758104199e+01   -6.611476854545617e+01   
1.018000000000000e+10    -1.335178833260262e+01   -6.611780332840212e+01   
1.018100000000000e+10    -1.334921247595674e+01   -6.608669435500570e+01   
1.018200000000000e+10    -1.335214677325978e+01   -6.608441204050550e+01   
1.018300000000000e+10    -1.335168509639223e+01   -6.614252210326823e+01   
1.018400000000000e+10    -1.335863291723158e+01   -6.612504402591574e+01   
1.018500000000000e+10    -1.335461775030368e+01   -6.615335867428094e+01   
1.018600000000000e+10    -1.336664291936081e+01   -6.624364256290464e+01   
1.018700000000000e+10    -1.335719130349879e+01   -6.616542583119585e+01   
1.018800000000000e+10    -1.337153465717901e+01   -6.617594424964354e+01   
1.018900000000000e+10    -1.337584976049351e+01   -6.616909094069901e+01   
1.019000000000000e+10    -1.337205875358409e+01   -6.616065925121870e+01   
1.019100000000000e+10    -1.337009440227688e+01   -6.619622674239170e+01   
1.019200000000000e+10    -1.337188460708315e+01   -6.616128080550932e+01   
1.019300000000000e+10    -1.338809916346876e+01   -6.622397775564254e+01   
1.019400000000000e+10    -1.338516908834008e+01   -6.617040713551266e+01   
1.019500000000000e+10    -1.338894154723205e+01   -6.621334222940961e+01   
1.019600000000000e+10    -1.337690266442214e+01   -6.626384759545415e+01   
1.019700000000000e+10    -1.338713677937641e+01   -6.620485199854910e+01   
1.019800000000000e+10    -1.339287046724574e+01   -6.625809735688132e+01   
1.019900000000000e+10    -1.339210835632012e+01   -6.621184092180378e+01   
1.020000000000000e+10    -1.340231541092802e+01   -6.630725604648318e+01   
1.020100000000000e+10    -1.340456194353889e+01   -6.629190911317693e+01   
1.020200000000000e+10    -1.340021023665329e+01   -6.628947144915526e+01   
1.020300000000000e+10    -1.341067818022002e+01   -6.630484245865021e+01   
1.020400000000000e+10    -1.340674793438864e+01   -6.633455530094834e+01   
1.020500000000000e+10    -1.341716765074337e+01   -6.637026019984491e+01   
1.020600000000000e+10    -1.340402035625912e+01   -6.639409995251503e+01   
1.020700000000000e+10    -1.342613422347823e+01   -6.638234993075551e+01   
1.020800000000000e+10    -1.343424801534059e+01   -6.641589751471105e+01   
1.020900000000000e+10    -1.342883247074230e+01   -6.647713610419072e+01   
1.021000000000000e+10    -1.343726014854397e+01   -6.647840236830460e+01   
1.021100000000000e+10    -1.344281969693695e+01   -6.651209088538090e+01   
1.021200000000000e+10    -1.344485019814408e+01   -6.644947268981528e+01   
1.021300000000000e+10    -1.344309740592360e+01   -6.655718972636653e+01   
1.021400000000000e+10    -1.344964934416060e+01   -6.650510850214673e+01   
1.021500000000000e+10    -1.344558023981531e+01   -6.665827708948315e+01   
1.021600000000000e+10    -1.345777219989218e+01   -6.668249502498477e+01   
1.021700000000000e+10    -1.345002047942666e+01   -6.663246274148734e+01   
1.021800000000000e+10    -1.345598484131117e+01   -6.665285871541231e+01   
1.021900000000000e+10    -1.344198530453158e+01   -6.665452072462554e+01   
1.022000000000000e+10    -1.346106267496658e+01   -6.666813174200612e+01   
1.022100000000000e+10    -1.344224732205047e+01   -6.674821854165559e+01   
1.022200000000000e+10    -1.345402407031325e+01   -6.670987828254057e+01   
1.022300000000000e+10    -1.345677355345784e+01   -6.675675512441208e+01   
1.022400000000000e+10    -1.345992594866709e+01   -6.677990336364806e+01   
1.022500000000000e+10    -1.345312397359646e+01   -6.678631239082510e+01   
1.022600000000000e+10    -1.346091444461785e+01   -6.679476429000054e+01   
1.022700000000000e+10    -1.346263218249877e+01   -6.687099544722832e+01   
1.022800000000000e+10    -1.346664650448832e+01   -6.676178569076170e+01   
1.022900000000000e+10    -1.345900731909855e+01   -6.688232913077722e+01   
1.023000000000000e+10    -1.346992447256335e+01   -6.686039240671936e+01   
1.023100000000000e+10    -1.345436495074200e+01   -6.690883697388620e+01   
1.023200000000000e+10    -1.347347374878293e+01   -6.687507531395589e+01   
1.023300000000000e+10    -1.346038197766756e+01   -6.700477759346278e+01   
1.023400000000000e+10    -1.347899353964199e+01   -6.696516943369123e+01   
1.023500000000000e+10    -1.346325949776287e+01   -6.701591723094860e+01   
1.023600000000000e+10    -1.347455222999471e+01   -6.693841195261405e+01   
1.023700000000000e+10    -1.347117143560038e+01   -6.696505097588569e+01   
1.023800000000000e+10    -1.348604923999444e+01   -6.701067424802653e+01   
1.023900000000000e+10    -1.347851657563142e+01   -6.697480266359356e+01   
1.024000000000000e+10    -1.348608664054704e+01   -6.696692556052597e+01   
1.024100000000000e+10    -1.348809653724071e+01   -6.702905966423320e+01   
1.024200000000000e+10    -1.348076489455298e+01   -6.699320221394107e+01   
1.024300000000000e+10    -1.347830682678026e+01   -6.695089613119204e+01   
1.024400000000000e+10    -1.348315562564247e+01   -6.701415138308941e+01   
1.024500000000000e+10    -1.348320233073203e+01   -6.696993999216195e+01   
1.024600000000000e+10    -1.348145472480558e+01   -6.706670662696075e+01   
1.024700000000000e+10    -1.348651490063088e+01   -6.697104650734350e+01   
1.024800000000000e+10    -1.349867902411934e+01   -6.705994312552903e+01   
1.024900000000000e+10    -1.348534096788163e+01   -6.710387708723731e+01   
1.025000000000000e+10    -1.348188228587293e+01   -6.704906058812954e+01   
1.025100000000000e+10    -1.349159807115235e+01   -6.697083853737165e+01   
1.025200000000000e+10    -1.349346619147581e+01   -6.705787054248778e+01   
1.025300000000000e+10    -1.348377778455004e+01   -6.709148497658944e+01   
1.025400000000000e+10    -1.347971117447959e+01   -6.709846104255014e+01   
1.025500000000000e+10    -1.348907508610731e+01   -6.704674469109052e+01   
1.025600000000000e+10    -1.349166485836148e+01   -6.705993310911988e+01   
