[Version] 2.0
! Rohde & Schwarz Vector Network Analyzer
! Rohde-Schwarz,ZNL20-2Port,1323001220200009,1.71.1.10-23.02.1.238
! 
! Port Assignments:
! Nominal Port -> Actual Test Port
! --------------------------------
!   1 -> 1

! Created: GMT 2024-09-04 14:22:00

# Hz S DB R 50

[Number of Ports] 1
[Number of Frequencies] 2001

[Network Data] 
! freq[Hz]               S11[mag dB]              S11[ang]                 
1.000000000000000e+10    -1.434949527515725e+01   -6.202240332600531e+01   
1.000100000000000e+10    -1.435601273038289e+01   -6.200272454226710e+01   
1.000200000000000e+10    -1.434705624412403e+01   -6.187957636350831e+01   
1.000300000000000e+10    -1.433633815282048e+01   -6.180766620649660e+01   
1.000400000000000e+10    -1.433539128235596e+01   -6.181583585306060e+01   
1.000500000000000e+10    -1.431971524131264e+01   -6.184974369579258e+01   
1.000600000000000e+10    -1.432793423118788e+01   -6.174990917892249e+01   
1.000700000000000e+10    -1.430807925072195e+01   -6.184060516549633e+01   
1.000800000000000e+10    -1.432494109736978e+01   -6.178092664726259e+01   
1.000900000000000e+10    -1.428913616128630e+01   -6.167255303682581e+01   
1.001000000000000e+10    -1.430294240017715e+01   -6.177123942802395e+01   
1.001100000000000e+10    -1.429482864293175e+01   -6.170193949756825e+01   
1.001200000000000e+10    -1.429326112427892e+01   -6.172858218222306e+01   
1.001300000000000e+10    -1.428525281498148e+01   -6.172588217330257e+01   
1.001400000000000e+10    -1.429127372631974e+01   -6.164821011274026e+01   
1.001500000000000e+10    -1.428401666397600e+01   -6.177286709926702e+01   
1.001600000000000e+10    -1.428784104107602e+01   -6.167494832784868e+01   
1.001700000000000e+10    -1.429206404544777e+01   -6.172516017737189e+01   
1.001800000000000e+10    -1.428597077377887e+01   -6.171381955570016e+01   
1.001900000000000e+10    -1.428430897279216e+01   -6.175817229601369e+01   
1.002000000000000e+10    -1.428531431626913e+01   -6.167061429120762e+01   
1.002100000000000e+10    -1.427750617003373e+01   -6.168722428441396e+01   
1.002200000000000e+10    -1.427573916357955e+01   -6.179797177672644e+01   
1.002300000000000e+10    -1.427759678964636e+01   -6.178801179749323e+01   
1.002400000000000e+10    -1.428420455789557e+01   -6.193244981987942e+01   
1.002500000000000e+10    -1.427568834773417e+01   -6.190881677279015e+01   
1.002600000000000e+10    -1.427266260155903e+01   -6.193792015132599e+01   
1.002700000000000e+10    -1.426608675601462e+01   -6.194117237085547e+01   
1.002800000000000e+10    -1.425862372334656e+01   -6.204168870475915e+01   
1.002900000000000e+10    -1.425641393304583e+01   -6.203502303719088e+01   
1.003000000000000e+10    -1.425573499908463e+01   -6.212197262001899e+01   
1.003100000000000e+10    -1.424995133183961e+01   -6.225285099521948e+01   
1.003200000000000e+10    -1.425034080798168e+01   -6.223743199293339e+01   
1.003300000000000e+10    -1.425640296029048e+01   -6.225224620299619e+01   
1.003400000000000e+10    -1.424068507846454e+01   -6.239235820807655e+01   
1.003500000000000e+10    -1.423897386797998e+01   -6.237310168450747e+01   
1.003600000000000e+10    -1.424623661604121e+01   -6.242119244366206e+01   
1.003700000000000e+10    -1.422988586500633e+01   -6.254149983481764e+01   
1.003800000000000e+10    -1.423376301132493e+01   -6.258563189044767e+01   
1.003900000000000e+10    -1.422323873310635e+01   -6.272553783048146e+01   
1.004000000000000e+10    -1.421670958980020e+01   -6.263705000544891e+01   
1.004100000000000e+10    -1.419848225491605e+01   -6.279989058855936e+01   
1.004200000000000e+10    -1.419927350936675e+01   -6.270547612183064e+01   
1.004300000000000e+10    -1.419360680283177e+01   -6.284533149682304e+01   
1.004400000000000e+10    -1.418280118950137e+01   -6.299101389574298e+01   
1.004500000000000e+10    -1.419007586585235e+01   -6.294858939388946e+01   
1.004600000000000e+10    -1.416347312475646e+01   -6.298134116425379e+01   
1.004700000000000e+10    -1.415666981860094e+01   -6.315035365813662e+01   
1.004800000000000e+10    -1.415299770817360e+01   -6.321082002830452e+01   
1.004900000000000e+10    -1.414916090603660e+01   -6.323249146081849e+01   
1.005000000000000e+10    -1.414419137728336e+01   -6.324297691270235e+01   
1.005100000000000e+10    -1.411582313664494e+01   -6.329667824362897e+01   
1.005200000000000e+10    -1.410137139055097e+01   -6.338428084438941e+01   
1.005300000000000e+10    -1.409146594798360e+01   -6.348646264841339e+01   
1.005400000000000e+10    -1.409194328853120e+01   -6.350968142556317e+01   
1.005500000000000e+10    -1.408156943686486e+01   -6.361326860771072e+01   
1.005600000000000e+10    -1.406279098954228e+01   -6.355525080272342e+01   
1.005700000000000e+10    -1.406244737622903e+01   -6.363221352589495e+01   
1.005800000000000e+10    -1.403290727621336e+01   -6.360339011098075e+01   
1.005900000000000e+10    -1.402717709073760e+01   -6.375902149600901e+01   
1.006000000000000e+10    -1.401338105824327e+01   -6.382083860945278e+01   
1.006100000000000e+10    -1.400336898057562e+01   -6.381091115645252e+01   
1.006200000000000e+10    -1.398795358625131e+01   -6.380908921864820e+01   
1.006300000000000e+10    -1.396208644285499e+01   -6.380600852593959e+01   
1.006400000000000e+10    -1.396310755490719e+01   -6.381323707589372e+01   
1.006500000000000e+10    -1.395342528445626e+01   -6.392814664216551e+01   
1.006600000000000e+10    -1.394436245038317e+01   -6.392836849377083e+01   
1.006700000000000e+10    -1.393077023957798e+01   -6.387797334906938e+01   
1.006800000000000e+10    -1.393454338071850e+01   -6.400730309350040e+01   
1.006900000000000e+10    -1.390362821835880e+01   -6.395259953516111e+01   
1.007000000000000e+10    -1.389516115886564e+01   -6.398621598335737e+01   
1.007100000000000e+10    -1.388396937422714e+01   -6.398127919847304e+01   
1.007200000000000e+10    -1.388435350236712e+01   -6.405778568596033e+01   
1.007300000000000e+10    -1.386188660019884e+01   -6.397395860640182e+01   
1.007400000000000e+10    -1.385856794793534e+01   -6.402550436671827e+01   
1.007500000000000e+10    -1.385687848479597e+01   -6.398011422008054e+01   
1.007600000000000e+10    -1.383832658278976e+01   -6.404619697655667e+01   
1.007700000000000e+10    -1.382939943633913e+01   -6.400870017467102e+01   
1.007800000000000e+10    -1.381406731560665e+01   -6.399921698709414e+01   
1.007900000000000e+10    -1.379560871694796e+01   -6.392214986892409e+01   
1.008000000000000e+10    -1.379459342073604e+01   -6.391182179208780e+01   
1.008100000000000e+10    -1.379999450130510e+01   -6.406911863005001e+01   
1.008200000000000e+10    -1.379245964163236e+01   -6.405343751015117e+01   
1.008300000000000e+10    -1.378504155422602e+01   -6.392176644154809e+01   
1.008400000000000e+10    -1.378000596389835e+01   -6.396825955515733e+01   
1.008500000000000e+10    -1.376887143109145e+01   -6.396352767596527e+01   
1.008600000000000e+10    -1.376216027060394e+01   -6.392967705180162e+01   
1.008700000000000e+10    -1.376182043495002e+01   -6.393099036983564e+01   
1.008800000000000e+10    -1.375550483709394e+01   -6.397188169908711e+01   
1.008900000000000e+10    -1.375057606887704e+01   -6.386739800559144e+01   
1.009000000000000e+10    -1.374113857869989e+01   -6.394440940031888e+01   
1.009100000000000e+10    -1.374245248979156e+01   -6.398504584061575e+01   
1.009200000000000e+10    -1.373521924352078e+01   -6.388285255990703e+01   
1.009300000000000e+10    -1.373759979187080e+01   -6.388725791837496e+01   
1.009400000000000e+10    -1.374321713730831e+01   -6.390860314631544e+01   
1.009500000000000e+10    -1.373980931261903e+01   -6.392690526420060e+01   
1.009600000000000e+10    -1.373267586942248e+01   -6.386951348932317e+01   
1.009700000000000e+10    -1.373142265113033e+01   -6.390315662475648e+01   
1.009800000000000e+10    -1.373916083193997e+01   -6.384471445416070e+01   
1.009900000000000e+10    -1.374031538266563e+01   -6.385709181068061e+01   
1.010000000000000e+10    -1.373941702764735e+01   -6.392307102915974e+01   
1.010100000000000e+10    -1.373941122185492e+01   -6.386843741619195e+01   
1.010200000000000e+10    -1.374739298714137e+01   -6.385786002220497e+01   
1.010300000000000e+10    -1.375373196796892e+01   -6.389902141400246e+01   
1.010400000000000e+10    -1.374316733910204e+01   -6.390007778848072e+01   
1.010500000000000e+10    -1.375139683050143e+01   -6.394793481481481e+01   
1.010600000000000e+10    -1.373931884757959e+01   -6.387197892860792e+01   
1.010700000000000e+10    -1.375892803491139e+01   -6.401440567689092e+01   
1.010800000000000e+10    -1.375988457421792e+01   -6.387992317042703e+01   
1.010900000000000e+10    -1.375931640630374e+01   -6.399691530022593e+01   
1.011000000000000e+10    -1.375321493672618e+01   -6.395751721272498e+01   
1.011100000000000e+10    -1.374928492315855e+01   -6.411420109680267e+01   
1.011200000000000e+10    -1.376609566850430e+01   -6.410262149333433e+01   
1.011300000000000e+10    -1.375615122641954e+01   -6.417662581017410e+01   
1.011400000000000e+10    -1.376526712291141e+01   -6.414393686331057e+01   
1.011500000000000e+10    -1.376213663465574e+01   -6.425535583126469e+01   
1.011600000000000e+10    -1.377182454627338e+01   -6.418703247934627e+01   
1.011700000000000e+10    -1.378598723421706e+01   -6.425586563559531e+01   
1.011800000000000e+10    -1.377853703165805e+01   -6.430775463148854e+01   
1.011900000000000e+10    -1.377957379106718e+01   -6.436194071281686e+01   
1.012000000000000e+10    -1.377184046110827e+01   -6.445617023741076e+01   
1.012100000000000e+10    -1.379173795308315e+01   -6.455655843735073e+01   
1.012200000000000e+10    -1.376884549146769e+01   -6.452818050064964e+01   
1.012300000000000e+10    -1.377989953102520e+01   -6.459463297518025e+01   
1.012400000000000e+10    -1.379109723302627e+01   -6.461527195514100e+01   
1.012500000000000e+10    -1.378129875698033e+01   -6.468298732698294e+01   
1.012600000000000e+10    -1.378776899273580e+01   -6.469382010898059e+01   
1.012700000000000e+10    -1.379450895211477e+01   -6.482690551834759e+01   
1.012800000000000e+10    -1.378425304149178e+01   -6.483219421616845e+01   
1.012900000000000e+10    -1.378472688373860e+01   -6.493412054994467e+01   
1.013000000000000e+10    -1.378228517290182e+01   -6.489798680032159e+01   
1.013100000000000e+10    -1.378199687127348e+01   -6.501958772879340e+01   
1.013200000000000e+10    -1.378676104002358e+01   -6.510303878407679e+01   
1.013300000000000e+10    -1.379439379377549e+01   -6.518813715729625e+01   
1.013400000000000e+10    -1.377366178498229e+01   -6.519997007698481e+01   
1.013500000000000e+10    -1.377976247242825e+01   -6.530372839407579e+01   
1.013600000000000e+10    -1.376851283986577e+01   -6.529959970685954e+01   
1.013700000000000e+10    -1.376146938560934e+01   -6.538532987229397e+01   
1.013800000000000e+10    -1.376048829637881e+01   -6.545447099056551e+01   
1.013900000000000e+10    -1.375824937467082e+01   -6.553982229403900e+01   
1.014000000000000e+10    -1.374852403896864e+01   -6.555428106511290e+01   
1.014100000000000e+10    -1.375620697713141e+01   -6.563482846355532e+01   
1.014200000000000e+10    -1.374227305073037e+01   -6.570840489977407e+01   
1.014300000000000e+10    -1.374580906819071e+01   -6.571728315087626e+01   
1.014400000000000e+10    -1.373473133853296e+01   -6.576399960933189e+01   
1.014500000000000e+10    -1.373904445479026e+01   -6.583295428217654e+01   
1.014600000000000e+10    -1.372639783367829e+01   -6.587759783607785e+01   
1.014700000000000e+10    -1.371513507299801e+01   -6.585797095363333e+01   
1.014800000000000e+10    -1.372489590383114e+01   -6.590630164114162e+01   
1.014900000000000e+10    -1.371019470503364e+01   -6.601753401658756e+01   
1.015000000000000e+10    -1.370987444389244e+01   -6.605294222324545e+01   
1.015100000000000e+10    -1.370153395045888e+01   -6.608624149968684e+01   
1.015200000000000e+10    -1.369379308106558e+01   -6.609068238707074e+01   
1.015300000000000e+10    -1.369650841104170e+01   -6.620095589421528e+01   
1.015400000000000e+10    -1.368443033772705e+01   -6.616415066376939e+01   
1.015500000000000e+10    -1.370508401622940e+01   -6.619766002976520e+01   
1.015600000000000e+10    -1.369007854223210e+01   -6.622967234030716e+01   
1.015700000000000e+10    -1.367468855375458e+01   -6.618258454448606e+01   
1.015800000000000e+10    -1.367215522826005e+01   -6.627195532379147e+01   
1.015900000000000e+10    -1.366895592500617e+01   -6.629129731194918e+01   
1.016000000000000e+10    -1.366138885372449e+01   -6.637723418084425e+01   
1.016100000000000e+10    -1.366385332936709e+01   -6.636887856926256e+01   
1.016200000000000e+10    -1.365335994697403e+01   -6.631892761155622e+01   
1.016300000000000e+10    -1.364615664528365e+01   -6.634845142391998e+01   
1.016400000000000e+10    -1.365641706727581e+01   -6.633079313033549e+01   
1.016500000000000e+10    -1.364018659897168e+01   -6.633874372904239e+01   
1.016600000000000e+10    -1.364961218122437e+01   -6.637066861078954e+01   
1.016700000000000e+10    -1.363432300350312e+01   -6.640112292806251e+01   
1.016800000000000e+10    -1.362940541921078e+01   -6.641403111587100e+01   
1.016900000000000e+10    -1.363194564404141e+01   -6.634028291020081e+01   
1.017000000000000e+10    -1.363427489448572e+01   -6.637486959689883e+01   
1.017100000000000e+10    -1.363151531284620e+01   -6.648188538076393e+01   
1.017200000000000e+10    -1.362337710991900e+01   -6.635511931468939e+01   
1.017300000000000e+10    -1.363010259853655e+01   -6.644982620014201e+01   
1.017400000000000e+10    -1.362499501997641e+01   -6.644356053621334e+01   
1.017500000000000e+10    -1.361818219377668e+01   -6.648109784114003e+01   
1.017600000000000e+10    -1.360496929348242e+01   -6.641256110433241e+01   
1.017700000000000e+10    -1.362499525689471e+01   -6.640195072839160e+01   
1.017800000000000e+10    -1.362071910920644e+01   -6.643348556299927e+01   
1.017900000000000e+10    -1.361254075200066e+01   -6.637247256343204e+01   
1.018000000000000e+10    -1.361170014193002e+01   -6.639935580032994e+01   
1.018100000000000e+10    -1.361014495701433e+01   -6.632499727010357e+01   
1.018200000000000e+10    -1.361903296000712e+01   -6.632945279866787e+01   
1.018300000000000e+10    -1.361397801334549e+01   -6.634240019039446e+01   
1.018400000000000e+10    -1.362435948248125e+01   -6.632405966740120e+01   
1.018500000000000e+10    -1.361793016846092e+01   -6.633596387495497e+01   
1.018600000000000e+10    -1.362959604320682e+01   -6.646649193029693e+01   
1.018700000000000e+10    -1.362351992644646e+01   -6.636651943707014e+01   
1.018800000000000e+10    -1.363714426301527e+01   -6.639658058541509e+01   
1.018900000000000e+10    -1.363904841947081e+01   -6.636392106141203e+01   
1.019000000000000e+10    -1.363626559051560e+01   -6.631661801849596e+01   
1.019100000000000e+10    -1.363882416766382e+01   -6.635091645289324e+01   
1.019200000000000e+10    -1.363927080638350e+01   -6.633520808246540e+01   
1.019300000000000e+10    -1.365774569910387e+01   -6.639394663492449e+01   
1.019400000000000e+10    -1.364968473544858e+01   -6.633556574107050e+01   
1.019500000000000e+10    -1.365644995456177e+01   -6.636419898582315e+01   
1.019600000000000e+10    -1.364813309526684e+01   -6.638518463985906e+01   
1.019700000000000e+10    -1.365242423303677e+01   -6.634912129725321e+01   
1.019800000000000e+10    -1.365667257478488e+01   -6.639171350298230e+01   
1.019900000000000e+10    -1.365961317932995e+01   -6.633367260275728e+01   
1.020000000000000e+10    -1.366622478208273e+01   -6.644700196138278e+01   
1.020100000000000e+10    -1.367063852220457e+01   -6.642438470761164e+01   
1.020200000000000e+10    -1.366805110325386e+01   -6.640407426237000e+01   
1.020300000000000e+10    -1.367839268590161e+01   -6.639848973456075e+01   
1.020400000000000e+10    -1.367195034767663e+01   -6.646401723568547e+01   
1.020500000000000e+10    -1.368610078123196e+01   -6.648912879242798e+01   
1.020600000000000e+10    -1.367332413188585e+01   -6.648023260759331e+01   
1.020700000000000e+10    -1.369304061227415e+01   -6.646133675379721e+01   
1.020800000000000e+10    -1.370205545402381e+01   -6.649328191329076e+01   
1.020900000000000e+10    -1.369537688029146e+01   -6.654546728696441e+01   
1.021000000000000e+10    -1.369792788452570e+01   -6.652838293388183e+01   
1.021100000000000e+10    -1.370389953744444e+01   -6.654495991276762e+01   
1.021200000000000e+10    -1.370959793245672e+01   -6.650343460420547e+01   
1.021300000000000e+10    -1.370449226176823e+01   -6.660387978359353e+01   
1.021400000000000e+10    -1.371455244409560e+01   -6.653844922040059e+01   
1.021500000000000e+10    -1.370951774223017e+01   -6.670551635988146e+01   
1.021600000000000e+10    -1.372597219363604e+01   -6.671433506830593e+01   
1.021700000000000e+10    -1.371302686971981e+01   -6.667687640385488e+01   
1.021800000000000e+10    -1.372001979326705e+01   -6.666175746850909e+01   
1.021900000000000e+10    -1.371182791486254e+01   -6.668407462018972e+01   
1.022000000000000e+10    -1.372422974881132e+01   -6.666484533286226e+01   
1.022100000000000e+10    -1.371158422885870e+01   -6.675761428244901e+01   
1.022200000000000e+10    -1.371902585432606e+01   -6.674125633642969e+01   
1.022300000000000e+10    -1.371770380845354e+01   -6.676154548540869e+01   
1.022400000000000e+10    -1.372180836138705e+01   -6.680601301932548e+01   
1.022500000000000e+10    -1.371868917456161e+01   -6.683189509113645e+01   
1.022600000000000e+10    -1.372595040374602e+01   -6.679825451256902e+01   
1.022700000000000e+10    -1.372256472434450e+01   -6.683510478606253e+01   
1.022800000000000e+10    -1.372930353738551e+01   -6.677306870257615e+01   
1.022900000000000e+10    -1.371318125365858e+01   -6.688334999460929e+01   
1.023000000000000e+10    -1.372886043223071e+01   -6.686420607873410e+01   
1.023100000000000e+10    -1.371464658162575e+01   -6.690494501736377e+01   
1.023200000000000e+10    -1.372919469876927e+01   -6.684720930837469e+01   
1.023300000000000e+10    -1.371542399915185e+01   -6.696204173294915e+01   
1.023400000000000e+10    -1.373584100300629e+01   -6.694524955423074e+01   
1.023500000000000e+10    -1.371950692090947e+01   -6.697565926197288e+01   
1.023600000000000e+10    -1.373137544483171e+01   -6.692120036537119e+01   
1.023700000000000e+10    -1.373029373344830e+01   -6.695123396758697e+01   
1.023800000000000e+10    -1.374091618728170e+01   -6.695149833623869e+01   
1.023900000000000e+10    -1.373482775948928e+01   -6.694126094101239e+01   
1.024000000000000e+10    -1.373943388769746e+01   -6.689297325443050e+01   
1.024100000000000e+10    -1.374136514390280e+01   -6.696414720499907e+01   
1.024200000000000e+10    -1.373661695373444e+01   -6.694300395640991e+01   
1.024300000000000e+10    -1.373108325305251e+01   -6.689122149034112e+01   
1.024400000000000e+10    -1.373325029209177e+01   -6.694823312513505e+01   
1.024500000000000e+10    -1.373342363011161e+01   -6.690197634837791e+01   
1.024600000000000e+10    -1.373543064832868e+01   -6.700730609539211e+01   
1.024700000000000e+10    -1.373662779866558e+01   -6.692823462475884e+01   
1.024800000000000e+10    -1.374794957465264e+01   -6.699446792751273e+01   
1.024900000000000e+10    -1.373408987183572e+01   -6.702461595682387e+01   
1.025000000000000e+10    -1.373654598195273e+01   -6.696414119791528e+01   
1.025100000000000e+10    -1.373711852175171e+01   -6.690770582476270e+01   
1.025200000000000e+10    -1.374408318727165e+01   -6.698644260272128e+01   
1.025300000000000e+10    -1.372998657767536e+01   -6.703998377351559e+01   
1.025400000000000e+10    -1.372615583953572e+01   -6.700616823096446e+01   
1.025500000000000e+10    -1.373947206311508e+01   -6.698260637258637e+01   
1.025600000000000e+10    -1.373890030949340e+01   -6.699419936224226e+01   
