[Version] 2.0
! Rohde & Schwarz Vector Network Analyzer
! Rohde-Schwarz,ZNL20-2Port,1323001220200009,1.71.1.10-23.02.1.238
! 
! Port Assignments:
! Nominal Port -> Actual Test Port
! --------------------------------
!   1 -> 1

! Created: GMT 2024-09-04 14:22:10

# Hz S DB R 50

[Number of Ports] 1
[Number of Frequencies] 2001

[Network Data] 
! freq[Hz]               S11[mag dB]              S11[ang]                 
1.000000000000000e+10    -1.448083560779482e+01   -6.243588491799404e+01   
1.000100000000000e+10    -1.448076639828485e+01   -6.240630256966884e+01   
1.000200000000000e+10    -1.447438464817138e+01   -6.228473583223491e+01   
1.000300000000000e+10    -1.446140584014880e+01   -6.220810472388934e+01   
1.000400000000000e+10    -1.446893761553672e+01   -6.220985298230430e+01   
1.000500000000000e+10    -1.445874214810597e+01   -6.222039615850564e+01   
1.000600000000000e+10    -1.446653167912044e+01   -6.206710223837445e+01   
1.000700000000000e+10    -1.444659276081913e+01   -6.217576102067630e+01   
1.000800000000000e+10    -1.446863185749296e+01   -6.212487177305159e+01   
1.000900000000000e+10    -1.443734239028867e+01   -6.200023508901118e+01   
1.001000000000000e+10    -1.445193576337988e+01   -6.206789835325178e+01   
1.001100000000000e+10    -1.444697307020294e+01   -6.197316156105956e+01   
1.001200000000000e+10    -1.444215237824635e+01   -6.200370843100262e+01   
1.001300000000000e+10    -1.443944248177284e+01   -6.198215072580097e+01   
1.001400000000000e+10    -1.444490829855272e+01   -6.190154150771860e+01   
1.001500000000000e+10    -1.444044674694438e+01   -6.203348666312929e+01   
1.001600000000000e+10    -1.444412431637837e+01   -6.190351141012142e+01   
1.001700000000000e+10    -1.444698358371233e+01   -6.190050053348595e+01   
1.001800000000000e+10    -1.445079914424960e+01   -6.188361614596464e+01   
1.001900000000000e+10    -1.444617278971232e+01   -6.193286599109046e+01   
1.002000000000000e+10    -1.444696472173075e+01   -6.181321337777376e+01   
1.002100000000000e+10    -1.444085053614072e+01   -6.182217732548586e+01   
1.002200000000000e+10    -1.444076399259330e+01   -6.189036266781181e+01   
1.002300000000000e+10    -1.444156566233360e+01   -6.188020748030016e+01   
1.002400000000000e+10    -1.445072289827744e+01   -6.197680631677649e+01   
1.002500000000000e+10    -1.444681083288199e+01   -6.193287836094391e+01   
1.002600000000000e+10    -1.443923081457703e+01   -6.198916602464384e+01   
1.002700000000000e+10    -1.442985239449886e+01   -6.194327027174324e+01   
1.002800000000000e+10    -1.442997593316315e+01   -6.206775230850462e+01   
1.002900000000000e+10    -1.442684617719569e+01   -6.199660049827261e+01   
1.003000000000000e+10    -1.442638097694506e+01   -6.206199018662336e+01   
1.003100000000000e+10    -1.442705801890655e+01   -6.219101258595328e+01   
1.003200000000000e+10    -1.441961744594561e+01   -6.213445210831908e+01   
1.003300000000000e+10    -1.442556251708998e+01   -6.213483639374169e+01   
1.003400000000000e+10    -1.441259785447702e+01   -6.226322766466402e+01   
1.003500000000000e+10    -1.440617545310822e+01   -6.222559811604353e+01   
1.003600000000000e+10    -1.441519342951051e+01   -6.228734560424732e+01   
1.003700000000000e+10    -1.440231986033310e+01   -6.237019302556142e+01   
1.003800000000000e+10    -1.439937186268049e+01   -6.234652052916019e+01   
1.003900000000000e+10    -1.439495007544759e+01   -6.252334900120668e+01   
1.004000000000000e+10    -1.438724236110271e+01   -6.237936804472480e+01   
1.004100000000000e+10    -1.436527721047121e+01   -6.253857450054301e+01   
1.004200000000000e+10    -1.436326216780000e+01   -6.244484413883445e+01   
1.004300000000000e+10    -1.436143066611680e+01   -6.256428820089701e+01   
1.004400000000000e+10    -1.435243837115178e+01   -6.268087657128267e+01   
1.004500000000000e+10    -1.435199537686008e+01   -6.263042555700090e+01   
1.004600000000000e+10    -1.432935780479237e+01   -6.263258052490482e+01   
1.004700000000000e+10    -1.431883733666220e+01   -6.279732361835416e+01   
1.004800000000000e+10    -1.431220424977791e+01   -6.283893376641385e+01   
1.004900000000000e+10    -1.431225004707578e+01   -6.281722479784877e+01   
1.005000000000000e+10    -1.430569931714132e+01   -6.281261198048111e+01   
1.005100000000000e+10    -1.427210792443302e+01   -6.283984123721553e+01   
1.005200000000000e+10    -1.425724274972215e+01   -6.290023607735861e+01   
1.005300000000000e+10    -1.425175250161662e+01   -6.303563031288502e+01   
1.005400000000000e+10    -1.424777728685561e+01   -6.300610140275539e+01   
1.005500000000000e+10    -1.423373176040949e+01   -6.310981552675340e+01   
1.005600000000000e+10    -1.421298507228456e+01   -6.304312538280132e+01   
1.005700000000000e+10    -1.421055974405390e+01   -6.307816405459872e+01   
1.005800000000000e+10    -1.417610401269372e+01   -6.301857892651565e+01   
1.005900000000000e+10    -1.417350010595965e+01   -6.315914231726872e+01   
1.006000000000000e+10    -1.415475053628794e+01   -6.321488350888595e+01   
1.006100000000000e+10    -1.414401275405224e+01   -6.319038515327968e+01   
1.006200000000000e+10    -1.412552601620681e+01   -6.319705827822981e+01   
1.006300000000000e+10    -1.409712775841152e+01   -6.317026224659531e+01   
1.006400000000000e+10    -1.409568088805658e+01   -6.320372287305061e+01   
1.006500000000000e+10    -1.408295530132386e+01   -6.326059163438578e+01   
1.006600000000000e+10    -1.407063116660493e+01   -6.323185151930380e+01   
1.006700000000000e+10    -1.405486955726762e+01   -6.316500133614461e+01   
1.006800000000000e+10    -1.406144691431215e+01   -6.331820207877414e+01   
1.006900000000000e+10    -1.402275108656328e+01   -6.319943645578442e+01   
1.007000000000000e+10    -1.401538475593222e+01   -6.324300520825011e+01   
1.007100000000000e+10    -1.399991777781704e+01   -6.320567448039658e+01   
1.007200000000000e+10    -1.399546040567289e+01   -6.330158822160968e+01   
1.007300000000000e+10    -1.397647091800364e+01   -6.323154298511626e+01   
1.007400000000000e+10    -1.395968390655912e+01   -6.324007223006293e+01   
1.007500000000000e+10    -1.395429211045973e+01   -6.317622543872653e+01   
1.007600000000000e+10    -1.394180213238627e+01   -6.324378438015361e+01   
1.007700000000000e+10    -1.392167247302123e+01   -6.317551334120179e+01   
1.007800000000000e+10    -1.390623025086019e+01   -6.318236369571147e+01   
1.007900000000000e+10    -1.388312140087499e+01   -6.309895224619754e+01   
1.008000000000000e+10    -1.388132116071692e+01   -6.308102409680092e+01   
1.008100000000000e+10    -1.388190999813365e+01   -6.322146440079364e+01   
1.008200000000000e+10    -1.387155835347201e+01   -6.316430663268776e+01   
1.008300000000000e+10    -1.386281239631996e+01   -6.305988193742024e+01   
1.008400000000000e+10    -1.385619280528272e+01   -6.311241897972037e+01   
1.008500000000000e+10    -1.384273614991713e+01   -6.310559756514686e+01   
1.008600000000000e+10    -1.383358281442549e+01   -6.306801714414847e+01   
1.008700000000000e+10    -1.382608882978236e+01   -6.303234753611827e+01   
1.008800000000000e+10    -1.382157184490587e+01   -6.311097158834458e+01   
1.008900000000000e+10    -1.380903110658836e+01   -6.297634610023404e+01   
1.009000000000000e+10    -1.379466818732696e+01   -6.305152058381730e+01   
1.009100000000000e+10    -1.379496986774288e+01   -6.306583383612115e+01   
1.009200000000000e+10    -1.378650668103786e+01   -6.299104407799202e+01   
1.009300000000000e+10    -1.378389914800873e+01   -6.296401131972214e+01   
1.009400000000000e+10    -1.378701911533327e+01   -6.299730027393510e+01   
1.009500000000000e+10    -1.377897138133534e+01   -6.302814449510048e+01   
1.009600000000000e+10    -1.376458934371221e+01   -6.298346046510402e+01   
1.009700000000000e+10    -1.376937132455410e+01   -6.300387106032191e+01   
1.009800000000000e+10    -1.376957495756916e+01   -6.294125603709391e+01   
1.009900000000000e+10    -1.376852140578182e+01   -6.297203182434799e+01   
1.010000000000000e+10    -1.376327141371750e+01   -6.303572923568193e+01   
1.010100000000000e+10    -1.376165067174677e+01   -6.297329886622035e+01   
1.010200000000000e+10    -1.376535792331780e+01   -6.297303264932548e+01   
1.010300000000000e+10    -1.376816165429750e+01   -6.302248821027776e+01   
1.010400000000000e+10    -1.375170705573284e+01   -6.300038786036136e+01   
1.010500000000000e+10    -1.375966054584493e+01   -6.304778083641597e+01   
1.010600000000000e+10    -1.374266932735026e+01   -6.298281365663296e+01   
1.010700000000000e+10    -1.376035072366963e+01   -6.314814916313304e+01   
1.010800000000000e+10    -1.376063433061216e+01   -6.303300836452079e+01   
1.010900000000000e+10    -1.375378253359637e+01   -6.312732472373211e+01   
1.011000000000000e+10    -1.374314946557011e+01   -6.309425543619224e+01   
1.011100000000000e+10    -1.374169528046939e+01   -6.325203881073427e+01   
1.011200000000000e+10    -1.375133020923995e+01   -6.324654479810518e+01   
1.011300000000000e+10    -1.373985691122545e+01   -6.335958107100047e+01   
1.011400000000000e+10    -1.374524701638169e+01   -6.330593092368547e+01   
1.011500000000000e+10    -1.374116732197221e+01   -6.338256796894652e+01   
1.011600000000000e+10    -1.374861544733656e+01   -6.337422323736664e+01   
1.011700000000000e+10    -1.375722891137831e+01   -6.346118773764837e+01   
1.011800000000000e+10    -1.374911338597261e+01   -6.350636158335557e+01   
1.011900000000000e+10    -1.374958573250202e+01   -6.358816109325511e+01   
1.012000000000000e+10    -1.373572346255127e+01   -6.372438766400536e+01   
1.012100000000000e+10    -1.374830046236111e+01   -6.377225491824447e+01   
1.012200000000000e+10    -1.373223210407773e+01   -6.379787313991915e+01   
1.012300000000000e+10    -1.373563423628392e+01   -6.385001447977220e+01   
1.012400000000000e+10    -1.374173488581895e+01   -6.390372627494244e+01   
1.012500000000000e+10    -1.373453342680712e+01   -6.394613863062785e+01   
1.012600000000000e+10    -1.373561780475891e+01   -6.399845656392056e+01   
1.012700000000000e+10    -1.373838300458331e+01   -6.416636199095799e+01   
1.012800000000000e+10    -1.373227692538512e+01   -6.417233883450101e+01   
1.012900000000000e+10    -1.372881841123171e+01   -6.428206218156292e+01   
1.013000000000000e+10    -1.372344298855067e+01   -6.427989800596021e+01   
1.013100000000000e+10    -1.372008004412312e+01   -6.438588977314349e+01   
1.013200000000000e+10    -1.372456490333947e+01   -6.448716020918762e+01   
1.013300000000000e+10    -1.372635029919010e+01   -6.456541834443233e+01   
1.013400000000000e+10    -1.371019620179760e+01   -6.464973793543498e+01   
1.013500000000000e+10    -1.371111292009916e+01   -6.473878904019084e+01   
1.013600000000000e+10    -1.369609267263076e+01   -6.477955936506343e+01   
1.013700000000000e+10    -1.369078786240430e+01   -6.485185477309849e+01   
1.013800000000000e+10    -1.368469101002227e+01   -6.497594520504462e+01   
1.013900000000000e+10    -1.368388800937407e+01   -6.505671999569995e+01   
1.014000000000000e+10    -1.367011471958887e+01   -6.506219789909900e+01   
1.014100000000000e+10    -1.368051557660737e+01   -6.517779738553749e+01   
1.014200000000000e+10    -1.365961060799961e+01   -6.523116615958213e+01   
1.014300000000000e+10    -1.366291998525216e+01   -6.527127924037119e+01   
1.014400000000000e+10    -1.365098215492422e+01   -6.535711308552193e+01   
1.014500000000000e+10    -1.365228884340607e+01   -6.548971232482253e+01   
1.014600000000000e+10    -1.363762401597673e+01   -6.554130124312937e+01   
1.014700000000000e+10    -1.362925618596044e+01   -6.553356676559127e+01   
1.014800000000000e+10    -1.363526750875554e+01   -6.559644101742482e+01   
1.014900000000000e+10    -1.362592901910341e+01   -6.573196160803886e+01   
1.015000000000000e+10    -1.362260040523014e+01   -6.577350947421375e+01   
1.015100000000000e+10    -1.361690837117701e+01   -6.582441891146689e+01   
1.015200000000000e+10    -1.360364092450207e+01   -6.584034441846582e+01   
1.015300000000000e+10    -1.360761714313768e+01   -6.595006477930637e+01   
1.015400000000000e+10    -1.359371130186449e+01   -6.595606654805538e+01   
1.015500000000000e+10    -1.361104329143550e+01   -6.601097850972839e+01   
1.015600000000000e+10    -1.359613867040241e+01   -6.605722985325406e+01   
1.015700000000000e+10    -1.358541404984868e+01   -6.606308709867488e+01   
1.015800000000000e+10    -1.358033880490333e+01   -6.614863958720636e+01   
1.015900000000000e+10    -1.357526372039107e+01   -6.618606606404455e+01   
1.016000000000000e+10    -1.356496259923853e+01   -6.625045502931026e+01   
1.016100000000000e+10    -1.357171355288903e+01   -6.631496624417294e+01   
1.016200000000000e+10    -1.355787154289995e+01   -6.626658391354565e+01   
1.016300000000000e+10    -1.355256191938352e+01   -6.629290171619363e+01   
1.016400000000000e+10    -1.356243586050251e+01   -6.632347650481336e+01   
1.016500000000000e+10    -1.354634841438496e+01   -6.633255714984041e+01   
1.016600000000000e+10    -1.355955735917666e+01   -6.640554379820763e+01   
1.016700000000000e+10    -1.354193757346906e+01   -6.646076004398572e+01   
1.016800000000000e+10    -1.354073143847879e+01   -6.647822950372914e+01   
1.016900000000000e+10    -1.354180576249158e+01   -6.643472161395800e+01   
1.017000000000000e+10    -1.354816464010814e+01   -6.648535431366621e+01   
1.017100000000000e+10    -1.354304164141178e+01   -6.659491790296164e+01   
1.017200000000000e+10    -1.353476848614606e+01   -6.652900723453999e+01   
1.017300000000000e+10    -1.353577048789192e+01   -6.658945017623627e+01   
1.017400000000000e+10    -1.353284646388770e+01   -6.656641680381465e+01   
1.017500000000000e+10    -1.353130851935158e+01   -6.662907231803190e+01   
1.017600000000000e+10    -1.352073117125044e+01   -6.660789613071798e+01   
1.017700000000000e+10    -1.353810849457473e+01   -6.659791618845414e+01   
1.017800000000000e+10    -1.353362993621416e+01   -6.666779387865655e+01   
1.017900000000000e+10    -1.352709527545300e+01   -6.661437023305014e+01   
1.018000000000000e+10    -1.352933050525943e+01   -6.664948050914204e+01   
1.018100000000000e+10    -1.353009082969749e+01   -6.664999454039800e+01   
1.018200000000000e+10    -1.353567910663262e+01   -6.665450535543819e+01   
1.018300000000000e+10    -1.353010025189296e+01   -6.667109955695615e+01   
1.018400000000000e+10    -1.354484309052428e+01   -6.668798594976496e+01   
1.018500000000000e+10    -1.354245434101980e+01   -6.670517684140557e+01   
1.018600000000000e+10    -1.355267469370108e+01   -6.683099143072381e+01   
1.018700000000000e+10    -1.354547731548832e+01   -6.676452702881932e+01   
1.018800000000000e+10    -1.356143638254165e+01   -6.680455764360381e+01   
1.018900000000000e+10    -1.356503635489372e+01   -6.680493704037767e+01   
1.019000000000000e+10    -1.356941914833271e+01   -6.678149476004867e+01   
1.019100000000000e+10    -1.356888155260213e+01   -6.682252289964794e+01   
1.019200000000000e+10    -1.357382030233293e+01   -6.676702507905584e+01   
1.019300000000000e+10    -1.358928035552242e+01   -6.686158039253648e+01   
1.019400000000000e+10    -1.359052280061889e+01   -6.683385645906932e+01   
1.019500000000000e+10    -1.359820198841854e+01   -6.686742803120747e+01   
1.019600000000000e+10    -1.358509979515582e+01   -6.691337815739600e+01   
1.019700000000000e+10    -1.359726675265645e+01   -6.688639521553500e+01   
1.019800000000000e+10    -1.360202391006584e+01   -6.691246169342239e+01   
1.019900000000000e+10    -1.360601157561368e+01   -6.690769691125465e+01   
1.020000000000000e+10    -1.361625007592113e+01   -6.699149953369988e+01   
1.020100000000000e+10    -1.361860070897718e+01   -6.697738843839647e+01   
1.020200000000000e+10    -1.361928589359630e+01   -6.697347774805718e+01   
1.020300000000000e+10    -1.363386489834752e+01   -6.696760264015819e+01   
1.020400000000000e+10    -1.363342837990400e+01   -6.704275996736391e+01   
1.020500000000000e+10    -1.364777550097197e+01   -6.709710259561878e+01   
1.020600000000000e+10    -1.363661827856132e+01   -6.707483239903070e+01   
1.020700000000000e+10    -1.365599428720474e+01   -6.706597346037857e+01   
1.020800000000000e+10    -1.366693153254098e+01   -6.711150614165290e+01   
1.020900000000000e+10    -1.366047986451557e+01   -6.714761990787353e+01   
1.021000000000000e+10    -1.366890943676959e+01   -6.721294745719682e+01   
1.021100000000000e+10    -1.367608076331528e+01   -6.722241371627807e+01   
1.021200000000000e+10    -1.368461534746422e+01   -6.714414969357303e+01   
1.021300000000000e+10    -1.368204058492400e+01   -6.726025477353691e+01   
1.021400000000000e+10    -1.369328952764637e+01   -6.722462901452700e+01   
1.021500000000000e+10    -1.369259061655417e+01   -6.735694231795412e+01   
1.021600000000000e+10    -1.370397294291675e+01   -6.740291779124492e+01   
1.021700000000000e+10    -1.369490164292989e+01   -6.735996879437587e+01   
1.021800000000000e+10    -1.370823152605010e+01   -6.738650776744137e+01   
1.021900000000000e+10    -1.370028459945560e+01   -6.737041390700790e+01   
1.022000000000000e+10    -1.371095833793363e+01   -6.736311327267289e+01   
1.022100000000000e+10    -1.370036825017405e+01   -6.746474523661077e+01   
1.022200000000000e+10    -1.371145330338434e+01   -6.743459030325788e+01   
1.022300000000000e+10    -1.371421466423736e+01   -6.747548275526547e+01   
1.022400000000000e+10    -1.372211535788192e+01   -6.747635598503514e+01   
1.022500000000000e+10    -1.371597487514011e+01   -6.749792741841341e+01   
1.022600000000000e+10    -1.372809462463484e+01   -6.750492772122213e+01   
1.022700000000000e+10    -1.372717562063005e+01   -6.750101503974662e+01   
1.022800000000000e+10    -1.373035299531526e+01   -6.746091617309960e+01   
1.022900000000000e+10    -1.372559049718936e+01   -6.759014130403919e+01   
1.023000000000000e+10    -1.373668327803498e+01   -6.758607889800800e+01   
1.023100000000000e+10    -1.372240075708977e+01   -6.759547461249679e+01   
1.023200000000000e+10    -1.374741793173014e+01   -6.756218737683882e+01   
1.023300000000000e+10    -1.373308473122021e+01   -6.767700211106617e+01   
1.023400000000000e+10    -1.375555986322239e+01   -6.767044296854354e+01   
1.023500000000000e+10    -1.374434439187157e+01   -6.769082183626159e+01   
1.023600000000000e+10    -1.375722986355174e+01   -6.763169863174086e+01   
1.023700000000000e+10    -1.375573084503097e+01   -6.765437601221210e+01   
1.023800000000000e+10    -1.376773451652826e+01   -6.769933537256060e+01   
1.023900000000000e+10    -1.375978354530211e+01   -6.763543211643503e+01   
1.024000000000000e+10    -1.377289355783203e+01   -6.760754804422783e+01   
1.024100000000000e+10    -1.377346841155893e+01   -6.769681355001313e+01   
1.024200000000000e+10    -1.377199120892893e+01   -6.768194320704599e+01   
1.024300000000000e+10    -1.376668864738656e+01   -6.760721008758836e+01   
1.024400000000000e+10    -1.377078509397881e+01   -6.767772041010510e+01   
1.024500000000000e+10    -1.377626287979501e+01   -6.759640814867454e+01   
1.024600000000000e+10    -1.377705378430333e+01   -6.769684564265792e+01   
1.024700000000000e+10    -1.378016249155708e+01   -6.765201845096668e+01   
1.024800000000000e+10    -1.379708976988585e+01   -6.770497801801979e+01   
1.024900000000000e+10    -1.378511107805877e+01   -6.772677598084712e+01   
1.025000000000000e+10    -1.378448780619334e+01   -6.767461818401306e+01   
1.025100000000000e+10    -1.379079805156756e+01   -6.758952752680374e+01   
1.025200000000000e+10    -1.379777786151455e+01   -6.767893464466896e+01   
1.025300000000000e+10    -1.379097568446807e+01   -6.771179730776795e+01   
1.025400000000000e+10    -1.378609316577941e+01   -6.766571525321014e+01   
1.025500000000000e+10    -1.379656893614522e+01   -6.762080118842610e+01   
1.025600000000000e+10    -1.380077093229038e+01   -6.765586377993387e+01   
