[Version] 2.0
! Rohde & Schwarz Vector Network Analyzer
! Rohde-Schwarz,ZNL20-2Port,1323001220200009,1.71.1.10-23.02.1.238
! 
! Port Assignments:
! Nominal Port -> Actual Test Port
! --------------------------------
!   1 -> 1

! Created: GMT 2024-09-04 14:22:31

# Hz S DB R 50

[Number of Ports] 1
[Number of Frequencies] 2001

[Network Data] 
! freq[Hz]               S11[mag dB]              S11[ang]                 
1.000000000000000e+10    -1.449018586711165e+01   -6.241129101779327e+01   
1.000100000000000e+10    -1.449073402677379e+01   -6.238631537209019e+01   
1.000200000000000e+10    -1.448268058691017e+01   -6.224889256353895e+01   
1.000300000000000e+10    -1.447122031912208e+01   -6.220158179290137e+01   
1.000400000000000e+10    -1.447953134668111e+01   -6.221741325386084e+01   
1.000500000000000e+10    -1.446276149183931e+01   -6.229467386652909e+01   
1.000600000000000e+10    -1.447511938715017e+01   -6.215845265926728e+01   
1.000700000000000e+10    -1.445573128241852e+01   -6.225012848390707e+01   
1.000800000000000e+10    -1.447193399133485e+01   -6.218847360057221e+01   
1.000900000000000e+10    -1.443772349182070e+01   -6.215029568507236e+01   
1.001000000000000e+10    -1.445606740328868e+01   -6.220599831965512e+01   
1.001100000000000e+10    -1.444885958490522e+01   -6.211272060038009e+01   
1.001200000000000e+10    -1.444851695999421e+01   -6.219017039656075e+01   
1.001300000000000e+10    -1.444354676782384e+01   -6.217260853461370e+01   
1.001400000000000e+10    -1.444534431747051e+01   -6.211057639141324e+01   
1.001500000000000e+10    -1.444660361798180e+01   -6.222966944034235e+01   
1.001600000000000e+10    -1.444693374729132e+01   -6.216805866926947e+01   
1.001700000000000e+10    -1.444963298164468e+01   -6.216048732895781e+01   
1.001800000000000e+10    -1.444631730669938e+01   -6.215561918285962e+01   
1.001900000000000e+10    -1.445090490649221e+01   -6.223772910691175e+01   
1.002000000000000e+10    -1.445049237753996e+01   -6.212939925258117e+01   
1.002100000000000e+10    -1.444921957426546e+01   -6.214748918383831e+01   
1.002200000000000e+10    -1.444177941260666e+01   -6.226186890900811e+01   
1.002300000000000e+10    -1.444756703365005e+01   -6.225350223841581e+01   
1.002400000000000e+10    -1.445699124331363e+01   -6.235556275840987e+01   
1.002500000000000e+10    -1.444747315417399e+01   -6.234838123103430e+01   
1.002600000000000e+10    -1.444518002570846e+01   -6.237922013093646e+01   
1.002700000000000e+10    -1.444387929447253e+01   -6.239584558528545e+01   
1.002800000000000e+10    -1.443374336617355e+01   -6.252633332345473e+01   
1.002900000000000e+10    -1.443543577477253e+01   -6.246652731039563e+01   
1.003000000000000e+10    -1.443909054019824e+01   -6.256041127867073e+01   
1.003100000000000e+10    -1.443734214592206e+01   -6.268464700703085e+01   
1.003200000000000e+10    -1.443240100575356e+01   -6.267570019804960e+01   
1.003300000000000e+10    -1.444244462770327e+01   -6.267675265607472e+01   
1.003400000000000e+10    -1.443001144006900e+01   -6.283996616998088e+01   
1.003500000000000e+10    -1.442788356098875e+01   -6.282700928385508e+01   
1.003600000000000e+10    -1.443491638123848e+01   -6.286026236981969e+01   
1.003700000000000e+10    -1.442570543311872e+01   -6.296661094959151e+01   
1.003800000000000e+10    -1.442879138236041e+01   -6.298940242105007e+01   
1.003900000000000e+10    -1.442168190534865e+01   -6.315981665583867e+01   
1.004000000000000e+10    -1.440930161877082e+01   -6.304875246621152e+01   
1.004100000000000e+10    -1.439223492976021e+01   -6.319291377338592e+01   
1.004200000000000e+10    -1.439189328996013e+01   -6.311534736291710e+01   
1.004300000000000e+10    -1.439293899148558e+01   -6.327484474128072e+01   
1.004400000000000e+10    -1.437773797751687e+01   -6.339552081682645e+01   
1.004500000000000e+10    -1.438874959851616e+01   -6.338364637986414e+01   
1.004600000000000e+10    -1.436609199813994e+01   -6.340147175694241e+01   
1.004700000000000e+10    -1.436540832032947e+01   -6.353893389053695e+01   
1.004800000000000e+10    -1.435846271508210e+01   -6.361091552547389e+01   
1.004900000000000e+10    -1.436124279283818e+01   -6.357295897646694e+01   
1.005000000000000e+10    -1.435564503750841e+01   -6.361845526821734e+01   
1.005100000000000e+10    -1.432715839627397e+01   -6.365791388028222e+01   
1.005200000000000e+10    -1.431062063053684e+01   -6.372096395705281e+01   
1.005300000000000e+10    -1.430908775559798e+01   -6.383974855774596e+01   
1.005400000000000e+10    -1.430675241823129e+01   -6.384396120223957e+01   
1.005500000000000e+10    -1.429567473215152e+01   -6.397575887321140e+01   
1.005600000000000e+10    -1.428260325474928e+01   -6.387476957015078e+01   
1.005700000000000e+10    -1.428256629323097e+01   -6.393295043458308e+01   
1.005800000000000e+10    -1.425336065970813e+01   -6.390348703584579e+01   
1.005900000000000e+10    -1.424566733971039e+01   -6.405117606553584e+01   
1.006000000000000e+10    -1.423614390164563e+01   -6.411621660537598e+01   
1.006100000000000e+10    -1.422609239860861e+01   -6.407651123159935e+01   
1.006200000000000e+10    -1.421313148398818e+01   -6.405584673009673e+01   
1.006300000000000e+10    -1.418631493838220e+01   -6.409534720790705e+01   
1.006400000000000e+10    -1.418837693197783e+01   -6.409135294245020e+01   
1.006500000000000e+10    -1.418258978507343e+01   -6.418729672161352e+01   
1.006600000000000e+10    -1.416956756988837e+01   -6.414395712492521e+01   
1.006700000000000e+10    -1.415611191550871e+01   -6.406042558583103e+01   
1.006800000000000e+10    -1.416656065247470e+01   -6.420913491098824e+01   
1.006900000000000e+10    -1.413591729773167e+01   -6.414566200741471e+01   
1.007000000000000e+10    -1.413124970007302e+01   -6.416807943586471e+01   
1.007100000000000e+10    -1.411984023421808e+01   -6.412206903041883e+01   
1.007200000000000e+10    -1.411930286203835e+01   -6.420909163674756e+01   
1.007300000000000e+10    -1.410461117916614e+01   -6.414577553970020e+01   
1.007400000000000e+10    -1.409055153656650e+01   -6.413783323106193e+01   
1.007500000000000e+10    -1.408938671518197e+01   -6.409773182606716e+01   
1.007600000000000e+10    -1.407428290172186e+01   -6.416964975125642e+01   
1.007700000000000e+10    -1.406799582131223e+01   -6.408118963226075e+01   
1.007800000000000e+10    -1.405484133442699e+01   -6.407047895999473e+01   
1.007900000000000e+10    -1.403499485755554e+01   -6.395458270348936e+01   
1.008000000000000e+10    -1.403491213730872e+01   -6.395314802743715e+01   
1.008100000000000e+10    -1.404487666179852e+01   -6.407019303996347e+01   
1.008200000000000e+10    -1.403462269836833e+01   -6.404893576402755e+01   
1.008300000000000e+10    -1.403017124101205e+01   -6.386454419589724e+01   
1.008400000000000e+10    -1.402597691961473e+01   -6.392420293524214e+01   
1.008500000000000e+10    -1.400915172831193e+01   -6.387989250936040e+01   
1.008600000000000e+10    -1.400832147309941e+01   -6.384738496868247e+01   
1.008700000000000e+10    -1.400512749114920e+01   -6.380828794997596e+01   
1.008800000000000e+10    -1.400086036422519e+01   -6.386676609636243e+01   
1.008900000000000e+10    -1.399780983544857e+01   -6.372068540575172e+01   
1.009000000000000e+10    -1.398809163122922e+01   -6.376180273706770e+01   
1.009100000000000e+10    -1.398977651296275e+01   -6.379669168405528e+01   
1.009200000000000e+10    -1.398415360801627e+01   -6.368774778830866e+01   
1.009300000000000e+10    -1.398797851605399e+01   -6.366692364548584e+01   
1.009400000000000e+10    -1.399121208389443e+01   -6.369006077277134e+01   
1.009500000000000e+10    -1.398726236715980e+01   -6.369926463745502e+01   
1.009600000000000e+10    -1.397643754163055e+01   -6.358004142591701e+01   
1.009700000000000e+10    -1.398204458218700e+01   -6.360939037571335e+01   
1.009800000000000e+10    -1.398709389327769e+01   -6.351879737567823e+01   
1.009900000000000e+10    -1.398536293652533e+01   -6.350891978539241e+01   
1.010000000000000e+10    -1.398700993753844e+01   -6.355641624487860e+01   
1.010100000000000e+10    -1.398337682997425e+01   -6.346692536700967e+01   
1.010200000000000e+10    -1.399363803270637e+01   -6.347245037781637e+01   
1.010300000000000e+10    -1.399184305069923e+01   -6.348664754750478e+01   
1.010400000000000e+10    -1.398530949532608e+01   -6.344326063529805e+01   
1.010500000000000e+10    -1.399731040496960e+01   -6.348238548574047e+01   
1.010600000000000e+10    -1.398103623870847e+01   -6.338892965751075e+01   
1.010700000000000e+10    -1.400407363378559e+01   -6.351658118576229e+01   
1.010800000000000e+10    -1.400303264602908e+01   -6.337088453839192e+01   
1.010900000000000e+10    -1.400333551753809e+01   -6.347310977018456e+01   
1.011000000000000e+10    -1.399088127176585e+01   -6.339043102411275e+01   
1.011100000000000e+10    -1.398948014512455e+01   -6.353613757325327e+01   
1.011200000000000e+10    -1.400358567923808e+01   -6.347874980600097e+01   
1.011300000000000e+10    -1.399288530092928e+01   -6.357706400507765e+01   
1.011400000000000e+10    -1.400009503267423e+01   -6.348843133576246e+01   
1.011500000000000e+10    -1.399696390708947e+01   -6.355759387078975e+01   
1.011600000000000e+10    -1.400342678985138e+01   -6.347900923412693e+01   
1.011700000000000e+10    -1.401608430964904e+01   -6.352551437719020e+01   
1.011800000000000e+10    -1.400763930631031e+01   -6.359287432037733e+01   
1.011900000000000e+10    -1.400957888421640e+01   -6.361758711053033e+01   
1.012000000000000e+10    -1.400023029872274e+01   -6.374143075815567e+01   
1.012100000000000e+10    -1.401596099893202e+01   -6.375529215232923e+01   
1.012200000000000e+10    -1.399284978220868e+01   -6.374818098737664e+01   
1.012300000000000e+10    -1.399703512480674e+01   -6.378487695898339e+01   
1.012400000000000e+10    -1.401161625826229e+01   -6.381329149134053e+01   
1.012500000000000e+10    -1.400108567810338e+01   -6.380909227704537e+01   
1.012600000000000e+10    -1.400132229254247e+01   -6.383361745349612e+01   
1.012700000000000e+10    -1.400454048181949e+01   -6.395304111413814e+01   
1.012800000000000e+10    -1.399927070725056e+01   -6.393287415661097e+01   
1.012900000000000e+10    -1.399350880482628e+01   -6.402221863837707e+01   
1.013000000000000e+10    -1.399097005609028e+01   -6.397661509845544e+01   
1.013100000000000e+10    -1.398592678505475e+01   -6.407335362659407e+01   
1.013200000000000e+10    -1.399075735655701e+01   -6.409580920393678e+01   
1.013300000000000e+10    -1.399362303674359e+01   -6.417372200017644e+01   
1.013400000000000e+10    -1.397138323188947e+01   -6.422689912047417e+01   
1.013500000000000e+10    -1.397421055722036e+01   -6.426241231526815e+01   
1.013600000000000e+10    -1.395717240964955e+01   -6.429220659467464e+01   
1.013700000000000e+10    -1.394833841110764e+01   -6.433791352568647e+01   
1.013800000000000e+10    -1.394592254315165e+01   -6.438808447391385e+01   
1.013900000000000e+10    -1.394252484316613e+01   -6.446159435764146e+01   
1.014000000000000e+10    -1.392551506779226e+01   -6.446334852316973e+01   
1.014100000000000e+10    -1.393597214543638e+01   -6.449513327653419e+01   
1.014200000000000e+10    -1.391810277774988e+01   -6.457025359187705e+01   
1.014300000000000e+10    -1.391405783241287e+01   -6.458012276972090e+01   
1.014400000000000e+10    -1.390337110391367e+01   -6.460092561836518e+01   
1.014500000000000e+10    -1.389995760929196e+01   -6.469919380100939e+01   
1.014600000000000e+10    -1.388258036903721e+01   -6.470984686228648e+01   
1.014700000000000e+10    -1.386822526317421e+01   -6.469438138403058e+01   
1.014800000000000e+10    -1.387474570728640e+01   -6.470705781061881e+01   
1.014900000000000e+10    -1.386028649516061e+01   -6.481743969807744e+01   
1.015000000000000e+10    -1.385953902018348e+01   -6.484114047576715e+01   
1.015100000000000e+10    -1.384742307219402e+01   -6.483629028299890e+01   
1.015200000000000e+10    -1.382993132684772e+01   -6.488769549548840e+01   
1.015300000000000e+10    -1.383046297706403e+01   -6.493711533515160e+01   
1.015400000000000e+10    -1.381440907255193e+01   -6.491679700914703e+01   
1.015500000000000e+10    -1.383141068876192e+01   -6.492818589389401e+01   
1.015600000000000e+10    -1.381284657540051e+01   -6.492368170291360e+01   
1.015700000000000e+10    -1.379473827970671e+01   -6.492847019494978e+01   
1.015800000000000e+10    -1.378941182389667e+01   -6.501039350704929e+01   
1.015900000000000e+10    -1.377495253304358e+01   -6.500093249131072e+01   
1.016000000000000e+10    -1.376969657717041e+01   -6.505844284101001e+01   
1.016100000000000e+10    -1.376649653835907e+01   -6.506781665431903e+01   
1.016200000000000e+10    -1.374840395410405e+01   -6.500773415028532e+01   
1.016300000000000e+10    -1.373979639183204e+01   -6.502086718046129e+01   
1.016400000000000e+10    -1.374846051043954e+01   -6.502923505520981e+01   
1.016500000000000e+10    -1.372286696641984e+01   -6.503067877463585e+01   
1.016600000000000e+10    -1.373195580351008e+01   -6.505553895839368e+01   
1.016700000000000e+10    -1.371012831125236e+01   -6.506841652323061e+01   
1.016800000000000e+10    -1.370268559843615e+01   -6.506181094035070e+01   
1.016900000000000e+10    -1.369907046772280e+01   -6.503917755186029e+01   
1.017000000000000e+10    -1.370412588800445e+01   -6.504521238993151e+01   
1.017100000000000e+10    -1.369343268793583e+01   -6.516776370451018e+01   
1.017200000000000e+10    -1.368073794557616e+01   -6.506259924431141e+01   
1.017300000000000e+10    -1.367957814518592e+01   -6.512499323028433e+01   
1.017400000000000e+10    -1.366991343774897e+01   -6.509185531687257e+01   
1.017500000000000e+10    -1.366266029429653e+01   -6.514656398391909e+01   
1.017600000000000e+10    -1.364576945252889e+01   -6.509842010004593e+01   
1.017700000000000e+10    -1.365908722583807e+01   -6.507558694430749e+01   
1.017800000000000e+10    -1.365176527679504e+01   -6.513923329295976e+01   
1.017900000000000e+10    -1.363994227442347e+01   -6.505914746146071e+01   
1.018000000000000e+10    -1.363474624507184e+01   -6.508405121338147e+01   
1.018100000000000e+10    -1.363078005256582e+01   -6.507096094045384e+01   
1.018200000000000e+10    -1.362912244029999e+01   -6.505441393265420e+01   
1.018300000000000e+10    -1.361960854237858e+01   -6.505639123992687e+01   
1.018400000000000e+10    -1.363018463907389e+01   -6.507212128286406e+01   
1.018500000000000e+10    -1.362107536219635e+01   -6.510002452239797e+01   
1.018600000000000e+10    -1.362556013982205e+01   -6.519006413459387e+01   
1.018700000000000e+10    -1.361445981629727e+01   -6.512305451932195e+01   
1.018800000000000e+10    -1.361979088052609e+01   -6.514870271999412e+01   
1.018900000000000e+10    -1.361957903217036e+01   -6.514722517069859e+01   
1.019000000000000e+10    -1.361004957392255e+01   -6.513603528215195e+01   
1.019100000000000e+10    -1.360959958009240e+01   -6.515439878112562e+01   
1.019200000000000e+10    -1.360465123376419e+01   -6.512742195210215e+01   
1.019300000000000e+10    -1.361661724529729e+01   -6.521599432002792e+01   
1.019400000000000e+10    -1.360845177395307e+01   -6.517927647042059e+01   
1.019500000000000e+10    -1.361004232233185e+01   -6.521540202815876e+01   
1.019600000000000e+10    -1.359305479816332e+01   -6.527850431208833e+01   
1.019700000000000e+10    -1.359840352521882e+01   -6.525505629007694e+01   
1.019800000000000e+10    -1.359957777194903e+01   -6.530905178385609e+01   
1.019900000000000e+10    -1.359448947451148e+01   -6.524709716302974e+01   
1.020000000000000e+10    -1.359996253652494e+01   -6.534623042506199e+01   
1.020100000000000e+10    -1.360029512053984e+01   -6.538048024934903e+01   
1.020200000000000e+10    -1.359432789140504e+01   -6.540744122040670e+01   
1.020300000000000e+10    -1.360140635391032e+01   -6.541237665616204e+01   
1.020400000000000e+10    -1.359245634118431e+01   -6.547579160775433e+01   
1.020500000000000e+10    -1.360236185402000e+01   -6.552807715912917e+01   
1.020600000000000e+10    -1.358731652644327e+01   -6.554948860335716e+01   
1.020700000000000e+10    -1.359527716359281e+01   -6.556245703878130e+01   
1.020800000000000e+10    -1.360079634871823e+01   -6.560344450632945e+01   
1.020900000000000e+10    -1.359523440323113e+01   -6.567501542475935e+01   
1.021000000000000e+10    -1.359705732723082e+01   -6.572837875356711e+01   
1.021100000000000e+10    -1.359534842200990e+01   -6.576117710302759e+01   
1.021200000000000e+10    -1.359861342187753e+01   -6.569358479982648e+01   
1.021300000000000e+10    -1.359524671229174e+01   -6.587572864146333e+01   
1.021400000000000e+10    -1.359736835436272e+01   -6.581641377185797e+01   
1.021500000000000e+10    -1.359171444816427e+01   -6.599899909811342e+01   
1.021600000000000e+10    -1.360361669425260e+01   -6.607159021566473e+01   
1.021700000000000e+10    -1.359230400535885e+01   -6.600705543057236e+01   
1.021800000000000e+10    -1.359643912207578e+01   -6.605113825577300e+01   
1.021900000000000e+10    -1.358069641685437e+01   -6.607869726846616e+01   
1.022000000000000e+10    -1.359327256922388e+01   -6.611807979513455e+01   
1.022100000000000e+10    -1.357841824663867e+01   -6.622811172367462e+01   
1.022200000000000e+10    -1.358265189021955e+01   -6.620938079931523e+01   
1.022300000000000e+10    -1.357593334264341e+01   -6.628094168630007e+01   
1.022400000000000e+10    -1.358239635481912e+01   -6.636054443648771e+01   
1.022500000000000e+10    -1.357808860831921e+01   -6.638909473226144e+01   
1.022600000000000e+10    -1.358043480501914e+01   -6.641167259700784e+01   
1.022700000000000e+10    -1.357833462126049e+01   -6.650830561221680e+01   
1.022800000000000e+10    -1.358103655541509e+01   -6.641838859413627e+01   
1.022900000000000e+10    -1.356386267202864e+01   -6.655451584803176e+01   
1.023000000000000e+10    -1.357444677588744e+01   -6.658535252152303e+01   
1.023100000000000e+10    -1.356213574560393e+01   -6.667577859055403e+01   
1.023200000000000e+10    -1.357828986308810e+01   -6.667109520367764e+01   
1.023300000000000e+10    -1.356054139414954e+01   -6.682336554903951e+01   
1.023400000000000e+10    -1.357928858247369e+01   -6.681700928063987e+01   
1.023500000000000e+10    -1.356503098278856e+01   -6.690414526028523e+01   
1.023600000000000e+10    -1.357378126106033e+01   -6.688994021007372e+01   
1.023700000000000e+10    -1.357234625252097e+01   -6.691943277114474e+01   
1.023800000000000e+10    -1.358032475689830e+01   -6.698453125220472e+01   
1.023900000000000e+10    -1.357561032012966e+01   -6.698737432433272e+01   
1.024000000000000e+10    -1.358152748728235e+01   -6.698600720822490e+01   
1.024100000000000e+10    -1.358480142530415e+01   -6.711875785690324e+01   
1.024200000000000e+10    -1.357708196501671e+01   -6.710967100318280e+01   
1.024300000000000e+10    -1.357400168226808e+01   -6.712148532520318e+01   
1.024400000000000e+10    -1.357468410653282e+01   -6.717807035274240e+01   
1.024500000000000e+10    -1.357549903870901e+01   -6.716535579329508e+01   
1.024600000000000e+10    -1.357570524178506e+01   -6.731657388278970e+01   
1.024700000000000e+10    -1.358038120308695e+01   -6.725836768496350e+01   
1.024800000000000e+10    -1.359678033042945e+01   -6.735034465177517e+01   
1.024900000000000e+10    -1.357717474164725e+01   -6.739549398203694e+01   
1.025000000000000e+10    -1.357820073164834e+01   -6.741428530769510e+01   
1.025100000000000e+10    -1.358216075157453e+01   -6.737761712749972e+01   
1.025200000000000e+10    -1.358816339661221e+01   -6.748823554510533e+01   
1.025300000000000e+10    -1.357848023350440e+01   -6.752387573312151e+01   
1.025400000000000e+10    -1.357540852415839e+01   -6.756149674764654e+01   
1.025500000000000e+10    -1.358730707350478e+01   -6.756641866718861e+01   
1.025600000000000e+10    -1.359127220820093e+01   -6.762540770973249e+01   
