[Version] 2.0
! Rohde & Schwarz Vector Network Analyzer
! Rohde-Schwarz,ZNL20-2Port,1323001220200009,1.71.1.10-23.02.1.238
! 
! Port Assignments:
! Nominal Port -> Actual Test Port
! --------------------------------
!   1 -> 1

! Created: GMT 2024-09-04 14:22:18

# Hz S DB R 50

[Number of Ports] 1
[Number of Frequencies] 2001

[Network Data] 
! freq[Hz]               S11[mag dB]              S11[ang]                 
1.000000000000000e+10    -1.446892643122505e+01   -6.267031338905181e+01   
1.000100000000000e+10    -1.447331965152792e+01   -6.264750758283971e+01   
1.000200000000000e+10    -1.446995123085823e+01   -6.252250988995893e+01   
1.000300000000000e+10    -1.445894514728645e+01   -6.248934015786281e+01   
1.000400000000000e+10    -1.446988984811101e+01   -6.249012935883326e+01   
1.000500000000000e+10    -1.445351866921038e+01   -6.249922621017165e+01   
1.000600000000000e+10    -1.446603082366308e+01   -6.241286259991912e+01   
1.000700000000000e+10    -1.444689150466733e+01   -6.250898558142095e+01   
1.000800000000000e+10    -1.446453992219720e+01   -6.244198644095027e+01   
1.000900000000000e+10    -1.443710921954703e+01   -6.233835668728919e+01   
1.001000000000000e+10    -1.444858102114638e+01   -6.244799058763855e+01   
1.001100000000000e+10    -1.444679453866405e+01   -6.235261443231565e+01   
1.001200000000000e+10    -1.444897071876092e+01   -6.237549074015234e+01   
1.001300000000000e+10    -1.444557338329927e+01   -6.237032138411169e+01   
1.001400000000000e+10    -1.445105565602076e+01   -6.227538031973624e+01   
1.001500000000000e+10    -1.444984763007044e+01   -6.244313393308623e+01   
1.001600000000000e+10    -1.445280278669961e+01   -6.236505510897047e+01   
1.001700000000000e+10    -1.445944830454609e+01   -6.233577030776702e+01   
1.001800000000000e+10    -1.445578875851138e+01   -6.233074469610986e+01   
1.001900000000000e+10    -1.446032260509595e+01   -6.238545221028855e+01   
1.002000000000000e+10    -1.446151129563782e+01   -6.229348043177883e+01   
1.002100000000000e+10    -1.446500743995349e+01   -6.231250477683081e+01   
1.002200000000000e+10    -1.445848965722273e+01   -6.241454410895710e+01   
1.002300000000000e+10    -1.446329588769490e+01   -6.238480380010121e+01   
1.002400000000000e+10    -1.447126939353153e+01   -6.249738078680487e+01   
1.002500000000000e+10    -1.446840851795022e+01   -6.251042662648032e+01   
1.002600000000000e+10    -1.446310609084923e+01   -6.249546537830937e+01   
1.002700000000000e+10    -1.446103992544812e+01   -6.247857368990163e+01   
1.002800000000000e+10    -1.445457301181510e+01   -6.260768735206388e+01   
1.002900000000000e+10    -1.445757148536392e+01   -6.257261689685485e+01   
1.003000000000000e+10    -1.446171392362922e+01   -6.264024210944665e+01   
1.003100000000000e+10    -1.445892691705205e+01   -6.276164363828369e+01   
1.003200000000000e+10    -1.445754496587438e+01   -6.275718606427234e+01   
1.003300000000000e+10    -1.446587236121901e+01   -6.273892022717375e+01   
1.003400000000000e+10    -1.445226595668954e+01   -6.286629095845441e+01   
1.003500000000000e+10    -1.444982698869306e+01   -6.284995711198332e+01   
1.003600000000000e+10    -1.446367404944497e+01   -6.288395342578161e+01   
1.003700000000000e+10    -1.444995662015798e+01   -6.299059019879274e+01   
1.003800000000000e+10    -1.445043586217196e+01   -6.300945972433042e+01   
1.003900000000000e+10    -1.444773228382076e+01   -6.315987490114423e+01   
1.004000000000000e+10    -1.443754703477083e+01   -6.304776244660249e+01   
1.004100000000000e+10    -1.442224450251589e+01   -6.318099721117849e+01   
1.004200000000000e+10    -1.442508610102994e+01   -6.310874956890515e+01   
1.004300000000000e+10    -1.441907978743112e+01   -6.321479506460328e+01   
1.004400000000000e+10    -1.441235596229671e+01   -6.334736385400753e+01   
1.004500000000000e+10    -1.442013923807856e+01   -6.330372883285599e+01   
1.004600000000000e+10    -1.439739451846791e+01   -6.331529899307128e+01   
1.004700000000000e+10    -1.439655223892728e+01   -6.347830276986959e+01   
1.004800000000000e+10    -1.438580366355509e+01   -6.350110272984609e+01   
1.004900000000000e+10    -1.438806604740864e+01   -6.348222714909691e+01   
1.005000000000000e+10    -1.438376220631299e+01   -6.346144336694755e+01   
1.005100000000000e+10    -1.435646537681264e+01   -6.352797975417259e+01   
1.005200000000000e+10    -1.434669109869481e+01   -6.359497529362616e+01   
1.005300000000000e+10    -1.433977564378669e+01   -6.368333409184978e+01   
1.005400000000000e+10    -1.433595184972005e+01   -6.367720538111330e+01   
1.005500000000000e+10    -1.432791305968544e+01   -6.377922918651728e+01   
1.005600000000000e+10    -1.431122380495666e+01   -6.368911248057627e+01   
1.005700000000000e+10    -1.431507200323504e+01   -6.375033759731567e+01   
1.005800000000000e+10    -1.428400298788230e+01   -6.370525578585436e+01   
1.005900000000000e+10    -1.427739720853609e+01   -6.380561452677372e+01   
1.006000000000000e+10    -1.426549985121343e+01   -6.387061355370610e+01   
1.006100000000000e+10    -1.425897359263698e+01   -6.383866834894668e+01   
1.006200000000000e+10    -1.424065821800200e+01   -6.381308026198886e+01   
1.006300000000000e+10    -1.421555099640371e+01   -6.377008476439243e+01   
1.006400000000000e+10    -1.421323233870877e+01   -6.376764146581624e+01   
1.006500000000000e+10    -1.420635103951978e+01   -6.386138525313581e+01   
1.006600000000000e+10    -1.419446076974803e+01   -6.382828159900721e+01   
1.006700000000000e+10    -1.418625868776783e+01   -6.371900479744357e+01   
1.006800000000000e+10    -1.419023144074139e+01   -6.387308547160097e+01   
1.006900000000000e+10    -1.416094427023063e+01   -6.376459133333460e+01   
1.007000000000000e+10    -1.414994556549149e+01   -6.381685775420424e+01   
1.007100000000000e+10    -1.413491073235308e+01   -6.375815132358765e+01   
1.007200000000000e+10    -1.413813793642220e+01   -6.380140353690824e+01   
1.007300000000000e+10    -1.411786623517729e+01   -6.370554885096720e+01   
1.007400000000000e+10    -1.410472813514410e+01   -6.369157455911380e+01   
1.007500000000000e+10    -1.410160070249802e+01   -6.364780725511316e+01   
1.007600000000000e+10    -1.408934234507017e+01   -6.368304851433153e+01   
1.007700000000000e+10    -1.407788951776754e+01   -6.358501122422019e+01   
1.007800000000000e+10    -1.406455734470501e+01   -6.360836380107290e+01   
1.007900000000000e+10    -1.404350872669521e+01   -6.348517647803737e+01   
1.008000000000000e+10    -1.404062566736568e+01   -6.345070104846538e+01   
1.008100000000000e+10    -1.404731360500643e+01   -6.355674679122334e+01   
1.008200000000000e+10    -1.403284264783520e+01   -6.349957388668338e+01   
1.008300000000000e+10    -1.402759103290423e+01   -6.334922753798421e+01   
1.008400000000000e+10    -1.402448791879705e+01   -6.339013541931796e+01   
1.008500000000000e+10    -1.400730081071300e+01   -6.336823902690315e+01   
1.008600000000000e+10    -1.400134320297071e+01   -6.330108101281802e+01   
1.008700000000000e+10    -1.399414350931052e+01   -6.324042373659423e+01   
1.008800000000000e+10    -1.399115650773106e+01   -6.328881666702623e+01   
1.008900000000000e+10    -1.397822305945855e+01   -6.316462476681608e+01   
1.009000000000000e+10    -1.396742259326134e+01   -6.321812456960679e+01   
1.009100000000000e+10    -1.397027935895240e+01   -6.320827723808030e+01   
1.009200000000000e+10    -1.396168674537151e+01   -6.310525741818843e+01   
1.009300000000000e+10    -1.396417007163239e+01   -6.309738170523384e+01   
1.009400000000000e+10    -1.396758712797158e+01   -6.307343142823074e+01   
1.009500000000000e+10    -1.396050708170809e+01   -6.308299211464526e+01   
1.009600000000000e+10    -1.394747381433157e+01   -6.301523903347319e+01   
1.009700000000000e+10    -1.394727632851525e+01   -6.300854578162181e+01   
1.009800000000000e+10    -1.395025100789845e+01   -6.289234904746603e+01   
1.009900000000000e+10    -1.394808781453833e+01   -6.288087615220342e+01   
1.010000000000000e+10    -1.394460902470592e+01   -6.297633846643383e+01   
1.010100000000000e+10    -1.393784921825602e+01   -6.287503697438075e+01   
1.010200000000000e+10    -1.394524529834645e+01   -6.284462414703891e+01   
1.010300000000000e+10    -1.395073351011901e+01   -6.286467729044571e+01   
1.010400000000000e+10    -1.393748785028441e+01   -6.287274130455102e+01   
1.010500000000000e+10    -1.393905499128947e+01   -6.287161687114705e+01   
1.010600000000000e+10    -1.392149848944027e+01   -6.274869497215308e+01   
1.010700000000000e+10    -1.394247291382736e+01   -6.291915099181625e+01   
1.010800000000000e+10    -1.394581849792381e+01   -6.273555181976809e+01   
1.010900000000000e+10    -1.393462256427986e+01   -6.283665339264292e+01   
1.011000000000000e+10    -1.392417644265375e+01   -6.276401214070680e+01   
1.011100000000000e+10    -1.391998744579197e+01   -6.289925141178998e+01   
1.011200000000000e+10    -1.392835360192479e+01   -6.287873948623491e+01   
1.011300000000000e+10    -1.392020612346862e+01   -6.299956608745898e+01   
1.011400000000000e+10    -1.392237110876241e+01   -6.289865435959850e+01   
1.011500000000000e+10    -1.392132353608538e+01   -6.298504350436425e+01   
1.011600000000000e+10    -1.391899706086380e+01   -6.291600567466713e+01   
1.011700000000000e+10    -1.393467377927980e+01   -6.294403863219850e+01   
1.011800000000000e+10    -1.392010170984614e+01   -6.300437515949597e+01   
1.011900000000000e+10    -1.391865567542737e+01   -6.303618375506085e+01   
1.012000000000000e+10    -1.390778851950662e+01   -6.312721912523060e+01   
1.012100000000000e+10    -1.391545132187517e+01   -6.318529571441611e+01   
1.012200000000000e+10    -1.389889210127448e+01   -6.320252257735114e+01   
1.012300000000000e+10    -1.389698567931482e+01   -6.323769764018270e+01   
1.012400000000000e+10    -1.390254991761662e+01   -6.324909189769485e+01   
1.012500000000000e+10    -1.389311337868105e+01   -6.330278527672326e+01   
1.012600000000000e+10    -1.389410164502645e+01   -6.329598305914226e+01   
1.012700000000000e+10    -1.389531477893739e+01   -6.342740341083685e+01   
1.012800000000000e+10    -1.388046535797588e+01   -6.343048138115235e+01   
1.012900000000000e+10    -1.387741553010699e+01   -6.354158634040711e+01   
1.013000000000000e+10    -1.387215384340070e+01   -6.349057168201463e+01   
1.013100000000000e+10    -1.386550039247565e+01   -6.359949276860760e+01   
1.013200000000000e+10    -1.386534071823665e+01   -6.366024991602045e+01   
1.013300000000000e+10    -1.386445317082224e+01   -6.377609612843909e+01   
1.013400000000000e+10    -1.384344276285172e+01   -6.380157290047447e+01   
1.013500000000000e+10    -1.384415513605740e+01   -6.386853679310186e+01   
1.013600000000000e+10    -1.382630306647078e+01   -6.388565222370988e+01   
1.013700000000000e+10    -1.381657175671779e+01   -6.395854749977082e+01   
1.013800000000000e+10    -1.381067592202277e+01   -6.405915301735743e+01   
1.013900000000000e+10    -1.380509044899603e+01   -6.411979371785220e+01   
1.014000000000000e+10    -1.379087549417778e+01   -6.414270206717515e+01   
1.014100000000000e+10    -1.379029772247190e+01   -6.420493934296954e+01   
1.014200000000000e+10    -1.377504464337626e+01   -6.426725695315803e+01   
1.014300000000000e+10    -1.377164611281198e+01   -6.429586430299605e+01   
1.014400000000000e+10    -1.375708048530043e+01   -6.435607932039508e+01   
1.014500000000000e+10    -1.375405620209206e+01   -6.447152966025455e+01   
1.014600000000000e+10    -1.373495371908953e+01   -6.450122833351932e+01   
1.014700000000000e+10    -1.371815165924596e+01   -6.450329194773637e+01   
1.014800000000000e+10    -1.372323707586671e+01   -6.454044602002287e+01   
1.014900000000000e+10    -1.370873924378583e+01   -6.467234435764135e+01   
1.015000000000000e+10    -1.370171982709713e+01   -6.471172229595645e+01   
1.015100000000000e+10    -1.369425654369877e+01   -6.472873276971639e+01   
1.015200000000000e+10    -1.367674014014578e+01   -6.475665098435913e+01   
1.015300000000000e+10    -1.367749434656167e+01   -6.484867087334040e+01   
1.015400000000000e+10    -1.365748466062773e+01   -6.486546093579467e+01   
1.015500000000000e+10    -1.367205371839719e+01   -6.489977833169145e+01   
1.015600000000000e+10    -1.365453846315972e+01   -6.494789738882261e+01   
1.015700000000000e+10    -1.363428331064126e+01   -6.490533002642366e+01   
1.015800000000000e+10    -1.362851929181341e+01   -6.504051716797676e+01   
1.015900000000000e+10    -1.362074650642308e+01   -6.504434699936166e+01   
1.016000000000000e+10    -1.361199748793406e+01   -6.510836066950539e+01   
1.016100000000000e+10    -1.360739677510428e+01   -6.516133013249907e+01   
1.016200000000000e+10    -1.358884739195224e+01   -6.512052390074336e+01   
1.016300000000000e+10    -1.358292163661061e+01   -6.515857508300815e+01   
1.016400000000000e+10    -1.358969869390616e+01   -6.519249024685296e+01   
1.016500000000000e+10    -1.356449909829217e+01   -6.520728714928731e+01   
1.016600000000000e+10    -1.357395363083830e+01   -6.526262746162482e+01   
1.016700000000000e+10    -1.355247872868024e+01   -6.531492553610587e+01   
1.016800000000000e+10    -1.354251251809227e+01   -6.530612268181339e+01   
1.016900000000000e+10    -1.354109255509929e+01   -6.530501774037081e+01   
1.017000000000000e+10    -1.354601500087206e+01   -6.536994888153193e+01   
1.017100000000000e+10    -1.353764149060188e+01   -6.545528614479944e+01   
1.017200000000000e+10    -1.352470185152243e+01   -6.541187880783124e+01   
1.017300000000000e+10    -1.352514467468497e+01   -6.550622140509338e+01   
1.017400000000000e+10    -1.351634572251353e+01   -6.550364245332081e+01   
1.017500000000000e+10    -1.350939863597569e+01   -6.555492527830428e+01   
1.017600000000000e+10    -1.349895439589419e+01   -6.553730190540229e+01   
1.017700000000000e+10    -1.350767264760926e+01   -6.551024925552338e+01   
1.017800000000000e+10    -1.350265723779293e+01   -6.559170516094096e+01   
1.017900000000000e+10    -1.349223569196809e+01   -6.555434262527105e+01   
1.018000000000000e+10    -1.348777746743460e+01   -6.562175533331327e+01   
1.018100000000000e+10    -1.348606586144735e+01   -6.560351323912892e+01   
1.018200000000000e+10    -1.348960415457408e+01   -6.558943163362747e+01   
1.018300000000000e+10    -1.347597176668011e+01   -6.565051932982001e+01   
1.018400000000000e+10    -1.349093647765186e+01   -6.567391911801342e+01   
1.018500000000000e+10    -1.348127823080253e+01   -6.572659420215120e+01   
1.018600000000000e+10    -1.349101836559931e+01   -6.583236097137684e+01   
1.018700000000000e+10    -1.348419115516228e+01   -6.580662714379774e+01   
1.018800000000000e+10    -1.349328466744187e+01   -6.581942802901665e+01   
1.018900000000000e+10    -1.348948900253803e+01   -6.584925474928879e+01   
1.019000000000000e+10    -1.348867063288388e+01   -6.584657324363450e+01   
1.019100000000000e+10    -1.348619372724872e+01   -6.591196528252662e+01   
1.019200000000000e+10    -1.348316490028592e+01   -6.589819509370714e+01   
1.019300000000000e+10    -1.349636308499330e+01   -6.598771318009022e+01   
1.019400000000000e+10    -1.349199893877138e+01   -6.598307878566841e+01   
1.019500000000000e+10    -1.349974669868291e+01   -6.603446706675511e+01   
1.019600000000000e+10    -1.348607738528856e+01   -6.610820774504531e+01   
1.019700000000000e+10    -1.349413126322140e+01   -6.608190679789465e+01   
1.019800000000000e+10    -1.349975603024816e+01   -6.617172884763430e+01   
1.019900000000000e+10    -1.349513251083556e+01   -6.614617789122237e+01   
1.020000000000000e+10    -1.350454818043828e+01   -6.626765525147373e+01   
1.020100000000000e+10    -1.351089318018341e+01   -6.632245994017532e+01   
1.020200000000000e+10    -1.350296518555430e+01   -6.631565034831556e+01   
1.020300000000000e+10    -1.351640930056447e+01   -6.633513407606220e+01   
1.020400000000000e+10    -1.350992331912134e+01   -6.640631477245731e+01   
1.020500000000000e+10    -1.352239185453466e+01   -6.651097464466636e+01   
1.020600000000000e+10    -1.351498241497051e+01   -6.649505884614281e+01   
1.020700000000000e+10    -1.352861812786129e+01   -6.655435451799029e+01   
1.020800000000000e+10    -1.354486393994382e+01   -6.660565677256409e+01   
1.020900000000000e+10    -1.353402965637948e+01   -6.665413106505584e+01   
1.021000000000000e+10    -1.353978109360529e+01   -6.673175005740902e+01   
1.021100000000000e+10    -1.354628515707697e+01   -6.676802773294172e+01   
1.021200000000000e+10    -1.355193662513114e+01   -6.675234958624047e+01   
1.021300000000000e+10    -1.354806448562073e+01   -6.691257832202855e+01   
1.021400000000000e+10    -1.355878341177644e+01   -6.687768297858467e+01   
1.021500000000000e+10    -1.355789136755817e+01   -6.703603114454148e+01   
1.021600000000000e+10    -1.356545673164511e+01   -6.709773114844677e+01   
1.021700000000000e+10    -1.355924027314931e+01   -6.705888806206313e+01   
1.021800000000000e+10    -1.356945729470618e+01   -6.711954995148649e+01   
1.021900000000000e+10    -1.356122246071877e+01   -6.712557459723740e+01   
1.022000000000000e+10    -1.357298910506953e+01   -6.715044509832258e+01   
1.022100000000000e+10    -1.356346271496853e+01   -6.729855886056042e+01   
1.022200000000000e+10    -1.357154863353967e+01   -6.726241507996676e+01   
1.022300000000000e+10    -1.357116980229330e+01   -6.734010125273291e+01   
1.022400000000000e+10    -1.358237631598485e+01   -6.738753231576420e+01   
1.022500000000000e+10    -1.357767673098488e+01   -6.744956784126596e+01   
1.022600000000000e+10    -1.358301908326644e+01   -6.746673509207942e+01   
1.022700000000000e+10    -1.358221222302439e+01   -6.752623020892335e+01   
1.022800000000000e+10    -1.359378621594122e+01   -6.745533951451543e+01   
1.022900000000000e+10    -1.358258810118241e+01   -6.762465962861883e+01   
1.023000000000000e+10    -1.359809244973361e+01   -6.762420168648271e+01   
1.023100000000000e+10    -1.358218035257181e+01   -6.769919612500708e+01   
1.023200000000000e+10    -1.360604792748298e+01   -6.767037803043988e+01   
1.023300000000000e+10    -1.359386070125405e+01   -6.783594693565190e+01   
1.023400000000000e+10    -1.361648447755414e+01   -6.780930228784079e+01   
1.023500000000000e+10    -1.360266132410324e+01   -6.788967142072421e+01   
1.023600000000000e+10    -1.361804632726181e+01   -6.787014405243950e+01   
1.023700000000000e+10    -1.362419558656905e+01   -6.789692831310859e+01   
1.023800000000000e+10    -1.363409103125738e+01   -6.794141684293589e+01   
1.023900000000000e+10    -1.362975627739647e+01   -6.793008206184305e+01   
1.024000000000000e+10    -1.363975777923073e+01   -6.790661016730937e+01   
1.024100000000000e+10    -1.364304431430759e+01   -6.800577719479472e+01   
1.024200000000000e+10    -1.364044496030353e+01   -6.801824663464856e+01   
1.024300000000000e+10    -1.364016984334290e+01   -6.797528462770073e+01   
1.024400000000000e+10    -1.364443641542804e+01   -6.806320547155751e+01   
1.024500000000000e+10    -1.365136571915496e+01   -6.801910197826282e+01   
1.024600000000000e+10    -1.365443487610398e+01   -6.811519205447692e+01   
1.024700000000000e+10    -1.365848738300124e+01   -6.809567168404027e+01   
1.024800000000000e+10    -1.367676558243454e+01   -6.815491461425601e+01   
1.024900000000000e+10    -1.366685155866118e+01   -6.822815740092595e+01   
1.025000000000000e+10    -1.366660235802303e+01   -6.818875589305135e+01   
1.025100000000000e+10    -1.367767069011278e+01   -6.812310120204982e+01   
1.025200000000000e+10    -1.368421603972916e+01   -6.821294274522468e+01   
1.025300000000000e+10    -1.367515414416308e+01   -6.826052953107403e+01   
1.025400000000000e+10    -1.367518072331911e+01   -6.826726626268868e+01   
1.025500000000000e+10    -1.368775065528279e+01   -6.822942077857790e+01   
1.025600000000000e+10    -1.369780596344732e+01   -6.828688611118734e+01   
