[Version] 2.0
! Rohde & Schwarz Vector Network Analyzer
! Rohde-Schwarz,ZNL20-2Port,1323001220200009,1.71.1.10-23.02.1.238
! 
! Port Assignments:
! Nominal Port -> Actual Test Port
! --------------------------------
!   1 -> 1

! Created: GMT 2024-09-04 14:19:59

# Hz S DB R 50

[Number of Ports] 1
[Number of Frequencies] 2001

[Network Data] 
! freq[Hz]               S11[mag dB]              S11[ang]                 
1.000000000000000e+10    -1.275825027719777e+01   -6.436762126197964e+01   
1.000100000000000e+10    -1.275783030090270e+01   -6.438066793864370e+01   
1.000200000000000e+10    -1.275891364781636e+01   -6.428195980962947e+01   
1.000300000000000e+10    -1.275438732287328e+01   -6.425020381840091e+01   
1.000400000000000e+10    -1.276118775455285e+01   -6.427698399689108e+01   
1.000500000000000e+10    -1.275014303636222e+01   -6.433565166899471e+01   
1.000600000000000e+10    -1.276200578218185e+01   -6.426651146778539e+01   
1.000700000000000e+10    -1.274707301602981e+01   -6.435315218816901e+01   
1.000800000000000e+10    -1.276081644054109e+01   -6.432274109569637e+01   
1.000900000000000e+10    -1.274090954554627e+01   -6.426081932093204e+01   
1.001000000000000e+10    -1.275427262285568e+01   -6.436539064683903e+01   
1.001100000000000e+10    -1.275518787268574e+01   -6.431361035517000e+01   
1.001200000000000e+10    -1.275355592603940e+01   -6.436098292993971e+01   
1.001300000000000e+10    -1.275477811646957e+01   -6.434919561218030e+01   
1.001400000000000e+10    -1.276061181413659e+01   -6.432276329129944e+01   
1.001500000000000e+10    -1.275761719532505e+01   -6.447661695166201e+01   
1.001600000000000e+10    -1.276639963839729e+01   -6.440313401350053e+01   
1.001700000000000e+10    -1.276779480044659e+01   -6.442146545340636e+01   
1.001800000000000e+10    -1.276890268608384e+01   -6.442922627284015e+01   
1.001900000000000e+10    -1.277148290731706e+01   -6.450031894657052e+01   
1.002000000000000e+10    -1.277996050075676e+01   -6.444557980095290e+01   
1.002100000000000e+10    -1.277588623648541e+01   -6.447660284609148e+01   
1.002200000000000e+10    -1.277544403505058e+01   -6.457196997020633e+01   
1.002300000000000e+10    -1.278225178674062e+01   -6.457188274605414e+01   
1.002400000000000e+10    -1.279226264664122e+01   -6.467583012116559e+01   
1.002500000000000e+10    -1.278440946429333e+01   -6.468213971926733e+01   
1.002600000000000e+10    -1.278574950993685e+01   -6.473236851833053e+01   
1.002700000000000e+10    -1.278491591646893e+01   -6.472707514833218e+01   
1.002800000000000e+10    -1.277993032643603e+01   -6.484739916510584e+01   
1.002900000000000e+10    -1.278604238996978e+01   -6.483959492622319e+01   
1.003000000000000e+10    -1.278857784590951e+01   -6.492975488199322e+01   
1.003100000000000e+10    -1.278714905661247e+01   -6.505248005942936e+01   
1.003200000000000e+10    -1.278892283772168e+01   -6.503095832533489e+01   
1.003300000000000e+10    -1.279642481520841e+01   -6.506520338726374e+01   
1.003400000000000e+10    -1.278865626175294e+01   -6.522613900155852e+01   
1.003500000000000e+10    -1.278784506628657e+01   -6.522125268392200e+01   
1.003600000000000e+10    -1.279762158245299e+01   -6.525624033892048e+01   
1.003700000000000e+10    -1.278727732555665e+01   -6.537277540678362e+01   
1.003800000000000e+10    -1.279225983273516e+01   -6.539690858083146e+01   
1.003900000000000e+10    -1.279139201002856e+01   -6.555786595209787e+01   
1.004000000000000e+10    -1.278533794376529e+01   -6.548826826249724e+01   
1.004100000000000e+10    -1.277226867081485e+01   -6.561174845946647e+01   
1.004200000000000e+10    -1.277332693169435e+01   -6.555060759520542e+01   
1.004300000000000e+10    -1.277748866442191e+01   -6.569221092310285e+01   
1.004400000000000e+10    -1.277124821760878e+01   -6.582129160443316e+01   
1.004500000000000e+10    -1.277817017180602e+01   -6.580176798216738e+01   
1.004600000000000e+10    -1.276122697058181e+01   -6.582040564677109e+01   
1.004700000000000e+10    -1.276122972899041e+01   -6.599106747479274e+01   
1.004800000000000e+10    -1.275913757147248e+01   -6.604601249361207e+01   
1.004900000000000e+10    -1.276142060585535e+01   -6.605253734551678e+01   
1.005000000000000e+10    -1.275986249425182e+01   -6.603785409180394e+01   
1.005100000000000e+10    -1.273635938053343e+01   -6.610653142006983e+01   
1.005200000000000e+10    -1.272599839361162e+01   -6.618580922556397e+01   
1.005300000000000e+10    -1.272341432953930e+01   -6.629874875821029e+01   
1.005400000000000e+10    -1.272382739988942e+01   -6.631138612409505e+01   
1.005500000000000e+10    -1.271948328600176e+01   -6.642880829795558e+01   
1.005600000000000e+10    -1.270865216262885e+01   -6.635561853619254e+01   
1.005700000000000e+10    -1.271006210887475e+01   -6.643535844810451e+01   
1.005800000000000e+10    -1.268772490723779e+01   -6.642451698262327e+01   
1.005900000000000e+10    -1.268473038761487e+01   -6.653129353693181e+01   
1.006000000000000e+10    -1.267675189841658e+01   -6.660736894744723e+01   
1.006100000000000e+10    -1.267039458983205e+01   -6.661743474353092e+01   
1.006200000000000e+10    -1.266269624102935e+01   -6.658972623913877e+01   
1.006300000000000e+10    -1.264165948145056e+01   -6.660232355041842e+01   
1.006400000000000e+10    -1.264554984699190e+01   -6.662727746746449e+01   
1.006500000000000e+10    -1.264234847751564e+01   -6.671678891067604e+01   
1.006600000000000e+10    -1.263489484846122e+01   -6.671253792407062e+01   
1.006700000000000e+10    -1.263228363157848e+01   -6.666336174674645e+01   
1.006800000000000e+10    -1.263909672633491e+01   -6.680672532437961e+01   
1.006900000000000e+10    -1.261448673017272e+01   -6.672965442393881e+01   
1.007000000000000e+10    -1.261187240318532e+01   -6.676953050917012e+01   
1.007100000000000e+10    -1.260349235764939e+01   -6.675666923041300e+01   
1.007200000000000e+10    -1.260636880478744e+01   -6.682018861443748e+01   
1.007300000000000e+10    -1.259510755203492e+01   -6.676728289378670e+01   
1.007400000000000e+10    -1.258771211149231e+01   -6.679703603779063e+01   
1.007500000000000e+10    -1.259015619713271e+01   -6.678290597517926e+01   
1.007600000000000e+10    -1.257929808035826e+01   -6.684191183560213e+01   
1.007700000000000e+10    -1.257624852047567e+01   -6.676959970593245e+01   
1.007800000000000e+10    -1.256745155303980e+01   -6.679362893542559e+01   
1.007900000000000e+10    -1.255273781041723e+01   -6.672997608644800e+01   
1.008000000000000e+10    -1.255649490565606e+01   -6.672357091095294e+01   
1.008100000000000e+10    -1.256667605301269e+01   -6.684932537955706e+01   
1.008200000000000e+10    -1.255681951303155e+01   -6.683040286703516e+01   
1.008300000000000e+10    -1.255613926588863e+01   -6.669011871358911e+01   
1.008400000000000e+10    -1.255581407465870e+01   -6.677466556732068e+01   
1.008500000000000e+10    -1.254859871824775e+01   -6.676932480757938e+01   
1.008600000000000e+10    -1.254585346609117e+01   -6.674529591055781e+01   
1.008700000000000e+10    -1.254659103347106e+01   -6.672400801957511e+01   
1.008800000000000e+10    -1.254735693587702e+01   -6.680250796077384e+01   
1.008900000000000e+10    -1.254275201416593e+01   -6.666688892099982e+01   
1.009000000000000e+10    -1.253659851048722e+01   -6.675242479775088e+01   
1.009100000000000e+10    -1.254145860376408e+01   -6.676792414096049e+01   
1.009200000000000e+10    -1.253933489555054e+01   -6.671633607262241e+01   
1.009300000000000e+10    -1.254318847986410e+01   -6.668852763935284e+01   
1.009400000000000e+10    -1.255089883792623e+01   -6.674592535141393e+01   
1.009500000000000e+10    -1.254973576530642e+01   -6.676337878374117e+01   
1.009600000000000e+10    -1.254476558760008e+01   -6.672014342112256e+01   
1.009700000000000e+10    -1.255136112143684e+01   -6.673163962626079e+01   
1.009800000000000e+10    -1.255844023026542e+01   -6.670155379907224e+01   
1.009900000000000e+10    -1.255944757277472e+01   -6.670446267220653e+01   
1.010000000000000e+10    -1.256592856431005e+01   -6.677249159502317e+01   
1.010100000000000e+10    -1.256625571791626e+01   -6.672011492095238e+01   
1.010200000000000e+10    -1.257489374964947e+01   -6.674618574682886e+01   
1.010300000000000e+10    -1.258323309341548e+01   -6.674095017521324e+01   
1.010400000000000e+10    -1.257671381394950e+01   -6.673606481964336e+01   
1.010500000000000e+10    -1.259110108534044e+01   -6.680511995326403e+01   
1.010600000000000e+10    -1.257950074885941e+01   -6.671527622159620e+01   
1.010700000000000e+10    -1.260213359126895e+01   -6.685230776980615e+01   
1.010800000000000e+10    -1.260590796009233e+01   -6.675533943640637e+01   
1.010900000000000e+10    -1.260391078771881e+01   -6.683805492321444e+01   
1.011000000000000e+10    -1.260280488439301e+01   -6.677794092197848e+01   
1.011100000000000e+10    -1.260371248440224e+01   -6.694746441671955e+01   
1.011200000000000e+10    -1.261408535885070e+01   -6.693406811868532e+01   
1.011300000000000e+10    -1.261190975457114e+01   -6.703473318459103e+01   
1.011400000000000e+10    -1.262346018738137e+01   -6.696887778043939e+01   
1.011500000000000e+10    -1.262423534752726e+01   -6.705244260132525e+01   
1.011600000000000e+10    -1.263377904364580e+01   -6.701603851930116e+01   
1.011700000000000e+10    -1.264670303460714e+01   -6.709847294004670e+01   
1.011800000000000e+10    -1.264472448789689e+01   -6.712736251786518e+01   
1.011900000000000e+10    -1.264800032270045e+01   -6.719401720012112e+01   
1.012000000000000e+10    -1.264412555606821e+01   -6.726509966717822e+01   
1.012100000000000e+10    -1.265736994672289e+01   -6.732806053415837e+01   
1.012200000000000e+10    -1.264841330925751e+01   -6.732606569727324e+01   
1.012300000000000e+10    -1.265469602039014e+01   -6.737337110323956e+01   
1.012400000000000e+10    -1.266738002729436e+01   -6.741977446757674e+01   
1.012500000000000e+10    -1.266460820696103e+01   -6.745566004232566e+01   
1.012600000000000e+10    -1.266862277593068e+01   -6.749349111949516e+01   
1.012700000000000e+10    -1.267439768968172e+01   -6.761248050362212e+01   
1.012800000000000e+10    -1.267042398748643e+01   -6.759312910254583e+01   
1.012900000000000e+10    -1.267352372577563e+01   -6.768955036988763e+01   
1.013000000000000e+10    -1.267233690249448e+01   -6.768066383792437e+01   
1.013100000000000e+10    -1.267407266056301e+01   -6.775717802285969e+01   
1.013200000000000e+10    -1.268311803073733e+01   -6.779893530765489e+01   
1.013300000000000e+10    -1.268541862381339e+01   -6.790107940558298e+01   
1.013400000000000e+10    -1.267635496777850e+01   -6.793502581302177e+01   
1.013500000000000e+10    -1.268033364293237e+01   -6.796491620235844e+01   
1.013600000000000e+10    -1.267340251036989e+01   -6.801334873962846e+01   
1.013700000000000e+10    -1.266957149104356e+01   -6.806645015126249e+01   
1.013800000000000e+10    -1.266899070469528e+01   -6.814926265392570e+01   
1.013900000000000e+10    -1.267176907289646e+01   -6.819438645627939e+01   
1.014000000000000e+10    -1.266036265393778e+01   -6.819268532242252e+01   
1.014100000000000e+10    -1.267192263236241e+01   -6.827286999623875e+01   
1.014200000000000e+10    -1.266188647630461e+01   -6.831695910924623e+01   
1.014300000000000e+10    -1.266631884523671e+01   -6.831814912864978e+01   
1.014400000000000e+10    -1.266228657460280e+01   -6.837437573075627e+01   
1.014500000000000e+10    -1.266439922563292e+01   -6.845949240338666e+01   
1.014600000000000e+10    -1.265951132660662e+01   -6.844556239524236e+01   
1.014700000000000e+10    -1.265069817743152e+01   -6.846235769143875e+01   
1.014800000000000e+10    -1.265985028011822e+01   -6.849793054526002e+01   
1.014900000000000e+10    -1.265021817975351e+01   -6.858430243250207e+01   
1.015000000000000e+10    -1.265197887813260e+01   -6.858881972323614e+01   
1.015100000000000e+10    -1.264816900376902e+01   -6.860870590705899e+01   
1.015200000000000e+10    -1.264423829547016e+01   -6.861773147359709e+01   
1.015300000000000e+10    -1.264594761962743e+01   -6.867277779888308e+01   
1.015400000000000e+10    -1.263689691447024e+01   -6.864464047371190e+01   
1.015500000000000e+10    -1.265961702768317e+01   -6.869813931362739e+01   
1.015600000000000e+10    -1.264642572704011e+01   -6.871517380289576e+01   
1.015700000000000e+10    -1.263654896574413e+01   -6.867829728212386e+01   
1.015800000000000e+10    -1.263637993078684e+01   -6.874352057517694e+01   
1.015900000000000e+10    -1.263716386582369e+01   -6.874671208403640e+01   
1.016000000000000e+10    -1.263206224432610e+01   -6.877431204827786e+01   
1.016100000000000e+10    -1.263481284288954e+01   -6.880006865799766e+01   
1.016200000000000e+10    -1.262649606972350e+01   -6.873391996791248e+01   
1.016300000000000e+10    -1.262125008883591e+01   -6.871706027380252e+01   
1.016400000000000e+10    -1.263753671329110e+01   -6.872020163284547e+01   
1.016500000000000e+10    -1.262234859304187e+01   -6.874460809535512e+01   
1.016600000000000e+10    -1.263623631500067e+01   -6.875415201875184e+01   
1.016700000000000e+10    -1.262104068133631e+01   -6.875631593133184e+01   
1.016800000000000e+10    -1.262057766255106e+01   -6.874511037438381e+01   
1.016900000000000e+10    -1.262125427762787e+01   -6.869992265959516e+01   
1.017000000000000e+10    -1.262820903356411e+01   -6.872514720567295e+01   
1.017100000000000e+10    -1.262665029672717e+01   -6.881127383000479e+01   
1.017200000000000e+10    -1.261920892391614e+01   -6.868512990589996e+01   
1.017300000000000e+10    -1.262262333563606e+01   -6.874686101616233e+01   
1.017400000000000e+10    -1.262024929803696e+01   -6.870301379356461e+01   
1.017500000000000e+10    -1.261816172147316e+01   -6.875696043149007e+01   
1.017600000000000e+10    -1.260916094688790e+01   -6.868803072450213e+01   
1.017700000000000e+10    -1.262633013794956e+01   -6.866128201531991e+01   
1.017800000000000e+10    -1.262269579773758e+01   -6.866871248349641e+01   
1.017900000000000e+10    -1.261888839061165e+01   -6.859445547211870e+01   
1.018000000000000e+10    -1.261877596335901e+01   -6.862432990623147e+01   
1.018100000000000e+10    -1.262273484407073e+01   -6.858022769666547e+01   
1.018200000000000e+10    -1.262270304587128e+01   -6.854040695513933e+01   
1.018300000000000e+10    -1.262021559789012e+01   -6.854309061718948e+01   
1.018400000000000e+10    -1.263260370047929e+01   -6.854339292595080e+01   
1.018500000000000e+10    -1.263049980636166e+01   -6.854708313162790e+01   
1.018600000000000e+10    -1.263678879674704e+01   -6.862395307840721e+01   
1.018700000000000e+10    -1.263446535906915e+01   -6.851093319744345e+01   
1.018800000000000e+10    -1.264646047188125e+01   -6.853884651834953e+01   
1.018900000000000e+10    -1.265205471218210e+01   -6.851639594893183e+01   
1.019000000000000e+10    -1.265023050297767e+01   -6.847130135839376e+01   
1.019100000000000e+10    -1.265147782319032e+01   -6.848557580340780e+01   
1.019200000000000e+10    -1.265072914157982e+01   -6.844855725723383e+01   
1.019300000000000e+10    -1.266709607667601e+01   -6.852295349268583e+01   
1.019400000000000e+10    -1.266000091974151e+01   -6.844328371760488e+01   
1.019500000000000e+10    -1.266679403839646e+01   -6.845992395696526e+01   
1.019600000000000e+10    -1.265946555711720e+01   -6.847928536759950e+01   
1.019700000000000e+10    -1.266919439714355e+01   -6.847444870341231e+01   
1.019800000000000e+10    -1.267319601498722e+01   -6.845538423075452e+01   
1.019900000000000e+10    -1.267464023491115e+01   -6.841553829851071e+01   
1.020000000000000e+10    -1.268278158831333e+01   -6.848566649621881e+01   
1.020100000000000e+10    -1.268259466022474e+01   -6.848064938060638e+01   
1.020200000000000e+10    -1.268090194760093e+01   -6.844654807094807e+01   
1.020300000000000e+10    -1.269355974695552e+01   -6.845456146753256e+01   
1.020400000000000e+10    -1.268798263757686e+01   -6.846766175450405e+01   
1.020500000000000e+10    -1.270194100585001e+01   -6.846561278898855e+01   
1.020600000000000e+10    -1.269073325910549e+01   -6.848999542523593e+01   
1.020700000000000e+10    -1.270614616978976e+01   -6.847147616900973e+01   
1.020800000000000e+10    -1.271341199210573e+01   -6.848098783342445e+01   
1.020900000000000e+10    -1.271113774362885e+01   -6.849193899999342e+01   
1.021000000000000e+10    -1.271445749287318e+01   -6.854376589635056e+01   
1.021100000000000e+10    -1.271859532534394e+01   -6.852393654375875e+01   
1.021200000000000e+10    -1.272203239518097e+01   -6.847835712692957e+01   
1.021300000000000e+10    -1.271867116230559e+01   -6.855533701708498e+01   
1.021400000000000e+10    -1.272541519613050e+01   -6.850588579355426e+01   
1.021500000000000e+10    -1.271965990347790e+01   -6.865048237770607e+01   
1.021600000000000e+10    -1.272978840864218e+01   -6.866105385342119e+01   
1.021700000000000e+10    -1.272273343606088e+01   -6.856857542780146e+01   
1.021800000000000e+10    -1.273133821911122e+01   -6.858589126241091e+01   
1.021900000000000e+10    -1.272287338931260e+01   -6.856464303267204e+01   
1.022000000000000e+10    -1.272862543450018e+01   -6.856990276925745e+01   
1.022100000000000e+10    -1.271574872244165e+01   -6.865286251595052e+01   
1.022200000000000e+10    -1.272285099043721e+01   -6.862014426374569e+01   
1.022300000000000e+10    -1.272309352852152e+01   -6.861253292820359e+01   
1.022400000000000e+10    -1.272913659936898e+01   -6.864902866897060e+01   
1.022500000000000e+10    -1.272282802054597e+01   -6.865701210972510e+01   
1.022600000000000e+10    -1.272665255699239e+01   -6.864460339853707e+01   
1.022700000000000e+10    -1.272588496593253e+01   -6.866274840520215e+01   
1.022800000000000e+10    -1.272626370819279e+01   -6.859664822468285e+01   
1.022900000000000e+10    -1.271546775264640e+01   -6.870975286884378e+01   
1.023000000000000e+10    -1.272480315402594e+01   -6.864955605423177e+01   
1.023100000000000e+10    -1.271113108174657e+01   -6.870584542808895e+01   
1.023200000000000e+10    -1.272828711437558e+01   -6.864519298512059e+01   
1.023300000000000e+10    -1.271367538229164e+01   -6.876141833412433e+01   
1.023400000000000e+10    -1.273263805685171e+01   -6.872748106786666e+01   
1.023500000000000e+10    -1.271865160972083e+01   -6.875971412728749e+01   
1.023600000000000e+10    -1.272646608256786e+01   -6.870219848384949e+01   
1.023700000000000e+10    -1.272571627896167e+01   -6.873001554889404e+01   
1.023800000000000e+10    -1.273259856074562e+01   -6.875576896614896e+01   
1.023900000000000e+10    -1.272520649433050e+01   -6.872478067064986e+01   
1.024000000000000e+10    -1.272958618236061e+01   -6.868771912298955e+01   
1.024100000000000e+10    -1.273191427950826e+01   -6.874692399154900e+01   
1.024200000000000e+10    -1.272459749004188e+01   -6.875924187792620e+01   
1.024300000000000e+10    -1.272064306437860e+01   -6.866666704766800e+01   
1.024400000000000e+10    -1.272042125392894e+01   -6.872739737910436e+01   
1.024500000000000e+10    -1.272215783501452e+01   -6.866203180451058e+01   
1.024600000000000e+10    -1.272046580349647e+01   -6.875528183258027e+01   
1.024700000000000e+10    -1.272152346144952e+01   -6.869258373279870e+01   
1.024800000000000e+10    -1.273302398760988e+01   -6.876643163772046e+01   
1.024900000000000e+10    -1.271880574950277e+01   -6.876632562747818e+01   
1.025000000000000e+10    -1.271372902044975e+01   -6.876004862691524e+01   
1.025100000000000e+10    -1.271869177327009e+01   -6.866406333803259e+01   
1.025200000000000e+10    -1.272198979173476e+01   -6.874875053575778e+01   
1.025300000000000e+10    -1.270911575055015e+01   -6.876031768233676e+01   
1.025400000000000e+10    -1.270572978889340e+01   -6.875496556794458e+01   
1.025500000000000e+10    -1.271197130585686e+01   -6.873314925501494e+01   
1.025600000000000e+10    -1.271390524520059e+01   -6.875739255067030e+01   
