[Version] 2.0
! Rohde & Schwarz Vector Network Analyzer
! Rohde-Schwarz,ZNL20-2Port,1323001220200009,1.71.1.10-23.02.1.238
! 
! Port Assignments:
! Nominal Port -> Actual Test Port
! --------------------------------
!   1 -> 1

! Created: GMT 2024-09-04 14:04:29

# Hz S DB R 50

[Number of Ports] 1
[Number of Frequencies] 2001

[Network Data] 
! freq[Hz]               S11[mag dB]              S11[ang]                 
1.000000000000000e+10    -1.180187797873969e+01   -8.125911888762644e+01   
1.000100000000000e+10    -1.180728385136252e+01   -8.128712028660404e+01   
1.000200000000000e+10    -1.181256167519729e+01   -8.119328440703228e+01   
1.000300000000000e+10    -1.181192881563851e+01   -8.115737578624926e+01   
1.000400000000000e+10    -1.182191134648733e+01   -8.117547049264081e+01   
1.000500000000000e+10    -1.181607128766998e+01   -8.120096387698877e+01   
1.000600000000000e+10    -1.183261109236907e+01   -8.115031289308975e+01   
1.000700000000000e+10    -1.181925360841826e+01   -8.119485989327566e+01   
1.000800000000000e+10    -1.184081256716697e+01   -8.118706947063477e+01   
1.000900000000000e+10    -1.182564447464295e+01   -8.107361047545515e+01   
1.001000000000000e+10    -1.183858622556171e+01   -8.115923805003965e+01   
1.001100000000000e+10    -1.184151808947205e+01   -8.108826726166956e+01   
1.001200000000000e+10    -1.184432975802924e+01   -8.111859759068594e+01   
1.001300000000000e+10    -1.184735332602979e+01   -8.110570033762228e+01   
1.001400000000000e+10    -1.185964211600655e+01   -8.105441648393138e+01   
1.001500000000000e+10    -1.185504974702313e+01   -8.115780122116864e+01   
1.001600000000000e+10    -1.186587944175854e+01   -8.108911633301334e+01   
1.001700000000000e+10    -1.187290932426865e+01   -8.107885690268429e+01   
1.001800000000000e+10    -1.187403744930699e+01   -8.108400008416197e+01   
1.001900000000000e+10    -1.188009846808215e+01   -8.111856720749410e+01   
1.002000000000000e+10    -1.188861136320268e+01   -8.103713044906790e+01   
1.002100000000000e+10    -1.189123234287037e+01   -8.103344873241865e+01   
1.002200000000000e+10    -1.188840654025776e+01   -8.110717650176078e+01   
1.002300000000000e+10    -1.189929198288942e+01   -8.109821309266312e+01   
1.002400000000000e+10    -1.190519541501988e+01   -8.119266454248486e+01   
1.002500000000000e+10    -1.190772433455161e+01   -8.117112569886598e+01   
1.002600000000000e+10    -1.190719449718890e+01   -8.116557715396556e+01   
1.002700000000000e+10    -1.191090182451807e+01   -8.114400279286423e+01   
1.002800000000000e+10    -1.190510426898310e+01   -8.122011433353175e+01   
1.002900000000000e+10    -1.191229694481747e+01   -8.118353448843632e+01   
1.003000000000000e+10    -1.191526976290233e+01   -8.123835012609379e+01   
1.003100000000000e+10    -1.191574361680163e+01   -8.132696997895236e+01   
1.003200000000000e+10    -1.192291856741910e+01   -8.129936394735914e+01   
1.003300000000000e+10    -1.193392753362733e+01   -8.132110680997773e+01   
1.003400000000000e+10    -1.192620354130323e+01   -8.140256867609057e+01   
1.003500000000000e+10    -1.193055992941711e+01   -8.137759191711598e+01   
1.003600000000000e+10    -1.194197764484193e+01   -8.140978251124940e+01   
1.003700000000000e+10    -1.193595333461674e+01   -8.146455259494924e+01   
1.003800000000000e+10    -1.194496911486644e+01   -8.146109355109566e+01   
1.003900000000000e+10    -1.194166175929453e+01   -8.158012265657145e+01   
1.004000000000000e+10    -1.194638151060204e+01   -8.146843313969110e+01   
1.004100000000000e+10    -1.193438368401635e+01   -8.155506228287872e+01   
1.004200000000000e+10    -1.194509360883078e+01   -8.147989952075758e+01   
1.004300000000000e+10    -1.194559310534980e+01   -8.158273406240735e+01   
1.004400000000000e+10    -1.194028679755366e+01   -8.166380506024940e+01   
1.004500000000000e+10    -1.195443011660730e+01   -8.163882226910388e+01   
1.004600000000000e+10    -1.194351131548310e+01   -8.162367216945954e+01   
1.004700000000000e+10    -1.194379632198153e+01   -8.174724406548553e+01   
1.004800000000000e+10    -1.194344382393253e+01   -8.176976014815827e+01   
1.004900000000000e+10    -1.195410744386555e+01   -8.175853253727865e+01   
1.005000000000000e+10    -1.195535302547319e+01   -8.175491799651623e+01   
1.005100000000000e+10    -1.193978065629979e+01   -8.174030470214700e+01   
1.005200000000000e+10    -1.193236016826346e+01   -8.178749960042371e+01   
1.005300000000000e+10    -1.193236961943967e+01   -8.187123834757169e+01   
1.005400000000000e+10    -1.193696843640131e+01   -8.188189419127990e+01   
1.005500000000000e+10    -1.193308183947249e+01   -8.194517558103352e+01   
1.005600000000000e+10    -1.192995467017615e+01   -8.186371691336977e+01   
1.005700000000000e+10    -1.193543601024323e+01   -8.191615553141857e+01   
1.005800000000000e+10    -1.192038752176959e+01   -8.185298215654586e+01   
1.005900000000000e+10    -1.191811651110569e+01   -8.194660143753040e+01   
1.006000000000000e+10    -1.191238492700706e+01   -8.197618187033378e+01   
1.006100000000000e+10    -1.191371010681703e+01   -8.196554157742825e+01   
1.006200000000000e+10    -1.190985729351058e+01   -8.192926472974005e+01   
1.006300000000000e+10    -1.189408651874266e+01   -8.188954895646417e+01   
1.006400000000000e+10    -1.190163257176524e+01   -8.191205791061145e+01   
1.006500000000000e+10    -1.189579980796545e+01   -8.197069065872550e+01   
1.006600000000000e+10    -1.189694589828722e+01   -8.195015595586338e+01   
1.006700000000000e+10    -1.189784092564230e+01   -8.187886850611477e+01   
1.006800000000000e+10    -1.190354755325970e+01   -8.201480499669111e+01   
1.006900000000000e+10    -1.188790895193728e+01   -8.190884141184499e+01   
1.007000000000000e+10    -1.188713235754399e+01   -8.192978930358836e+01   
1.007100000000000e+10    -1.188369390039698e+01   -8.190146248239670e+01   
1.007200000000000e+10    -1.189010291564109e+01   -8.196985868898129e+01   
1.007300000000000e+10    -1.188327615049030e+01   -8.188055071549806e+01   
1.007400000000000e+10    -1.188058905442433e+01   -8.188156648936990e+01   
1.007500000000000e+10    -1.188726252950178e+01   -8.185815992909585e+01   
1.007600000000000e+10    -1.187968501429339e+01   -8.188681334202036e+01   
1.007700000000000e+10    -1.188157343664406e+01   -8.180081754619266e+01   
1.007800000000000e+10    -1.187840228099077e+01   -8.178700793594591e+01   
1.007900000000000e+10    -1.187131241100527e+01   -8.168272598152075e+01   
1.008000000000000e+10    -1.187584286492921e+01   -8.167197373163731e+01   
1.008100000000000e+10    -1.188456849609484e+01   -8.179917485125283e+01   
1.008200000000000e+10    -1.188485847955177e+01   -8.175419377588162e+01   
1.008300000000000e+10    -1.189065680258869e+01   -8.162072780064013e+01   
1.008400000000000e+10    -1.188994365148406e+01   -8.167697168284590e+01   
1.008500000000000e+10    -1.188758702477030e+01   -8.163232448489759e+01   
1.008600000000000e+10    -1.188962892166030e+01   -8.159993138148845e+01   
1.008700000000000e+10    -1.189463256338536e+01   -8.156437058697090e+01   
1.008800000000000e+10    -1.189567353641583e+01   -8.161960500128697e+01   
1.008900000000000e+10    -1.189957008984947e+01   -8.148648774246851e+01   
1.009000000000000e+10    -1.189548638846271e+01   -8.152215031901012e+01   
1.009100000000000e+10    -1.190010434989330e+01   -8.153891974448831e+01   
1.009200000000000e+10    -1.190408149775488e+01   -8.145179830782989e+01   
1.009300000000000e+10    -1.191214226084447e+01   -8.144495814092895e+01   
1.009400000000000e+10    -1.191886986834581e+01   -8.146387826291003e+01   
1.009500000000000e+10    -1.192101625199053e+01   -8.147541439797600e+01   
1.009600000000000e+10    -1.191970911921845e+01   -8.138748322760807e+01   
1.009700000000000e+10    -1.192606820891667e+01   -8.140384491348323e+01   
1.009800000000000e+10    -1.193695467785127e+01   -8.135375991927890e+01   
1.009900000000000e+10    -1.194086892105248e+01   -8.135636053751627e+01   
1.010000000000000e+10    -1.194285958931244e+01   -8.140743601166655e+01   
1.010100000000000e+10    -1.194697493918130e+01   -8.135017755102633e+01   
1.010200000000000e+10    -1.195880886985986e+01   -8.134233969614944e+01   
1.010300000000000e+10    -1.196507798358677e+01   -8.135998429429250e+01   
1.010400000000000e+10    -1.196288563977665e+01   -8.134553513387380e+01   
1.010500000000000e+10    -1.197568561314134e+01   -8.138466945467475e+01   
1.010600000000000e+10    -1.196987038649446e+01   -8.128120761950528e+01   
1.010700000000000e+10    -1.198664292843008e+01   -8.143593488963232e+01   
1.010800000000000e+10    -1.199775107588798e+01   -8.131663434440519e+01   
1.010900000000000e+10    -1.199508212962535e+01   -8.138112561105144e+01   
1.011000000000000e+10    -1.199544143518633e+01   -8.132072413778853e+01   
1.011100000000000e+10    -1.199319636462383e+01   -8.143386534328644e+01   
1.011200000000000e+10    -1.200803018061742e+01   -8.141199566136544e+01   
1.011300000000000e+10    -1.200414550324402e+01   -8.148805949535682e+01   
1.011400000000000e+10    -1.201620845017837e+01   -8.142878177907798e+01   
1.011500000000000e+10    -1.201715027811530e+01   -8.147803868280614e+01   
1.011600000000000e+10    -1.203195215113210e+01   -8.144282926890781e+01   
1.011700000000000e+10    -1.204560022778965e+01   -8.150551509585632e+01   
1.011800000000000e+10    -1.204246179875564e+01   -8.152717657089453e+01   
1.011900000000000e+10    -1.204611114533560e+01   -8.156711262576839e+01   
1.012000000000000e+10    -1.204078892744411e+01   -8.160353427656239e+01   
1.012100000000000e+10    -1.205672396957924e+01   -8.166644336967609e+01   
1.012200000000000e+10    -1.204837341932888e+01   -8.162386478647548e+01   
1.012300000000000e+10    -1.205556572864182e+01   -8.166079294440247e+01   
1.012400000000000e+10    -1.206518993981127e+01   -8.169368361992071e+01   
1.012500000000000e+10    -1.206561952299071e+01   -8.170691335235114e+01   
1.012600000000000e+10    -1.207253898671936e+01   -8.171049795529136e+01   
1.012700000000000e+10    -1.207522810766496e+01   -8.182400223274369e+01   
1.012800000000000e+10    -1.207368945009818e+01   -8.178903609304260e+01   
1.012900000000000e+10    -1.207417925491090e+01   -8.186826120344639e+01   
1.013000000000000e+10    -1.207753622232633e+01   -8.182399375684497e+01   
1.013100000000000e+10    -1.207818838302483e+01   -8.189481553634505e+01   
1.013200000000000e+10    -1.208461691090241e+01   -8.193992120927068e+01   
1.013300000000000e+10    -1.208835503813231e+01   -8.201346079955034e+01   
1.013400000000000e+10    -1.207665756782989e+01   -8.201001745674549e+01   
1.013500000000000e+10    -1.207994511768371e+01   -8.206352658573326e+01   
1.013600000000000e+10    -1.207527987263519e+01   -8.206514550413709e+01   
1.013700000000000e+10    -1.207028464428741e+01   -8.210339961751518e+01   
1.013800000000000e+10    -1.206849526706676e+01   -8.215536592669478e+01   
1.013900000000000e+10    -1.206815761481929e+01   -8.218610665072291e+01   
1.014000000000000e+10    -1.206086236246257e+01   -8.217147315778325e+01   
1.014100000000000e+10    -1.206966384256589e+01   -8.222803161368120e+01   
1.014200000000000e+10    -1.205786244896036e+01   -8.225509540006142e+01   
1.014300000000000e+10    -1.206232985135655e+01   -8.225530569174079e+01   
1.014400000000000e+10    -1.205452279465639e+01   -8.227418071848447e+01   
1.014500000000000e+10    -1.205581675873803e+01   -8.235028261834852e+01   
1.014600000000000e+10    -1.204415882698327e+01   -8.233492867885877e+01   
1.014700000000000e+10    -1.203928111841885e+01   -8.230477619861659e+01   
1.014800000000000e+10    -1.204660741513765e+01   -8.235186761392731e+01   
1.014900000000000e+10    -1.203509495477926e+01   -8.239726448082294e+01   
1.015000000000000e+10    -1.203449859817279e+01   -8.240181019137066e+01   
1.015100000000000e+10    -1.203013005426584e+01   -8.240571116244381e+01   
1.015200000000000e+10    -1.202155162703408e+01   -8.239212462711173e+01   
1.015300000000000e+10    -1.202327264205513e+01   -8.244573092138207e+01   
1.015400000000000e+10    -1.201465582325414e+01   -8.241216132454788e+01   
1.015500000000000e+10    -1.203103712408020e+01   -8.244925661330697e+01   
1.015600000000000e+10    -1.202029064873383e+01   -8.243149436395724e+01   
1.015700000000000e+10    -1.201046877489060e+01   -8.236975510218954e+01   
1.015800000000000e+10    -1.200980452350251e+01   -8.242695661983642e+01   
1.015900000000000e+10    -1.200606181125073e+01   -8.239561202719503e+01   
1.016000000000000e+10    -1.200011145808890e+01   -8.242184730239228e+01   
1.016100000000000e+10    -1.200543688353840e+01   -8.241997009580234e+01   
1.016200000000000e+10    -1.199788921546421e+01   -8.232068852427965e+01   
1.016300000000000e+10    -1.199362364965233e+01   -8.230900185189363e+01   
1.016400000000000e+10    -1.200781164151173e+01   -8.230474361396594e+01   
1.016500000000000e+10    -1.199301227094506e+01   -8.226835552494077e+01   
1.016600000000000e+10    -1.200278219544577e+01   -8.227807823798085e+01   
1.016700000000000e+10    -1.199258248540890e+01   -8.225693956436342e+01   
1.016800000000000e+10    -1.198979122743693e+01   -8.221572853467038e+01   
1.016900000000000e+10    -1.199369666757832e+01   -8.216113115142231e+01   
1.017000000000000e+10    -1.200118630208629e+01   -8.216321411246734e+01   
1.017100000000000e+10    -1.199642184961598e+01   -8.220749508687720e+01   
1.017200000000000e+10    -1.199362152172427e+01   -8.209369636513769e+01   
1.017300000000000e+10    -1.199805949699706e+01   -8.213256369275322e+01   
1.017400000000000e+10    -1.199567679100203e+01   -8.205905753299859e+01   
1.017500000000000e+10    -1.199420492597179e+01   -8.206994997228320e+01   
1.017600000000000e+10    -1.198726140230033e+01   -8.199291000779361e+01   
1.017700000000000e+10    -1.200212402340160e+01   -8.196386582423007e+01   
1.017800000000000e+10    -1.200001598324446e+01   -8.196433889732313e+01   
1.017900000000000e+10    -1.199867041038477e+01   -8.187786600919549e+01   
1.018000000000000e+10    -1.199921153350521e+01   -8.188401464672235e+01   
1.018100000000000e+10    -1.200232045622381e+01   -8.181948466399093e+01   
1.018200000000000e+10    -1.200834195947733e+01   -8.178925539672568e+01   
1.018300000000000e+10    -1.200381869495512e+01   -8.178432011070831e+01   
1.018400000000000e+10    -1.201689295882202e+01   -8.176887191014015e+01   
1.018500000000000e+10    -1.201352755290649e+01   -8.176707061002149e+01   
1.018600000000000e+10    -1.202188164149940e+01   -8.183846349808157e+01   
1.018700000000000e+10    -1.201916645167966e+01   -8.173784778666162e+01   
1.018800000000000e+10    -1.203160318860494e+01   -8.175296566060938e+01   
1.018900000000000e+10    -1.203847951780286e+01   -8.173681242203787e+01   
1.019000000000000e+10    -1.203793141840118e+01   -8.168181816929048e+01   
1.019100000000000e+10    -1.204122520999604e+01   -8.169351040742045e+01   
1.019200000000000e+10    -1.204381252818396e+01   -8.165245178594010e+01   
1.019300000000000e+10    -1.205873224817927e+01   -8.172661918683688e+01   
1.019400000000000e+10    -1.205714109318361e+01   -8.166930119242929e+01   
1.019500000000000e+10    -1.206482837216119e+01   -8.169305827530009e+01   
1.019600000000000e+10    -1.205722098730971e+01   -8.169855638916393e+01   
1.019700000000000e+10    -1.206928834537429e+01   -8.167090588977841e+01   
1.019800000000000e+10    -1.207667251203525e+01   -8.170242701564877e+01   
1.019900000000000e+10    -1.207876687679470e+01   -8.165015913319418e+01   
1.020000000000000e+10    -1.208953782960048e+01   -8.172980343705426e+01   
1.020100000000000e+10    -1.209510363959555e+01   -8.172016211269032e+01   
1.020200000000000e+10    -1.209343241310822e+01   -8.170886388756539e+01   
1.020300000000000e+10    -1.210880001166735e+01   -8.170940845454444e+01   
1.020400000000000e+10    -1.210676898641974e+01   -8.173584758113358e+01   
1.020500000000000e+10    -1.212052807104775e+01   -8.178457706739043e+01   
1.020600000000000e+10    -1.211491260969814e+01   -8.175253037673475e+01   
1.020700000000000e+10    -1.213126300597602e+01   -8.178862919535774e+01   
1.020800000000000e+10    -1.214278332985739e+01   -8.182438365612163e+01   
1.020900000000000e+10    -1.213958827124497e+01   -8.184610581115106e+01   
1.021000000000000e+10    -1.214479557278354e+01   -8.187877467123522e+01   
1.021100000000000e+10    -1.215221635179016e+01   -8.189909467308389e+01   
1.021200000000000e+10    -1.215944592698227e+01   -8.185694242484885e+01   
1.021300000000000e+10    -1.215627493475176e+01   -8.196550577120185e+01   
1.021400000000000e+10    -1.216779457585053e+01   -8.193007995002948e+01   
1.021500000000000e+10    -1.216362613561950e+01   -8.206084032963629e+01   
1.021600000000000e+10    -1.217238126174919e+01   -8.211998470419097e+01   
1.021700000000000e+10    -1.217048699549836e+01   -8.207464242948845e+01   
1.021800000000000e+10    -1.217728229304545e+01   -8.211784810945414e+01   
1.021900000000000e+10    -1.217093006026575e+01   -8.210518222441979e+01   
1.022000000000000e+10    -1.218258827941290e+01   -8.214721542053580e+01   
1.022100000000000e+10    -1.216753557321131e+01   -8.222241198500829e+01   
1.022200000000000e+10    -1.217611979722183e+01   -8.221434093615603e+01   
1.022300000000000e+10    -1.217762380301684e+01   -8.226743976609110e+01   
1.022400000000000e+10    -1.218182132825878e+01   -8.230942564978471e+01   
1.022500000000000e+10    -1.217649409125458e+01   -8.234299830520020e+01   
1.022600000000000e+10    -1.218229806214223e+01   -8.236520538838550e+01   
1.022700000000000e+10    -1.217914988634461e+01   -8.242049063422002e+01   
1.022800000000000e+10    -1.218422358932316e+01   -8.237555853120362e+01   
1.022900000000000e+10    -1.217063283193913e+01   -8.247714282316147e+01   
1.023000000000000e+10    -1.217955826679962e+01   -8.249467532113219e+01   
1.023100000000000e+10    -1.216534626891407e+01   -8.252558196470835e+01   
1.023200000000000e+10    -1.218011748220013e+01   -8.252463285394477e+01   
1.023300000000000e+10    -1.216351871088715e+01   -8.263289122190297e+01   
1.023400000000000e+10    -1.217787293380402e+01   -8.264130758265654e+01   
1.023500000000000e+10    -1.216141779036363e+01   -8.267868975713982e+01   
1.023600000000000e+10    -1.217279138122210e+01   -8.266373025976516e+01   
1.023700000000000e+10    -1.216752902100658e+01   -8.268335727478532e+01   
1.023800000000000e+10    -1.217324829509516e+01   -8.273854156952524e+01   
1.023900000000000e+10    -1.216600877182202e+01   -8.270798753643882e+01   
1.024000000000000e+10    -1.217140058693405e+01   -8.269050029618769e+01   
1.024100000000000e+10    -1.216704018853571e+01   -8.278132956677646e+01   
1.024200000000000e+10    -1.216055045300901e+01   -8.276510889288038e+01   
1.024300000000000e+10    -1.215639541903865e+01   -8.270198811231316e+01   
1.024400000000000e+10    -1.215355678196276e+01   -8.276497139580525e+01   
1.024500000000000e+10    -1.215491611366672e+01   -8.271134736921167e+01   
1.024600000000000e+10    -1.214893258444417e+01   -8.279824132174262e+01   
1.024700000000000e+10    -1.215038283196736e+01   -8.274476874509368e+01   
1.024800000000000e+10    -1.215954153538582e+01   -8.281103071296475e+01   
1.024900000000000e+10    -1.214368360613923e+01   -8.281717055087012e+01   
1.025000000000000e+10    -1.213923777839979e+01   -8.276160855063608e+01   
1.025100000000000e+10    -1.214479251794548e+01   -8.270887113225606e+01   
1.025200000000000e+10    -1.214559596723316e+01   -8.277378736034693e+01   
1.025300000000000e+10    -1.213257540840904e+01   -8.276979576857062e+01   
1.025400000000000e+10    -1.212786900053490e+01   -8.273011487331152e+01   
1.025500000000000e+10    -1.213417037601865e+01   -8.270818807509347e+01   
1.025600000000000e+10    -1.213291047495463e+01   -8.272765184586085e+01   
