[Version] 2.0
! Rohde & Schwarz Vector Network Analyzer
! Rohde-Schwarz,ZNL20-2Port,1323001220200009,1.71.1.10-23.02.1.238
! 
! Port Assignments:
! Nominal Port -> Actual Test Port
! --------------------------------
!   1 -> 1
!   2 -> 2

! Created: GMT+3 2024-09-24 15:57:41

# Hz S DB R 50

[Number of Ports] 2
[Two-Port Data Order] 21_12
[Number of Frequencies] 6001

[Network Data] 
! freq[Hz]               S11[mag dB]              S11[ang]                 S21[mag dB]              S21[ang]                 S12[mag dB]              S12[ang]                 S22[mag dB]              S22[ang]                 
7.000000000000000e+09    -1.739897841661400e+01   -1.440629412641786e+02   -3.058462641430385e+01   -1.344395292458609e+02   -3.055920378969311e+01   -1.335319504042128e+02   -1.915314477476161e+01   -1.394785876373863e+02   
7.001000000000000e+09    -1.737285017024673e+01   -1.440240461447220e+02   -3.055870928171398e+01   -1.356362412164653e+02   -3.056507052413057e+01   -1.347536785565693e+02   -1.918656439255968e+01   -1.393350981557775e+02   
7.002000000000000e+09    -1.735015898065278e+01   -1.440052735438436e+02   -3.057675046092304e+01   -1.365767034887612e+02   -3.058870721587987e+01   -1.359873859621942e+02   -1.921724266671550e+01   -1.391834314929624e+02   
7.003000000000000e+09    -1.733315277264820e+01   -1.439755080117768e+02   -3.062232640129973e+01   -1.375821863636881e+02   -3.059783756997178e+01   -1.371225770207913e+02   -1.923804488359468e+01   -1.390837853837773e+02   
7.004000000000000e+09    -1.731188767959605e+01   -1.439540798690450e+02   -3.060668776403572e+01   -1.387976015389357e+02   -3.062111124333909e+01   -1.382076976783508e+02   -1.926837341385518e+01   -1.389690170316585e+02   
7.005000000000000e+09    -1.728700235599256e+01   -1.439426894835650e+02   -3.061635689599677e+01   -1.399917228614362e+02   -3.063023184108141e+01   -1.394164925403992e+02   -1.928837798405887e+01   -1.389109993520088e+02   
7.006000000000000e+09    -1.727788190445174e+01   -1.438816769447002e+02   -3.061297282196948e+01   -1.411085762219710e+02   -3.059862899822503e+01   -1.405481165447576e+02   -1.931815900778257e+01   -1.388394521849153e+02   
7.007000000000000e+09    -1.724539054518484e+01   -1.439011441613178e+02   -3.065377438416213e+01   -1.421170048240211e+02   -3.059032750889012e+01   -1.414794431453363e+02   -1.934264693457220e+01   -1.387847713922077e+02   
7.008000000000000e+09    -1.722832661426711e+01   -1.438923589794207e+02   -3.063308263843243e+01   -1.434171665284183e+02   -3.061359352036897e+01   -1.428542094982792e+02   -1.936188635570524e+01   -1.388252825031995e+02   
7.009000000000000e+09    -1.720390621163629e+01   -1.438448936490009e+02   -3.064579338711094e+01   -1.443712911423249e+02   -3.061009105042852e+01   -1.438667552596583e+02   -1.939071004351020e+01   -1.388597158210383e+02   
7.010000000000000e+09    -1.718631684348823e+01   -1.438801566386196e+02   -3.062455162367162e+01   -1.456092148363808e+02   -3.060591924713441e+01   -1.450055166800980e+02   -1.940686743056544e+01   -1.389132996546320e+02   
7.011000000000000e+09    -1.716695106829003e+01   -1.438475879071371e+02   -3.063199466437575e+01   -1.462620897316542e+02   -3.063026844909239e+01   -1.459887153095131e+02   -1.943154106501028e+01   -1.389827746996155e+02   
7.012000000000000e+09    -1.714713222017175e+01   -1.438239126957098e+02   -3.066770632451341e+01   -1.474179726540634e+02   -3.062048326630119e+01   -1.471286991894451e+02   -1.945053871827142e+01   -1.390502443509713e+02   
7.013000000000000e+09    -1.713068611706418e+01   -1.438266052735759e+02   -3.064357425318032e+01   -1.485114133120526e+02   -3.060465051200047e+01   -1.483344827239123e+02   -1.947168555345507e+01   -1.392204510687361e+02   
7.014000000000000e+09    -1.711551386921651e+01   -1.438164985200516e+02   -3.062328436041922e+01   -1.496932332387478e+02   -3.065494555245337e+01   -1.491953211833167e+02   -1.949045251350434e+01   -1.393044180305754e+02   
7.015000000000000e+09    -1.709010655428145e+01   -1.438535834725146e+02   -3.066060016675608e+01   -1.507774567718893e+02   -3.061535814368223e+01   -1.501957830541833e+02   -1.949593588132581e+01   -1.394848021557993e+02   
7.016000000000000e+09    -1.706922829272490e+01   -1.438237295136717e+02   -3.063111713249239e+01   -1.516096897101077e+02   -3.064841026523556e+01   -1.514573651136457e+02   -1.951385295549128e+01   -1.396364538914790e+02   
7.017000000000000e+09    -1.705743654365367e+01   -1.438169133097809e+02   -3.061972127607520e+01   -1.526713909736671e+02   -3.059620609636763e+01   -1.526923900065311e+02   -1.951364820206269e+01   -1.398494335288556e+02   
7.018000000000000e+09    -1.703761186812038e+01   -1.438627145898566e+02   -3.062451064629735e+01   -1.539831882199236e+02   -3.057766468091204e+01   -1.535483308535607e+02   -1.952233489413005e+01   -1.400199702391741e+02   
7.019000000000000e+09    -1.702006058806877e+01   -1.438884518114880e+02   -3.060296623329355e+01   -1.550941840085981e+02   -3.060573774028580e+01   -1.547234750855208e+02   -1.951456542759244e+01   -1.402170625086174e+02   
7.020000000000000e+09    -1.700168026995787e+01   -1.439142872624923e+02   -3.059260664233750e+01   -1.560176825968028e+02   -3.060070148283422e+01   -1.560714975601080e+02   -1.951592516071074e+01   -1.405032140786130e+02   
7.021000000000000e+09    -1.698667867734483e+01   -1.439722283548060e+02   -3.053842595656477e+01   -1.572535866562155e+02   -3.054965602926282e+01   -1.569546223652195e+02   -1.950846514503867e+01   -1.407433705361618e+02   
7.022000000000000e+09    -1.696826012219631e+01   -1.440438210510263e+02   -3.054260765850060e+01   -1.582847453801292e+02   -3.054106805975355e+01   -1.581242862515506e+02   -1.951124967820888e+01   -1.409038606396364e+02   
7.023000000000000e+09    -1.695406279702180e+01   -1.440972961865427e+02   -3.053131956896177e+01   -1.594755596285690e+02   -3.052272774059304e+01   -1.592667827277069e+02   -1.948838961359106e+01   -1.412610052654996e+02   
7.024000000000000e+09    -1.693612711511371e+01   -1.441724691985085e+02   -3.053308191239484e+01   -1.605804597918743e+02   -3.052674037118466e+01   -1.604206141162503e+02   -1.948194505502865e+01   -1.415180898018896e+02   
7.025000000000000e+09    -1.692202714171098e+01   -1.442438736766263e+02   -3.052215368646562e+01   -1.616041851286303e+02   -3.051704272136684e+01   -1.615747882280695e+02   -1.947111333534540e+01   -1.417641821222908e+02   
7.026000000000000e+09    -1.690911065158499e+01   -1.443394445357865e+02   -3.052321650653619e+01   -1.628655737967752e+02   -3.050748091441611e+01   -1.626427979825088e+02   -1.945336046192871e+01   -1.420812508871572e+02   
7.027000000000000e+09    -1.689388065518146e+01   -1.444081518016391e+02   -3.051112106499944e+01   -1.639627277767560e+02   -3.047471133762376e+01   -1.636284953336973e+02   -1.942994923486572e+01   -1.423382261050182e+02   
7.028000000000000e+09    -1.687470210626759e+01   -1.445280127027463e+02   -3.047766140127065e+01   -1.651308446501565e+02   -3.048369543885261e+01   -1.650680622036968e+02   -1.941731210756771e+01   -1.427208651734911e+02   
7.029000000000000e+09    -1.685816201883094e+01   -1.446187328715102e+02   -3.046743259415424e+01   -1.662609750787537e+02   -3.045731569051154e+01   -1.662780866130383e+02   -1.939376118733830e+01   -1.430649475867188e+02   
7.030000000000000e+09    -1.684304017858086e+01   -1.447671855075708e+02   -3.044214453782518e+01   -1.673433808151825e+02   -3.047297250740085e+01   -1.672532308799317e+02   -1.936552118088655e+01   -1.433065634980892e+02   
7.031000000000000e+09    -1.682771804002244e+01   -1.448850957678662e+02   -3.044171871138654e+01   -1.682802828403293e+02   -3.045748500956680e+01   -1.684069218644296e+02   -1.935561086821577e+01   -1.436244417012057e+02   
7.032000000000000e+09    -1.681429275744447e+01   -1.450286880536939e+02   -3.042201401210648e+01   -1.695798557484262e+02   -3.045999976315429e+01   -1.694677043104303e+02   -1.933361766352106e+01   -1.439699359601460e+02   
7.033000000000000e+09    -1.680429747889395e+01   -1.451642863585248e+02   -3.045580429941529e+01   -1.705182421439334e+02   -3.045930824442298e+01   -1.707653918956166e+02   -1.930076598726128e+01   -1.442602678279348e+02   
7.034000000000000e+09    -1.678852401069626e+01   -1.452974186081653e+02   -3.042940961179061e+01   -1.716634475460791e+02   -3.044942907145840e+01   -1.717797055802926e+02   -1.927649311874789e+01   -1.444586827237727e+02   
7.035000000000000e+09    -1.677422979347331e+01   -1.454133582550276e+02   -3.039345532600075e+01   -1.725011800728340e+02   -3.043657517865118e+01   -1.728289615005497e+02   -1.923575360306820e+01   -1.447574372718855e+02   
7.036000000000000e+09    -1.676002556371450e+01   -1.455661426240771e+02   -3.039449739904225e+01   -1.735532739570010e+02   -3.038437901979626e+01   -1.738843149176894e+02   -1.921096708190188e+01   -1.450089309110996e+02   
7.037000000000000e+09    -1.674624081515737e+01   -1.457446580142787e+02   -3.035706990843096e+01   -1.748102187460623e+02   -3.038265985436750e+01   -1.748450631930375e+02   -1.917961311968447e+01   -1.452294680500880e+02   
7.038000000000000e+09    -1.672873285370958e+01   -1.458402624552484e+02   -3.034408544620428e+01   -1.758881234698804e+02   -3.037336822619161e+01   -1.759339639034981e+02   -1.913342227134151e+01   -1.455195551690855e+02   
7.039000000000000e+09    -1.670801689652344e+01   -1.459752892914658e+02   -3.031560858783318e+01   -1.768495325898286e+02   -3.036361886541343e+01   -1.769761492349564e+02   -1.909808322056789e+01   -1.458236010064125e+02   
7.040000000000000e+09    -1.669229214166460e+01   -1.461013140877962e+02   -3.033440400955253e+01   -1.780411444039874e+02   -3.030296578755321e+01   -1.781570112342281e+02   -1.904755616848415e+01   -1.460575315043517e+02   
7.041000000000000e+09    -1.668263264315654e+01   -1.462419661302892e+02   -3.029242490784402e+01   -1.791894807162025e+02   -3.034539406734329e+01   -1.791402732194678e+02   -1.901385137728904e+01   -1.463056606856530e+02   
7.042000000000000e+09    -1.666412881775184e+01   -1.463811277527260e+02   -3.028126501590509e+01   1.796957246835910e+02    -3.032358658384578e+01   1.796854435238772e+02    -1.897612756672977e+01   -1.465188620575524e+02   
7.043000000000000e+09    -1.665593494179456e+01   -1.465602482834965e+02   -3.024837324692096e+01   1.785211518578543e+02    -3.028670452490481e+01   1.784928489960182e+02    -1.893066705719191e+01   -1.467678992310462e+02   
7.044000000000000e+09    -1.663259458775358e+01   -1.466363893999741e+02   -3.024632109739157e+01   1.777306057974056e+02    -3.028641248836604e+01   1.776479880422146e+02    -1.887488360434243e+01   -1.469947140985177e+02   
7.045000000000000e+09    -1.661964610071704e+01   -1.467685509957236e+02   -3.021796591370261e+01   1.765329457512422e+02    -3.023005808970147e+01   1.764393655477647e+02    -1.884322189154759e+01   -1.472125332687720e+02   
7.046000000000000e+09    -1.660095199834581e+01   -1.469449491301409e+02   -3.021693102014701e+01   1.753292111487604e+02    -3.023059203240113e+01   1.754904326286351e+02    -1.878727488616044e+01   -1.474120297734690e+02   
7.047000000000000e+09    -1.658902691030089e+01   -1.470425590517094e+02   -3.019131703685381e+01   1.744137199846089e+02    -3.022328293751658e+01   1.742998188542899e+02    -1.874522291335196e+01   -1.475938561585868e+02   
7.048000000000000e+09    -1.657474676335823e+01   -1.472246375664339e+02   -3.015556714265948e+01   1.732363965667276e+02    -3.020388287561690e+01   1.733617689645485e+02    -1.870044351284174e+01   -1.477438980285932e+02   
7.049000000000000e+09    -1.657081120813203e+01   -1.472986630734441e+02   -3.013353085454010e+01   1.722587349230149e+02    -3.018787181667683e+01   1.722536311039728e+02    -1.864006674021357e+01   -1.479140759049203e+02   
7.050000000000000e+09    -1.655833185605653e+01   -1.474310146616974e+02   -3.013785124150360e+01   1.710191003146263e+02    -3.017490415025574e+01   1.712404857480591e+02    -1.859260510099723e+01   -1.480442936069475e+02   
7.051000000000000e+09    -1.654411688266162e+01   -1.474811261684453e+02   -3.007969851662856e+01   1.699596774241535e+02    -3.014163512538891e+01   1.700735295843600e+02    -1.853590858473733e+01   -1.481619877439362e+02   
7.052000000000000e+09    -1.653595674800878e+01   -1.476152058236972e+02   -3.008757736847666e+01   1.688811222960591e+02    -3.012840320535266e+01   1.693422743321371e+02    -1.849060544686253e+01   -1.483233493674116e+02   
7.053000000000000e+09    -1.652686408575349e+01   -1.477340637262808e+02   -3.008467507703260e+01   1.680175718147539e+02    -3.010239831225966e+01   1.681133042966686e+02    -1.843940767365277e+01   -1.483812238505275e+02   
7.054000000000000e+09    -1.652523671079661e+01   -1.478735785119628e+02   -3.001608688134681e+01   1.667970126759079e+02    -3.007611591072826e+01   1.670281372942860e+02    -1.838743612222085e+01   -1.484491643696396e+02   
7.055000000000000e+09    -1.651557723152183e+01   -1.479678015050918e+02   -3.000543437045555e+01   1.657085409755285e+02    -3.004987248197850e+01   1.660130155321621e+02    -1.833300988475801e+01   -1.485089821167821e+02   
7.056000000000000e+09    -1.650819065492543e+01   -1.480665057076740e+02   -3.000420671215807e+01   1.647543378201802e+02    -3.000269770381879e+01   1.650905677014139e+02    -1.827756762906832e+01   -1.486077047490290e+02   
7.057000000000000e+09    -1.650065100289155e+01   -1.481577130161074e+02   -2.996505544123757e+01   1.635872098070623e+02    -2.999769229741511e+01   1.637776884448306e+02    -1.822357404661701e+01   -1.487076446998720e+02   
7.058000000000000e+09    -1.649995176195322e+01   -1.482898746744233e+02   -2.995273417923774e+01   1.625877368400705e+02    -2.997437922279727e+01   1.629226712376995e+02    -1.818263685714111e+01   -1.487157727993375e+02   
7.059000000000000e+09    -1.650073529111672e+01   -1.483441302487086e+02   -2.992907491857292e+01   1.614474894585061e+02    -2.993264395706864e+01   1.618498117423679e+02    -1.812349559981104e+01   -1.487016858272614e+02   
7.060000000000000e+09    -1.650333123944056e+01   -1.485321281073999e+02   -2.989668623117279e+01   1.603638445991302e+02    -2.992199155964123e+01   1.607542337170391e+02    -1.807215662170466e+01   -1.487507308826011e+02   
7.061000000000000e+09    -1.649985224549764e+01   -1.486135491026229e+02   -2.985559323159928e+01   1.591858035507777e+02    -2.987619540240483e+01   1.596467924853659e+02    -1.802608254515848e+01   -1.486971130263734e+02   
7.062000000000000e+09    -1.650349091962494e+01   -1.487227409572029e+02   -2.983006214529190e+01   1.581820471369078e+02    -2.987447314814953e+01   1.583861628768872e+02    -1.797578400278810e+01   -1.487202240429389e+02   
7.063000000000000e+09    -1.649830045302915e+01   -1.488208878427281e+02   -2.981277263258179e+01   1.569764688007631e+02    -2.985885108660189e+01   1.573369055329714e+02    -1.792047606760894e+01   -1.486855301685417e+02   
7.064000000000000e+09    -1.651002592591937e+01   -1.489516540400904e+02   -2.977888635534643e+01   1.560099256913441e+02    -2.981984583521235e+01   1.567200550490294e+02    -1.788117350036336e+01   -1.486015911216166e+02   
7.065000000000000e+09    -1.651271823917967e+01   -1.490907513991239e+02   -2.976359663909126e+01   1.549488600163149e+02    -2.980626845961501e+01   1.553046143543307e+02    -1.782777916943203e+01   -1.486292103676626e+02   
7.066000000000000e+09    -1.651657599236575e+01   -1.491828805907173e+02   -2.976166231377519e+01   1.538889870339684e+02    -2.977797710347429e+01   1.543862601005840e+02    -1.778943567031673e+01   -1.485404151513400e+02   
7.067000000000000e+09    -1.652717752864725e+01   -1.493324231763631e+02   -2.970757889239034e+01   1.527808026880158e+02    -2.974344349019725e+01   1.531723185213108e+02    -1.774632050594819e+01   -1.484531996470266e+02   
7.068000000000000e+09    -1.652791955134228e+01   -1.494637443789911e+02   -2.970882285116499e+01   1.516594980106614e+02    -2.974026910743450e+01   1.521860340812554e+02    -1.770768122784418e+01   -1.483927076462580e+02   
7.069000000000000e+09    -1.653500255838403e+01   -1.496558135631009e+02   -2.968964754873048e+01   1.505951379695144e+02    -2.972712689400911e+01   1.510763505441711e+02    -1.767906676238991e+01   -1.483141980320884e+02   
7.070000000000000e+09    -1.654955934764553e+01   -1.497629779905815e+02   -2.966665123475607e+01   1.495991877053158e+02    -2.969746068411578e+01   1.500309102644122e+02    -1.764579731916864e+01   -1.481594245811619e+02   
7.071000000000000e+09    -1.655291010774900e+01   -1.499169158836830e+02   -2.963692859576397e+01   1.484864983323471e+02    -2.966090973607178e+01   1.491531612485531e+02    -1.761893497440838e+01   -1.480574520190167e+02   
7.072000000000000e+09    -1.656386858069418e+01   -1.500243650761072e+02   -2.962683182270723e+01   1.476197735406572e+02    -2.967174807429458e+01   1.480427812640046e+02    -1.759178372823016e+01   -1.479542048095489e+02   
7.073000000000000e+09    -1.657424275739310e+01   -1.501988134133352e+02   -2.962860911112312e+01   1.463929679249939e+02    -2.965269264987807e+01   1.468016830968924e+02    -1.757644217674124e+01   -1.478865478562569e+02   
7.074000000000000e+09    -1.658859507530503e+01   -1.503609025996551e+02   -2.957506510993672e+01   1.452943397216692e+02    -2.962371719807703e+01   1.459739349864024e+02    -1.755673847079273e+01   -1.477068902701249e+02   
7.075000000000000e+09    -1.659704025806199e+01   -1.505474935121325e+02   -2.960704670439224e+01   1.444216197742500e+02    -2.959948876781736e+01   1.448943351525852e+02    -1.753067017356108e+01   -1.475325479572101e+02   
7.076000000000000e+09    -1.660788185062229e+01   -1.506427803117733e+02   -2.958351736970326e+01   1.434514824014034e+02    -2.957496629427209e+01   1.439458673107773e+02    -1.752535001641910e+01   -1.473546011406240e+02   
7.077000000000000e+09    -1.661811800326084e+01   -1.507859851608690e+02   -2.953149212638733e+01   1.422386896909055e+02    -2.956502732258833e+01   1.427160596505905e+02    -1.750757790014104e+01   -1.471556448479728e+02   
7.078000000000000e+09    -1.663805263202289e+01   -1.509374225466149e+02   -2.951241360589762e+01   1.415900230625703e+02    -2.951607841128862e+01   1.417960696304320e+02    -1.750162090215380e+01   -1.470079596895466e+02   
7.079000000000000e+09    -1.664211562643998e+01   -1.510813976475569e+02   -2.950631601254841e+01   1.403871783568548e+02    -2.952347618089307e+01   1.408053402749152e+02    -1.749251605556350e+01   -1.468844806166200e+02   
7.080000000000000e+09    -1.666000626477422e+01   -1.512597884319389e+02   -2.946902975862812e+01   1.393157737861104e+02    -2.947978326366283e+01   1.397874173426673e+02    -1.749233191019145e+01   -1.467364232871972e+02   
7.081000000000000e+09    -1.667208865769751e+01   -1.513821529097538e+02   -2.945217663115164e+01   1.383729940574349e+02    -2.946981930038116e+01   1.388101005210909e+02    -1.749158340084739e+01   -1.465667696560759e+02   
7.082000000000000e+09    -1.668681897606945e+01   -1.515014948727010e+02   -2.944349151679431e+01   1.371678450012274e+02    -2.942894170178777e+01   1.377356603556723e+02    -1.749874133833997e+01   -1.463840320439816e+02   
7.083000000000000e+09    -1.670675447058855e+01   -1.516251722700043e+02   -2.940603975221585e+01   1.363632062106243e+02    -2.938950153188214e+01   1.365289081413449e+02    -1.750343997957609e+01   -1.462676368211087e+02   
7.084000000000000e+09    -1.672574335609904e+01   -1.517835659900966e+02   -2.936964754698194e+01   1.351265405806176e+02    -2.936357705916530e+01   1.358049465618848e+02    -1.751287141576320e+01   -1.460984407150115e+02   
