[Version] 2.0
! Rohde & Schwarz Vector Network Analyzer
! Rohde-Schwarz,ZNL20-2Port,1323001220200009,1.71.1.10-23.02.1.238
! 
! Port Assignments:
! Nominal Port -> Actual Test Port
! --------------------------------
!   1 -> 1
!   2 -> 2

! Created: GMT+3 2024-09-24 16:01:58

# Hz S DB R 50

[Number of Ports] 2
[Two-Port Data Order] 21_12
[Number of Frequencies] 6001

[Network Data] 
! freq[Hz]               S11[mag dB]              S11[ang]                 S21[mag dB]              S21[ang]                 S12[mag dB]              S12[ang]                 S22[mag dB]              S22[ang]                 
7.000000000000000e+09    -1.744922327097203e+01   -1.441218174070842e+02   -3.071499604417163e+01   -1.320540902418296e+02   -3.069009218817973e+01   -1.314939294565953e+02   -1.925039489593967e+01   -1.396960245544478e+02   
7.001000000000000e+09    -1.742150694623554e+01   -1.440700355465505e+02   -3.072017670886724e+01   -1.332508413631654e+02   -3.070422936709967e+01   -1.326902976656258e+02   -1.926902367559133e+01   -1.395298665747937e+02   
7.002000000000000e+09    -1.740555102911966e+01   -1.440371470697099e+02   -3.072955760496482e+01   -1.342156191245641e+02   -3.074138446906771e+01   -1.338287816868030e+02   -1.930019956198473e+01   -1.393776125032188e+02   
7.003000000000000e+09    -1.738041024386724e+01   -1.440355831577498e+02   -3.078469907905542e+01   -1.352927976931592e+02   -3.074317206550314e+01   -1.349931966860608e+02   -1.932476207833534e+01   -1.392360518667354e+02   
7.004000000000000e+09    -1.736418520687422e+01   -1.439727815038106e+02   -3.076121932421432e+01   -1.363501038538295e+02   -3.075654187898520e+01   -1.361555860095182e+02   -1.935062405404823e+01   -1.391270128451988e+02   
7.005000000000000e+09    -1.734110216995256e+01   -1.439367424657348e+02   -3.077087231396376e+01   -1.377225320279825e+02   -3.072134424145810e+01   -1.373306756520571e+02   -1.938408260384485e+01   -1.390383232986632e+02   
7.006000000000000e+09    -1.732699112398314e+01   -1.439288607231577e+02   -3.077801388981088e+01   -1.389426352799476e+02   -3.075641529862370e+01   -1.384524031301271e+02   -1.940973790809417e+01   -1.389629087975852e+02   
7.007000000000000e+09    -1.730298387720494e+01   -1.439441519848916e+02   -3.077875979377184e+01   -1.398404609687305e+02   -3.074375741012231e+01   -1.395803520115913e+02   -1.943823527748148e+01   -1.389384835323570e+02   
7.008000000000000e+09    -1.727995644934890e+01   -1.439178471538870e+02   -3.080260128684534e+01   -1.410914016496763e+02   -3.076199644141625e+01   -1.407932121392863e+02   -1.946118012982070e+01   -1.389515938647227e+02   
7.009000000000000e+09    -1.725271077751144e+01   -1.439044386826289e+02   -3.080324438616419e+01   -1.422308168170494e+02   -3.075459038281819e+01   -1.419658036976536e+02   -1.948384128717090e+01   -1.389497327202444e+02   
7.010000000000000e+09    -1.724281911279110e+01   -1.438978891701174e+02   -3.079084300678003e+01   -1.432595051140747e+02   -3.075682110007756e+01   -1.430318491712199e+02   -1.950241971555222e+01   -1.389713297459749e+02   
7.011000000000000e+09    -1.722004220915135e+01   -1.438822832498163e+02   -3.078394754142685e+01   -1.441423213620443e+02   -3.077251608827881e+01   -1.441747477411685e+02   -1.952893598417636e+01   -1.390002928371118e+02   
7.012000000000000e+09    -1.719921915048616e+01   -1.438132442307890e+02   -3.078671316676411e+01   -1.454955324562454e+02   -3.076311101690831e+01   -1.452703201720387e+02   -1.954851386405903e+01   -1.390848959707851e+02   
7.013000000000000e+09    -1.718108682541808e+01   -1.438150942904836e+02   -3.076350185381557e+01   -1.464309367329569e+02   -3.077045744082158e+01   -1.463325433365132e+02   -1.956052872409720e+01   -1.391809898530748e+02   
7.014000000000000e+09    -1.716641497809491e+01   -1.438456012391794e+02   -3.077864508494266e+01   -1.475335624436651e+02   -3.077149105995721e+01   -1.474559946356632e+02   -1.958170427862474e+01   -1.393099866915318e+02   
7.015000000000000e+09    -1.714855609339563e+01   -1.438509108817588e+02   -3.081100180051404e+01   -1.489328210272196e+02   -3.079744777207299e+01   -1.485351104548506e+02   -1.958830828108466e+01   -1.394520514342921e+02   
7.016000000000000e+09    -1.712973333808677e+01   -1.438363670575853e+02   -3.077243780955009e+01   -1.496170232727556e+02   -3.077147111804807e+01   -1.496034970957280e+02   -1.959698626033539e+01   -1.396291860522002e+02   
7.017000000000000e+09    -1.711219755535844e+01   -1.438175356983970e+02   -3.079275990317296e+01   -1.508056945232996e+02   -3.076911052992202e+01   -1.510304306303666e+02   -1.960287760960021e+01   -1.398407454891357e+02   
7.018000000000000e+09    -1.709608374486633e+01   -1.438825907011334e+02   -3.077273330738833e+01   -1.519321142979302e+02   -3.078518492025799e+01   -1.519674664917656e+02   -1.961277770805580e+01   -1.399987258769033e+02   
7.019000000000000e+09    -1.708117898184985e+01   -1.438991897013317e+02   -3.078287879857800e+01   -1.530546218964386e+02   -3.075321471562541e+01   -1.528189424802310e+02   -1.961170852108481e+01   -1.401750452804232e+02   
7.020000000000000e+09    -1.706499843245310e+01   -1.439236190400243e+02   -3.073706183650637e+01   -1.539113715316644e+02   -3.075841447248824e+01   -1.544289485973436e+02   -1.961436301924110e+01   -1.404848077359428e+02   
7.021000000000000e+09    -1.705341020663669e+01   -1.439642561250641e+02   -3.070637927802817e+01   -1.552425780834281e+02   -3.070906865086066e+01   -1.551771545225851e+02   -1.959910561734559e+01   -1.407198073251724e+02   
7.022000000000000e+09    -1.703265145834694e+01   -1.440040271531640e+02   -3.070943968303362e+01   -1.562422499146478e+02   -3.071340882409398e+01   -1.562612051107769e+02   -1.960777331016582e+01   -1.409151283753254e+02   
7.023000000000000e+09    -1.701945363101972e+01   -1.440390728549513e+02   -3.068254582573948e+01   -1.573868520260656e+02   -3.071787783963646e+01   -1.575123947858515e+02   -1.958993203857981e+01   -1.412264796796115e+02   
7.024000000000000e+09    -1.700463178241174e+01   -1.441241295437031e+02   -3.068497528374371e+01   -1.586044519181023e+02   -3.071447097724015e+01   -1.587119054486452e+02   -1.957452028603278e+01   -1.414275421686762e+02   
7.025000000000000e+09    -1.699101078422695e+01   -1.441745472389691e+02   -3.067827991790935e+01   -1.594759109727164e+02   -3.068386918097428e+01   -1.598161467948680e+02   -1.956593164898173e+01   -1.417143580245123e+02   
7.026000000000000e+09    -1.697351251256114e+01   -1.442625872321726e+02   -3.067569749581884e+01   -1.608971862828542e+02   -3.067280838345600e+01   -1.609315496646319e+02   -1.954639377067000e+01   -1.420018563001359e+02   
7.027000000000000e+09    -1.695893936090286e+01   -1.443089555345207e+02   -3.065104740850454e+01   -1.619731167332567e+02   -3.063953438915057e+01   -1.620609803487961e+02   -1.952401882013219e+01   -1.422568054853813e+02   
7.028000000000000e+09    -1.694214726853419e+01   -1.443999169974553e+02   -3.062626178319889e+01   -1.632381324020299e+02   -3.064389031414226e+01   -1.631510854802958e+02   -1.950516058294592e+01   -1.426209764052977e+02   
7.029000000000000e+09    -1.692394338277327e+01   -1.445443067274340e+02   -3.063123631219758e+01   -1.642954952998827e+02   -3.062721619916304e+01   -1.645426087399505e+02   -1.949282100152666e+01   -1.429480753638952e+02   
7.030000000000000e+09    -1.691212286823000e+01   -1.446535379223531e+02   -3.058800899600872e+01   -1.654268407266982e+02   -3.066371801717083e+01   -1.656194704518138e+02   -1.946519301422808e+01   -1.431636185675677e+02   
7.031000000000000e+09    -1.689969232717490e+01   -1.447694803525267e+02   -3.060564628640749e+01   -1.664128180410481e+02   -3.062090201068754e+01   -1.666169657575801e+02   -1.944295772036554e+01   -1.434623789586214e+02   
7.032000000000000e+09    -1.688307468557030e+01   -1.448823106632327e+02   -3.056092607019190e+01   -1.676943818950071e+02   -3.061717920215948e+01   -1.676351900730004e+02   -1.942580262851158e+01   -1.438006724277061e+02   
7.033000000000000e+09    -1.687103411998816e+01   -1.450087900660217e+02   -3.058017645834936e+01   -1.686195942477136e+02   -3.061437216295889e+01   -1.690970559547685e+02   -1.938603192509725e+01   -1.440689597186774e+02   
7.034000000000000e+09    -1.685875893187941e+01   -1.451235528809067e+02   -3.055546023493297e+01   -1.699385023813359e+02   -3.060243324801094e+01   -1.700672309476610e+02   -1.936490618898136e+01   -1.443189809931057e+02   
7.035000000000000e+09    -1.684471246479517e+01   -1.452731498421054e+02   -3.053533005395397e+01   -1.708848034128980e+02   -3.060276576365712e+01   -1.710910223341678e+02   -1.932572346785566e+01   -1.445574444169652e+02   
7.036000000000000e+09    -1.682625448895457e+01   -1.453711669622118e+02   -3.053112852608682e+01   -1.718533913166807e+02   -3.056632751814724e+01   -1.721772527694831e+02   -1.930559896954264e+01   -1.448288422017531e+02   
7.037000000000000e+09    -1.681197508605414e+01   -1.455597023645382e+02   -3.050017706965462e+01   -1.731504928604197e+02   -3.055445911378376e+01   -1.732363072996009e+02   -1.926515503652227e+01   -1.450849548865167e+02   
7.038000000000000e+09    -1.679520063796721e+01   -1.456583840195193e+02   -3.050621459732686e+01   -1.742831724731006e+02   -3.055438239401497e+01   -1.744103357142151e+02   -1.922162605841720e+01   -1.453753635110045e+02   
7.039000000000000e+09    -1.677367580734542e+01   -1.457902896803253e+02   -3.046050644538824e+01   -1.752669714988877e+02   -3.054488850802842e+01   -1.752967718854621e+02   -1.918532573327902e+01   -1.455691201170310e+02   
7.040000000000000e+09    -1.676106202684688e+01   -1.458826087647877e+02   -3.047701247202514e+01   -1.763578354419806e+02   -3.052771088113989e+01   -1.764047729374577e+02   -1.913721185718611e+01   -1.458805722678395e+02   
7.041000000000000e+09    -1.675355778763564e+01   -1.460247415611202e+02   -3.041899289399825e+01   -1.775064989835245e+02   -3.051926875012915e+01   -1.776273545241550e+02   -1.910103804999120e+01   -1.461287321357293e+02   
7.042000000000000e+09    -1.673275210022978e+01   -1.461599135475304e+02   -3.042988502566443e+01   -1.786055124866650e+02   -3.050773094607390e+01   -1.785836436037063e+02   -1.905985359563165e+01   -1.463258355932334e+02   
7.043000000000000e+09    -1.671434036901125e+01   -1.463277137288550e+02   -3.039082099594959e+01   -1.798865125912017e+02   -3.047128720364935e+01   -1.798177791931135e+02   -1.901977789968897e+01   -1.466025145187296e+02   
7.044000000000000e+09    -1.669934550217490e+01   -1.463662389393713e+02   -3.038444744976339e+01   1.791736092309763e+02    -3.045791091730071e+01   1.792131411842581e+02    -1.896490614635433e+01   -1.468600780128085e+02   
7.045000000000000e+09    -1.668578757690929e+01   -1.465446766280099e+02   -3.036572020642505e+01   1.779565867487392e+02    -3.041372580560530e+01   1.781728951311619e+02    -1.893520163094025e+01   -1.470400160777298e+02   
7.046000000000000e+09    -1.666340834664615e+01   -1.466779005368904e+02   -3.037751332754846e+01   1.768800512664394e+02    -3.044290933471496e+01   1.769302943265964e+02    -1.888069418868343e+01   -1.472123693637173e+02   
7.047000000000000e+09    -1.665207760164737e+01   -1.467742426549116e+02   -3.033846830244314e+01   1.759820275445299e+02    -3.042106670303571e+01   1.759175274451101e+02    -1.883469693466971e+01   -1.473473939890948e+02   
7.048000000000000e+09    -1.663715375147340e+01   -1.469120671625359e+02   -3.031544038538915e+01   1.748376769719811e+02    -3.040312672860717e+01   1.748937488493030e+02    -1.878826437616088e+01   -1.475279596713874e+02   
7.049000000000000e+09    -1.662598536947631e+01   -1.470054998638269e+02   -3.029355285860831e+01   1.735773500679820e+02    -3.036748408398813e+01   1.738740692775430e+02    -1.872923132118919e+01   -1.476310967021772e+02   
7.050000000000000e+09    -1.661347479717825e+01   -1.471054975059839e+02   -3.029168399660140e+01   1.724553753376359e+02    -3.034394455546684e+01   1.728259449060409e+02    -1.868227566702010e+01   -1.478009316337271e+02   
7.051000000000000e+09    -1.660225584859840e+01   -1.472013534879590e+02   -3.025925009693666e+01   1.714184359266830e+02    -3.030039192009869e+01   1.717345848217635e+02    -1.863431181468935e+01   -1.479559135519942e+02   
7.052000000000000e+09    -1.659459404122111e+01   -1.473118466717572e+02   -3.022893809571503e+01   1.702246749895684e+02    -3.031138922047482e+01   1.709762285374147e+02    -1.857990300356255e+01   -1.480686311973440e+02   
7.053000000000000e+09    -1.658343719518304e+01   -1.474160406400701e+02   -3.023689437954721e+01   1.693455668489193e+02    -3.027815897350390e+01   1.697152724190477e+02    -1.853682650688094e+01   -1.481622099037606e+02   
7.054000000000000e+09    -1.657781049463208e+01   -1.475239964620507e+02   -3.017251903933136e+01   1.682290708980878e+02    -3.027312292883017e+01   1.684658502435519e+02    -1.847855001364554e+01   -1.482236908071868e+02   
7.055000000000000e+09    -1.656483229661852e+01   -1.476559420791527e+02   -3.017395186476553e+01   1.669541468836740e+02    -3.026458654301004e+01   1.674097672825176e+02    -1.842062974538899e+01   -1.483460743761060e+02   
7.056000000000000e+09    -1.655944696265603e+01   -1.476935345809998e+02   -3.014688787573004e+01   1.659578975344162e+02    -3.021118292923150e+01   1.664985360722934e+02    -1.837370679334838e+01   -1.483753222618871e+02   
7.057000000000000e+09    -1.655638615895334e+01   -1.478138455193699e+02   -3.011356427241001e+01   1.648312537867637e+02    -3.018047425843039e+01   1.653650013690257e+02    -1.831659511466780e+01   -1.484449015236004e+02   
7.058000000000000e+09    -1.654586954783895e+01   -1.479282391916288e+02   -3.011000912260180e+01   1.638657409897273e+02    -3.016094936247546e+01   1.642636043868815e+02    -1.827422136652329e+01   -1.484564080903448e+02   
7.059000000000000e+09    -1.654394072361639e+01   -1.480341543142313e+02   -3.007265873607398e+01   1.626532304602166e+02    -3.012639782932081e+01   1.630961454170730e+02    -1.821635068413486e+01   -1.484259315158730e+02   
7.060000000000000e+09    -1.654247358573666e+01   -1.481549279384914e+02   -3.005889035325998e+01   1.615507768471170e+02    -3.010984496912630e+01   1.621002152769097e+02    -1.817140783435768e+01   -1.484329177896923e+02   
7.061000000000000e+09    -1.654195120558727e+01   -1.482679750925053e+02   -3.002981205214052e+01   1.604609222104440e+02    -3.007030634602209e+01   1.610683247843201e+02    -1.811606648110934e+01   -1.484084677516696e+02   
7.062000000000000e+09    -1.654062274889170e+01   -1.483749896887094e+02   -3.003344691345477e+01   1.593595474164495e+02    -3.008415851938934e+01   1.597867873457370e+02    -1.805935545295551e+01   -1.483952247467160e+02   
7.063000000000000e+09    -1.653938523677565e+01   -1.484740575914251e+02   -3.000007522494046e+01   1.583403685663912e+02    -3.006244322902967e+01   1.586727763795451e+02    -1.800475951694366e+01   -1.483489811750635e+02   
7.064000000000000e+09    -1.655077391120652e+01   -1.486049196278180e+02   -3.000037077388730e+01   1.571431490380272e+02    -3.004975863463445e+01   1.579967583323412e+02    -1.796038860097601e+01   -1.482660028868226e+02   
7.065000000000000e+09    -1.654893981267171e+01   -1.487531500383166e+02   -2.996952204183907e+01   1.563149703823073e+02    -3.002767946670973e+01   1.566229601792889e+02    -1.791828273432752e+01   -1.482387488681536e+02   
7.066000000000000e+09    -1.655167743363066e+01   -1.488854042838277e+02   -2.996214195815155e+01   1.551585912945865e+02    -2.999971610362507e+01   1.558214468123522e+02    -1.786423634512978e+01   -1.481926719990643e+02   
7.067000000000000e+09    -1.655347147710453e+01   -1.489688251267389e+02   -2.989555041859645e+01   1.540502165368103e+02    -2.997672595474415e+01   1.546128586881842e+02    -1.781991966517151e+01   -1.480506937396588e+02   
7.068000000000000e+09    -1.656629081471750e+01   -1.490919193016041e+02   -2.989843918975872e+01   1.530355884005227e+02    -2.996565830864709e+01   1.536607676029503e+02    -1.778812942360234e+01   -1.479808492150460e+02   
7.069000000000000e+09    -1.656999366243513e+01   -1.492820443090661e+02   -2.987330374688501e+01   1.518670416249319e+02    -2.993264253758392e+01   1.526861650301417e+02    -1.775306630020198e+01   -1.479223287748938e+02   
7.070000000000000e+09    -1.658411753192408e+01   -1.493886077368619e+02   -2.987424946422821e+01   1.510090916028648e+02    -2.988949978905819e+01   1.515424004948034e+02    -1.771522032579399e+01   -1.477679463638084e+02   
7.071000000000000e+09    -1.658189230686953e+01   -1.495414811249738e+02   -2.984345204277982e+01   1.496934254710119e+02    -2.989647845849145e+01   1.504678771061033e+02    -1.769721055699896e+01   -1.477145134834195e+02   
7.072000000000000e+09    -1.660039086861204e+01   -1.496681260617792e+02   -2.981181833558262e+01   1.488448218162017e+02    -2.986334467506306e+01   1.492484406479766e+02    -1.766332752559255e+01   -1.475580904397181e+02   
7.073000000000000e+09    -1.661016692276305e+01   -1.498343087399488e+02   -2.983180557028177e+01   1.475976440495915e+02    -2.985782133987996e+01   1.482415728452893e+02    -1.763830680773037e+01   -1.474162014848505e+02   
7.074000000000000e+09    -1.662139844674428e+01   -1.499647251566097e+02   -2.978388927080253e+01   1.467025501661911e+02    -2.981100101270570e+01   1.475271871982006e+02    -1.761607573521121e+01   -1.473214623482727e+02   
7.075000000000000e+09    -1.662869711112385e+01   -1.501407160080701e+02   -2.978452415641917e+01   1.456158893988960e+02    -2.981366930366264e+01   1.464252632536160e+02    -1.759989986089376e+01   -1.471209377915629e+02   
7.076000000000000e+09    -1.664050534470448e+01   -1.502520892161512e+02   -2.975839339327725e+01   1.446814196265638e+02    -2.979555870717915e+01   1.453285580594677e+02    -1.758530713355749e+01   -1.469536262089071e+02   
7.077000000000000e+09    -1.664732592998116e+01   -1.504041350353900e+02   -2.972858629698209e+01   1.433446377004874e+02    -2.976951314783131e+01   1.442301629634305e+02    -1.757271877437061e+01   -1.467603904773681e+02   
7.078000000000000e+09    -1.666250813102113e+01   -1.505264881850095e+02   -2.971906832690543e+01   1.425791229409750e+02    -2.973116572244063e+01   1.431100049683274e+02    -1.756652065730366e+01   -1.466232362497374e+02   
7.079000000000000e+09    -1.668302450265316e+01   -1.506434748594530e+02   -2.969847301705929e+01   1.416173154102563e+02    -2.971035870527957e+01   1.422464554722893e+02    -1.755804863658380e+01   -1.464686126669514e+02   
7.080000000000000e+09    -1.669140585239729e+01   -1.508164895172800e+02   -2.968527631971472e+01   1.406936635600448e+02    -2.970785520614770e+01   1.410575058438964e+02    -1.755421519782045e+01   -1.462707311083807e+02   
7.081000000000000e+09    -1.670450860604339e+01   -1.509501357716897e+02   -2.967433183132368e+01   1.395512043979281e+02    -2.968040727690536e+01   1.400771854309929e+02    -1.755277717909745e+01   -1.461554200502162e+02   
7.082000000000000e+09    -1.671384019048248e+01   -1.510503728496643e+02   -2.965301036982286e+01   1.383311753394158e+02    -2.965664617361730e+01   1.391731336250463e+02    -1.755767005013897e+01   -1.459281327413233e+02   
7.083000000000000e+09    -1.673788942109931e+01   -1.511543713266833e+02   -2.963218698834187e+01   1.375336301761726e+02    -2.962212308075263e+01   1.380533549636829e+02    -1.756398339823064e+01   -1.457852361517157e+02   
7.084000000000000e+09    -1.674629970939273e+01   -1.513502517216827e+02   -2.960071127013816e+01   1.362989566744586e+02    -2.958543869105968e+01   1.372567229569547e+02    -1.756594711767796e+01   -1.456160654497185e+02   
