[Version] 2.0
! Rohde & Schwarz Vector Network Analyzer
! Rohde-Schwarz,ZNL20-2Port,1323001220200009,1.71.1.10-23.02.1.238
! 
! Port Assignments:
! Nominal Port -> Actual Test Port
! --------------------------------
!   1 -> 1
!   2 -> 2

! Created: GMT+3 2024-09-24 16:05:34

# Hz S DB R 50

[Number of Ports] 2
[Two-Port Data Order] 21_12
[Number of Frequencies] 6001

[Network Data] 
! freq[Hz]               S11[mag dB]              S11[ang]                 S21[mag dB]              S21[ang]                 S12[mag dB]              S12[ang]                 S22[mag dB]              S22[ang]                 
7.000000000000000e+09    -1.882187376713060e+01   -1.486700595480175e+02   -3.139291027653701e+01   -6.623066177849026e+01   -3.145316248925130e+01   -6.559507751274825e+01   -2.192424258368863e+01   -1.482083334201648e+02   
7.001000000000000e+09    -1.882068676464263e+01   -1.484379545171492e+02   -3.140984104646060e+01   -6.738508753637070e+01   -3.147331907736907e+01   -6.663929345382302e+01   -2.198599747459455e+01   -1.476175327490535e+02   
7.002000000000000e+09    -1.880374413878822e+01   -1.482780149724412e+02   -3.142949607591154e+01   -6.875157018511391e+01   -3.150528776901410e+01   -6.781708905966804e+01   -2.205898598211947e+01   -1.470881826904411e+02   
7.003000000000000e+09    -1.879522105319864e+01   -1.480484060531672e+02   -3.145527714228136e+01   -6.946420148185341e+01   -3.154490317628557e+01   -6.901940747841135e+01   -2.210926104119536e+01   -1.465595014888508e+02   
7.004000000000000e+09    -1.878552791547549e+01   -1.478614411840898e+02   -3.147712547521740e+01   -7.077279149311293e+01   -3.157981770788075e+01   -7.016806095706730e+01   -2.217902826929241e+01   -1.459845781652747e+02   
7.005000000000000e+09    -1.877634534424769e+01   -1.476526802145601e+02   -3.151789230507101e+01   -7.209819046568751e+01   -3.161449548933895e+01   -7.144486862424931e+01   -2.224386585895076e+01   -1.455650230936063e+02   
7.006000000000000e+09    -1.877256845778582e+01   -1.474694079875245e+02   -3.153870744061973e+01   -7.339791818878878e+01   -3.163310707213469e+01   -7.265793952061331e+01   -2.230043217170655e+01   -1.449864352776396e+02   
7.007000000000000e+09    -1.876091287125190e+01   -1.472984193995406e+02   -3.155567785191492e+01   -7.443473661250063e+01   -3.164075358659762e+01   -7.402316475967753e+01   -2.235097952585103e+01   -1.446172285360664e+02   
7.008000000000000e+09    -1.874973140430728e+01   -1.470853543503858e+02   -3.159818250281184e+01   -7.582679255995241e+01   -3.168958352316942e+01   -7.519535766475705e+01   -2.239792284995886e+01   -1.441983602207654e+02   
7.009000000000000e+09    -1.873383230215974e+01   -1.469217269930509e+02   -3.162223426465816e+01   -7.695352361951728e+01   -3.170345738347523e+01   -7.633882980095909e+01   -2.245673820047329e+01   -1.438236957143240e+02   
7.010000000000000e+09    -1.872554917177798e+01   -1.467251491828474e+02   -3.164851446694044e+01   -7.825176444064472e+01   -3.175250258245419e+01   -7.764421625052199e+01   -2.249082331041288e+01   -1.434156539830578e+02   
7.011000000000000e+09    -1.870876957431594e+01   -1.465191613537136e+02   -3.165356285679846e+01   -7.938164495697411e+01   -3.174625560550565e+01   -7.871175138241742e+01   -2.253102836680079e+01   -1.430681526047993e+02   
7.012000000000000e+09    -1.869867445626854e+01   -1.462989804922922e+02   -3.167119737759234e+01   -8.065682051097774e+01   -3.177988807121972e+01   -7.994138122132514e+01   -2.256278016491521e+01   -1.427524383156531e+02   
7.013000000000000e+09    -1.868640469855974e+01   -1.461445928737780e+02   -3.169628444764665e+01   -8.183826035339909e+01   -3.181231245365138e+01   -8.106720325168253e+01   -2.260750786641932e+01   -1.425023064735860e+02   
7.014000000000000e+09    -1.868545352496460e+01   -1.460026948487767e+02   -3.173677180673636e+01   -8.286056547254312e+01   -3.180786849640748e+01   -8.221412560894127e+01   -2.263643400707519e+01   -1.423479912349340e+02   
7.015000000000000e+09    -1.867026102356624e+01   -1.457899262691404e+02   -3.176938722016470e+01   -8.397192162543030e+01   -3.180607611593278e+01   -8.327342661896293e+01   -2.265653319320578e+01   -1.419953804377250e+02   
7.016000000000000e+09    -1.865759419798549e+01   -1.456040124817827e+02   -3.174608333795429e+01   -8.523315576887367e+01   -3.184518810149457e+01   -8.452187503008773e+01   -2.268189962975748e+01   -1.418203761321507e+02   
7.017000000000000e+09    -1.864823856726930e+01   -1.453814725789846e+02   -3.178282345434349e+01   -8.657985471415647e+01   -3.185845504143662e+01   -8.585861493334059e+01   -2.269524475126599e+01   -1.416761715962617e+02   
7.018000000000000e+09    -1.863200690321693e+01   -1.453271724122984e+02   -3.181672572508235e+01   -8.779874515547988e+01   -3.187683267078038e+01   -8.732842038369580e+01   -2.271054085963313e+01   -1.414404746213064e+02   
7.019000000000000e+09    -1.862637204494680e+01   -1.450577850794627e+02   -3.181575519701396e+01   -8.889059505819496e+01   -3.187767352880576e+01   -8.843379549446932e+01   -2.270333492217257e+01   -1.412870431577379e+02   
7.020000000000000e+09    -1.860860445286963e+01   -1.449432585720999e+02   -3.180735227698191e+01   -9.011110659854046e+01   -3.194376192935865e+01   -8.982237930762150e+01   -2.271495618959415e+01   -1.412287374652950e+02   
7.021000000000000e+09    -1.859774453952761e+01   -1.447591620478479e+02   -3.182267194276510e+01   -9.168697420888925e+01   -3.189114839645603e+01   -9.118384216750425e+01   -2.269502161921246e+01   -1.411353007690977e+02   
7.022000000000000e+09    -1.858012649787317e+01   -1.446713160017846e+02   -3.185113675301866e+01   -9.280698179932129e+01   -3.192027300325048e+01   -9.237053060422974e+01   -2.270497960526849e+01   -1.409643253070727e+02   
7.023000000000000e+09    -1.857056636562960e+01   -1.444601693441057e+02   -3.186094092817651e+01   -9.428209419665798e+01   -3.196016545211481e+01   -9.358150350074729e+01   -2.267889126106615e+01   -1.409797698264277e+02   
7.024000000000000e+09    -1.855692446512099e+01   -1.444165308344396e+02   -3.186907898134415e+01   -9.529224028148005e+01   -3.195826392163218e+01   -9.504275621104294e+01   -2.265844814671739e+01   -1.408882077564715e+02   
7.025000000000000e+09    -1.854447416852486e+01   -1.442270474156894e+02   -3.189390208678283e+01   -9.660779618237284e+01   -3.198793055848703e+01   -9.616992202118141e+01   -2.264548320278624e+01   -1.408420973275360e+02   
7.026000000000000e+09    -1.853151296306731e+01   -1.441636531948448e+02   -3.192650689329931e+01   -9.793955695218486e+01   -3.198867816252751e+01   -9.748567101024530e+01   -2.260433079098831e+01   -1.409174017963458e+02   
7.027000000000000e+09    -1.851632188877607e+01   -1.440523352820981e+02   -3.193710562173528e+01   -9.891643455181490e+01   -3.199862733860269e+01   -9.886210069587764e+01   -2.257642123417974e+01   -1.407603771961555e+02   
7.028000000000000e+09    -1.849019952955387e+01   -1.439348314961953e+02   -3.198166081496844e+01   -1.005353009416947e+02   -3.200181030507687e+01   -9.988498988707921e+01   -2.254611102893719e+01   -1.408749960643625e+02   
7.029000000000000e+09    -1.848520738325767e+01   -1.438869436872421e+02   -3.198988002811954e+01   -1.017278452545419e+02   -3.206597408264759e+01   -1.014548200289760e+02   -2.250717108614623e+01   -1.409070325655031e+02   
7.030000000000000e+09    -1.846004204320521e+01   -1.438050198901038e+02   -3.197595806886500e+01   -1.029717508316899e+02   -3.205677023104738e+01   -1.024085734057753e+02   -2.247736602558643e+01   -1.408392350146109e+02   
7.031000000000000e+09    -1.844926329346708e+01   -1.437266133874351e+02   -3.198327344262690e+01   -1.043633352779247e+02   -3.209036638399343e+01   -1.038498123873386e+02   -2.242621350554779e+01   -1.408256081706708e+02   
7.032000000000000e+09    -1.842417849486508e+01   -1.436109238493284e+02   -3.200696446762777e+01   -1.058046900095697e+02   -3.202616921940537e+01   -1.050069049234518e+02   -2.238800119928396e+01   -1.409465196670083e+02   
7.033000000000000e+09    -1.841292247614637e+01   -1.435388398623581e+02   -3.202654796738131e+01   -1.066901181176181e+02   -3.210972387624763e+01   -1.063528376729371e+02   -2.234380207807863e+01   -1.410648259000527e+02   
7.034000000000000e+09    -1.839127201214932e+01   -1.435075444500281e+02   -3.205326243246691e+01   -1.081234144403885e+02   -3.210409246506273e+01   -1.075347253501958e+02   -2.228234990083864e+01   -1.409606092819168e+02   
7.035000000000000e+09    -1.837192582651264e+01   -1.434441608600486e+02   -3.205835396076093e+01   -1.092868064414540e+02   -3.213808569653751e+01   -1.088789578411302e+02   -2.222277557972924e+01   -1.409782453687668e+02   
7.036000000000000e+09    -1.835339767822484e+01   -1.433675347317171e+02   -3.202987377332350e+01   -1.104483386109481e+02   -3.212633927598442e+01   -1.101969983723973e+02   -2.218144563995588e+01   -1.410144364296998e+02   
7.037000000000000e+09    -1.833486994058486e+01   -1.433419805765887e+02   -3.206376061890454e+01   -1.119965206996061e+02   -3.208993936678123e+01   -1.113747548186126e+02   -2.209639582093521e+01   -1.409444472063917e+02   
7.038000000000000e+09    -1.831254068990042e+01   -1.432964592589644e+02   -3.206391163853144e+01   -1.132536443464542e+02   -3.213852711655132e+01   -1.128921183187307e+02   -2.202173115191414e+01   -1.410701395114807e+02   
7.039000000000000e+09    -1.828055489921962e+01   -1.432162273378485e+02   -3.206526069141731e+01   -1.144854601955740e+02   -3.213808451659217e+01   -1.137761222465388e+02   -2.196411998526795e+01   -1.410620160605673e+02   
7.040000000000000e+09    -1.825787672476355e+01   -1.431831878750335e+02   -3.206761170486926e+01   -1.155344184122631e+02   -3.212833334710103e+01   -1.152119753086846e+02   -2.188644636642953e+01   -1.411307036932922e+02   
7.041000000000000e+09    -1.823983228038025e+01   -1.431394230353850e+02   -3.209659163242615e+01   -1.171301118913146e+02   -3.216511701042370e+01   -1.162557517992266e+02   -2.182122978658214e+01   -1.411170126402391e+02   
7.042000000000000e+09    -1.821332901908940e+01   -1.430918455439331e+02   -3.207280456489286e+01   -1.181996328278990e+02   -3.215337891467769e+01   -1.174981210183709e+02   -2.175190757407696e+01   -1.410948331630515e+02   
7.043000000000000e+09    -1.819121478606325e+01   -1.430669344041015e+02   -3.210977282209569e+01   -1.195757825983462e+02   -3.214229107182855e+01   -1.190893095865487e+02   -2.166375454947890e+01   -1.411799676663041e+02   
7.044000000000000e+09    -1.816308294063561e+01   -1.429244606520435e+02   -3.208652615789257e+01   -1.205944032440744e+02   -3.215134131319920e+01   -1.201613427023341e+02   -2.158857883847797e+01   -1.411507139367264e+02   
7.045000000000000e+09    -1.813839112936363e+01   -1.429421083901710e+02   -3.207490219523320e+01   -1.221761410244066e+02   -3.213953699908875e+01   -1.217069580093561e+02   -2.151086144719707e+01   -1.410913731055445e+02   
7.046000000000000e+09    -1.810926607964543e+01   -1.428881781163876e+02   -3.212265929187139e+01   -1.234148496913976e+02   -3.217237454339924e+01   -1.226725114292490e+02   -2.142585760486615e+01   -1.410608515904728e+02   
7.047000000000000e+09    -1.808409331217577e+01   -1.427779979401115e+02   -3.208292739023917e+01   -1.247476852888565e+02   -3.215921468778870e+01   -1.239530224791523e+02   -2.134426684373507e+01   -1.409978135463847e+02   
7.048000000000000e+09    -1.805909871147468e+01   -1.427723828266827e+02   -3.209265268748598e+01   -1.259580277550982e+02   -3.217861939484605e+01   -1.253049079703643e+02   -2.125033143638295e+01   -1.409439723761825e+02   
7.049000000000000e+09    -1.803744933814141e+01   -1.426830708778066e+02   -3.208701165913316e+01   -1.273123359594220e+02   -3.214947449613557e+01   -1.265033157789510e+02   -2.115739363976888e+01   -1.408316776917449e+02   
7.050000000000000e+09    -1.800973138455660e+01   -1.426248407044223e+02   -3.213132247964473e+01   -1.287437275374618e+02   -3.214259687625673e+01   -1.278756340352874e+02   -2.106604836354804e+01   -1.407236290497112e+02   
7.051000000000000e+09    -1.798625780388716e+01   -1.425062412355410e+02   -3.210343938953713e+01   -1.299697903838050e+02   -3.213711024258585e+01   -1.292609013186109e+02   -2.097754442029317e+01   -1.406935174485220e+02   
7.052000000000000e+09    -1.796341973462768e+01   -1.424781427473111e+02   -3.206714321352045e+01   -1.312527009272084e+02   -3.209645380924022e+01   -1.302451504794063e+02   -2.088637883908619e+01   -1.405717446799799e+02   
7.053000000000000e+09    -1.793667868557976e+01   -1.424242751919762e+02   -3.210197569046913e+01   -1.323965270216283e+02   -3.215425911695893e+01   -1.316672207348203e+02   -2.078953709214042e+01   -1.404504093494445e+02   
7.054000000000000e+09    -1.791851019046677e+01   -1.423416088517083e+02   -3.209154435516466e+01   -1.339590110252718e+02   -3.214661648249253e+01   -1.330899357085310e+02   -2.069205030130407e+01   -1.403017657688671e+02   
7.055000000000000e+09    -1.789198289628549e+01   -1.422939145396371e+02   -3.210594920440607e+01   -1.351149856330272e+02   -3.212805651889231e+01   -1.342376392905707e+02   -2.059873990460866e+01   -1.401894027475811e+02   
7.056000000000000e+09    -1.786907390950210e+01   -1.421990272229968e+02   -3.205905822482019e+01   -1.363600159624295e+02   -3.209022321509934e+01   -1.353469045204488e+02   -2.049737817513383e+01   -1.400435260771522e+02   
7.057000000000000e+09    -1.784350954053047e+01   -1.421382500681122e+02   -3.207145481887749e+01   -1.376767243485908e+02   -3.208286592024471e+01   -1.369765595946287e+02   -2.040427534337546e+01   -1.399900931175380e+02   
7.058000000000000e+09    -1.782433172821256e+01   -1.421298027195456e+02   -3.207494814212316e+01   -1.390376547857126e+02   -3.208706966904331e+01   -1.380815639851981e+02   -2.031904263860231e+01   -1.397499013349786e+02   
7.059000000000000e+09    -1.779880380847745e+01   -1.420580919848680e+02   -3.203039421142621e+01   -1.401460761350139e+02   -3.206507497954544e+01   -1.397047674204172e+02   -2.021079149314601e+01   -1.395896113063384e+02   
7.060000000000000e+09    -1.777997411763085e+01   -1.420283412098117e+02   -3.202044154424194e+01   -1.417165733135912e+02   -3.207005460669522e+01   -1.408691981989544e+02   -2.012434804981821e+01   -1.394193353543272e+02   
7.061000000000000e+09    -1.776412911780172e+01   -1.419794764601684e+02   -3.202792324006450e+01   -1.431378501462623e+02   -3.202921965898111e+01   -1.422836117998419e+02   -2.002557993371754e+01   -1.391828229576332e+02   
7.062000000000000e+09    -1.774006005833638e+01   -1.419828834872069e+02   -3.201826861246453e+01   -1.444713528725070e+02   -3.207634392762167e+01   -1.436987706645070e+02   -1.992492527621889e+01   -1.390133146724782e+02   
7.063000000000000e+09    -1.772903104353463e+01   -1.418575218241380e+02   -3.202010636446708e+01   -1.458357807198449e+02   -3.206481499841934e+01   -1.449494923674067e+02   -1.983157365858037e+01   -1.387852076309105e+02   
7.064000000000000e+09    -1.770960992398992e+01   -1.418154906938165e+02   -3.198239940074004e+01   -1.470708728307874e+02   -3.199061140152895e+01   -1.461287223076225e+02   -1.973769477134297e+01   -1.385773564130281e+02   
7.065000000000000e+09    -1.769476035202515e+01   -1.418399408491238e+02   -3.200836097972052e+01   -1.483861537874942e+02   -3.203925997458980e+01   -1.474606061355689e+02   -1.964992258676382e+01   -1.383949752121331e+02   
7.066000000000000e+09    -1.768324105835163e+01   -1.417861546535678e+02   -3.201968111005674e+01   -1.496658978537188e+02   -3.199897600860600e+01   -1.486438642018258e+02   -1.955637112261147e+01   -1.382278770332003e+02   
7.067000000000000e+09    -1.766202440959045e+01   -1.417681197434803e+02   -3.201597101833308e+01   -1.509165828731249e+02   -3.201464330693287e+01   -1.501982676140850e+02   -1.947144420812563e+01   -1.379237525782062e+02   
7.068000000000000e+09    -1.764572114721824e+01   -1.417790569806158e+02   -3.198124491262861e+01   -1.523191466665878e+02   -3.199150641007152e+01   -1.512652770386792e+02   -1.939166274871046e+01   -1.377054478987232e+02   
7.069000000000000e+09    -1.762998145616499e+01   -1.418209023685368e+02   -3.197323061248731e+01   -1.536868108449904e+02   -3.196323411024976e+01   -1.523851169715752e+02   -1.931285063112586e+01   -1.374688324436115e+02   
7.070000000000000e+09    -1.761962436090644e+01   -1.417874491917409e+02   -3.198195876235528e+01   -1.546400705569991e+02   -3.197008345064308e+01   -1.538726163212868e+02   -1.924278707977098e+01   -1.371938123003673e+02   
7.071000000000000e+09    -1.759688439940316e+01   -1.418337836361265e+02   -3.196554285184231e+01   -1.560941718045826e+02   -3.193071975003513e+01   -1.551914617335599e+02   -1.917277786809149e+01   -1.369903602775265e+02   
7.072000000000000e+09    -1.758756160273915e+01   -1.418613757945006e+02   -3.195466516036639e+01   -1.572690551201422e+02   -3.196512472896057e+01   -1.565067712820542e+02   -1.909958305205389e+01   -1.366992459253978e+02   
7.073000000000000e+09    -1.757541436980688e+01   -1.418900882893557e+02   -3.199541727712852e+01   -1.586203796190572e+02   -3.195579010647621e+01   -1.576981844292832e+02   -1.903920396763413e+01   -1.364676425139983e+02   
7.074000000000000e+09    -1.757062692974946e+01   -1.419270476433413e+02   -3.195305268918427e+01   -1.599465508522403e+02   -3.190670122873120e+01   -1.591042803575213e+02   -1.897021843520529e+01   -1.360982636346030e+02   
7.075000000000000e+09    -1.754781842401281e+01   -1.419686611189778e+02   -3.192630093381779e+01   -1.611306805894941e+02   -3.190908990125684e+01   -1.602713496704380e+02   -1.891079587217897e+01   -1.358039962623941e+02   
7.076000000000000e+09    -1.752795674362081e+01   -1.419610380563240e+02   -3.190728384817706e+01   -1.622191324151913e+02   -3.189241956869994e+01   -1.615735659981489e+02   -1.885166415556280e+01   -1.354916044811598e+02   
7.077000000000000e+09    -1.752723190885116e+01   -1.420183217637402e+02   -3.193796021453593e+01   -1.636411465688362e+02   -3.187056895592476e+01   -1.628363273478680e+02   -1.879266262571814e+01   -1.352086235926621e+02   
7.078000000000000e+09    -1.751029517834647e+01   -1.420215549090793e+02   -3.187118591667745e+01   -1.647632569413462e+02   -3.184736806609308e+01   -1.644528149402979e+02   -1.874686700960203e+01   -1.349468054025094e+02   
7.079000000000000e+09    -1.749741992805129e+01   -1.420484788546540e+02   -3.188383523946840e+01   -1.661359499319866e+02   -3.185557817996080e+01   -1.653412888095616e+02   -1.870067803157069e+01   -1.346063801809072e+02   
7.080000000000000e+09    -1.748932671137480e+01   -1.421282345313131e+02   -3.185423514333993e+01   -1.673856422917041e+02   -3.187687304869567e+01   -1.665944406192192e+02   -1.865126960552792e+01   -1.343009968332579e+02   
7.081000000000000e+09    -1.747820597593702e+01   -1.421540404917132e+02   -3.184549408074445e+01   -1.685468674938573e+02   -3.181605496331182e+01   -1.678647586764683e+02   -1.860587787392793e+01   -1.339813671693818e+02   
7.082000000000000e+09    -1.746399875084598e+01   -1.422257775627555e+02   -3.186918868613478e+01   -1.698006156380062e+02   -3.182059735380367e+01   -1.692187683094619e+02   -1.856758102165098e+01   -1.336924738215879e+02   
7.083000000000000e+09    -1.745475845892579e+01   -1.422111713807356e+02   -3.180961263912371e+01   -1.710615685345046e+02   -3.178135581769907e+01   -1.705678620635716e+02   -1.853566222856345e+01   -1.333881536203434e+02   
7.084000000000000e+09    -1.744626933900767e+01   -1.422664496734568e+02   -3.179831668032552e+01   -1.725272409046299e+02   -3.171611282480824e+01   -1.718961267490511e+02   -1.849664858469480e+01   -1.330841992444953e+02   
