[Version] 2.0
! Rohde & Schwarz Vector Network Analyzer
! Rohde-Schwarz,ZNL20-2Port,1323001220200009,1.71.1.10-23.02.1.238
! 
! Port Assignments:
! Nominal Port -> Actual Test Port
! --------------------------------
!   1 -> 1
!   2 -> 2

! Created: GMT+3 2024-09-24 16:05:47

# Hz S DB R 50

[Number of Ports] 2
[Two-Port Data Order] 21_12
[Number of Frequencies] 6001

[Network Data] 
! freq[Hz]               S11[mag dB]              S11[ang]                 S21[mag dB]              S21[ang]                 S12[mag dB]              S12[ang]                 S22[mag dB]              S22[ang]                 
7.000000000000000e+09    -1.907083230037014e+01   -1.532748483273989e+02   -3.162242852696311e+01   -3.470001711055534e+01   -3.163693579548859e+01   -3.467895344216620e+01   -2.228129085447106e+01   -1.608716975697187e+02   
7.001000000000000e+09    -1.907459116344259e+01   -1.530230713390145e+02   -3.164622674621602e+01   -3.605252531082194e+01   -3.166010751306910e+01   -3.575778150190931e+01   -2.241131735031242e+01   -1.603241060612554e+02   
7.002000000000000e+09    -1.907671989847927e+01   -1.527798911372976e+02   -3.171918879439478e+01   -3.732229089076632e+01   -3.171887179151260e+01   -3.708965460231414e+01   -2.253864650862173e+01   -1.597407869492224e+02   
7.003000000000000e+09    -1.907928265681901e+01   -1.524800851243181e+02   -3.169233597124197e+01   -3.836816501822911e+01   -3.170558073583434e+01   -3.821656004790272e+01   -2.265256331149099e+01   -1.592404921079885e+02   
7.004000000000000e+09    -1.908105008617778e+01   -1.522950594906919e+02   -3.172755218002938e+01   -3.955598943113718e+01   -3.178667672865850e+01   -3.933479003423568e+01   -2.277701549756758e+01   -1.586399748086330e+02   
7.005000000000000e+09    -1.908240006819831e+01   -1.519770115928268e+02   -3.177389593048985e+01   -4.061502409182084e+01   -3.180623701857245e+01   -4.043117572968533e+01   -2.290007143089618e+01   -1.580859450039246e+02   
7.006000000000000e+09    -1.908294257698304e+01   -1.517519289095023e+02   -3.181035086838303e+01   -4.198586682005791e+01   -3.181569069725668e+01   -4.190929394520269e+01   -2.302362858858037e+01   -1.575601806044636e+02   
7.007000000000000e+09    -1.908439077760868e+01   -1.515353516295599e+02   -3.181856596080535e+01   -4.329920515813134e+01   -3.184336466367761e+01   -4.306849874212109e+01   -2.312122124507105e+01   -1.571204720565542e+02   
7.008000000000000e+09    -1.907793659200011e+01   -1.512714760006950e+02   -3.186212202645880e+01   -4.449675644995700e+01   -3.190542400597291e+01   -4.432527059977312e+01   -2.323597449973615e+01   -1.565827236851662e+02   
7.009000000000000e+09    -1.907864571472037e+01   -1.510516206760742e+02   -3.189820822947024e+01   -4.555323970252162e+01   -3.190952067914494e+01   -4.551426818419527e+01   -2.335569113354669e+01   -1.561142858346524e+02   
7.010000000000000e+09    -1.907655325810874e+01   -1.508199176400938e+02   -3.191940996550712e+01   -4.688366055289925e+01   -3.196990208889471e+01   -4.666732292343053e+01   -2.345326739560123e+01   -1.555783725222591e+02   
7.011000000000000e+09    -1.906877076134617e+01   -1.505012449959391e+02   -3.191857887144771e+01   -4.820245282999996e+01   -3.197214336536723e+01   -4.797880456410134e+01   -2.354225739195373e+01   -1.551749747911642e+02   
7.012000000000000e+09    -1.907221044719432e+01   -1.503007183247036e+02   -3.196975559004193e+01   -4.918583107274311e+01   -3.200391855791372e+01   -4.930703130594140e+01   -2.363369765392403e+01   -1.546927236181547e+02   
7.013000000000000e+09    -1.906490097499413e+01   -1.500498510098255e+02   -3.195340516686541e+01   -5.068065429135645e+01   -3.204226012033477e+01   -5.059490040270958e+01   -2.373670698461613e+01   -1.542950022224697e+02   
7.014000000000000e+09    -1.907425849393448e+01   -1.498371795883070e+02   -3.202933722106000e+01   -5.166826188296112e+01   -3.206629300661981e+01   -5.185040443398390e+01   -2.380664214895805e+01   -1.539469789067446e+02   
7.015000000000000e+09    -1.906539781710406e+01   -1.495881042588655e+02   -3.204485407417882e+01   -5.282480288375998e+01   -3.206809950228836e+01   -5.297062458292630e+01   -2.387701267106238e+01   -1.534394874182617e+02   
7.016000000000000e+09    -1.906473364316993e+01   -1.493527530084425e+02   -3.202743755285132e+01   -5.419176813433806e+01   -3.209996556712005e+01   -5.408102699866394e+01   -2.395653924476875e+01   -1.530188836335901e+02   
7.017000000000000e+09    -1.906271911517456e+01   -1.490751170541542e+02   -3.209698593533045e+01   -5.546254236763130e+01   -3.214987417369029e+01   -5.560886380642527e+01   -2.402142177709523e+01   -1.527126678261806e+02   
7.018000000000000e+09    -1.905546397689143e+01   -1.489282890791118e+02   -3.211224347411472e+01   -5.676289934229644e+01   -3.215374426644820e+01   -5.693483044153653e+01   -2.405572649427600e+01   -1.522665634204977e+02   
7.019000000000000e+09    -1.905686087983724e+01   -1.486792709542873e+02   -3.214402676600986e+01   -5.807129241691797e+01   -3.219070391666411e+01   -5.803211739982126e+01   -2.410904380439657e+01   -1.517652617686484e+02   
7.020000000000000e+09    -1.904434992092014e+01   -1.484338632446118e+02   -3.216338171663278e+01   -5.937490170784800e+01   -3.226350813967906e+01   -5.939250456558746e+01   -2.415426305233094e+01   -1.515441422368250e+02   
7.021000000000000e+09    -1.904739929111688e+01   -1.482871614185107e+02   -3.218811874105467e+01   -6.099523424908637e+01   -3.224912094869766e+01   -6.096637748191596e+01   -2.418475877714788e+01   -1.511197371483678e+02   
7.022000000000000e+09    -1.903484160491874e+01   -1.480574397298946e+02   -3.223460962178765e+01   -6.212891647764578e+01   -3.228989831229643e+01   -6.234705547158637e+01   -2.421828191363256e+01   -1.507226896812840e+02   
7.023000000000000e+09    -1.903276933953980e+01   -1.478729133364371e+02   -3.226760991631741e+01   -6.340264408886094e+01   -3.234251400096431e+01   -6.342296673411656e+01   -2.422455507124079e+01   -1.504824331392797e+02   
7.024000000000000e+09    -1.903027197815880e+01   -1.477523783619804e+02   -3.228335403721680e+01   -6.465073145308037e+01   -3.235547008223917e+01   -6.459044521710108e+01   -2.423098995160420e+01   -1.501391955233485e+02   
7.025000000000000e+09    -1.902705079490139e+01   -1.475195034650029e+02   -3.230067531407104e+01   -6.594337283387115e+01   -3.238059167103360e+01   -6.597361459580836e+01   -2.424609598459826e+01   -1.497832076232743e+02   
7.026000000000000e+09    -1.902641736657068e+01   -1.473873138017620e+02   -3.233388054454292e+01   -6.704523938170054e+01   -3.240723931172052e+01   -6.750930597113484e+01   -2.422575762192722e+01   -1.494922641385495e+02   
7.027000000000000e+09    -1.901902350326940e+01   -1.471596730467334e+02   -3.236317036513285e+01   -6.828767744792614e+01   -3.244753110502194e+01   -6.886452453492059e+01   -2.421662810235233e+01   -1.491630147869961e+02   
7.028000000000000e+09    -1.900147170102781e+01   -1.470267879292572e+02   -3.243398775455881e+01   -6.995249778024761e+01   -3.247352374375510e+01   -6.990923578673983e+01   -2.419667064818170e+01   -1.489486041149337e+02   
7.029000000000000e+09    -1.899589141985106e+01   -1.468751079579279e+02   -3.245173054134974e+01   -7.097411439067605e+01   -3.254868124018824e+01   -7.124977959356575e+01   -2.418589078906600e+01   -1.486533844899329e+02   
7.030000000000000e+09    -1.898499835680920e+01   -1.467282363481094e+02   -3.247047077668903e+01   -7.257250347057311e+01   -3.254805830642005e+01   -7.226412673431469e+01   -2.414836487265264e+01   -1.483244042061426e+02   
7.031000000000000e+09    -1.898239456707791e+01   -1.466167596889109e+02   -3.246516443916963e+01   -7.383263094175906e+01   -3.258975332996152e+01   -7.371757928141538e+01   -2.413278521040579e+01   -1.481461270969931e+02   
7.032000000000000e+09    -1.895976391663206e+01   -1.464532768516973e+02   -3.253107326100734e+01   -7.508331160851769e+01   -3.259292654367493e+01   -7.498144105568245e+01   -2.409491365408970e+01   -1.479207494712128e+02   
7.033000000000000e+09    -1.895817489483883e+01   -1.463313730359486e+02   -3.253292068211262e+01   -7.633820241857920e+01   -3.263826574499629e+01   -7.617892916115750e+01   -2.405289950477936e+01   -1.477644944348710e+02   
7.034000000000000e+09    -1.894101567240915e+01   -1.462087234135202e+02   -3.256268284959511e+01   -7.756081193129796e+01   -3.266211716581975e+01   -7.746246814688574e+01   -2.400288108661432e+01   -1.473790324011888e+02   
7.035000000000000e+09    -1.892935399075249e+01   -1.460617541187652e+02   -3.258138782950626e+01   -7.870639957335798e+01   -3.268282221264937e+01   -7.874148085697327e+01   -2.393814742954842e+01   -1.470202092728367e+02   
7.036000000000000e+09    -1.891065756944525e+01   -1.459152145719975e+02   -3.257335460387316e+01   -8.010439202443553e+01   -3.271134044271044e+01   -8.033305311060116e+01   -2.391054986444253e+01   -1.467342833786326e+02   
7.037000000000000e+09    -1.890073943759555e+01   -1.458321827531430e+02   -3.260015272277170e+01   -8.151273530650100e+01   -3.269975414154158e+01   -8.154626055664941e+01   -2.383670596729909e+01   -1.464199824661902e+02   
7.038000000000000e+09    -1.888417560931196e+01   -1.457208686655014e+02   -3.265069574863941e+01   -8.283512748810389e+01   -3.274006063704363e+01   -8.287784312727088e+01   -2.375624612367044e+01   -1.461783283453880e+02   
7.039000000000000e+09    -1.886065089827508e+01   -1.455683862122576e+02   -3.263996770275623e+01   -8.456295560334567e+01   -3.271350251211655e+01   -8.408099359786273e+01   -2.369838545651719e+01   -1.459400592512688e+02   
7.040000000000000e+09    -1.884635552208611e+01   -1.454186696663791e+02   -3.269047692973015e+01   -8.563987623313676e+01   -3.276740149363445e+01   -8.538181562291575e+01   -2.359975036946424e+01   -1.456245396160010e+02   
7.041000000000000e+09    -1.883512365439247e+01   -1.453512279932349e+02   -3.270626607547659e+01   -8.695487877451291e+01   -3.280271569296026e+01   -8.678949012220023e+01   -2.352527169838307e+01   -1.453505935334323e+02   
7.042000000000000e+09    -1.881290067499682e+01   -1.452296247960019e+02   -3.273442097442661e+01   -8.824186164568408e+01   -3.279445637486168e+01   -8.795845522128033e+01   -2.345948205888103e+01   -1.450253307998773e+02   
7.043000000000000e+09    -1.879134647413488e+01   -1.451172966772808e+02   -3.275548025328668e+01   -8.957429413172041e+01   -3.284223037621967e+01   -8.952053350461313e+01   -2.337107753598295e+01   -1.447983141567835e+02   
7.044000000000000e+09    -1.877261093381217e+01   -1.449495954531485e+02   -3.273646850804964e+01   -9.089065186539285e+01   -3.286058048202995e+01   -9.059613589005423e+01   -2.326846652145462e+01   -1.444924052512877e+02   
7.045000000000000e+09    -1.874615781190409e+01   -1.448119565317170e+02   -3.281388610907608e+01   -9.237211658585292e+01   -3.284905189171914e+01   -9.209417710784287e+01   -2.318744209458432e+01   -1.441791595663016e+02   
7.046000000000000e+09    -1.872352521633654e+01   -1.447297527991111e+02   -3.283392195353408e+01   -9.340139019211682e+01   -3.289203399665558e+01   -9.330517677013624e+01   -2.307727980309836e+01   -1.438672292866761e+02   
7.047000000000000e+09    -1.871164680121782e+01   -1.445866901078658e+02   -3.279774052664666e+01   -9.490957398269487e+01   -3.290168643840361e+01   -9.457267656538659e+01   -2.297743926163808e+01   -1.434954801034538e+02   
7.048000000000000e+09    -1.868778296232683e+01   -1.444862219849593e+02   -3.282199607564392e+01   -9.637354288162980e+01   -3.292066013647388e+01   -9.587890497468013e+01   -2.287578354079811e+01   -1.431218122015934e+02   
7.049000000000000e+09    -1.867713996847014e+01   -1.442856288356990e+02   -3.283368892559190e+01   -9.760648145418661e+01   -3.292599354177179e+01   -9.741792954811704e+01   -2.276618553014131e+01   -1.427486076958835e+02   
7.050000000000000e+09    -1.865908321398573e+01   -1.441299009142365e+02   -3.288088502514788e+01   -9.883825473668732e+01   -3.293174076041446e+01   -9.868418483788622e+01   -2.265453863800543e+01   -1.423846050176470e+02   
7.051000000000000e+09    -1.863427691644147e+01   -1.439624459074310e+02   -3.287409457597234e+01   -1.004362322042016e+02   -3.296192462290353e+01   -1.000907916584093e+02   -2.254217398434641e+01   -1.420435657259845e+02   
7.052000000000000e+09    -1.861533993731824e+01   -1.438260717269614e+02   -3.285176585556072e+01   -1.017214703339321e+02   -3.288298119337514e+01   -1.013066755707685e+02   -2.244345740623650e+01   -1.417082499668189e+02   
7.053000000000000e+09    -1.859029375478901e+01   -1.436870420382056e+02   -3.287774151368505e+01   -1.027904637889989e+02   -3.298950693932062e+01   -1.024703018016382e+02   -2.233036784200472e+01   -1.413563976565950e+02   
7.054000000000000e+09    -1.857756748798193e+01   -1.435670736375043e+02   -3.288758930518021e+01   -1.045213910021393e+02   -3.299908272367964e+01   -1.038676097537642e+02   -2.220454900781594e+01   -1.409649828566202e+02   
7.055000000000000e+09    -1.855560462054090e+01   -1.433358807434591e+02   -3.293252479718009e+01   -1.058665618495828e+02   -3.301654865006630e+01   -1.051279309847445e+02   -2.209326205876724e+01   -1.406368045518424e+02   
7.056000000000000e+09    -1.853029250352698e+01   -1.432054466843665e+02   -3.288432555384043e+01   -1.071570056872975e+02   -3.298520914854533e+01   -1.068571320948375e+02   -2.197133441978194e+01   -1.402037456394613e+02   
7.057000000000000e+09    -1.851243549829732e+01   -1.430763342168838e+02   -3.290374715097333e+01   -1.087593883878662e+02   -3.296595070953695e+01   -1.082181225603230e+02   -2.185778468710637e+01   -1.398518916150556e+02   
7.058000000000000e+09    -1.849359156620803e+01   -1.429800619134040e+02   -3.291330979290813e+01   -1.100022078871030e+02   -3.299014005374794e+01   -1.093015596394469e+02   -2.175325146500498e+01   -1.394631666182112e+02   
7.059000000000000e+09    -1.848051578112936e+01   -1.428023977756947e+02   -3.294240487491695e+01   -1.114367793745385e+02   -3.301099743637120e+01   -1.111355828424705e+02   -2.163272852860935e+01   -1.390882984600449e+02   
7.060000000000000e+09    -1.846739565904083e+01   -1.427063907774190e+02   -3.294549336299588e+01   -1.131132815380816e+02   -3.300473100583739e+01   -1.124236085904964e+02   -2.151344406358568e+01   -1.387230016500530e+02   
7.061000000000000e+09    -1.844515915241229e+01   -1.425048023122765e+02   -3.295825473437134e+01   -1.145096928771843e+02   -3.298760196885137e+01   -1.139934756059207e+02   -2.140227907102132e+01   -1.382112485399275e+02   
7.062000000000000e+09    -1.843595233200973e+01   -1.423838324741151e+02   -3.293666990691565e+01   -1.158749764608587e+02   -3.303892780885788e+01   -1.151958163513717e+02   -2.127125873380016e+01   -1.378505133356257e+02   
7.063000000000000e+09    -1.840993654764975e+01   -1.422885906331073e+02   -3.295882911518012e+01   -1.174395068297676e+02   -3.306056624462999e+01   -1.165943800401669e+02   -2.114635638926334e+01   -1.374001134759694e+02   
7.064000000000000e+09    -1.840323207954191e+01   -1.421062663587595e+02   -3.298855271561535e+01   -1.188453496050983e+02   -3.299268955876489e+01   -1.181708949723790e+02   -2.103863248572911e+01   -1.369595058890281e+02   
7.065000000000000e+09    -1.838767741962912e+01   -1.420873897178322e+02   -3.301787196721886e+01   -1.200560717608369e+02   -3.303222685071677e+01   -1.192214564968016e+02   -2.093008184069191e+01   -1.366474663742852e+02   
7.066000000000000e+09    -1.836911751769409e+01   -1.419401514212398e+02   -3.300078889478871e+01   -1.215415108397894e+02   -3.302573516611893e+01   -1.207119926144881e+02   -2.081121878167788e+01   -1.362136505342929e+02   
7.067000000000000e+09    -1.835294015100837e+01   -1.417742216198809e+02   -3.301840102338983e+01   -1.230157898407141e+02   -3.306565208635870e+01   -1.223407773704496e+02   -2.069106748860844e+01   -1.357579840293665e+02   
7.068000000000000e+09    -1.833920760932824e+01   -1.417063204040880e+02   -3.299457207946492e+01   -1.242539906152150e+02   -3.304001103081048e+01   -1.234139232622143e+02   -2.058448416640996e+01   -1.353583092441293e+02   
7.069000000000000e+09    -1.832165979979288e+01   -1.416508734282952e+02   -3.300259854279161e+01   -1.257158308799200e+02   -3.305283084514836e+01   -1.250560679017534e+02   -2.048904026068168e+01   -1.350183975536708e+02   
7.070000000000000e+09    -1.830778559365445e+01   -1.415152477151649e+02   -3.299406084908478e+01   -1.270015758896844e+02   -3.303380763395383e+01   -1.265153143968313e+02   -2.038307426793713e+01   -1.345196226812187e+02   
7.071000000000000e+09    -1.828300601864785e+01   -1.414376130595798e+02   -3.302580315777367e+01   -1.283839048809416e+02   -3.304530733367348e+01   -1.277120723903990e+02   -2.028865571323512e+01   -1.341224950654290e+02   
7.072000000000000e+09    -1.827630296556131e+01   -1.413755378531310e+02   -3.299185953146944e+01   -1.299533625159380e+02   -3.306820981356690e+01   -1.290764961317908e+02   -2.019168766621612e+01   -1.337545129797294e+02   
7.073000000000000e+09    -1.825524658622673e+01   -1.413303034246413e+02   -3.306677491244160e+01   -1.309730840135702e+02   -3.306744578573943e+01   -1.305049775614796e+02   -2.010932371296801e+01   -1.333385963105834e+02   
7.074000000000000e+09    -1.824732466978853e+01   -1.412407515986367e+02   -3.303672796632812e+01   -1.326490021726257e+02   -3.302184970098529e+01   -1.319241153717649e+02   -2.001484238273589e+01   -1.328578398847646e+02   
7.075000000000000e+09    -1.822708794981517e+01   -1.412045293609944e+02   -3.302798105119236e+01   -1.338259228818561e+02   -3.302122251888857e+01   -1.333637316219124e+02   -1.993711577490879e+01   -1.324610842991002e+02   
7.076000000000000e+09    -1.821136314475063e+01   -1.411351461553489e+02   -3.299438812763749e+01   -1.351867167904678e+02   -3.300101375174522e+01   -1.349319161453360e+02   -1.985315685549776e+01   -1.319524912540716e+02   
7.077000000000000e+09    -1.819646556104253e+01   -1.410145593259496e+02   -3.305861471917522e+01   -1.366692168633854e+02   -3.301702650223679e+01   -1.360586465602972e+02   -1.976074405300972e+01   -1.315191017377299e+02   
7.078000000000000e+09    -1.819494862092576e+01   -1.409876524243867e+02   -3.299846775282633e+01   -1.379663601480183e+02   -3.300474069368541e+01   -1.376339868498197e+02   -1.969319436468004e+01   -1.311316077785082e+02   
7.079000000000000e+09    -1.816736000458924e+01   -1.409686192077586e+02   -3.301995848616574e+01   -1.393266717159500e+02   -3.296518881781764e+01   -1.386378099737298e+02   -1.962727814570694e+01   -1.307541980511873e+02   
7.080000000000000e+09    -1.815334655575166e+01   -1.409456691239621e+02   -3.296206026710684e+01   -1.408533187390694e+02   -3.304199875848558e+01   -1.400930881863266e+02   -1.955934099370036e+01   -1.303582784575702e+02   
7.081000000000000e+09    -1.813269433616587e+01   -1.408765028733391e+02   -3.298415841282558e+01   -1.421593074639828e+02   -3.296627627111376e+01   -1.416333314077024e+02   -1.949188117263314e+01   -1.299090750767348e+02   
7.082000000000000e+09    -1.812181158700143e+01   -1.408297729212840e+02   -3.299936802208205e+01   -1.434501260400684e+02   -3.298319618387922e+01   -1.430951049021537e+02   -1.943328567997596e+01   -1.294295240706733e+02   
7.083000000000000e+09    -1.810671975017672e+01   -1.407800670965412e+02   -3.296912890161224e+01   -1.451271949520945e+02   -3.296495768929363e+01   -1.448197976918693e+02   -1.936337439509417e+01   -1.291121158859696e+02   
7.084000000000000e+09    -1.808516439513947e+01   -1.407386902551785e+02   -3.297876164399170e+01   -1.466296853993020e+02   -3.292983043975570e+01   -1.459867373430078e+02   -1.930841924807057e+01   -1.286936866765815e+02   
