[Version] 2.0
! Rohde & Schwarz Vector Network Analyzer
! Rohde-Schwarz,ZNL20-2Port,1323001220200009,1.71.1.10-23.02.1.238
! 
! Port Assignments:
! Nominal Port -> Actual Test Port
! --------------------------------
!   1 -> 1
!   2 -> 2

! Created: GMT+3 2024-09-24 16:05:59

# Hz S DB R 50

[Number of Ports] 2
[Two-Port Data Order] 21_12
[Number of Frequencies] 6001

[Network Data] 
! freq[Hz]               S11[mag dB]              S11[ang]                 S21[mag dB]              S21[ang]                 S12[mag dB]              S12[ang]                 S22[mag dB]              S22[ang]                 
7.000000000000000e+09    -1.881456342539967e+01   -1.602112636940295e+02   -3.137377221174858e+01   7.642463841162918e+00    -3.138532042136685e+01   8.161404662407906e+00    -2.067093265682206e+01   -1.733514122278587e+02   
7.001000000000000e+09    -1.885089306223185e+01   -1.599889502638768e+02   -3.142961340471131e+01   6.453646264750241e+00    -3.140093192824213e+01   6.857724327454933e+00    -2.082783846839856e+01   -1.732990886544454e+02   
7.002000000000000e+09    -1.887915650081852e+01   -1.597418576741850e+02   -3.141901652682460e+01   5.292956297609029e+00    -3.140461057159833e+01   5.514676138409552e+00    -2.098654292790481e+01   -1.732378039946609e+02   
7.003000000000000e+09    -1.890921929042818e+01   -1.594763746424139e+02   -3.140022528580047e+01   3.979463156037622e+00    -3.145408210461698e+01   4.287566524897083e+00    -2.114416761658991e+01   -1.732081622140383e+02   
7.004000000000000e+09    -1.894325520672294e+01   -1.591980893856447e+02   -3.142379779317577e+01   2.638110834506228e+00    -3.145808717549718e+01   3.184660613173597e+00    -2.130916003412517e+01   -1.731256314623597e+02   
7.005000000000000e+09    -1.897884775696430e+01   -1.589463710430295e+02   -3.146609229108131e+01   1.648089203090285e+00    -3.147510808075472e+01   1.797385934050567e+00    -2.147279386067113e+01   -1.730958476256881e+02   
7.006000000000000e+09    -1.900225732778128e+01   -1.586870906267121e+02   -3.149997624555301e+01   3.432427124599015e-01    -3.152291512608279e+01   7.290932555020257e-01    -2.162961046998303e+01   -1.730066067820762e+02   
7.007000000000000e+09    -1.902747814963815e+01   -1.583625822147853e+02   -3.149771816690631e+01   -1.110707082272992e+00   -3.153085052134326e+01   -7.738443418077614e-01   -2.178520127903579e+01   -1.730225825283690e+02   
7.008000000000000e+09    -1.905435318250345e+01   -1.581299540111350e+02   -3.155504563199921e+01   -2.173560790592775e+00   -3.154581443951162e+01   -1.923485025971721e+00   -2.194193246969498e+01   -1.729505550490189e+02   
7.009000000000000e+09    -1.907527952207253e+01   -1.577956728162847e+02   -3.157739776603115e+01   -3.384413214354965e+00   -3.155736372637426e+01   -3.135343703056768e+00   -2.209864621538043e+01   -1.729887973858687e+02   
7.010000000000000e+09    -1.910259459801881e+01   -1.575667226769118e+02   -3.160414020409991e+01   -4.670576495530732e+00   -3.158270389379290e+01   -4.332154164446808e+00   -2.225703069448439e+01   -1.729312716386598e+02   
7.011000000000000e+09    -1.911992885734561e+01   -1.572850756218783e+02   -3.157128251650743e+01   -6.105975492056234e+00   -3.161684616056272e+01   -5.622697248767837e+00   -2.241129647775749e+01   -1.728424964207704e+02   
7.012000000000000e+09    -1.914101483095025e+01   -1.569631295930022e+02   -3.163613845180115e+01   -7.233100055929820e+00   -3.162867654639088e+01   -6.993751640205402e+00   -2.257136392821650e+01   -1.728483775044577e+02   
7.013000000000000e+09    -1.915403484976016e+01   -1.566996350068009e+02   -3.163074426027266e+01   -8.530136795570986e+00   -3.166872812326468e+01   -8.249785204597979e+00   -2.273245837368874e+01   -1.728897226293688e+02   
7.014000000000000e+09    -1.919203268472238e+01   -1.563918838925157e+02   -3.167895287238472e+01   -9.788058744907017e+00   -3.165430998680901e+01   -9.636352006979063e+00   -2.286922994270789e+01   -1.728894842869310e+02   
7.015000000000000e+09    -1.920518598471214e+01   -1.561208730401009e+02   -3.165509626605122e+01   -1.081621358902554e+01   -3.164800897815644e+01   -1.102543929403866e+01   -2.301126119868175e+01   -1.727176050784415e+02   
7.016000000000000e+09    -1.922668494741838e+01   -1.558091522100359e+02   -3.165910628423202e+01   -1.230091903836085e+01   -3.169988277090171e+01   -1.228364215320420e+01   -2.315969773822557e+01   -1.727633636287148e+02   
7.017000000000000e+09    -1.924805915686255e+01   -1.554747844732289e+02   -3.172510718395225e+01   -1.346211287356433e+01   -3.174357623031114e+01   -1.335297387016661e+01   -2.328901134404314e+01   -1.727419228841437e+02   
7.018000000000000e+09    -1.925666456612538e+01   -1.552064288538243e+02   -3.176074559211833e+01   -1.482035763803003e+01   -3.177009732627597e+01   -1.480718856525442e+01   -2.342310764777753e+01   -1.726300154764085e+02   
7.019000000000000e+09    -1.927893348380671e+01   -1.549040122702585e+02   -3.177579575184252e+01   -1.606248825056350e+01   -3.179833056946496e+01   -1.602691470529065e+01   -2.355524518744975e+01   -1.724660632746715e+02   
7.020000000000000e+09    -1.928418345225107e+01   -1.546613361417132e+02   -3.179130840022240e+01   -1.745541010777388e+01   -3.184647539409416e+01   -1.704935671885211e+01   -2.367005751143354e+01   -1.724796916155242e+02   
7.021000000000000e+09    -1.930454887596138e+01   -1.543953035809069e+02   -3.185987998516012e+01   -1.884875681838109e+01   -3.187402162718895e+01   -1.868012363645737e+01   -2.378891662653960e+01   -1.722594296099354e+02   
7.022000000000000e+09    -1.931033768393127e+01   -1.541958541633103e+02   -3.183703944950377e+01   -2.007169443795047e+01   -3.191291903475790e+01   -2.008646083023495e+01   -2.391155743795117e+01   -1.721722786063499e+02   
7.023000000000000e+09    -1.933267821549020e+01   -1.538766216263663e+02   -3.189636915174135e+01   -2.127360375977919e+01   -3.194620152718132e+01   -2.121263023487461e+01   -2.401002303609758e+01   -1.720350123151568e+02   
7.024000000000000e+09    -1.934374934580545e+01   -1.536456332132561e+02   -3.191548534336335e+01   -2.251371869114322e+01   -3.196642736392682e+01   -2.241303587737137e+01   -2.411225324792171e+01   -1.717657037222632e+02   
7.025000000000000e+09    -1.935815888031057e+01   -1.533796543834135e+02   -3.192110071452371e+01   -2.385019251484166e+01   -3.200940160876181e+01   -2.388629258191024e+01   -2.420329769663187e+01   -1.715847885651555e+02   
7.026000000000000e+09    -1.936060049610439e+01   -1.531949362809955e+02   -3.192966718270102e+01   -2.510949564368524e+01   -3.202123784157963e+01   -2.508847694094342e+01   -2.428542637588766e+01   -1.713455672997865e+02   
7.027000000000000e+09    -1.937310722841006e+01   -1.528689174339500e+02   -3.198033245414571e+01   -2.645190384149785e+01   -3.206040726803982e+01   -2.648223547086381e+01   -2.437998406450850e+01   -1.710717750490368e+02   
7.028000000000000e+09    -1.937505275250864e+01   -1.526394639537653e+02   -3.204573824307009e+01   -2.766260081837182e+01   -3.206972295302106e+01   -2.763973971272387e+01   -2.446793975819503e+01   -1.709029212363337e+02   
7.029000000000000e+09    -1.939156032534926e+01   -1.524064916115367e+02   -3.204966529891080e+01   -2.891200424828692e+01   -3.212749900108346e+01   -2.898698093439378e+01   -2.454107852814955e+01   -1.705836668192454e+02   
7.030000000000000e+09    -1.939423529592539e+01   -1.521537754304534e+02   -3.213298746572504e+01   -3.032435239264742e+01   -3.213572560343836e+01   -3.007325187434841e+01   -2.461371655650620e+01   -1.700712364889827e+02   
7.031000000000000e+09    -1.939606863527849e+01   -1.519600269732961e+02   -3.212911237223816e+01   -3.167460014634480e+01   -3.218075614691503e+01   -3.164857672512851e+01   -2.466592793176556e+01   -1.697970069868104e+02   
7.032000000000000e+09    -1.939476818524286e+01   -1.517014307601164e+02   -3.215740646654468e+01   -3.303377365476354e+01   -3.220586516850596e+01   -3.293421486568837e+01   -2.473314523792634e+01   -1.694767362278863e+02   
7.033000000000000e+09    -1.939899790847869e+01   -1.514975142498102e+02   -3.216654568485870e+01   -3.432867291107250e+01   -3.224926666634505e+01   -3.393475211649571e+01   -2.477008482838246e+01   -1.690679958064225e+02   
7.034000000000000e+09    -1.939760308304858e+01   -1.512827492084629e+02   -3.222370889594368e+01   -3.562060719792858e+01   -3.228810650353784e+01   -3.537251672924145e+01   -2.482434326872314e+01   -1.684325801346707e+02   
7.035000000000000e+09    -1.939752593561803e+01   -1.510755739552546e+02   -3.220503064667238e+01   -3.706374104332688e+01   -3.229331545046340e+01   -3.682791426087217e+01   -2.486234928804340e+01   -1.679895293425956e+02   
7.036000000000000e+09    -1.938910489803645e+01   -1.508438017944198e+02   -3.226382270569859e+01   -3.831492171776723e+01   -3.234412526694327e+01   -3.821365951040351e+01   -2.489861845841459e+01   -1.674523264572993e+02   
7.037000000000000e+09    -1.938901240213539e+01   -1.506901169364405e+02   -3.229499232651436e+01   -3.965991120020973e+01   -3.238354837984276e+01   -3.969246054981326e+01   -2.493580024821961e+01   -1.667757985707160e+02   
7.038000000000000e+09    -1.938780959256432e+01   -1.504877028406456e+02   -3.232230924888381e+01   -4.093846099310525e+01   -3.244254612920540e+01   -4.088564601840199e+01   -2.493170887009960e+01   -1.661535642591891e+02   
7.039000000000000e+09    -1.937271108660718e+01   -1.502952491086949e+02   -3.236964818663470e+01   -4.222419161640193e+01   -3.241732279852096e+01   -4.240636116657743e+01   -2.495060679780435e+01   -1.655282077496074e+02   
7.040000000000000e+09    -1.937105927704910e+01   -1.500437327001007e+02   -3.241976354126630e+01   -4.350750609521967e+01   -3.245242718211842e+01   -4.358853301884164e+01   -2.494033259169356e+01   -1.649230370617747e+02   
7.041000000000000e+09    -1.936700725039619e+01   -1.498748858503589e+02   -3.245546172177997e+01   -4.496068749380168e+01   -3.251190505475348e+01   -4.475148619591699e+01   -2.495811359491590e+01   -1.640991682061542e+02   
7.042000000000000e+09    -1.935394898030421e+01   -1.496311766292470e+02   -3.248980072565801e+01   -4.630805244095472e+01   -3.250928468694387e+01   -4.605604373559164e+01   -2.494459331249872e+01   -1.633885399695982e+02   
7.043000000000000e+09    -1.935583457430429e+01   -1.494741340332236e+02   -3.248787183722774e+01   -4.743833282572125e+01   -3.257096589607070e+01   -4.753344631800374e+01   -2.492621786500506e+01   -1.626565118779724e+02   
7.044000000000000e+09    -1.933969069505144e+01   -1.491767071623999e+02   -3.248536168804628e+01   -4.919170673342865e+01   -3.258853583135075e+01   -4.869637372207742e+01   -2.489513825826239e+01   -1.618525711534851e+02   
7.045000000000000e+09    -1.932316697752200e+01   -1.490072584676154e+02   -3.254010264123578e+01   -5.018759196630879e+01   -3.261520506533169e+01   -5.030223814228814e+01   -2.488779515724091e+01   -1.609787393479138e+02   
7.046000000000000e+09    -1.931491690450633e+01   -1.488210890122822e+02   -3.257507348538588e+01   -5.157085210650164e+01   -3.266433289148020e+01   -5.140320863795704e+01   -2.483723804010047e+01   -1.601858648187228e+02   
7.047000000000000e+09    -1.930240501952363e+01   -1.485950878268686e+02   -3.259698406650871e+01   -5.330447047678651e+01   -3.268304510157626e+01   -5.275690370028914e+01   -2.480506135996784e+01   -1.590595392541977e+02   
7.048000000000000e+09    -1.929462763139762e+01   -1.484385464641378e+02   -3.262564218740893e+01   -5.457977468165438e+01   -3.269727769122612e+01   -5.401739388504127e+01   -2.475136762824478e+01   -1.582224772583831e+02   
7.049000000000000e+09    -1.929413553323363e+01   -1.481440513646351e+02   -3.265467423117832e+01   -5.600637889473105e+01   -3.273254543436394e+01   -5.570832296724258e+01   -2.469334812951301e+01   -1.571097322214211e+02   
7.050000000000000e+09    -1.927725927250319e+01   -1.479079734333521e+02   -3.268265008907895e+01   -5.725730698052141e+01   -3.274068848860717e+01   -5.699868241464398e+01   -2.463649330762427e+01   -1.562107573816355e+02   
7.051000000000000e+09    -1.926646324002274e+01   -1.476673361660294e+02   -3.274093590071918e+01   -5.869723930342489e+01   -3.280701165826710e+01   -5.839319844228689e+01   -2.457619737937011e+01   -1.552369881782349e+02   
7.052000000000000e+09    -1.925628089720457e+01   -1.473997425891749e+02   -3.273977687191410e+01   -6.010237240779837e+01   -3.276008636915607e+01   -6.000804329821637e+01   -2.450294463708441e+01   -1.542299131463259e+02   
7.053000000000000e+09    -1.924325856802851e+01   -1.472211505555996e+02   -3.274191703763871e+01   -6.153869132466183e+01   -3.284748115536738e+01   -6.125572252944040e+01   -2.442756159870629e+01   -1.531862339899541e+02   
7.054000000000000e+09    -1.924150617046340e+01   -1.470087336040705e+02   -3.285486710049270e+01   -6.281510561685020e+01   -3.287193188414342e+01   -6.253185714253303e+01   -2.433357268667978e+01   -1.521519364550618e+02   
7.055000000000000e+09    -1.921746537885330e+01   -1.467266371177733e+02   -3.285037662576046e+01   -6.446927731876920e+01   -3.287754621184898e+01   -6.385649420468960e+01   -2.425214764398106e+01   -1.511489743818862e+02   
7.056000000000000e+09    -1.920855915058128e+01   -1.464750438940427e+02   -3.284843212064358e+01   -6.595319809333732e+01   -3.291321160263595e+01   -6.549391711763826e+01   -2.415334036898410e+01   -1.500791399226387e+02   
7.057000000000000e+09    -1.919856515822955e+01   -1.462375808720685e+02   -3.289610843663595e+01   -6.736769042230475e+01   -3.296443104364075e+01   -6.707000364384120e+01   -2.404059713427793e+01   -1.490340871431649e+02   
7.058000000000000e+09    -1.919023956565341e+01   -1.460089153035716e+02   -3.291153008004169e+01   -6.871051664731129e+01   -3.295774882088563e+01   -6.823994435356960e+01   -2.395238916888315e+01   -1.479611423680371e+02   
7.059000000000000e+09    -1.917329544766016e+01   -1.457798619958344e+02   -3.293402087828422e+01   -7.012853300142464e+01   -3.301453417706760e+01   -7.004803483721106e+01   -2.382614505337239e+01   -1.469525050170255e+02   
7.060000000000000e+09    -1.916792602711131e+01   -1.456052614075931e+02   -3.298183344889962e+01   -7.176492287967965e+01   -3.302551716207774e+01   -7.136643333907938e+01   -2.370898653896158e+01   -1.460009483494290e+02   
7.061000000000000e+09    -1.915704880909976e+01   -1.453263786396412e+02   -3.302243898177232e+01   -7.317153124080977e+01   -3.306049380809751e+01   -7.305399135136444e+01   -2.361346774634344e+01   -1.448208064014863e+02   
7.062000000000000e+09    -1.915033945593300e+01   -1.451009867113829e+02   -3.300263069227866e+01   -7.468607761757156e+01   -3.311721423118979e+01   -7.425428246329653e+01   -2.346761442298261e+01   -1.438939573623169e+02   
7.063000000000000e+09    -1.913867732437054e+01   -1.448655398815330e+02   -3.309800522054606e+01   -7.607572077279698e+01   -3.314746184015105e+01   -7.565426850251451e+01   -2.334467153267381e+01   -1.429442865249368e+02   
7.064000000000000e+09    -1.913520701022955e+01   -1.446108400274370e+02   -3.306398834916852e+01   -7.756672045741190e+01   -3.313641884951475e+01   -7.730812911136776e+01   -2.322015638264830e+01   -1.418029708481084e+02   
7.065000000000000e+09    -1.911957116598107e+01   -1.444883439373442e+02   -3.311082843342023e+01   -7.920899363123515e+01   -3.323632341911238e+01   -7.844660844671550e+01   -2.308274152668079e+01   -1.409528428354566e+02   
7.066000000000000e+09    -1.911044391578270e+01   -1.442580496944961e+02   -3.314272087163485e+01   -8.060326949820194e+01   -3.320960459154672e+01   -8.006251395975146e+01   -2.295270065729715e+01   -1.399453304881170e+02   
7.067000000000000e+09    -1.909729281000153e+01   -1.439799207198182e+02   -3.317594477025353e+01   -8.208083518185440e+01   -3.327427424199700e+01   -8.163640159113704e+01   -2.283221481837677e+01   -1.389398628017302e+02   
7.068000000000000e+09    -1.908650924970140e+01   -1.438579727307361e+02   -3.320774774081510e+01   -8.359844927474401e+01   -3.324919003441725e+01   -8.290028887211180e+01   -2.270323659486806e+01   -1.380549938832197e+02   
7.069000000000000e+09    -1.907371499194834e+01   -1.436935495937983e+02   -3.324073609135184e+01   -8.513896875805393e+01   -3.329417935415204e+01   -8.455588330339198e+01   -2.259099139338146e+01   -1.371435696412073e+02   
7.070000000000000e+09    -1.907266222877355e+01   -1.433969876307424e+02   -3.322231843994792e+01   -8.663924932640506e+01   -3.334662099521034e+01   -8.601371878390236e+01   -2.245947842141940e+01   -1.361801807366438e+02   
7.071000000000000e+09    -1.905765036187991e+01   -1.432849068842796e+02   -3.330376522693444e+01   -8.824529238208017e+01   -3.334660131277615e+01   -8.732671090427479e+01   -2.233334365109256e+01   -1.353127558274265e+02   
7.072000000000000e+09    -1.905005143708366e+01   -1.430475460893720e+02   -3.333359385243098e+01   -8.961390226995196e+01   -3.340007471332967e+01   -8.880433725125874e+01   -2.221280534354548e+01   -1.345472286202657e+02   
7.073000000000000e+09    -1.903929515098740e+01   -1.429425338977558e+02   -3.337356710415444e+01   -9.068329967014655e+01   -3.338183787389334e+01   -9.008416895953992e+01   -2.208731344018713e+01   -1.336152580681300e+02   
7.074000000000000e+09    -1.903826177519742e+01   -1.427681069838874e+02   -3.338548509951364e+01   -9.271169335884233e+01   -3.341244447549970e+01   -9.199102041290136e+01   -2.197445360218783e+01   -1.328167346570884e+02   
7.075000000000000e+09    -1.901667718400758e+01   -1.426101508115681e+02   -3.338876043167919e+01   -9.394169310027478e+01   -3.342042631860061e+01   -9.351804540432241e+01   -2.187053515271361e+01   -1.320303012506071e+02   
7.076000000000000e+09    -1.900526245251293e+01   -1.423726668378567e+02   -3.338833700767775e+01   -9.575511280036685e+01   -3.344690943081395e+01   -9.480079912516273e+01   -2.175084423491471e+01   -1.311000771512751e+02   
7.077000000000000e+09    -1.899585818671152e+01   -1.422319188098364e+02   -3.348613258353784e+01   -9.678237365759760e+01   -3.349859216204124e+01   -9.638791272249085e+01   -2.163429966696998e+01   -1.302591975914119e+02   
7.078000000000000e+09    -1.897794801492086e+01   -1.421059939841474e+02   -3.347447589853217e+01   -9.878210261961566e+01   -3.354092415274457e+01   -9.801091102410024e+01   -2.152812081408764e+01   -1.295472959295216e+02   
7.079000000000000e+09    -1.896270301663563e+01   -1.418952262320086e+02   -3.349740653027272e+01   -9.982101674964106e+01   -3.353684583954124e+01   -9.941142395566037e+01   -2.142178431316739e+01   -1.287648852304253e+02   
7.080000000000000e+09    -1.896135234612320e+01   -1.417972354315574e+02   -3.349994374316622e+01   -1.014128557178131e+02   -3.359588347649812e+01   -1.006802643358980e+02   -2.132780180668662e+01   -1.279937095421373e+02   
7.081000000000000e+09    -1.893353266461436e+01   -1.416156786066656e+02   -3.352817867630758e+01   -1.030077474367882e+02   -3.355304669159084e+01   -1.022417530387041e+02   -2.122728921313201e+01   -1.272517234346966e+02   
7.082000000000000e+09    -1.892379542230862e+01   -1.414401689861236e+02   -3.354108027860928e+01   -1.043277393619438e+02   -3.359150672577066e+01   -1.038804490573195e+02   -2.111943244051476e+01   -1.265016184717450e+02   
7.083000000000000e+09    -1.891431625524575e+01   -1.412803059783161e+02   -3.358813050820764e+01   -1.061636203969372e+02   -3.359898457118878e+01   -1.055871345785196e+02   -2.103889538316700e+01   -1.258446247865754e+02   
7.084000000000000e+09    -1.890669629164607e+01   -1.411229274993944e+02   -3.360446481911546e+01   -1.076334677175722e+02   -3.359271885562967e+01   -1.070675368252427e+02   -2.094542449466682e+01   -1.251397639591855e+02   
