[Version] 2.0
! Rohde & Schwarz Vector Network Analyzer
! Rohde-Schwarz,ZNL20-2Port,1323001220200009,1.71.1.10-23.02.1.238
! 
! Port Assignments:
! Nominal Port -> Actual Test Port
! --------------------------------
!   1 -> 1
!   2 -> 2

! Created: GMT+3 2024-09-24 16:06:12

# Hz S DB R 50

[Number of Ports] 2
[Two-Port Data Order] 21_12
[Number of Frequencies] 6001

[Network Data] 
! freq[Hz]               S11[mag dB]              S11[ang]                 S21[mag dB]              S21[ang]                 S12[mag dB]              S12[ang]                 S22[mag dB]              S22[ang]                 
7.000000000000000e+09    -1.777708555351800e+01   -1.645271848655582e+02   -3.092374234844659e+01   5.154665882801620e+01    -3.091188480575487e+01   5.197566571991641e+01    -1.850979918639844e+01   -1.732895086140178e+02   
7.001000000000000e+09    -1.781944189669162e+01   -1.644956229780951e+02   -3.093531410562717e+01   5.029135246791933e+01    -3.090835124916301e+01   5.078672741637069e+01    -1.863096681273856e+01   -1.735467749614125e+02   
7.002000000000000e+09    -1.788167863410068e+01   -1.643784607944708e+02   -3.091422024309067e+01   4.927443609332953e+01    -3.088885955808045e+01   4.959114302185186e+01    -1.876090164329512e+01   -1.738135313260859e+02   
7.003000000000000e+09    -1.792763810284928e+01   -1.643241404413268e+02   -3.089277291320549e+01   4.774406938021324e+01    -3.089522532294378e+01   4.845150182486427e+01    -1.887829889478830e+01   -1.741312050089405e+02   
7.004000000000000e+09    -1.798313792396774e+01   -1.642989829799984e+02   -3.091144026640885e+01   4.657523767907407e+01    -3.087399770348994e+01   4.704323072330528e+01    -1.900359299064256e+01   -1.744264633445370e+02   
7.005000000000000e+09    -1.803810157236774e+01   -1.641801901874556e+02   -3.091084111901530e+01   4.545304122221036e+01    -3.086563894018494e+01   4.589079184796317e+01    -1.913393083636418e+01   -1.747375386701134e+02   
7.006000000000000e+09    -1.808744901417669e+01   -1.640855516451427e+02   -3.091851209322442e+01   4.429504745295404e+01    -3.086833535076019e+01   4.464174161171404e+01    -1.925766844915598e+01   -1.750498128787781e+02   
7.007000000000000e+09    -1.813845533503007e+01   -1.639782803394124e+02   -3.090284353679998e+01   4.289559386572705e+01    -3.087746985837812e+01   4.324384823411453e+01    -1.938796032402871e+01   -1.753986609489938e+02   
7.008000000000000e+09    -1.818406666352083e+01   -1.638706783622068e+02   -3.090141671167610e+01   4.198182028074039e+01    -3.086514638323717e+01   4.221096280625641e+01    -1.951042865225898e+01   -1.757622520803738e+02   
7.009000000000000e+09    -1.823482863270639e+01   -1.637626384908194e+02   -3.090044288664037e+01   4.067862538002185e+01    -3.088994746972092e+01   4.090538773898615e+01    -1.963632033257030e+01   -1.761716826882294e+02   
7.010000000000000e+09    -1.828330239044349e+01   -1.636746047160887e+02   -3.090609549742325e+01   3.929352084677251e+01    -3.087238122649541e+01   3.971796790237303e+01    -1.976254984842331e+01   -1.765235629862908e+02   
7.011000000000000e+09    -1.833007214783524e+01   -1.634931161279945e+02   -3.089689730538947e+01   3.799944451901088e+01    -3.086742841149682e+01   3.842605755938571e+01    -1.988612589398368e+01   -1.768987322790308e+02   
7.012000000000000e+09    -1.837879408657980e+01   -1.632791042926428e+02   -3.091801818483611e+01   3.670736422192325e+01    -3.087329285762624e+01   3.709240076215261e+01    -2.000923721169134e+01   -1.772983524840112e+02   
7.013000000000000e+09    -1.842879350850333e+01   -1.631589225389809e+02   -3.092422553837919e+01   3.550767848574819e+01    -3.088823983895975e+01   3.577136664180158e+01    -2.012979691482111e+01   -1.777021833581939e+02   
7.014000000000000e+09    -1.848487055600246e+01   -1.630103947814876e+02   -3.091797256179011e+01   3.430960265278363e+01    -3.089287683465587e+01   3.433675737137283e+01    -2.024756500662682e+01   -1.781665751392630e+02   
7.015000000000000e+09    -1.854150988282332e+01   -1.628785065480855e+02   -3.087509913075593e+01   3.313156036424919e+01    -3.089513911756335e+01   3.323116712415224e+01    -2.037085240447908e+01   -1.785919204065484e+02   
7.016000000000000e+09    -1.858267295705840e+01   -1.626317104123773e+02   -3.090213576677638e+01   3.170377895158735e+01    -3.089348566515875e+01   3.198196082319228e+01    -2.049075478921882e+01   -1.790223235561744e+02   
7.017000000000000e+09    -1.862804723538497e+01   -1.624090759530758e+02   -3.090665385995831e+01   3.042421281045975e+01    -3.092702694822520e+01   3.087089679167457e+01    -2.059861092429330e+01   -1.795117587473736e+02   
7.018000000000000e+09    -1.867365018263047e+01   -1.622427261087755e+02   -3.093210704319208e+01   2.927227026551756e+01    -3.094042057558689e+01   2.953298273774856e+01    -2.072481062941364e+01   -1.798509036178183e+02   
7.019000000000000e+09    -1.871886561711478e+01   -1.620360291703384e+02   -3.093249271895885e+01   2.812421516657878e+01    -3.092954848072995e+01   2.817545821019130e+01    -2.083918055570105e+01   1.797749838879045e+02    
7.020000000000000e+09    -1.876627364226017e+01   -1.618071838156162e+02   -3.094175712618713e+01   2.671281360312818e+01    -3.095278717936014e+01   2.714800080788052e+01    -2.093958111497733e+01   1.793032764466742e+02    
7.021000000000000e+09    -1.881492436531480e+01   -1.617522948439506e+02   -3.099912663105383e+01   2.566307392991139e+01    -3.098619410876121e+01   2.568993516315060e+01    -2.104851439862625e+01   1.788787306614820e+02    
7.022000000000000e+09    -1.885457143196094e+01   -1.614634045322213e+02   -3.098591792700700e+01   2.437956813078410e+01    -3.099464555780810e+01   2.435948079239888e+01    -2.116877477783173e+01   1.784729945920512e+02    
7.023000000000000e+09    -1.890362296411356e+01   -1.612684853044457e+02   -3.098634546813555e+01   2.302238651680701e+01    -3.100270682158156e+01   2.326886255411519e+01    -2.127085564281661e+01   1.781107643057790e+02    
7.024000000000000e+09    -1.894640019315905e+01   -1.610991788910572e+02   -3.101191431275274e+01   2.193924859883810e+01    -3.101790570633414e+01   2.198383288376996e+01    -2.137118173410072e+01   1.778549445855490e+02    
7.025000000000000e+09    -1.899269759293724e+01   -1.608666340622003e+02   -3.100667075419558e+01   2.051636450208199e+01    -3.104484248138939e+01   2.076273223916532e+01    -2.147378052703289e+01   1.773833211890789e+02    
7.026000000000000e+09    -1.902866099566749e+01   -1.607076686646012e+02   -3.101913567392536e+01   1.950406370856954e+01    -3.104036693534034e+01   1.945327859855124e+01    -2.156757520310988e+01   1.770956509774151e+02    
7.027000000000000e+09    -1.907675729230861e+01   -1.604316590346122e+02   -3.103507642145200e+01   1.812339430959882e+01    -3.107117459225166e+01   1.805874651449514e+01    -2.167854573187718e+01   1.768211905031900e+02    
7.028000000000000e+09    -1.910667155308390e+01   -1.602193888924249e+02   -3.107886044377829e+01   1.710611760050262e+01    -3.107046629701463e+01   1.704343538612006e+01    -2.176580684212141e+01   1.765596470340199e+02    
7.029000000000000e+09    -1.915158589503321e+01   -1.600197274443789e+02   -3.104995619461687e+01   1.582947974032447e+01    -3.108554730832045e+01   1.590371080883801e+01    -2.186116409140857e+01   1.762366691684338e+02    
7.030000000000000e+09    -1.918109135567585e+01   -1.598425949395231e+02   -3.108925198539179e+01   1.449459453095772e+01    -3.110004503289331e+01   1.451494918580729e+01    -2.196991166933556e+01   1.760343672155437e+02    
7.031000000000000e+09    -1.922015691541143e+01   -1.596189502737480e+02   -3.111226824524351e+01   1.318630572111451e+01    -3.112033721437882e+01   1.331515607757029e+01    -2.206475174483173e+01   1.757645794688171e+02    
7.032000000000000e+09    -1.925329793133278e+01   -1.593992758290029e+02   -3.112475886997892e+01   1.209475127168420e+01    -3.114277052756083e+01   1.182313516658615e+01    -2.216308147163308e+01   1.755929496221161e+02    
7.033000000000000e+09    -1.928684234185727e+01   -1.591395424967072e+02   -3.110045311036277e+01   1.053220410747288e+01    -3.113826758620299e+01   1.081802851356252e+01    -2.222534464261838e+01   1.753898256232767e+02    
7.034000000000000e+09    -1.931267861086025e+01   -1.589139356453723e+02   -3.113260147584676e+01   9.601999564496088e+00    -3.115203334326553e+01   9.544607801157921e+00    -2.233926800396250e+01   1.753533397606059e+02    
7.035000000000000e+09    -1.935142064290391e+01   -1.587011970458293e+02   -3.111982958523956e+01   8.017805678988255e+00    -3.117205098495275e+01   8.212585978740540e+00    -2.242635771504790e+01   1.753688710672988e+02    
7.036000000000000e+09    -1.936966877950369e+01   -1.583930634552401e+02   -3.115935574004334e+01   6.640118033377322e+00    -3.123253727578127e+01   7.031964446831259e+00    -2.252155304076224e+01   1.751495155248958e+02    
7.037000000000000e+09    -1.939992896632458e+01   -1.582402300848079e+02   -3.118825699127106e+01   5.547216192062170e+00    -3.125615146541241e+01   5.595085313928472e+00    -2.260317412494184e+01   1.752950236083292e+02    
7.038000000000000e+09    -1.942942743817064e+01   -1.579431112402587e+02   -3.121745192892509e+01   4.380883560946979e+00    -3.125368330823957e+01   4.504189476114248e+00    -2.269479390430817e+01   1.753764655881205e+02    
7.039000000000000e+09    -1.944210821288572e+01   -1.576877926292426e+02   -3.121923593834019e+01   3.092221437204016e+00    -3.127951724105635e+01   2.920415388074422e+00    -2.277575739394857e+01   1.754403480462093e+02    
7.040000000000000e+09    -1.946811453122592e+01   -1.573810252381614e+02   -3.121800216629386e+01   1.913796039555058e+00    -3.129711009655349e+01   1.780475904913323e+00    -2.285798568341503e+01   1.756117529674673e+02    
7.041000000000000e+09    -1.948883947410936e+01   -1.571458519186745e+02   -3.125475373361738e+01   3.756201453766308e-01    -3.129650745187468e+01   5.699943377903960e-01    -2.295380765172050e+01   1.758215342325747e+02    
7.042000000000000e+09    -1.950836003475128e+01   -1.568764362716294e+02   -3.127647448097674e+01   -7.476710340985832e-01   -3.131416009489701e+01   -7.804640219767269e-01   -2.303536368713993e+01   1.760228670840714e+02    
7.043000000000000e+09    -1.951992902354800e+01   -1.566675316478781e+02   -3.130795612260737e+01   -2.003344092067126e+00   -3.135583649107037e+01   -2.010275520022466e+00   -2.311830758152007e+01   1.763016333599488e+02    
7.044000000000000e+09    -1.953374533171430e+01   -1.562838856601982e+02   -3.132055786723906e+01   -3.398400098163759e+00   -3.135619550240611e+01   -3.236125520772128e+00   -2.319624057226271e+01   1.767168581797076e+02    
7.045000000000000e+09    -1.954902707815966e+01   -1.560163707650683e+02   -3.134601130914420e+01   -4.676304783690867e+00   -3.140409358485810e+01   -4.568929205531219e+00   -2.329046120326917e+01   1.770702893198209e+02    
7.046000000000000e+09    -1.956096563227587e+01   -1.557287817771951e+02   -3.135223478893242e+01   -6.004172826413802e+00   -3.140813872005699e+01   -5.739673132418602e+00   -2.335841726544668e+01   1.775997455472423e+02    
7.047000000000000e+09    -1.957747803961545e+01   -1.554244107887587e+02   -3.138914539546813e+01   -7.449528376773811e+00   -3.142084842589207e+01   -7.058888401070645e+00   -2.345214840287147e+01   1.781200783970145e+02    
7.048000000000000e+09    -1.959133597826736e+01   -1.551583797348769e+02   -3.140987539855783e+01   -8.736856023710166e+00   -3.144317500170926e+01   -8.373627407515276e+00   -2.354171115864779e+01   1.787126525217395e+02    
7.049000000000000e+09    -1.960776618661369e+01   -1.548603712038608e+02   -3.146089135124534e+01   -1.017591568876433e+01   -3.145621790698366e+01   -9.857356169767726e+00   -2.361638505481352e+01   1.794152217547860e+02    
7.050000000000000e+09    -1.961633368505365e+01   -1.545506139664757e+02   -3.144094078307944e+01   -1.130355667430171e+01   -3.149332474951923e+01   -1.106758702126786e+01   -2.370793529928255e+01   -1.798700525807643e+02   
7.051000000000000e+09    -1.962325865538294e+01   -1.541659304912199e+02   -3.151016526220143e+01   -1.278419139770588e+01   -3.152479275831726e+01   -1.260299119982406e+01   -2.377353314627917e+01   -1.790758165839096e+02   
7.052000000000000e+09    -1.962785511841963e+01   -1.538765912168565e+02   -3.151474927031330e+01   -1.410454473871238e+01   -3.156090465905364e+01   -1.409278778229095e+01   -2.385923437811781e+01   -1.783139262642561e+02   
7.053000000000000e+09    -1.964485899261645e+01   -1.535371129489131e+02   -3.151043977130261e+01   -1.552266824189300e+01   -3.156938023416322e+01   -1.522016777303383e+01   -2.394649535742223e+01   -1.773828066899923e+02   
7.054000000000000e+09    -1.965421301632464e+01   -1.532384084322382e+02   -3.157549387460341e+01   -1.671434425942239e+01   -3.160165371306352e+01   -1.649848014718814e+01   -2.401282502438983e+01   -1.763125578204542e+02   
7.055000000000000e+09    -1.966637805157902e+01   -1.529193082714183e+02   -3.159059587688448e+01   -1.815326285317002e+01   -3.163853253213332e+01   -1.774775161976823e+01   -2.407915638931879e+01   -1.753231391206673e+02   
7.056000000000000e+09    -1.967531886390105e+01   -1.525395053793966e+02   -3.159942028777005e+01   -1.965640199179360e+01   -3.166922555987144e+01   -1.945568743744733e+01   -2.414168423488638e+01   -1.741613836297093e+02   
7.057000000000000e+09    -1.968420958365401e+01   -1.522354460591271e+02   -3.165293280394510e+01   -2.080324207401200e+01   -3.169000937328203e+01   -2.062467340086176e+01   -2.420286165131519e+01   -1.729859275516179e+02   
7.058000000000000e+09    -1.968068584175539e+01   -1.519115156911820e+02   -3.169626219300683e+01   -2.230150727739995e+01   -3.172399082285161e+01   -2.208753090749404e+01   -2.426607115183108e+01   -1.718428117983494e+02   
7.059000000000000e+09    -1.969283190538469e+01   -1.516029864311229e+02   -3.170504528740808e+01   -2.368842069053374e+01   -3.178533568179808e+01   -2.337094651925822e+01   -2.431656240672676e+01   -1.704664359967391e+02   
7.060000000000000e+09    -1.969680565205517e+01   -1.512711778410905e+02   -3.174040018469908e+01   -2.506810008879964e+01   -3.181004428292906e+01   -2.475680265008044e+01   -2.435085191663098e+01   -1.692033517844093e+02   
7.061000000000000e+09    -1.970755223026657e+01   -1.508950590489835e+02   -3.179450626566270e+01   -2.655184768799623e+01   -3.185204771535071e+01   -2.603869531030664e+01   -2.440371696813178e+01   -1.677099223856600e+02   
7.062000000000000e+09    -1.971916320130940e+01   -1.505911260389975e+02   -3.181499925516441e+01   -2.787829145918773e+01   -3.187320386203646e+01   -2.734498759640620e+01   -2.442456510856606e+01   -1.662542079788640e+02   
7.063000000000000e+09    -1.971995402471059e+01   -1.502572978570941e+02   -3.185929617581898e+01   -2.921410290742183e+01   -3.191697875794191e+01   -2.875195674651720e+01   -2.445040600875534e+01   -1.647890711581377e+02   
7.064000000000000e+09    -1.973943687334030e+01   -1.498908389271367e+02   -3.191316355123868e+01   -3.054855389160705e+01   -3.195401491151624e+01   -3.034939311531930e+01   -2.448246500130356e+01   -1.631999241572236e+02   
7.065000000000000e+09    -1.973780527487195e+01   -1.496224988144334e+02   -3.193397792721688e+01   -3.222703561399889e+01   -3.196300560511679e+01   -3.149233376674731e+01   -2.449647006539515e+01   -1.616741257783937e+02   
7.066000000000000e+09    -1.974376579361250e+01   -1.492767571721152e+02   -3.194406614637343e+01   -3.354224376110174e+01   -3.199733308796304e+01   -3.304478204610526e+01   -2.448857392439407e+01   -1.600864375179186e+02   
7.067000000000000e+09    -1.974102256085281e+01   -1.489719092851391e+02   -3.202320339830510e+01   -3.479217045653243e+01   -3.206225464994293e+01   -3.423556752570251e+01   -2.448945481731329e+01   -1.583613648539668e+02   
7.068000000000000e+09    -1.974230974534603e+01   -1.486811287244575e+02   -3.203124292276002e+01   -3.613779247127408e+01   -3.204863949624843e+01   -3.560269395616448e+01   -2.448278585225927e+01   -1.566894205354828e+02   
7.069000000000000e+09    -1.975414818702728e+01   -1.483817393947584e+02   -3.210615514599266e+01   -3.740012275298053e+01   -3.210764052018793e+01   -3.710237435695676e+01   -2.448874052273157e+01   -1.551302162549426e+02   
7.070000000000000e+09    -1.975532498178428e+01   -1.480721914291302e+02   -3.206576946802883e+01   -3.920700548769062e+01   -3.217171405423934e+01   -3.854924283780181e+01   -2.443982509025145e+01   -1.532924016485767e+02   
7.071000000000000e+09    -1.974798436662535e+01   -1.477749741329951e+02   -3.213726286074971e+01   -4.045573348881717e+01   -3.218929071776405e+01   -3.989881783687048e+01   -2.442883291326619e+01   -1.515372796077857e+02   
7.072000000000000e+09    -1.975800083377164e+01   -1.474306386378481e+02   -3.222417223956613e+01   -4.198347149148632e+01   -3.222881798435449e+01   -4.136985879667417e+01   -2.439601634897853e+01   -1.499327308874723e+02   
7.073000000000000e+09    -1.976115572905125e+01   -1.471873375992563e+02   -3.220414752098037e+01   -4.313694800815621e+01   -3.221694959741667e+01   -4.274505726565902e+01   -2.435575275448901e+01   -1.481530719898921e+02   
7.074000000000000e+09    -1.975622633013529e+01   -1.469172499420282e+02   -3.227668938090086e+01   -4.480390104550757e+01   -3.227532431225133e+01   -4.418833401387847e+01   -2.432190536348846e+01   -1.465100242577088e+02   
7.075000000000000e+09    -1.975162310487940e+01   -1.466757599180417e+02   -3.226098938075606e+01   -4.626666397906322e+01   -3.235233869713082e+01   -4.560386371712173e+01   -2.426781894674209e+01   -1.447272879341916e+02   
7.076000000000000e+09    -1.975673278763099e+01   -1.462904092696893e+02   -3.235372479209048e+01   -4.762831263215585e+01   -3.235502311758418e+01   -4.723296614083374e+01   -2.420387557818700e+01   -1.430401973775473e+02   
7.077000000000000e+09    -1.975104490507470e+01   -1.460657678893010e+02   -3.237627401817328e+01   -4.887571381291021e+01   -3.239594328262896e+01   -4.853270739321446e+01   -2.413321911487166e+01   -1.413285993126202e+02   
7.078000000000000e+09    -1.975053853400947e+01   -1.457588330886155e+02   -3.240789903915530e+01   -5.081312247753499e+01   -3.245665816635454e+01   -4.996333551198404e+01   -2.407268370958069e+01   -1.397647095680350e+02   
7.079000000000000e+09    -1.974035884281875e+01   -1.454738253189089e+02   -3.245211403069050e+01   -5.212481031475942e+01   -3.248188202566560e+01   -5.166798767568167e+01   -2.399870692515723e+01   -1.380686134878783e+02   
7.080000000000000e+09    -1.974080902365084e+01   -1.452226829336715e+02   -3.251279241178286e+01   -5.368543766135484e+01   -3.251178447721777e+01   -5.307442418934560e+01   -2.391862644500426e+01   -1.364804973596411e+02   
7.081000000000000e+09    -1.973662305971222e+01   -1.449524520878516e+02   -3.250592062833651e+01   -5.498106362135195e+01   -3.256071448313397e+01   -5.430700084341297e+01   -2.384403391983514e+01   -1.349229289819453e+02   
7.082000000000000e+09    -1.972941744643866e+01   -1.446973631638740e+02   -3.258841777259357e+01   -5.630053779232664e+01   -3.262302098196079e+01   -5.582187331450395e+01   -2.375700101412150e+01   -1.333387340895490e+02   
7.083000000000000e+09    -1.972335321293834e+01   -1.443622980495350e+02   -3.261890238533248e+01   -5.800185532759062e+01   -3.264696419937530e+01   -5.739947558390118e+01   -2.366736656326662e+01   -1.317671493609018e+02   
7.084000000000000e+09    -1.972090268537652e+01   -1.441406531570769e+02   -3.265358466729558e+01   -5.947377380735782e+01   -3.268027453982165e+01   -5.917743787500605e+01   -2.358137236375256e+01   -1.303484484666311e+02   
