[Version] 2.0
! Rohde & Schwarz Vector Network Analyzer
! Rohde-Schwarz,ZNL20-2Port,1323001220200009,1.71.1.10-23.02.1.238
! 
! Port Assignments:
! Nominal Port -> Actual Test Port
! --------------------------------
!   1 -> 1
!   2 -> 2

! Created: GMT+3 2024-09-24 16:06:23

# Hz S DB R 50

[Number of Ports] 2
[Two-Port Data Order] 21_12
[Number of Frequencies] 6001

[Network Data] 
! freq[Hz]               S11[mag dB]              S11[ang]                 S21[mag dB]              S21[ang]                 S12[mag dB]              S12[ang]                 S22[mag dB]              S22[ang]                 
7.000000000000000e+09    -1.674721601648798e+01   -1.630793766117401e+02   -3.056953573407321e+01   8.673781264922650e+01    -3.054110031620892e+01   8.707693760004702e+01    -1.733225421390593e+01   -1.672947880037061e+02   
7.001000000000000e+09    -1.678512456160382e+01   -1.632277141283088e+02   -3.055340046413892e+01   8.546486342961313e+01    -3.053235663267186e+01   8.576791582352969e+01    -1.742169740345701e+01   -1.676254441795506e+02   
7.002000000000000e+09    -1.682617035851650e+01   -1.633532202667118e+02   -3.051821023343032e+01   8.435428951953989e+01    -3.047260828492877e+01   8.466821875414887e+01    -1.751696314168445e+01   -1.679810647372275e+02   
7.003000000000000e+09    -1.686312129862679e+01   -1.634504276698652e+02   -3.050709426698930e+01   8.278675907606380e+01    -3.046229162368284e+01   8.357074441542888e+01    -1.759735669523140e+01   -1.683025368812309e+02   
7.004000000000000e+09    -1.690964588070477e+01   -1.636089106288362e+02   -3.049239091728469e+01   8.173321484656110e+01    -3.042397480861743e+01   8.238055189922652e+01    -1.768791106342011e+01   -1.686652702072989e+02   
7.005000000000000e+09    -1.694910446604025e+01   -1.637233556523722e+02   -3.046259371931212e+01   8.072463538203846e+01    -3.041537014926978e+01   8.101554428109645e+01    -1.778531820200337e+01   -1.690525540999361e+02   
7.006000000000000e+09    -1.699594771959559e+01   -1.637870912190697e+02   -3.043535887744962e+01   7.970285327342077e+01    -3.039811685001127e+01   7.993743797279330e+01    -1.787931841454607e+01   -1.694364315203056e+02   
7.007000000000000e+09    -1.704242989583966e+01   -1.639146720254346e+02   -3.043844655244174e+01   7.825780746243439e+01    -3.038159110544524e+01   7.877359510439116e+01    -1.796110471619773e+01   -1.698879928433666e+02   
7.008000000000000e+09    -1.708561603313043e+01   -1.640254149313551e+02   -3.039146184914271e+01   7.720861975509578e+01    -3.034010130911707e+01   7.748735453616951e+01    -1.805187078710270e+01   -1.703052136276598e+02   
7.009000000000000e+09    -1.712928871755574e+01   -1.641015046478950e+02   -3.036954834562221e+01   7.601674099325248e+01    -3.034628550077218e+01   7.621416167510721e+01    -1.814346081529024e+01   -1.707670255949228e+02   
7.010000000000000e+09    -1.717658586923828e+01   -1.641794150015650e+02   -3.036972639987334e+01   7.481300313335541e+01    -3.032883359671005e+01   7.502441631520151e+01    -1.822247847653428e+01   -1.711862019250283e+02   
7.011000000000000e+09    -1.722193522149269e+01   -1.642221237217584e+02   -3.036196471478966e+01   7.357154405046001e+01    -3.031330834881149e+01   7.380867439246295e+01    -1.830826219865243e+01   -1.716964229377717e+02   
7.012000000000000e+09    -1.727396687295018e+01   -1.642761415975883e+02   -3.034310896866337e+01   7.238927291853088e+01    -3.029567074432860e+01   7.254290773038909e+01    -1.839510297428083e+01   -1.721796270225491e+02   
7.013000000000000e+09    -1.732218929545387e+01   -1.643420040361397e+02   -3.034213988296400e+01   7.110898103740578e+01    -3.029865321543627e+01   7.139851107599419e+01    -1.847643015275940e+01   -1.727050707773224e+02   
7.014000000000000e+09    -1.737747241573955e+01   -1.644388564953080e+02   -3.031134497675293e+01   7.004896773383720e+01    -3.029119523140650e+01   7.016341152250203e+01    -1.855882693498753e+01   -1.732741017861999e+02   
7.015000000000000e+09    -1.742829586037472e+01   -1.644596510377024e+02   -3.027437373139992e+01   6.890905945821547e+01    -3.027972942622433e+01   6.892790584317125e+01    -1.864496576839001e+01   -1.737848763142372e+02   
7.016000000000000e+09    -1.747877927888627e+01   -1.644721425539423e+02   -3.030507497606024e+01   6.759622962463392e+01    -3.027191226456949e+01   6.775882399237574e+01    -1.872816058748477e+01   -1.743341658771280e+02   
7.017000000000000e+09    -1.753691196999161e+01   -1.645030818046494e+02   -3.025260842091027e+01   6.658989287811953e+01    -3.025624281143249e+01   6.664668843712109e+01    -1.880358765483556e+01   -1.748718328899438e+02   
7.018000000000000e+09    -1.759133558078792e+01   -1.645477121480906e+02   -3.027389075556422e+01   6.523677677973173e+01    -3.024350156580838e+01   6.542490455533296e+01    -1.888099211105363e+01   -1.754045036541104e+02   
7.019000000000000e+09    -1.764718319544298e+01   -1.645899416468393e+02   -3.026198916452587e+01   6.427187238393635e+01    -3.022840403992443e+01   6.416173350614108e+01    -1.896255312906236e+01   -1.759326761903651e+02   
7.020000000000000e+09    -1.769178375454672e+01   -1.645779211237823e+02   -3.025457747075845e+01   6.285440378652363e+01    -3.018363266181605e+01   6.308435264108635e+01    -1.903513681788691e+01   -1.765499250255855e+02   
7.021000000000000e+09    -1.775473301944682e+01   -1.646158921249539e+02   -3.023795876953249e+01   6.182466340738266e+01    -3.022824050784508e+01   6.185792356323213e+01    -1.910184750747540e+01   -1.770605094488472e+02   
7.022000000000000e+09    -1.780357093943696e+01   -1.645999662780139e+02   -3.023365208262227e+01   6.061278200381856e+01    -3.022736538164315e+01   6.057399487965593e+01    -1.918078094061655e+01   -1.776338615994909e+02   
7.023000000000000e+09    -1.786064879821031e+01   -1.646067594589528e+02   -3.022143422609870e+01   5.957061277788390e+01    -3.020926497717297e+01   5.950016250648174e+01    -1.924328274878615e+01   -1.781801268384703e+02   
7.024000000000000e+09    -1.791956277890473e+01   -1.646680047136915e+02   -3.019304895045180e+01   5.838468430925221e+01    -3.019156074140258e+01   5.820476421186183e+01    -1.931249318473930e+01   -1.786784828927960e+02   
7.025000000000000e+09    -1.797285940445613e+01   -1.646382505023105e+02   -3.020631019417979e+01   5.720032323289507e+01    -3.020421053483771e+01   5.718291071161202e+01    -1.938733969617649e+01   -1.792506076467568e+02   
7.026000000000000e+09    -1.802860384641822e+01   -1.646240336095316e+02   -3.017161582408967e+01   5.601553796913171e+01    -3.018331749201761e+01   5.607410730216763e+01    -1.944350645289909e+01   -1.797299811610890e+02   
7.027000000000000e+09    -1.809089273833053e+01   -1.645978469249589e+02   -3.017011492660233e+01   5.480469280099555e+01    -3.017586773045890e+01   5.455208553883768e+01    -1.951274642883678e+01   1.798057693102514e+02    
7.028000000000000e+09    -1.814325949956817e+01   -1.646073557831538e+02   -3.013681084665312e+01   5.376652123467970e+01    -3.017416994326009e+01   5.348249927245012e+01    -1.956685313161159e+01   1.792844001450449e+02    
7.029000000000000e+09    -1.820224913407093e+01   -1.645702800243534e+02   -3.012954312973840e+01   5.258064448116122e+01    -3.015893874354995e+01   5.255621829790336e+01    -1.963269467485163e+01   1.787128015637479e+02    
7.030000000000000e+09    -1.825090841690905e+01   -1.645367123386569e+02   -3.014055420275895e+01   5.144054974415103e+01    -3.013369406506197e+01   5.107128967744398e+01    -1.969769398546750e+01   1.782880919386585e+02    
7.031000000000000e+09    -1.831665315923239e+01   -1.645128150708769e+02   -3.012418977631157e+01   5.005433411445330e+01    -3.014016666924455e+01   5.003505608092269e+01    -1.976159146406719e+01   1.777970528142635e+02    
7.032000000000000e+09    -1.836562201248675e+01   -1.644312983462565e+02   -3.012684748063370e+01   4.897571840324179e+01    -3.014009165883252e+01   4.877645597023208e+01    -1.981867747525860e+01   1.772846827466869e+02    
7.033000000000000e+09    -1.841929690691022e+01   -1.643873429337084e+02   -3.009622709966649e+01   4.765699222359013e+01    -3.013358609413955e+01   4.759472351741665e+01    -1.988001555697263e+01   1.769074040651662e+02    
7.034000000000000e+09    -1.846973998087760e+01   -1.642763273710903e+02   -3.008804135287747e+01   4.642864914549897e+01    -3.012790163108680e+01   4.645692620373974e+01    -1.994540507802573e+01   1.764602562085767e+02    
7.035000000000000e+09    -1.852453399183385e+01   -1.642514839450950e+02   -3.007581500479533e+01   4.521609855953023e+01    -3.012258416328632e+01   4.504394185148069e+01    -2.000577226248007e+01   1.761392044402121e+02    
7.036000000000000e+09    -1.857723963923739e+01   -1.641371134882946e+02   -3.009454346695894e+01   4.398981035403566e+01    -3.011714966532702e+01   4.388273236968579e+01    -2.006996627673595e+01   1.757214242573514e+02    
7.037000000000000e+09    -1.863041796449901e+01   -1.641237012830498e+02   -3.009463376390055e+01   4.280361313952029e+01    -3.012528093401238e+01   4.270660535699498e+01    -2.013708840270443e+01   1.754089381315277e+02    
7.038000000000000e+09    -1.868333546717793e+01   -1.639891163855232e+02   -3.008290139767938e+01   4.168907113071311e+01    -3.012998727402662e+01   4.151914084540928e+01    -2.019089470898738e+01   1.750844460048149e+02    
7.039000000000000e+09    -1.872768887924256e+01   -1.638699645267932e+02   -3.009234731937195e+01   4.052027265468256e+01    -3.011622053860041e+01   4.014954345783706e+01    -2.026475002027205e+01   1.747506535802481e+02    
7.040000000000000e+09    -1.878477586835029e+01   -1.636924066263686e+02   -3.007734480468885e+01   3.918801907601907e+01    -3.012508518811696e+01   3.904439115471957e+01    -2.031929421609570e+01   1.745901854416953e+02    
7.041000000000000e+09    -1.883383814065981e+01   -1.635584371625748e+02   -3.007964777524950e+01   3.805201941367695e+01    -3.010739688612837e+01   3.786978352684748e+01    -2.038940236670155e+01   1.743035172327331e+02    
7.042000000000000e+09    -1.887976852918239e+01   -1.633835912906813e+02   -3.007038123092217e+01   3.683211743412998e+01    -3.011828995895868e+01   3.647420003038114e+01    -2.046388530897760e+01   1.741171086450910e+02    
7.043000000000000e+09    -1.892972385162433e+01   -1.632803746158961e+02   -3.004581022220314e+01   3.561432023721167e+01    -3.012998623603047e+01   3.546822227955644e+01    -2.052388899831589e+01   1.739459392047458e+02    
7.044000000000000e+09    -1.897286054993130e+01   -1.630363572169387e+02   -3.005336434888385e+01   3.419065197762634e+01    -3.010865098037536e+01   3.412413928108377e+01    -2.058416761510838e+01   1.738157291123731e+02    
7.045000000000000e+09    -1.902116557259477e+01   -1.628629113906253e+02   -3.007612641305109e+01   3.305319050787679e+01    -3.013422393751962e+01   3.293747960894763e+01    -2.066573059694243e+01   1.737234795404438e+02    
7.046000000000000e+09    -1.906137599501726e+01   -1.626832344889674e+02   -3.003676500235306e+01   3.168510956771769e+01    -3.010765580634898e+01   3.172463712265798e+01    -2.073342453793161e+01   1.736538904509662e+02    
7.047000000000000e+09    -1.911011214502145e+01   -1.624233023418405e+02   -3.006784581280022e+01   3.045622458654325e+01    -3.012041231395379e+01   3.035511897646452e+01    -2.081175676518967e+01   1.736282820219635e+02    
7.048000000000000e+09    -1.915244111833431e+01   -1.622615322228060e+02   -3.007823577924971e+01   2.916322399979990e+01    -3.013186828216859e+01   2.923316262401275e+01    -2.088633360290809e+01   1.736367011696209e+02    
7.049000000000000e+09    -1.920534081838039e+01   -1.619510783316290e+02   -3.008058665775437e+01   2.778708703028050e+01    -3.012520508211000e+01   2.795205977347149e+01    -2.096317003897919e+01   1.736841581693798e+02    
7.050000000000000e+09    -1.924476083020086e+01   -1.617254647686332e+02   -3.005062199209400e+01   2.661612155435068e+01    -3.011748792414650e+01   2.669560967534517e+01    -2.104907518527234e+01   1.738399404774754e+02    
7.051000000000000e+09    -1.928387898137008e+01   -1.614295425175712e+02   -3.008377166350202e+01   2.532146024864244e+01    -3.013342472106829e+01   2.550680115942969e+01    -2.112292750544277e+01   1.739182138262447e+02    
7.052000000000000e+09    -1.933465955117805e+01   -1.612038595244412e+02   -3.009325158981535e+01   2.407623716525783e+01    -3.016627626102872e+01   2.412780264509345e+01    -2.121021921708250e+01   1.740663922870641e+02    
7.053000000000000e+09    -1.936978828080856e+01   -1.608988240204567e+02   -3.008257165738300e+01   2.256019065016141e+01    -3.012920349565839e+01   2.287166211390480e+01    -2.130487707111257e+01   1.742900635392847e+02    
7.054000000000000e+09    -1.941468717619764e+01   -1.605942720851552e+02   -3.010613386108436e+01   2.152221171558115e+01    -3.015401873612631e+01   2.162736826228453e+01    -2.140063984526193e+01   1.746214002654044e+02    
7.055000000000000e+09    -1.944674537580099e+01   -1.602763760952429e+02   -3.011022861536993e+01   2.013799290680848e+01    -3.016811762066456e+01   2.036229521056440e+01    -2.149655966154342e+01   1.748852547587807e+02    
7.056000000000000e+09    -1.949287405228493e+01   -1.599585820430400e+02   -3.012584142787129e+01   1.880125624203825e+01    -3.019252361366610e+01   1.905453070500720e+01    -2.159630803280943e+01   1.752117775928685e+02    
7.057000000000000e+09    -1.953078764195333e+01   -1.596081517765215e+02   -3.011800278149894e+01   1.762751288619331e+01    -3.020269469936781e+01   1.792960931628554e+01    -2.168423511347302e+01   1.756488887908476e+02    
7.058000000000000e+09    -1.956513981201245e+01   -1.592909755063933e+02   -3.015027679356937e+01   1.627923999626634e+01    -3.020480822231235e+01   1.646854131835883e+01    -2.180953479266608e+01   1.760384714527865e+02    
7.059000000000000e+09    -1.960524563706805e+01   -1.589589853437703e+02   -3.017842362392977e+01   1.499271598680737e+01    -3.023882432640694e+01   1.530878699016348e+01    -2.190808408627915e+01   1.765954627149415e+02    
7.060000000000000e+09    -1.964344820018329e+01   -1.586487605901318e+02   -3.018537450903480e+01   1.375489234469603e+01    -3.025418962317294e+01   1.397373068596359e+01    -2.200560320546748e+01   1.770790544806526e+02    
7.061000000000000e+09    -1.968867575792034e+01   -1.583212147818458e+02   -3.020555573383275e+01   1.246440419950558e+01    -3.030778384625511e+01   1.277972224785711e+01    -2.212435865705011e+01   1.777446027407259e+02    
7.062000000000000e+09    -1.972170560534626e+01   -1.579284798477762e+02   -3.021917918255406e+01   1.103638735983001e+01    -3.032201896884912e+01   1.166336481196212e+01    -2.222516686036345e+01   1.783541165979971e+02    
7.063000000000000e+09    -1.975966416500930e+01   -1.576289051801737e+02   -3.024336933813030e+01   9.809057331501924e+00    -3.029162501636283e+01   1.034692258658065e+01    -2.234776547223838e+01   1.790789675687820e+02    
7.064000000000000e+09    -1.979534257945950e+01   -1.572512310785166e+02   -3.025774338648505e+01   8.604296099888435e+00    -3.034491016231705e+01   8.800098897517003e+00    -2.246190641136544e+01   1.799043230753862e+02    
7.065000000000000e+09    -1.982808639249785e+01   -1.568713271989528e+02   -3.030501795001295e+01   7.340568418776726e+00    -3.034328245133941e+01   7.682623115409090e+00    -2.257376864456358e+01   -1.793811171788783e+02   
7.066000000000000e+09    -1.985532698845077e+01   -1.564358968536623e+02   -3.028112110977023e+01   5.842796768931930e+00    -3.036354253962485e+01   6.310232128599663e+00    -2.269531972953046e+01   -1.784694453801595e+02   
7.067000000000000e+09    -1.989366747525135e+01   -1.561002275734840e+02   -3.033590715982275e+01   4.814313399439506e+00    -3.039694922374282e+01   5.237716993027897e+00    -2.282614555182727e+01   -1.775130584459376e+02   
7.068000000000000e+09    -1.992328009563612e+01   -1.557566831746661e+02   -3.034339762362880e+01   3.439728555894923e+00    -3.038475813477380e+01   3.798593454327457e+00    -2.294753498112114e+01   -1.764901167005906e+02   
7.069000000000000e+09    -1.994580034504001e+01   -1.554229605754948e+02   -3.036605428964802e+01   2.100820952719552e+00    -3.041775984217063e+01   2.402597536961369e+00    -2.307198020467379e+01   -1.755119013561498e+02   
7.070000000000000e+09    -1.998849215226442e+01   -1.550875426637899e+02   -3.039254034817434e+01   6.086155405527962e-01    -3.041776931240726e+01   1.276323455281057e+00    -2.321627694791370e+01   -1.743719922312518e+02   
7.071000000000000e+09    -2.000680545540454e+01   -1.546652899466225e+02   -3.040793180882146e+01   -6.075266242769067e-01   -3.047201910868620e+01   -1.265875044518648e-01   -2.333840175066601e+01   -1.732361628037669e+02   
7.072000000000000e+09    -2.003630195243383e+01   -1.543849335375768e+02   -3.044074954710204e+01   -1.946243183329045e+00   -3.047492080358863e+01   -1.356277188520117e+00   -2.346697880106498e+01   -1.719945944207569e+02   
7.073000000000000e+09    -2.005530601576182e+01   -1.539979719248112e+02   -3.040716275723116e+01   -3.167044648620732e+00   -3.049454262125920e+01   -2.591944913343902e+00   -2.360578694716586e+01   -1.707786198018971e+02   
7.074000000000000e+09    -2.008858426798998e+01   -1.536178765612783e+02   -3.047179138557030e+01   -4.404381329210324e+00   -3.054622871797257e+01   -4.015007261624252e+00   -2.373644764823399e+01   -1.694913646857433e+02   
7.075000000000000e+09    -2.010068790536610e+01   -1.532754996841028e+02   -3.048824071645850e+01   -6.008029097411677e+00   -3.058072461287133e+01   -5.369361121986022e+00   -2.388768192353253e+01   -1.679807637097705e+02   
7.076000000000000e+09    -2.013363323049649e+01   -1.529062497341497e+02   -3.051179050606158e+01   -7.323100198187221e+00   -3.058130224325004e+01   -6.604583483359694e+00   -2.401609936381922e+01   -1.664627658627669e+02   
7.077000000000000e+09    -2.015024668658473e+01   -1.525186477112129e+02   -3.053131463022930e+01   -8.463786903240258e+00   -3.057937972185588e+01   -7.826127336966257e+00   -2.414132484743742e+01   -1.648859388574598e+02   
7.078000000000000e+09    -2.017542184576814e+01   -1.521694476845666e+02   -3.057464041114457e+01   -9.994118834038035e+00   -3.061562258416291e+01   -9.239504092767035e+00   -2.426899892295335e+01   -1.633281658525788e+02   
7.079000000000000e+09    -2.019009334648925e+01   -1.517436147012586e+02   -3.062319896936258e+01   -1.122997442037163e+01   -3.063579791486694e+01   -1.063931597931290e+01   -2.439217891297311e+01   -1.616312740495300e+02   
7.080000000000000e+09    -2.021482331798815e+01   -1.514467733022632e+02   -3.064542358152990e+01   -1.262230153664466e+01   -3.067227640858653e+01   -1.183946449767735e+01   -2.451872584972381e+01   -1.598728002511646e+02   
7.081000000000000e+09    -2.023131514314247e+01   -1.509835855989980e+02   -3.065790591880872e+01   -1.402714805977937e+01   -3.069697918877020e+01   -1.335816467447354e+01   -2.463394961304762e+01   -1.580775144385142e+02   
7.082000000000000e+09    -2.023165971334538e+01   -1.506718775527177e+02   -3.069252188882114e+01   -1.521045168025451e+01   -3.073006938446352e+01   -1.459193959629788e+01   -2.473550127997195e+01   -1.561920693794501e+02   
7.083000000000000e+09    -2.025357246098508e+01   -1.503076771162175e+02   -3.072650616865842e+01   -1.671466130156257e+01   -3.077185778855427e+01   -1.610197623575767e+01   -2.484040392723967e+01   -1.542990629089943e+02   
7.084000000000000e+09    -2.025762883542310e+01   -1.498963177194803e+02   -3.075457292264266e+01   -1.801128426445672e+01   -3.080133719397337e+01   -1.759436247680278e+01   -2.493535512310361e+01   -1.523430212992487e+02   
