[Version] 2.0
! Rohde & Schwarz Vector Network Analyzer
! Rohde-Schwarz,ZNL20-2Port,1323001220200009,1.71.1.10-23.02.1.238
! 
! Port Assignments:
! Nominal Port -> Actual Test Port
! --------------------------------
!   1 -> 1
!   2 -> 2

! Created: GMT+3 2024-09-24 16:06:40

# Hz S DB R 50

[Number of Ports] 2
[Two-Port Data Order] 21_12
[Number of Frequencies] 6001

[Network Data] 
! freq[Hz]               S11[mag dB]              S11[ang]                 S21[mag dB]              S21[ang]                 S12[mag dB]              S12[ang]                 S22[mag dB]              S22[ang]                 
7.000000000000000e+09    -1.622550647213084e+01   -1.596930207660909e+02   -3.035230680477224e+01   1.111047928261912e+02    -3.033837091198365e+01   1.115356777371927e+02    -1.687700875163847e+01   -1.613590624900801e+02   
7.001000000000000e+09    -1.624813813531447e+01   -1.598810837610893e+02   -3.032108328141175e+01   1.099273631352676e+02    -3.030175808606809e+01   1.103646880234290e+02    -1.694347842638445e+01   -1.616362825399316e+02   
7.002000000000000e+09    -1.627435539276907e+01   -1.600799163122113e+02   -3.031464744506169e+01   1.088089079054380e+02    -3.026857207945765e+01   1.091769660933771e+02    -1.701725786849995e+01   -1.619668234144813e+02   
7.003000000000000e+09    -1.629826459737637e+01   -1.602800974551934e+02   -3.027238318343070e+01   1.074107098740067e+02    -3.024337620871873e+01   1.081677258071192e+02    -1.708205615201955e+01   -1.623203819022962e+02   
7.004000000000000e+09    -1.631789348225988e+01   -1.604779830635758e+02   -3.026080633118645e+01   1.064000495511930e+02    -3.020771721257599e+01   1.068636997550782e+02    -1.714858195016302e+01   -1.626548628239969e+02   
7.005000000000000e+09    -1.634680868204823e+01   -1.606236838129416e+02   -3.019934141168470e+01   1.053286170459794e+02    -3.019657317771470e+01   1.057502007957727e+02    -1.722001173719482e+01   -1.630206106562729e+02   
7.006000000000000e+09    -1.638036518422065e+01   -1.608286224286471e+02   -3.017517715359207e+01   1.042682929149351e+02    -3.015831971004964e+01   1.046278099878681e+02    -1.729024785238044e+01   -1.633892726128466e+02   
7.007000000000000e+09    -1.640399207555741e+01   -1.610154522518645e+02   -3.017243872373477e+01   1.031107125589755e+02    -3.012648268011042e+01   1.036711992688567e+02    -1.735313226214162e+01   -1.638154595983935e+02   
7.008000000000000e+09    -1.643541016054509e+01   -1.611806627183745e+02   -3.012031343814952e+01   1.020528326074203e+02    -3.009179303345907e+01   1.023061808555361e+02    -1.741917235801242e+01   -1.642090126497987e+02   
7.009000000000000e+09    -1.646100206474696e+01   -1.613858718262584e+02   -3.010937580198139e+01   1.008791917870651e+02    -3.005693100371817e+01   1.013013429597229e+02    -1.748445238213464e+01   -1.646847996822429e+02   
7.010000000000000e+09    -1.649898461362191e+01   -1.615288129696694e+02   -3.007883981222070e+01   9.973669758829801e+01    -3.005296906459375e+01   1.000823451790721e+02    -1.755237481614841e+01   -1.651290544497145e+02   
7.011000000000000e+09    -1.652855860024946e+01   -1.617008494924712e+02   -3.006301042718755e+01   9.841019990992127e+01    -3.003640659461129e+01   9.883235768816559e+01    -1.760667435846625e+01   -1.656251811008306e+02   
7.012000000000000e+09    -1.656538007967247e+01   -1.618792853428671e+02   -3.002574472093653e+01   9.736744136388943e+01    -2.997698996649909e+01   9.770714816228462e+01    -1.767376210881867e+01   -1.660936183068422e+02   
7.013000000000000e+09    -1.659997003141128e+01   -1.620260155868159e+02   -3.001936332279328e+01   9.624787466241065e+01    -2.996338989268884e+01   9.661765417488643e+01    -1.773582968745719e+01   -1.666240433499736e+02   
7.014000000000000e+09    -1.663961544885429e+01   -1.622099420710291e+02   -2.996557086901652e+01   9.512717481026100e+01    -2.995356356557393e+01   9.529823772435967e+01    -1.779487364348164e+01   -1.671736893039214e+02   
7.015000000000000e+09    -1.667808185389359e+01   -1.623656827708119e+02   -2.993613696597480e+01   9.391744632063089e+01    -2.994621402405077e+01   9.411840371240140e+01    -1.785646727073524e+01   -1.676887120194373e+02   
7.016000000000000e+09    -1.671367400358338e+01   -1.624899031073747e+02   -2.992895878084683e+01   9.287278996497535e+01    -2.992577177060816e+01   9.297725516832320e+01    -1.791311973858366e+01   -1.682393281999149e+02   
7.017000000000000e+09    -1.675947469208884e+01   -1.626089934053293e+02   -2.989819170201649e+01   9.154130343949362e+01    -2.988465188111787e+01   9.182872218133625e+01    -1.796272869913949e+01   -1.688078598843956e+02   
7.018000000000000e+09    -1.679682735411402e+01   -1.628094760794124e+02   -2.988146058008667e+01   9.056482100098238e+01    -2.984923791749262e+01   9.086935474821792e+01    -1.802008830430183e+01   -1.693924837815504e+02   
7.019000000000000e+09    -1.684227019814246e+01   -1.629400268443158e+02   -2.986630011324545e+01   8.933464913855460e+01    -2.985351689325137e+01   8.951677444573141e+01    -1.807286299069972e+01   -1.698887412682697e+02   
7.020000000000000e+09    -1.688574516204544e+01   -1.630559871514844e+02   -2.985240761232706e+01   8.815532522976231e+01    -2.980456223580365e+01   8.847949121329145e+01    -1.812090109846939e+01   -1.705008426295340e+02   
7.021000000000000e+09    -1.692930102880450e+01   -1.632791580429717e+02   -2.982224692204488e+01   8.734441373772482e+01    -2.981269165568040e+01   8.745846816129307e+01    -1.816453956072025e+01   -1.710809150823963e+02   
7.022000000000000e+09    -1.697247039383166e+01   -1.633907970333879e+02   -2.978731413406646e+01   8.613704116476967e+01    -2.978250996301930e+01   8.637020024050662e+01    -1.822777281263184e+01   -1.716809111301003e+02   
7.023000000000000e+09    -1.702268588737213e+01   -1.635422825738514e+02   -2.976166700020894e+01   8.501560167891569e+01    -2.978182305524916e+01   8.512243031449617e+01    -1.826026035280790e+01   -1.722354986651209e+02   
7.024000000000000e+09    -1.706560750707134e+01   -1.636898722946668e+02   -2.972828784346989e+01   8.390014631180505e+01    -2.974519678256294e+01   8.402417063665429e+01    -1.831436747585941e+01   -1.727574457802096e+02   
7.025000000000000e+09    -1.711463713931374e+01   -1.638308559085022e+02   -2.971146927489309e+01   8.267320898779069e+01    -2.972422618360604e+01   8.278910409968644e+01    -1.835342632221710e+01   -1.733537934126215e+02   
7.026000000000000e+09    -1.716280768280963e+01   -1.639985758050154e+02   -2.967382526801808e+01   8.146393033253990e+01    -2.969524278495829e+01   8.162696528136188e+01    -1.839583324682977e+01   -1.739024630148399e+02   
7.027000000000000e+09    -1.721560778622771e+01   -1.641241353471531e+02   -2.966002286748989e+01   8.039844622056911e+01    -2.967043115756026e+01   8.068258390750128e+01    -1.843879303868502e+01   -1.744129956883247e+02   
7.028000000000000e+09    -1.725855431815229e+01   -1.642616551903090e+02   -2.960929559344367e+01   7.928434231523666e+01    -2.964781442961883e+01   7.951779333670379e+01    -1.847243818816580e+01   -1.749904060578656e+02   
7.029000000000000e+09    -1.730978291925890e+01   -1.643956744250267e+02   -2.958565736565912e+01   7.816374306326297e+01    -2.961800547392434e+01   7.839917105732188e+01    -1.851320123328061e+01   -1.755668912235794e+02   
7.030000000000000e+09    -1.736359331785377e+01   -1.645473227236452e+02   -2.957999775650455e+01   7.710132310985659e+01    -2.959253807391058e+01   7.701864891478903e+01    -1.855111187072918e+01   -1.760400524719765e+02   
7.031000000000000e+09    -1.741832975882935e+01   -1.646316724536596e+02   -2.955925664087162e+01   7.584585160071111e+01    -2.957420502184582e+01   7.594591843572283e+01    -1.859206283996835e+01   -1.766124697466915e+02   
7.032000000000000e+09    -1.746179777195476e+01   -1.647441206130938e+02   -2.952674611333850e+01   7.471862414566094e+01    -2.956936252615670e+01   7.479583794789311e+01    -1.863024397162789e+01   -1.771410607012253e+02   
7.033000000000000e+09    -1.751987518538457e+01   -1.648526101194759e+02   -2.951681453173428e+01   7.348284825228720e+01    -2.951795721953152e+01   7.354215807363947e+01    -1.866720709712265e+01   -1.776501495009896e+02   
7.034000000000000e+09    -1.756778201090126e+01   -1.649426948830364e+02   -2.944742060505149e+01   7.231012298036754e+01    -2.949960003352348e+01   7.250776872871673e+01    -1.870637832466119e+01   -1.780686651448500e+02   
7.035000000000000e+09    -1.761826225106338e+01   -1.650223594645928e+02   -2.945849537134421e+01   7.104385857186507e+01    -2.950078112727316e+01   7.125575032116353e+01    -1.873663384443890e+01   -1.785343738237245e+02   
7.036000000000000e+09    -1.767040050569648e+01   -1.651089716623598e+02   -2.945849607524609e+01   6.987780269281760e+01    -2.946825948669495e+01   7.017887641374074e+01    -1.877481866927885e+01   -1.790060303608419e+02   
7.037000000000000e+09    -1.772584974167299e+01   -1.652474243603357e+02   -2.943946255853480e+01   6.886381233622051e+01    -2.947467701192838e+01   6.897841272282160e+01    -1.882099038226228e+01   -1.794077984278839e+02   
7.038000000000000e+09    -1.777148664065116e+01   -1.652803398577025e+02   -2.941972985112072e+01   6.768891383690469e+01    -2.945384417210015e+01   6.783361037440177e+01    -1.884552399706809e+01   -1.798216575879946e+02   
7.039000000000000e+09    -1.781921583742105e+01   -1.652962415537721e+02   -2.937980889507279e+01   6.652486965478823e+01    -2.944004362044324e+01   6.649456406879460e+01    -1.888862634073868e+01   1.797408127172392e+02    
7.040000000000000e+09    -1.787325951895810e+01   -1.653259602231206e+02   -2.937008627624552e+01   6.516341946840393e+01    -2.941557165214239e+01   6.541283853320063e+01    -1.892382714186577e+01   1.793617434044874e+02    
7.041000000000000e+09    -1.793164089014369e+01   -1.653525422942423e+02   -2.934463204254691e+01   6.401788052819819e+01    -2.939178897680140e+01   6.417543889519142e+01    -1.897096372619720e+01   1.790318143565079e+02    
7.042000000000000e+09    -1.797940172983024e+01   -1.653919834575065e+02   -2.933682174070483e+01   6.295638393734547e+01    -2.936381704560669e+01   6.299533477788111e+01    -1.901127854425071e+01   1.786455598105547e+02    
7.043000000000000e+09    -1.803375664278448e+01   -1.654286592269532e+02   -2.929831037531576e+01   6.181730623148060e+01    -2.938196039506130e+01   6.194546362479451e+01    -1.904810737583924e+01   1.783427560915298e+02    
7.044000000000000e+09    -1.808871412578583e+01   -1.653736960622482e+02   -2.930599380408489e+01   6.038412000514909e+01    -2.933293231970348e+01   6.053449320427349e+01    -1.908650400103175e+01   1.780577610043597e+02    
7.045000000000000e+09    -1.813787071668136e+01   -1.653875975268085e+02   -2.930164370478775e+01   5.936917232238709e+01    -2.933725354036787e+01   5.943963423945526e+01    -1.913970126362916e+01   1.777784555974716e+02    
7.046000000000000e+09    -1.819012195031468e+01   -1.653529648606536e+02   -2.925625468201834e+01   5.817502776799351e+01    -2.929278168265369e+01   5.834112748375542e+01    -1.917378805767617e+01   1.775339974220899e+02    
7.047000000000000e+09    -1.824351697220028e+01   -1.652927899673400e+02   -2.927476837669945e+01   5.685316183471116e+01    -2.931086055566303e+01   5.711686704836271e+01    -1.922502163702883e+01   1.773210406162043e+02    
7.048000000000000e+09    -1.830272918471433e+01   -1.652388239107162e+02   -2.926452237712365e+01   5.574025463839347e+01    -2.927455803793257e+01   5.580187160081878e+01    -1.927072679845632e+01   1.771438312315832e+02    
7.049000000000000e+09    -1.835593975098579e+01   -1.651540400079490e+02   -2.924040149833284e+01   5.448967124345705e+01    -2.928370070561622e+01   5.473906810975747e+01    -1.932138803080191e+01   1.769723523915280e+02    
7.050000000000000e+09    -1.841039413748164e+01   -1.650623037877379e+02   -2.922507766087106e+01   5.317869566699754e+01    -2.927708419279931e+01   5.356473835490796e+01    -1.938508241598009e+01   1.769129385766387e+02    
7.051000000000000e+09    -1.846165599977608e+01   -1.649372460661338e+02   -2.922251293842894e+01   5.210801722351994e+01    -2.926296693033121e+01   5.243071923147868e+01    -1.942853491976281e+01   1.767260785951245e+02    
7.052000000000000e+09    -1.852303307731442e+01   -1.648589541176112e+02   -2.922370470857751e+01   5.081653512464587e+01    -2.928551523742026e+01   5.097917958429577e+01    -1.949332184819355e+01   1.767003503207955e+02    
7.053000000000000e+09    -1.857441964859304e+01   -1.647625896176606e+02   -2.921332036644305e+01   4.950449025032791e+01    -2.924950370983062e+01   4.982559937893357e+01    -1.954902005843703e+01   1.766242027161619e+02    
7.054000000000000e+09    -1.863107377892244e+01   -1.646046223317682e+02   -2.920405410145576e+01   4.854397241851177e+01    -2.922442586789009e+01   4.868992497426964e+01    -1.961330163948099e+01   1.765905929487400e+02    
7.055000000000000e+09    -1.868484620390969e+01   -1.644822413394361e+02   -2.918708338527111e+01   4.722112069690179e+01    -2.923887559599171e+01   4.737342850544663e+01    -1.967702893227539e+01   1.766066605964952e+02    
7.056000000000000e+09    -1.873564066218836e+01   -1.642847559662670e+02   -2.919928362623937e+01   4.595456175810848e+01    -2.925628802724152e+01   4.622367998746319e+01    -1.974628119841807e+01   1.766336300942116e+02    
7.057000000000000e+09    -1.879590822140819e+01   -1.641267009141942e+02   -2.917592013403748e+01   4.477624669798957e+01    -2.924893517477765e+01   4.502012977624614e+01    -1.980923055572365e+01   1.766549087171511e+02    
7.058000000000000e+09    -1.884415481814460e+01   -1.639563546658921e+02   -2.918431191807805e+01   4.348902755045721e+01    -2.924050908136935e+01   4.375138676688178e+01    -1.989096388298946e+01   1.767593906113401e+02    
7.059000000000000e+09    -1.890379036633238e+01   -1.637682915658168e+02   -2.918168568967245e+01   4.228113497007614e+01    -2.923149518331378e+01   4.275235516755892e+01    -1.996734519084569e+01   1.769096080514555e+02    
7.060000000000000e+09    -1.896838002697736e+01   -1.635936901154447e+02   -2.920017379145269e+01   4.109439733078996e+01    -2.922514006693115e+01   4.152500507467286e+01    -2.004111838828035e+01   1.770516752324706e+02    
7.061000000000000e+09    -1.902549803306711e+01   -1.633777885255208e+02   -2.918687650126519e+01   3.992817690017353e+01    -2.925684429771491e+01   4.035204037273090e+01    -2.013100981463618e+01   1.773221994599678e+02    
7.062000000000000e+09    -1.908315849460162e+01   -1.631606792628534e+02   -2.918664084054456e+01   3.853660418174758e+01    -2.923824726335273e+01   3.916864920261260e+01    -2.020517966392565e+01   1.775299105688390e+02    
7.063000000000000e+09    -1.913203226248185e+01   -1.629449265184629e+02   -2.919145888689875e+01   3.746315401390162e+01    -2.921358431283539e+01   3.787406175721570e+01    -2.029863364762889e+01   1.777562485577170e+02    
7.064000000000000e+09    -1.920218424439899e+01   -1.626391035028144e+02   -2.920544634162779e+01   3.617160890952284e+01    -2.926834063929205e+01   3.665732088743813e+01    -2.040301747864815e+01   1.781030909020707e+02    
7.065000000000000e+09    -1.925984088952770e+01   -1.625081618053254e+02   -2.921688047431436e+01   3.508392958903713e+01    -2.922103774534548e+01   3.558533007598349e+01    -2.050178969109460e+01   1.783305427101786e+02    
7.066000000000000e+09    -1.930942398693614e+01   -1.622608693484999e+02   -2.920378034128294e+01   3.377641191250597e+01    -2.925356360882549e+01   3.415052412325034e+01    -2.060064972134818e+01   1.786907481202004e+02    
7.067000000000000e+09    -1.937060899330777e+01   -1.619483588166690e+02   -2.918986760562800e+01   3.272812986963601e+01    -2.923765862374985e+01   3.305000102409865e+01    -2.070608272503940e+01   1.791004922124141e+02    
7.068000000000000e+09    -1.941865584235766e+01   -1.617275976312923e+02   -2.920604752401310e+01   3.130648314290813e+01    -2.924828391929367e+01   3.177950120068567e+01    -2.081779166791064e+01   1.795498690984990e+02    
7.069000000000000e+09    -1.947532970734490e+01   -1.614966677292746e+02   -2.920192555000047e+01   3.021073642786595e+01    -2.924278089619896e+01   3.070721853600316e+01    -2.093287304102120e+01   1.798816798236916e+02    
7.070000000000000e+09    -1.953551036844051e+01   -1.611872203944855e+02   -2.922230230106950e+01   2.880516674524306e+01    -2.924838855881384e+01   2.940280396434902e+01    -2.106161140747357e+01   -1.795337505434733e+02   
7.071000000000000e+09    -1.959213913056885e+01   -1.609193035467524e+02   -2.923130487063287e+01   2.770040203806320e+01    -2.927500355923732e+01   2.823852518707398e+01    -2.119233194566197e+01   -1.790307882509431e+02   
7.072000000000000e+09    -1.964428997963016e+01   -1.606424225429001e+02   -2.924062703383753e+01   2.646121014426661e+01    -2.925773088065266e+01   2.700166344794376e+01    -2.131520023339504e+01   -1.785590305190686e+02   
7.073000000000000e+09    -1.969664640567409e+01   -1.603360443601537e+02   -2.919668944172297e+01   2.517078167263283e+01    -2.925481574534087e+01   2.566125264090805e+01    -2.145283673297228e+01   -1.779708484901601e+02   
7.074000000000000e+09    -1.975422525255465e+01   -1.600220521777929e+02   -2.923802974384691e+01   2.397260909480833e+01    -2.929333435990107e+01   2.442691905784005e+01    -2.159470120465738e+01   -1.772715922214549e+02   
7.075000000000000e+09    -1.979904414374233e+01   -1.598041223024643e+02   -2.925546298857885e+01   2.262285701350027e+01    -2.929263139217657e+01   2.314074342858357e+01    -2.174682937800647e+01   -1.767201278358427e+02   
7.076000000000000e+09    -1.985375524137246e+01   -1.594542910668339e+02   -2.927523972409706e+01   2.134376341657937e+01    -2.929441984641299e+01   2.181356001885454e+01    -2.190254225425165e+01   -1.759869962855307e+02   
7.077000000000000e+09    -1.990995859790667e+01   -1.590978376810950e+02   -2.927003224815899e+01   2.020526201788257e+01    -2.928914868599342e+01   2.076625858722950e+01    -2.205173391144137e+01   -1.751680660125512e+02   
7.078000000000000e+09    -1.996057350592550e+01   -1.587753659818954e+02   -2.930530831157802e+01   1.881887384838286e+01    -2.929944490156340e+01   1.967780128114550e+01    -2.220928213108418e+01   -1.744692138557009e+02   
7.079000000000000e+09    -2.000185337083337e+01   -1.584127782660556e+02   -2.929113089598302e+01   1.770329257982911e+01    -2.933575640113574e+01   1.812952035220298e+01    -2.239116149851980e+01   -1.735055724488415e+02   
7.080000000000000e+09    -2.005034780248638e+01   -1.580945143211754e+02   -2.931510894395531e+01   1.629923699901419e+01    -2.932301943259041e+01   1.689274723311099e+01    -2.255155373922809e+01   -1.727282930430993e+02   
7.081000000000000e+09    -2.009256834528450e+01   -1.577235500649295e+02   -2.933587867554154e+01   1.508018279723026e+01    -2.934310447862083e+01   1.560483970440325e+01    -2.273007018430301e+01   -1.718124887890578e+02   
7.082000000000000e+09    -2.013843013727672e+01   -1.573554914171660e+02   -2.933572318742097e+01   1.389159342213077e+01    -2.935794646524494e+01   1.453517014019322e+01    -2.290116585715264e+01   -1.707727739241451e+02   
7.083000000000000e+09    -2.017876205264617e+01   -1.569539277140637e+02   -2.937385184736886e+01   1.264518873648828e+01    -2.937568913504938e+01   1.327696709996135e+01    -2.309682398012341e+01   -1.698243147544836e+02   
7.084000000000000e+09    -2.022239927407460e+01   -1.566335078287256e+02   -2.936933563611733e+01   1.143963007868387e+01    -2.940007574681600e+01   1.189387239542592e+01    -2.328037790276131e+01   -1.686996690670202e+02   
