[Version] 2.0
! Rohde & Schwarz Vector Network Analyzer
! Rohde-Schwarz,ZNL20-2Port,1323001220200009,1.71.1.10-23.02.1.238
! 
! Port Assignments:
! Nominal Port -> Actual Test Port
! --------------------------------
!   1 -> 1
!   2 -> 2

! Created: GMT+3 2024-09-24 16:06:53

# Hz S DB R 50

[Number of Ports] 2
[Two-Port Data Order] 21_12
[Number of Frequencies] 6001

[Network Data] 
! freq[Hz]               S11[mag dB]              S11[ang]                 S21[mag dB]              S21[ang]                 S12[mag dB]              S12[ang]                 S22[mag dB]              S22[ang]                 
7.000000000000000e+09    -1.604431619287222e+01   -1.567035607815503e+02   -3.026819839011655e+01   1.273743042702912e+02    -3.027979444424176e+01   1.279336266443088e+02    -1.678550300954105e+01   -1.570108391486271e+02   
7.001000000000000e+09    -1.605188094917814e+01   -1.569033109014910e+02   -3.025092961668504e+01   1.264198683825673e+02    -3.025037430792277e+01   1.268902984624509e+02    -1.683722372644988e+01   -1.573000617747828e+02   
7.002000000000000e+09    -1.606426416197733e+01   -1.570835477126005e+02   -3.021340486116440e+01   1.253018382309889e+02    -3.021394395655253e+01   1.257108127276331e+02    -1.689478455584461e+01   -1.575664183079986e+02   
7.003000000000000e+09    -1.607329184650180e+01   -1.573022161298784e+02   -3.023376852547294e+01   1.240181692825892e+02    -3.017924403646415e+01   1.246811401418680e+02    -1.695325704763822e+01   -1.578483411980127e+02   
7.004000000000000e+09    -1.609029601001258e+01   -1.575043889807406e+02   -3.018508275876307e+01   1.230402482228658e+02    -3.015298393601031e+01   1.233849796838523e+02    -1.700437253403011e+01   -1.581747157406300e+02   
7.005000000000000e+09    -1.610207415687067e+01   -1.576847974675923e+02   -3.014965567302364e+01   1.220181432674048e+02    -3.011629773837215e+01   1.224940250600303e+02    -1.706775694176200e+01   -1.585042677368431e+02   
7.006000000000000e+09    -1.611913491136302e+01   -1.579112255598937e+02   -3.011536420641749e+01   1.209353571495663e+02    -3.009903420713292e+01   1.213189158678933e+02    -1.712338375212150e+01   -1.588250176533814e+02   
7.007000000000000e+09    -1.613216554156761e+01   -1.581292208710585e+02   -3.009197442619029e+01   1.196802794128594e+02    -3.008241837632055e+01   1.201223311989213e+02    -1.717600593440586e+01   -1.592122662808561e+02   
7.008000000000000e+09    -1.615225623581829e+01   -1.583289206673115e+02   -3.004661551639902e+01   1.186835605795892e+02    -3.003312455756380e+01   1.190681024513584e+02    -1.722435254228744e+01   -1.595982166870595e+02   
7.009000000000000e+09    -1.616756392947369e+01   -1.584992923300882e+02   -3.003035723790349e+01   1.174797174338639e+02    -3.001453631175430e+01   1.180230658114329e+02    -1.728348063709634e+01   -1.599862893146446e+02   
7.010000000000000e+09    -1.619396462031930e+01   -1.587050183080858e+02   -2.998917535194923e+01   1.165758281001047e+02    -2.996474419554510e+01   1.168942822195016e+02    -1.733732679242214e+01   -1.604059770597242e+02   
7.011000000000000e+09    -1.620856616612351e+01   -1.588900017800870e+02   -2.999703660719987e+01   1.154494500590600e+02    -2.996270767592466e+01   1.156684794895330e+02    -1.738243845469751e+01   -1.608513902618774e+02   
7.012000000000000e+09    -1.622943041365875e+01   -1.590663000416367e+02   -2.995169081542375e+01   1.142685704951425e+02    -2.992588704504225e+01   1.146413757360676e+02    -1.743745376161280e+01   -1.612810276443637e+02   
7.013000000000000e+09    -1.625207797049968e+01   -1.592399354604292e+02   -2.993553541116277e+01   1.131320425613350e+02    -2.988637224730994e+01   1.135203394383522e+02    -1.748617345330959e+01   -1.617785890784109e+02   
7.014000000000000e+09    -1.628482580152570e+01   -1.594745915421631e+02   -2.988015784920762e+01   1.119645325753180e+02    -2.986481349990042e+01   1.121702187031212e+02    -1.753273132513791e+01   -1.622757748252122e+02   
7.015000000000000e+09    -1.630414952406463e+01   -1.596699077004578e+02   -2.984769369735119e+01   1.107158839152880e+02    -2.985470371662668e+01   1.111447180767785e+02    -1.758201199063805e+01   -1.627433233834709e+02   
7.016000000000000e+09    -1.633348087946308e+01   -1.598282989389295e+02   -2.983812558652012e+01   1.099127716477310e+02    -2.982316307851911e+01   1.099724117140962e+02    -1.762558802837726e+01   -1.632174540624630e+02   
7.017000000000000e+09    -1.636384913827747e+01   -1.599850818972768e+02   -2.980343655577028e+01   1.087809042827645e+02    -2.979151608930957e+01   1.090486387577600e+02    -1.766239610206554e+01   -1.637769834773103e+02   
7.018000000000000e+09    -1.639150938530516e+01   -1.602353916436539e+02   -2.976856430467942e+01   1.076034044434088e+02    -2.977269491955013e+01   1.079379261193182e+02    -1.770402292930500e+01   -1.642952832662911e+02   
7.019000000000000e+09    -1.642282472430359e+01   -1.604117722921580e+02   -2.975621347223463e+01   1.065370946119143e+02    -2.974795583153101e+01   1.067636625868108e+02    -1.773834097713036e+01   -1.647839618845567e+02   
7.020000000000000e+09    -1.645453589972289e+01   -1.605925237138201e+02   -2.975560647209507e+01   1.054591573996419e+02    -2.970884831354221e+01   1.056910263066342e+02    -1.777460097694322e+01   -1.653816399162118e+02   
7.021000000000000e+09    -1.648842688098852e+01   -1.608089562147207e+02   -2.970067226988657e+01   1.046261025420684e+02    -2.969294543925785e+01   1.047886982043825e+02    -1.780530680234944e+01   -1.658914234313862e+02   
7.022000000000000e+09    -1.651478171514425e+01   -1.610163250197319e+02   -2.968126071474817e+01   1.034503949411018e+02    -2.966590577793104e+01   1.036269378994673e+02    -1.784423988205029e+01   -1.663951300671492e+02   
7.023000000000000e+09    -1.655381466029941e+01   -1.611749614152120e+02   -2.963229717105968e+01   1.023204893170949e+02    -2.964009249281923e+01   1.024919897689094e+02    -1.787055281539629e+01   -1.670041869477820e+02   
7.024000000000000e+09    -1.658772854721660e+01   -1.614108825918314e+02   -2.959214882876885e+01   1.011619181068161e+02    -2.959020489469702e+01   1.015053018145155e+02    -1.790149521876603e+01   -1.675064206919498e+02   
7.025000000000000e+09    -1.661980930739232e+01   -1.615799056458691e+02   -2.957032089330944e+01   1.001222237159716e+02    -2.959147678599838e+01   1.003949363276733e+02    -1.792806349815292e+01   -1.680460520795442e+02   
7.026000000000000e+09    -1.666009608157723e+01   -1.618168116993188e+02   -2.953285555723568e+01   9.913971267557784e+01    -2.955498830221277e+01   9.925001467454364e+01    -1.795688536279610e+01   -1.685919617429398e+02   
7.027000000000000e+09    -1.669637394124858e+01   -1.619882817193198e+02   -2.950573810443462e+01   9.795545385976241e+01    -2.953008358555014e+01   9.829580442265069e+01    -1.797987049774395e+01   -1.691252432611979e+02   
7.028000000000000e+09    -1.672909726711674e+01   -1.622088958839024e+02   -2.947014355769243e+01   9.698203752779861e+01    -2.947784454568627e+01   9.696828373381260e+01    -1.800289381751244e+01   -1.696721822165857e+02   
7.029000000000000e+09    -1.677009987422533e+01   -1.624081350771067e+02   -2.941625035352443e+01   9.572919824970045e+01    -2.944340283087727e+01   9.605878986622530e+01    -1.801872628196884e+01   -1.702208611762235e+02   
7.030000000000000e+09    -1.680737639469903e+01   -1.626111197742816e+02   -2.940245607880973e+01   9.483961979112384e+01    -2.943179511886695e+01   9.475546600252187e+01    -1.804707096385228e+01   -1.707021289660802e+02   
7.031000000000000e+09    -1.685176995460964e+01   -1.627910402755304e+02   -2.938732919957334e+01   9.367019710908595e+01    -2.938282549613697e+01   9.373665143270937e+01    -1.806190268785462e+01   -1.712654896447108e+02   
7.032000000000000e+09    -1.688878172649368e+01   -1.630056168643918e+02   -2.932471440722539e+01   9.256672056440101e+01    -2.939330032677020e+01   9.253694594180911e+01    -1.808941386468329e+01   -1.718303902245092e+02   
7.033000000000000e+09    -1.693018688596700e+01   -1.631895519056342e+02   -2.931722024700507e+01   9.125499812630504e+01    -2.932305490343655e+01   9.141408687695643e+01    -1.811087067426773e+01   -1.723254503270548e+02   
7.034000000000000e+09    -1.697021424226088e+01   -1.633477082521448e+02   -2.928439682503362e+01   9.022106627003677e+01    -2.931335760823769e+01   9.032580509361574e+01    -1.813339935030227e+01   -1.727968502027914e+02   
7.035000000000000e+09    -1.700838427057228e+01   -1.635690090883336e+02   -2.925573544367812e+01   8.914841239871978e+01    -2.929298451265683e+01   8.916617784151535e+01    -1.814467910622968e+01   -1.732377042640005e+02   
7.036000000000000e+09    -1.705630689277712e+01   -1.637014982825527e+02   -2.925770895703243e+01   8.803956327443485e+01    -2.926739511317093e+01   8.816328204623211e+01    -1.817112996473159e+01   -1.737145323766826e+02   
7.037000000000000e+09    -1.709105449393889e+01   -1.638857815731666e+02   -2.920970079869128e+01   8.691514197939652e+01    -2.923877944478578e+01   8.707688886618003e+01    -1.818954046240972e+01   -1.741719607194391e+02   
7.038000000000000e+09    -1.713438817313490e+01   -1.640090476311238e+02   -2.917737397555208e+01   8.575495140819672e+01    -2.921538280436085e+01   8.606966487502163e+01    -1.820890783536134e+01   -1.746483305897779e+02   
7.039000000000000e+09    -1.717523983519581e+01   -1.641654725474202e+02   -2.916751051000681e+01   8.476555052316590e+01    -2.920922684988329e+01   8.480896940692691e+01    -1.823798224575881e+01   -1.750435578658560e+02   
7.040000000000000e+09    -1.721981014286863e+01   -1.643226328870574e+02   -2.912766007780169e+01   8.348803226730872e+01    -2.916657585238196e+01   8.367755985834572e+01    -1.824641797794308e+01   -1.754576518962835e+02   
7.041000000000000e+09    -1.726524536456226e+01   -1.644547246001108e+02   -2.908063228094139e+01   8.246960494435092e+01    -2.911414543614664e+01   8.247569160807069e+01    -1.826703330266669e+01   -1.758564859403238e+02   
7.042000000000000e+09    -1.730930000746589e+01   -1.645897780013177e+02   -2.908036464888450e+01   8.122780872579382e+01    -2.911749780671309e+01   8.142495797578324e+01    -1.829609061043984e+01   -1.762441310786241e+02   
7.043000000000000e+09    -1.735382214117380e+01   -1.647223803284463e+02   -2.903108785642416e+01   8.015863917961569e+01    -2.907863854092716e+01   8.046455838600745e+01    -1.831478014125419e+01   -1.766171727849844e+02   
7.044000000000000e+09    -1.740229909294076e+01   -1.647955615075629e+02   -2.902520481635692e+01   7.900214144280126e+01    -2.907484015190893e+01   7.917638745293063e+01    -1.833491291701988e+01   -1.769849985216674e+02   
7.045000000000000e+09    -1.744197103158621e+01   -1.648746814426993e+02   -2.899113386483435e+01   7.805778161131551e+01    -2.903447606443295e+01   7.820741214771708e+01    -1.836956241597947e+01   -1.772958628699087e+02   
7.046000000000000e+09    -1.748750350567772e+01   -1.649770622468497e+02   -2.896723994202383e+01   7.657026674996871e+01    -2.899111301521594e+01   7.697575441752964e+01    -1.837900927273319e+01   -1.775980740784372e+02   
7.047000000000000e+09    -1.753685351677204e+01   -1.650563535901878e+02   -2.896349702186802e+01   7.550269249365085e+01    -2.896632047541603e+01   7.566242805388359e+01    -1.842164365313207e+01   -1.778611244286250e+02   
7.048000000000000e+09    -1.758451712920580e+01   -1.651542274927052e+02   -2.893342426496248e+01   7.439515957524466e+01    -2.894559828229751e+01   7.461741567485559e+01    -1.844868110406979e+01   -1.781305040878692e+02   
7.049000000000000e+09    -1.763999868665065e+01   -1.651929852991656e+02   -2.889794390306971e+01   7.309324384324547e+01    -2.891602739023357e+01   7.346493781792495e+01    -1.847478954704817e+01   -1.783563616640857e+02   
7.050000000000000e+09    -1.769119607129867e+01   -1.652010421311035e+02   -2.886620804472768e+01   7.195974392582943e+01    -2.889976120960990e+01   7.228746503631007e+01    -1.850750452166536e+01   -1.785394985206068e+02   
7.051000000000000e+09    -1.773854489230160e+01   -1.651949696216923e+02   -2.886281006231577e+01   7.084227995168817e+01    -2.888830351116238e+01   7.122649413849990e+01    -1.853298689044622e+01   -1.787936770259818e+02   
7.052000000000000e+09    -1.779209693754170e+01   -1.652209927181570e+02   -2.884967805364398e+01   6.971544741143843e+01    -2.890172396689123e+01   6.988348993373788e+01    -1.857460417319153e+01   -1.789763033476699e+02   
7.053000000000000e+09    -1.784081202586904e+01   -1.652429586785482e+02   -2.881079978738635e+01   6.836303929157140e+01    -2.886114169341779e+01   6.882679014029311e+01    -1.860636732791687e+01   -1.791384927388303e+02   
7.054000000000000e+09    -1.790097532697455e+01   -1.652628282074109e+02   -2.881594195617998e+01   6.743707283240290e+01    -2.882872551006569e+01   6.779305787791047e+01    -1.864743431421125e+01   -1.792134073351470e+02   
7.055000000000000e+09    -1.795247136921343e+01   -1.652436741835454e+02   -2.878983807189099e+01   6.613479608338864e+01    -2.879859571987151e+01   6.650706080855365e+01    -1.869056843313560e+01   -1.792971647436546e+02   
7.056000000000000e+09    -1.800542052572988e+01   -1.651587200245902e+02   -2.879971240404542e+01   6.496228940585883e+01    -2.880445098760902e+01   6.530364808933869e+01    -1.872955199016141e+01   -1.794245524402950e+02   
7.057000000000000e+09    -1.806596877494945e+01   -1.651268993699414e+02   -2.878003364314173e+01   6.389935181970903e+01    -2.878684811562350e+01   6.423614837801696e+01    -1.877028509725701e+01   -1.794778001295142e+02   
7.058000000000000e+09    -1.811309102513776e+01   -1.651489325505200e+02   -2.874712859174240e+01   6.260152777072455e+01    -2.877444562068087e+01   6.313106478140791e+01    -1.882259004279206e+01   -1.795305121308330e+02   
7.059000000000000e+09    -1.818056165922036e+01   -1.651119562230595e+02   -2.873615112574866e+01   6.134173127725924e+01    -2.878262353262407e+01   6.215078267960223e+01    -1.887812830275192e+01   -1.795072327352529e+02   
7.060000000000000e+09    -1.823806868736688e+01   -1.650262287921440e+02   -2.872394110274503e+01   6.027744311144851e+01    -2.874759280647993e+01   6.093873194460812e+01    -1.892071702629669e+01   -1.795690129332557e+02   
7.061000000000000e+09    -1.830003734674692e+01   -1.649713946561004e+02   -2.871398828044236e+01   5.915422514651320e+01    -2.875160333965158e+01   5.970164810170478e+01    -1.897785714598903e+01   -1.795052721827423e+02   
7.062000000000000e+09    -1.835534556451942e+01   -1.648875215792157e+02   -2.870797056092374e+01   5.799337818136190e+01    -2.871812517848010e+01   5.868201101886008e+01    -1.903341908573118e+01   -1.794859098481580e+02   
7.063000000000000e+09    -1.842625323494550e+01   -1.648235776715855e+02   -2.868740463580527e+01   5.687359412196105e+01    -2.870560999544029e+01   5.729394901523367e+01    -1.909682685175956e+01   -1.793772325384538e+02   
7.064000000000000e+09    -1.848275190247477e+01   -1.646949054159429e+02   -2.868357194983178e+01   5.562371440158594e+01    -2.872030676305430e+01   5.629558708679783e+01    -1.916692054513378e+01   -1.792615984303740e+02   
7.065000000000000e+09    -1.854253523287889e+01   -1.646599500971709e+02   -2.867775690752337e+01   5.449090256210521e+01    -2.866311441036666e+01   5.496268926827040e+01    -1.923468606948261e+01   -1.792029738412569e+02   
7.066000000000000e+09    -1.860797463379384e+01   -1.645360498903146e+02   -2.866051608620455e+01   5.329770783411016e+01    -2.868685977825134e+01   5.380289121636836e+01    -1.930803766243123e+01   -1.790587838274035e+02   
7.067000000000000e+09    -1.866972103097465e+01   -1.644640927505798e+02   -2.866604090774379e+01   5.215165021459190e+01    -2.867025258108157e+01   5.274437370797475e+01    -1.938737047975395e+01   -1.788112620533101e+02   
7.068000000000000e+09    -1.873079074165792e+01   -1.643087860017332e+02   -2.867444302907122e+01   5.092674190619263e+01    -2.866798403477270e+01   5.141119183022015e+01    -1.946962868934876e+01   -1.787081410687893e+02   
7.069000000000000e+09    -1.879153054936844e+01   -1.642395497431333e+02   -2.863748899402505e+01   4.987597863293076e+01    -2.866056812208049e+01   5.046403970567206e+01    -1.955251825922465e+01   -1.785186950938282e+02   
7.070000000000000e+09    -1.886825369571898e+01   -1.640879860289836e+02   -2.864578404315188e+01   4.864352630521311e+01    -2.863565491468770e+01   4.932854445025725e+01    -1.966024253764972e+01   -1.782805593200071e+02   
7.071000000000000e+09    -1.891817445790280e+01   -1.639542189793207e+02   -2.864218812084570e+01   4.753173202857128e+01    -2.864203543643013e+01   4.801578706579570e+01    -1.975236613791386e+01   -1.780802956332302e+02   
7.072000000000000e+09    -1.899089287437317e+01   -1.637997877365341e+02   -2.862033628901041e+01   4.636716336302943e+01    -2.861003741686329e+01   4.695280505521323e+01    -1.985466514720706e+01   -1.778315658358181e+02   
7.073000000000000e+09    -1.905152529411321e+01   -1.636965645306137e+02   -2.861079972904976e+01   4.503597750249249e+01    -2.861679461136077e+01   4.553899584026727e+01    -1.996514114089796e+01   -1.776061927811456e+02   
7.074000000000000e+09    -1.911765224739217e+01   -1.635355471332066e+02   -2.861798495396965e+01   4.406928778857411e+01    -2.862787122471271e+01   4.448979664125014e+01    -2.007216381355025e+01   -1.772486943875264e+02   
7.075000000000000e+09    -1.917849252007429e+01   -1.634082826367522e+02   -2.859460640594613e+01   4.277419649188349e+01    -2.860602631210252e+01   4.336150551197308e+01    -2.020309632393065e+01   -1.769619864561967e+02   
7.076000000000000e+09    -1.924418882820318e+01   -1.631936056659362e+02   -2.861346070320634e+01   4.152082429117141e+01    -2.860381650929710e+01   4.213111002069370e+01    -2.033260402637946e+01   -1.765719957753558e+02   
7.077000000000000e+09    -1.931402935530050e+01   -1.630593161509803e+02   -2.857247266904252e+01   4.047063269561963e+01    -2.859159816021883e+01   4.101615312676933e+01    -2.045632766345213e+01   -1.761434256459198e+02   
7.078000000000000e+09    -1.938592335270652e+01   -1.628083542233720e+02   -2.860222393015913e+01   3.927957641994248e+01    -2.858896710642110e+01   3.979406163991501e+01    -2.058643050733298e+01   -1.758443954710273e+02   
7.079000000000000e+09    -1.944471158539953e+01   -1.625284433869257e+02   -2.859010379047987e+01   3.813791607118180e+01    -2.859503970104378e+01   3.868483358800888e+01    -2.073725725074361e+01   -1.754487525150073e+02   
7.080000000000000e+09    -1.951442105033120e+01   -1.623857280841133e+02   -2.859420782082493e+01   3.687403029912029e+01    -2.857980290755806e+01   3.749462154638145e+01    -2.088068040923769e+01   -1.749702275217064e+02   
7.081000000000000e+09    -1.957225789977661e+01   -1.620293305204208e+02   -2.860819195681359e+01   3.566587575359111e+01    -2.857628892274122e+01   3.625303385116821e+01    -2.103352236931584e+01   -1.745462431773630e+02   
7.082000000000000e+09    -1.962845009348449e+01   -1.618314967412081e+02   -2.857758832313598e+01   3.437167874239204e+01    -2.857342435503961e+01   3.507360332365009e+01    -2.119206753738927e+01   -1.739921829842978e+02   
7.083000000000000e+09    -1.969028200042862e+01   -1.615360317682878e+02   -2.859606318528208e+01   3.331213579598271e+01    -2.857815892375743e+01   3.389921714509651e+01    -2.135348383829550e+01   -1.734934312525841e+02   
7.084000000000000e+09    -1.974576314504312e+01   -1.613308455087598e+02   -2.859717909125029e+01   3.210588294358149e+01    -2.858902254157302e+01   3.258821813768896e+01    -2.153071695622182e+01   -1.729221819374561e+02   
