[Version] 2.0
! Rohde & Schwarz Vector Network Analyzer
! Rohde-Schwarz,ZNL20-2Port,1323001220200009,1.71.1.10-23.02.1.238
! 
! Port Assignments:
! Nominal Port -> Actual Test Port
! --------------------------------
!   1 -> 1
!   2 -> 2

! Created: GMT+3 2024-09-24 16:07:05

# Hz S DB R 50

[Number of Ports] 2
[Two-Port Data Order] 21_12
[Number of Frequencies] 6001

[Network Data] 
! freq[Hz]               S11[mag dB]              S11[ang]                 S21[mag dB]              S21[ang]                 S12[mag dB]              S12[ang]                 S22[mag dB]              S22[ang]                 
7.000000000000000e+09    -1.599788854019112e+01   -1.543701856127346e+02   -3.023590296462405e+01   1.391189784942942e+02    -3.021296662640716e+01   1.395346602605226e+02    -1.681265443375402e+01   -1.539494967729559e+02   
7.001000000000000e+09    -1.600014257786269e+01   -1.545631958010563e+02   -3.019226205605808e+01   1.381566040781005e+02    -3.018997517706584e+01   1.384966413448925e+02    -1.685958078072816e+01   -1.542074921953145e+02   
7.002000000000000e+09    -1.600279944520850e+01   -1.547821217329003e+02   -3.017353026934425e+01   1.371226137505512e+02    -3.017160897153955e+01   1.370974145723867e+02    -1.691105464173147e+01   -1.544362805411432e+02   
7.003000000000000e+09    -1.600672546564632e+01   -1.549542114979357e+02   -3.017254155739552e+01   1.357238315584281e+02    -3.013155868375460e+01   1.361713360209372e+02    -1.695891324698110e+01   -1.546856256651780e+02   
7.004000000000000e+09    -1.600859012884013e+01   -1.551630121560605e+02   -3.014755080277531e+01   1.347019997749912e+02    -3.010636819350068e+01   1.349549066221742e+02    -1.700818052306716e+01   -1.549460500910694e+02   
7.005000000000000e+09    -1.601351690001935e+01   -1.553284231793005e+02   -3.008360198691560e+01   1.337363699738687e+02    -3.006233690326383e+01   1.338017054944418e+02    -1.705585635560819e+01   -1.552436202607483e+02   
7.006000000000000e+09    -1.602120640838051e+01   -1.555442170020676e+02   -3.007901290779567e+01   1.325371543664145e+02    -3.005161000654437e+01   1.328060332019954e+02    -1.710464357693299e+01   -1.555438038298103e+02   
7.007000000000000e+09    -1.603170061881248e+01   -1.557429585480011e+02   -3.006007463962190e+01   1.314438212633814e+02    -3.003070917430172e+01   1.317962124505933e+02    -1.715247154360767e+01   -1.558828373349055e+02   
7.008000000000000e+09    -1.603693891635590e+01   -1.559006808846200e+02   -2.999005426229912e+01   1.305374026408170e+02    -2.999844498513702e+01   1.307210866010425e+02    -1.719203975792318e+01   -1.562535485465233e+02   
7.009000000000000e+09    -1.604467967621156e+01   -1.561361338043288e+02   -2.998862127213970e+01   1.292469527931714e+02    -2.995219610237707e+01   1.295188435424029e+02    -1.723888093173496e+01   -1.566125636613672e+02   
7.010000000000000e+09    -1.605708625949230e+01   -1.563584578462880e+02   -2.994646657036967e+01   1.282798006198857e+02    -2.993934778624527e+01   1.284943543655869e+02    -1.728953260077064e+01   -1.569906430600320e+02   
7.011000000000000e+09    -1.606906956315008e+01   -1.565302839330310e+02   -2.995717412746908e+01   1.271324177316864e+02    -2.991796588800651e+01   1.274130801277906e+02    -1.732746854021414e+01   -1.574147024506787e+02   
7.012000000000000e+09    -1.608010884411793e+01   -1.566987988336941e+02   -2.991548019156247e+01   1.260555344648873e+02    -2.988129433089682e+01   1.261738753716004e+02    -1.736809161821676e+01   -1.577938124636634e+02   
7.013000000000000e+09    -1.609060898307039e+01   -1.568809717433056e+02   -2.987574006534153e+01   1.250999251096540e+02    -2.985925458389363e+01   1.252200253084187e+02    -1.741476558283848e+01   -1.582938249397383e+02   
7.014000000000000e+09    -1.611280707394120e+01   -1.570863118756404e+02   -2.984039222582841e+01   1.239978435091563e+02    -2.984998520756425e+01   1.240130113161391e+02    -1.745516081881325e+01   -1.587502547403234e+02   
7.015000000000000e+09    -1.612721698626121e+01   -1.572876883945058e+02   -2.978525188842156e+01   1.226066527341927e+02    -2.983834808794505e+01   1.228210611389889e+02    -1.749131527020998e+01   -1.591903142421091e+02   
7.016000000000000e+09    -1.614229178504935e+01   -1.574681325246430e+02   -2.980160731737659e+01   1.217907147587796e+02    -2.981650404895158e+01   1.218464260774586e+02    -1.752980661329037e+01   -1.596807808319812e+02   
7.017000000000000e+09    -1.616428341356579e+01   -1.576553135908167e+02   -2.975021161461522e+01   1.206319072136264e+02    -2.976125121175939e+01   1.208091665080544e+02    -1.756001127319778e+01   -1.601888204095520e+02   
7.018000000000000e+09    -1.618297167878022e+01   -1.579009598224668e+02   -2.975735560857446e+01   1.196323980358955e+02    -2.975790496360337e+01   1.196924950729703e+02    -1.759235266937791e+01   -1.606895734687025e+02   
7.019000000000000e+09    -1.620360235642355e+01   -1.581029861464387e+02   -2.971280696431423e+01   1.184784342076753e+02    -2.973234348580925e+01   1.185562707734748e+02    -1.762220354563021e+01   -1.611372261910479e+02   
7.020000000000000e+09    -1.622259161648393e+01   -1.582879971432527e+02   -2.969144720710273e+01   1.175040667231063e+02    -2.968117876117883e+01   1.176175449693415e+02    -1.764414361205748e+01   -1.616846365378051e+02   
7.021000000000000e+09    -1.624984006994507e+01   -1.585320982196027e+02   -2.963379327489859e+01   1.166762660218413e+02    -2.966876844066576e+01   1.167964499917537e+02    -1.766814644994435e+01   -1.622013835088191e+02   
7.022000000000000e+09    -1.626678748619756e+01   -1.587519799778871e+02   -2.960114135305553e+01   1.155144644175994e+02    -2.963009603518451e+01   1.156252991475100e+02    -1.770637915024879e+01   -1.627192390481772e+02   
7.023000000000000e+09    -1.629415660034159e+01   -1.589543961624587e+02   -2.958214200505909e+01   1.143924686647782e+02    -2.958797930193693e+01   1.146401593045647e+02    -1.771969036349986e+01   -1.632012285942027e+02   
7.024000000000000e+09    -1.631904352926540e+01   -1.591986525448114e+02   -2.953474971404950e+01   1.133115558829303e+02    -2.956147412782573e+01   1.134073592332020e+02    -1.773975051910007e+01   -1.637329737899050e+02   
7.025000000000000e+09    -1.634913097315331e+01   -1.593851422583112e+02   -2.953153607818274e+01   1.122842679065948e+02    -2.953652645547982e+01   1.123968831179473e+02    -1.776399017091374e+01   -1.642410757562405e+02   
7.026000000000000e+09    -1.637233210094578e+01   -1.596670368789343e+02   -2.947929558485836e+01   1.111086926159028e+02    -2.950234361753137e+01   1.113082266198731e+02    -1.777852917886543e+01   -1.647875544260626e+02   
7.027000000000000e+09    -1.640314422802816e+01   -1.598602455813137e+02   -2.944231221625624e+01   1.101815778904930e+02    -2.947594427470692e+01   1.102993409585066e+02    -1.780044523267500e+01   -1.652949050227462e+02   
7.028000000000000e+09    -1.642548977014343e+01   -1.601016865532204e+02   -2.938250060565446e+01   1.092463009248357e+02    -2.944102571912920e+01   1.092140910949492e+02    -1.780541455674400e+01   -1.658200179782335e+02   
7.029000000000000e+09    -1.645712750758539e+01   -1.603688435390262e+02   -2.935278506129702e+01   1.078667783051260e+02    -2.937969811406209e+01   1.080997010224932e+02    -1.782442419751171e+01   -1.663558897436789e+02   
7.030000000000000e+09    -1.648928281444272e+01   -1.606000591828715e+02   -2.930859281336861e+01   1.070506250044276e+02    -2.937802065698977e+01   1.068284648193963e+02    -1.783490307256418e+01   -1.668467735702003e+02   
7.031000000000000e+09    -1.651969800860154e+01   -1.608608928240631e+02   -2.931469666831953e+01   1.061157619989606e+02    -2.935562487987315e+01   1.059448660465079e+02    -1.785294095637007e+01   -1.673423575516302e+02   
7.032000000000000e+09    -1.654886270574398e+01   -1.610540793377316e+02   -2.925671232066323e+01   1.049126710322194e+02    -2.930530200134966e+01   1.047726047107768e+02    -1.786917673275708e+01   -1.678298878209411e+02   
7.033000000000000e+09    -1.658898218331554e+01   -1.613034154226747e+02   -2.923881627123322e+01   1.034217643499137e+02    -2.924275995251949e+01   1.036015295365220e+02    -1.787893917994119e+01   -1.683810006269067e+02   
7.034000000000000e+09    -1.661814540435370e+01   -1.614984107835606e+02   -2.918036943559823e+01   1.025598108940101e+02    -2.923890840720872e+01   1.025503936061324e+02    -1.788946388465107e+01   -1.688143557173682e+02   
7.035000000000000e+09    -1.664944200545620e+01   -1.617372560251786e+02   -2.916712830050835e+01   1.014415498430238e+02    -2.920787322950669e+01   1.015836815091731e+02    -1.789830966175382e+01   -1.692789958145484e+02   
7.036000000000000e+09    -1.668196664713602e+01   -1.619361272224457e+02   -2.915791882266666e+01   1.003704673298553e+02    -2.918518042697124e+01   1.004290461994761e+02    -1.791032490676840e+01   -1.697125406617997e+02   
7.037000000000000e+09    -1.671210311110272e+01   -1.621880092877090e+02   -2.910856085363335e+01   9.927234328035080e+01    -2.918639047665821e+01   9.943556632072226e+01    -1.792741448586943e+01   -1.701418985350188e+02   
7.038000000000000e+09    -1.674863861002049e+01   -1.623892168507709e+02   -2.908029625702413e+01   9.814274201209876e+01    -2.915339387693864e+01   9.839399995843965e+01    -1.791831725111079e+01   -1.705886317499281e+02   
7.039000000000000e+09    -1.678155483631922e+01   -1.625698636192407e+02   -2.905155188313156e+01   9.712615305109537e+01    -2.913209971583465e+01   9.717555984163178e+01    -1.793582538862544e+01   -1.710466373610637e+02   
7.040000000000000e+09    -1.681544262824907e+01   -1.627410872889569e+02   -2.900989560763326e+01   9.588891756981383e+01    -2.908796373767664e+01   9.633619479554473e+01    -1.794435706082457e+01   -1.714522504853844e+02   
7.041000000000000e+09    -1.685417448248823e+01   -1.629335695278379e+02   -2.896221454910992e+01   9.502410794845150e+01    -2.904538498432713e+01   9.506868607313083e+01    -1.795970729464215e+01   -1.718621186124862e+02   
7.042000000000000e+09    -1.688291525588939e+01   -1.631432773672790e+02   -2.894594189328549e+01   9.373403641698985e+01    -2.901210913454128e+01   9.389962146251500e+01    -1.797998113255615e+01   -1.722274565606447e+02   
7.043000000000000e+09    -1.692390925016776e+01   -1.633347007747638e+02   -2.891132811079085e+01   9.266596918179640e+01    -2.897664998036339e+01   9.296677554860109e+01    -1.798151122250682e+01   -1.726260605843360e+02   
7.044000000000000e+09    -1.696255707496870e+01   -1.634517517287530e+02   -2.891439054389006e+01   9.167514138872893e+01    -2.893206482927665e+01   9.178128338478646e+01    -1.798830374431433e+01   -1.730194434851238e+02   
7.045000000000000e+09    -1.699871225772105e+01   -1.636189892430445e+02   -2.886386972121185e+01   9.054786032176361e+01    -2.892141035976330e+01   9.080047192824536e+01    -1.801103290321202e+01   -1.733053791222771e+02   
7.046000000000000e+09    -1.703431867611494e+01   -1.637771571835640e+02   -2.882210992900864e+01   8.928857147583402e+01    -2.887336791633905e+01   8.953988467560042e+01    -1.801681018590205e+01   -1.736184627543611e+02   
7.047000000000000e+09    -1.707637410119560e+01   -1.639075897402637e+02   -2.883498042236786e+01   8.818846828067772e+01    -2.884112893315098e+01   8.845277172185955e+01    -1.802662301812916e+01   -1.739455315088989e+02   
7.048000000000000e+09    -1.712070137531455e+01   -1.640885362966664e+02   -2.878946558645125e+01   8.705748537605518e+01    -2.883394867981902e+01   8.742013656388930e+01    -1.804877097015253e+01   -1.742514534833169e+02   
7.049000000000000e+09    -1.716502573276876e+01   -1.641773480502590e+02   -2.877386883592173e+01   8.602517608516031e+01    -2.881536660398105e+01   8.628491142895571e+01    -1.805355299014203e+01   -1.744766733133988e+02   
7.050000000000000e+09    -1.721009501693792e+01   -1.642758363280295e+02   -2.874282682556387e+01   8.473995901847272e+01    -2.877927931606097e+01   8.515219457293352e+01    -1.808424159239118e+01   -1.747117596731217e+02   
7.051000000000000e+09    -1.725483155766144e+01   -1.643208956179847e+02   -2.870141075369020e+01   8.368389040208818e+01    -2.875148174288146e+01   8.398393151610124e+01    -1.808919545356001e+01   -1.749021057920967e+02   
7.052000000000000e+09    -1.730139002302653e+01   -1.644558854631421e+02   -2.869507711413938e+01   8.251480350985993e+01    -2.874987890714788e+01   8.290106178769754e+01    -1.811136590607958e+01   -1.751153327017740e+02   
7.053000000000000e+09    -1.734417390380410e+01   -1.645257168189289e+02   -2.866122274540805e+01   8.125943614050620e+01    -2.872525426105388e+01   8.178145113278903e+01    -1.812890092539607e+01   -1.753081339771937e+02   
7.054000000000000e+09    -1.739817660484779e+01   -1.646354180941409e+02   -2.864920751681531e+01   8.039409824082303e+01    -2.868243709558845e+01   8.072873836913257e+01    -1.815324316396985e+01   -1.754218564497304e+02   
7.055000000000000e+09    -1.744715267955065e+01   -1.646388564489577e+02   -2.863220950882619e+01   7.909553272402239e+01    -2.868056222615960e+01   7.956307354445234e+01    -1.818235218911439e+01   -1.755872632021768e+02   
7.056000000000000e+09    -1.749303724692459e+01   -1.647133611424718e+02   -2.861162208718040e+01   7.800313233714689e+01    -2.866559305000324e+01   7.853061843795939e+01    -1.820395471299053e+01   -1.757262609467736e+02   
7.057000000000000e+09    -1.754580595397940e+01   -1.647720594698687e+02   -2.858875115213625e+01   7.682444834067782e+01    -2.864356003646792e+01   7.745071400231255e+01    -1.822965873257228e+01   -1.758655854359058e+02   
7.058000000000000e+09    -1.759331264455707e+01   -1.648554235744188e+02   -2.856124303950356e+01   7.573306342027385e+01    -2.860731199217088e+01   7.633517899330685e+01    -1.826573457473298e+01   -1.759501706327036e+02   
7.059000000000000e+09    -1.764876425658957e+01   -1.648378019673444e+02   -2.854490570071286e+01   7.460187505258267e+01    -2.859192800924766e+01   7.526730820907845e+01    -1.829347740183140e+01   -1.759803581324708e+02   
7.060000000000000e+09    -1.770787435775425e+01   -1.649169052891171e+02   -2.853973846305385e+01   7.348006847543842e+01    -2.857856985779832e+01   7.425372861186557e+01    -1.832417182059811e+01   -1.760734819655164e+02   
7.061000000000000e+09    -1.777029509334299e+01   -1.649383139550130e+02   -2.852418714157141e+01   7.250961467925877e+01    -2.855565406553982e+01   7.313781675432357e+01    -1.836542716732058e+01   -1.760882063344192e+02   
7.062000000000000e+09    -1.782604877043103e+01   -1.649622506863871e+02   -2.850461910040796e+01   7.115689964138453e+01    -2.852802361615031e+01   7.202359773441920e+01    -1.840078247673465e+01   -1.760264379118411e+02   
7.063000000000000e+09    -1.788005236430909e+01   -1.649257573519185e+02   -2.847688586669140e+01   7.016289221525949e+01    -2.849799487157080e+01   7.088852522804315e+01    -1.844625929204285e+01   -1.760521859825555e+02   
7.064000000000000e+09    -1.794324947589086e+01   -1.649077138030545e+02   -2.846933583910956e+01   6.896011756021076e+01    -2.852166144887257e+01   6.978933752048712e+01    -1.849331323195286e+01   -1.760018158139363e+02   
7.065000000000000e+09    -1.799798969814454e+01   -1.649362763429317e+02   -2.845986051116500e+01   6.795656192259406e+01    -2.846938247413339e+01   6.856195298991727e+01    -1.853725402137952e+01   -1.759963429842289e+02   
7.066000000000000e+09    -1.806498591098654e+01   -1.649275798271107e+02   -2.844438254660563e+01   6.685074829294904e+01    -2.845094080212777e+01   6.757078722447785e+01    -1.859614602301690e+01   -1.759653494620781e+02   
7.067000000000000e+09    -1.812529376425880e+01   -1.648807062405843e+02   -2.841343186862788e+01   6.567480870804698e+01    -2.842994436619401e+01   6.651513258473859e+01    -1.865125468418510e+01   -1.758345389727135e+02   
7.068000000000000e+09    -1.818282586934785e+01   -1.648907320372995e+02   -2.840491077076216e+01   6.470773880642363e+01    -2.842981063788568e+01   6.523696525042617e+01    -1.871382771892893e+01   -1.757350895691738e+02   
7.069000000000000e+09    -1.823589078446180e+01   -1.649611845034670e+02   -2.839033343965350e+01   6.355712740188962e+01    -2.839762602196940e+01   6.419707138521925e+01    -1.878196198765750e+01   -1.757369953966768e+02   
7.070000000000000e+09    -1.831397137474946e+01   -1.648784293305864e+02   -2.840179612968769e+01   6.236640168572172e+01    -2.837613706669153e+01   6.323644798338024e+01    -1.884623043722445e+01   -1.755053679047381e+02   
7.071000000000000e+09    -1.837106524734197e+01   -1.647907340394519e+02   -2.836430005377312e+01   6.130690629254155e+01    -2.839176883651248e+01   6.200172642029616e+01    -1.893023740508541e+01   -1.754388160448477e+02   
7.072000000000000e+09    -1.844615329957286e+01   -1.647692683929216e+02   -2.836116351236001e+01   6.015118124849420e+01    -2.834541127626762e+01   6.076399067717465e+01    -1.900409700831412e+01   -1.753109043168604e+02   
7.073000000000000e+09    -1.850609528245889e+01   -1.647205409788797e+02   -2.831788183900248e+01   5.894677391572943e+01    -2.833935673588636e+01   5.956138098796612e+01    -1.908975796768370e+01   -1.751258888394915e+02   
7.074000000000000e+09    -1.857539508146990e+01   -1.646920795131809e+02   -2.833471578975957e+01   5.788272575462042e+01    -2.833868281725355e+01   5.851403046798472e+01    -1.917564552802530e+01   -1.749057663598947e+02   
7.075000000000000e+09    -1.862848009741984e+01   -1.645786409920445e+02   -2.831451361951213e+01   5.681903927051066e+01    -2.830105131250642e+01   5.742800238134222e+01    -1.927287888334017e+01   -1.747311355825467e+02   
7.076000000000000e+09    -1.870155851004630e+01   -1.644891781974403e+02   -2.831632668588865e+01   5.559089533314241e+01    -2.830419558348876e+01   5.620214671337845e+01    -1.937520903507808e+01   -1.745139719934655e+02   
7.077000000000000e+09    -1.876918601795866e+01   -1.643786207914065e+02   -2.827129154772111e+01   5.452112876230377e+01    -2.827352775983262e+01   5.511615252967367e+01    -1.947967891504457e+01   -1.742824764023023e+02   
7.078000000000000e+09    -1.883629396700432e+01   -1.642884971303838e+02   -2.829207669469233e+01   5.338168447098856e+01    -2.826170731134896e+01   5.405571574339884e+01    -1.958066285981349e+01   -1.740212468890255e+02   
7.079000000000000e+09    -1.889081672308444e+01   -1.641498663339071e+02   -2.828670283369497e+01   5.224504179767362e+01    -2.826742223735118e+01   5.276976605306932e+01    -1.970766881265040e+01   -1.738115148710387e+02   
7.080000000000000e+09    -1.895754798554599e+01   -1.640861877095230e+02   -2.826505354085724e+01   5.119912164426501e+01    -2.822786388285285e+01   5.159445877614990e+01    -1.981711772456477e+01   -1.735110536835685e+02   
7.081000000000000e+09    -1.902827795297803e+01   -1.638807230866358e+02   -2.825725586024404e+01   4.979527423386071e+01    -2.824087169516933e+01   5.045674644891716e+01    -1.993949898417481e+01   -1.732296958069264e+02   
7.082000000000000e+09    -1.909396424942260e+01   -1.637445306541236e+02   -2.824876688839273e+01   4.878720107562779e+01    -2.822612942702817e+01   4.940619506887610e+01    -2.006939267909675e+01   -1.729571357987247e+02   
7.083000000000000e+09    -1.915495170249520e+01   -1.635722041969562e+02   -2.824718371607602e+01   4.769938174122706e+01    -2.820327308962946e+01   4.829484188221423e+01    -2.020762782955743e+01   -1.726646701667021e+02   
7.084000000000000e+09    -1.922848893908854e+01   -1.634272205900618e+02   -2.823012456532014e+01   4.653404992050605e+01    -2.822603283689676e+01   4.710628352477129e+01    -2.034204793973883e+01   -1.723101910822211e+02   
