[Version] 2.0
! Rohde & Schwarz Vector Network Analyzer
! Rohde-Schwarz,ZNL20-2Port,1323001220200009,1.71.1.10-23.02.1.238
! 
! Port Assignments:
! Nominal Port -> Actual Test Port
! --------------------------------
!   1 -> 1
!   2 -> 2

! Created: GMT+3 2024-09-24 16:07:19

# Hz S DB R 50

[Number of Ports] 2
[Two-Port Data Order] 21_12
[Number of Frequencies] 6001

[Network Data] 
! freq[Hz]               S11[mag dB]              S11[ang]                 S21[mag dB]              S21[ang]                 S12[mag dB]              S12[ang]                 S22[mag dB]              S22[ang]                 
7.000000000000000e+09    -1.601453924827293e+01   -1.527850986785933e+02   -3.020281816619748e+01   1.473223835025628e+02    -3.024127670303605e+01   1.481736606331545e+02    -1.688099209611639e+01   -1.517902930225379e+02   
7.001000000000000e+09    -1.600731819458998e+01   -1.529332254186338e+02   -3.013861247796245e+01   1.464686011523991e+02    -3.023144003310976e+01   1.470296605082179e+02    -1.692778188159139e+01   -1.519955211709996e+02   
7.002000000000000e+09    -1.600456431594836e+01   -1.531004686077323e+02   -3.014182328726035e+01   1.452919980141400e+02    -3.019559147566876e+01   1.458679534817189e+02    -1.697259722704435e+01   -1.522143164887609e+02   
7.003000000000000e+09    -1.599873126669984e+01   -1.533038550199071e+02   -3.013275484238067e+01   1.440839491656163e+02    -3.014041746737128e+01   1.447998131123114e+02    -1.701627104274587e+01   -1.524155372523619e+02   
7.004000000000000e+09    -1.599962803369172e+01   -1.534661218912715e+02   -3.012037252248934e+01   1.430044043093734e+02    -3.012647056654078e+01   1.435400299819480e+02    -1.705821700390022e+01   -1.526642911489901e+02   
7.005000000000000e+09    -1.600462405885935e+01   -1.536492486954911e+02   -3.008342200964570e+01   1.419534122304353e+02    -3.010635932348389e+01   1.426280985765379e+02    -1.710955628733150e+01   -1.529291487053942e+02   
7.006000000000000e+09    -1.600353650274743e+01   -1.538495147383820e+02   -3.002085114128079e+01   1.408338810139101e+02    -3.008354947982360e+01   1.415105264120542e+02    -1.715316801803987e+01   -1.531763601459531e+02   
7.007000000000000e+09    -1.600259238464052e+01   -1.540312529012974e+02   -3.003533317628992e+01   1.396489040757251e+02    -3.005186002067278e+01   1.406855467038624e+02    -1.719234098456240e+01   -1.534926114295038e+02   
7.008000000000000e+09    -1.600585408578945e+01   -1.542255285831401e+02   -2.997714125370636e+01   1.386688259408261e+02    -3.001194919450699e+01   1.394225361918510e+02    -1.723360360085734e+01   -1.538001885407382e+02   
7.009000000000000e+09    -1.600824536857684e+01   -1.544087712054434e+02   -2.997776534720577e+01   1.374806607970228e+02    -2.998049850640751e+01   1.382773660953185e+02    -1.727225629611432e+01   -1.541297323589699e+02   
7.010000000000000e+09    -1.601756725045239e+01   -1.545960506418006e+02   -2.993350734711028e+01   1.365883699421272e+02    -2.995257038841217e+01   1.372418474090746e+02    -1.731333715785365e+01   -1.545211131211310e+02   
7.011000000000000e+09    -1.601769831310396e+01   -1.547707925040490e+02   -2.995612818485051e+01   1.355869746463628e+02    -2.995337339925605e+01   1.362154813657921e+02    -1.734962904005130e+01   -1.548916311496700e+02   
7.012000000000000e+09    -1.603061044899608e+01   -1.549379657774363e+02   -2.989580000769315e+01   1.344193391010668e+02    -2.991749332457331e+01   1.350855397194777e+02    -1.738639952527502e+01   -1.552833019814215e+02   
7.013000000000000e+09    -1.602856341905863e+01   -1.551524909111579e+02   -2.988435110088553e+01   1.334045670937985e+02    -2.989342640632481e+01   1.339291075340337e+02    -1.743014580502177e+01   -1.557310363854625e+02   
7.014000000000000e+09    -1.604511743823701e+01   -1.553376559713699e+02   -2.984159372748023e+01   1.322752126438561e+02    -2.986867711407182e+01   1.330472494551051e+02    -1.746107878553638e+01   -1.561631524547235e+02   
7.015000000000000e+09    -1.605328890871954e+01   -1.555019888496253e+02   -2.980022890166957e+01   1.310140490250018e+02    -2.984497157190634e+01   1.318880598030810e+02    -1.749120799951157e+01   -1.566060032828663e+02   
7.016000000000000e+09    -1.606402938858844e+01   -1.557115405281426e+02   -2.980697736620579e+01   1.301521386856618e+02    -2.981820589378324e+01   1.307458782771774e+02    -1.752678503826512e+01   -1.570695800295856e+02   
7.017000000000000e+09    -1.607909190651860e+01   -1.559025690942157e+02   -2.977314992222085e+01   1.291272958700021e+02    -2.977075034171617e+01   1.300052374729542e+02    -1.755115577671122e+01   -1.575339312172661e+02   
7.018000000000000e+09    -1.609226951233530e+01   -1.561210468341653e+02   -2.973840865191116e+01   1.279532380988854e+02    -2.973874841088691e+01   1.288494739970522e+02    -1.757912785158344e+01   -1.579903182608263e+02   
7.019000000000000e+09    -1.610696070513240e+01   -1.563425895386930e+02   -2.971817082734576e+01   1.270364006949109e+02    -2.973366470429980e+01   1.277102410047580e+02    -1.760188569444965e+01   -1.584719073975458e+02   
7.020000000000000e+09    -1.612045333700798e+01   -1.565132721701104e+02   -2.972407154081290e+01   1.259916145885846e+02    -2.966581671176270e+01   1.265968279078033e+02    -1.762966447740320e+01   -1.590069379313580e+02   
7.021000000000000e+09    -1.613763619135582e+01   -1.567528105235023e+02   -2.962761533911517e+01   1.250974176699938e+02    -2.966190194322447e+01   1.257845033980138e+02    -1.764758787538288e+01   -1.595070835357712e+02   
7.022000000000000e+09    -1.615074042588149e+01   -1.569789047461623e+02   -2.962286625894211e+01   1.241175142072859e+02    -2.960741073221244e+01   1.248988758619236e+02    -1.767287652143101e+01   -1.599768703912142e+02   
7.023000000000000e+09    -1.617159213832807e+01   -1.571395649242502e+02   -2.958749115404331e+01   1.229312471538463e+02    -2.957665267022151e+01   1.236552640384465e+02    -1.768827396952431e+01   -1.604842872018344e+02   
7.024000000000000e+09    -1.618920525453472e+01   -1.574270871046852e+02   -2.953527170995906e+01   1.219679421805485e+02    -2.954699314428815e+01   1.225672175090211e+02    -1.769694513642302e+01   -1.609653208248506e+02   
7.025000000000000e+09    -1.621223513972510e+01   -1.576358585493852e+02   -2.952058095600392e+01   1.208438363596048e+02    -2.948207822576846e+01   1.215843349842073e+02    -1.772088776835115e+01   -1.614547036297894e+02   
7.026000000000000e+09    -1.623053351225210e+01   -1.578905854202078e+02   -2.948873188909833e+01   1.197634299603791e+02    -2.947632148493113e+01   1.204848294193475e+02    -1.772290393600979e+01   -1.619471284724382e+02   
7.027000000000000e+09    -1.624750907344853e+01   -1.581180066503614e+02   -2.944604540428933e+01   1.186669401672605e+02    -2.942870990361160e+01   1.194394747672738e+02    -1.774027434040626e+01   -1.624112341312526e+02   
7.028000000000000e+09    -1.626694793687143e+01   -1.583687520447925e+02   -2.939789162214371e+01   1.177275642712840e+02    -2.939037446359294e+01   1.182556819828160e+02    -1.774871082042446e+01   -1.629653448974565e+02   
7.029000000000000e+09    -1.629105040615081e+01   -1.586033864849674e+02   -2.936161182779518e+01   1.165282851074607e+02    -2.934846960390625e+01   1.172232593473710e+02    -1.776135657396242e+01   -1.634653804253878e+02   
7.030000000000000e+09    -1.631580693557206e+01   -1.588740052184037e+02   -2.932774719555185e+01   1.156231976282218e+02    -2.931798338190112e+01   1.160348205314070e+02    -1.776712815830005e+01   -1.638869562337117e+02   
7.031000000000000e+09    -1.634263953487892e+01   -1.591087499764876e+02   -2.930198393782249e+01   1.146405738376106e+02    -2.926700708765332e+01   1.150230672203312e+02    -1.778097940010740e+01   -1.643846516159995e+02   
7.032000000000000e+09    -1.636069273965496e+01   -1.593763382931299e+02   -2.924992065167812e+01   1.136011129526603e+02    -2.925469749905690e+01   1.139533108135774e+02    -1.778245226838187e+01   -1.649635749925323e+02   
7.033000000000000e+09    -1.638699254097592e+01   -1.596277523298121e+02   -2.926433565068442e+01   1.123148946906933e+02    -2.921304811742488e+01   1.129086819580932e+02    -1.778433805294697e+01   -1.654281738882710e+02   
7.034000000000000e+09    -1.641084065296072e+01   -1.598549143698077e+02   -2.919259901330633e+01   1.112672340819366e+02    -2.917468069119420e+01   1.119465756938470e+02    -1.779451706231836e+01   -1.658102889398741e+02   
7.035000000000000e+09    -1.644004458146046e+01   -1.601134470125835e+02   -2.917770257737222e+01   1.102882423870749e+02    -2.915268598817307e+01   1.105087479915647e+02    -1.779489289142711e+01   -1.662601067998866e+02   
7.036000000000000e+09    -1.646822285692751e+01   -1.603393614246393e+02   -2.917222740508385e+01   1.092651397155029e+02    -2.911326258252563e+01   1.097472236891969e+02    -1.780337518951441e+01   -1.667286918310047e+02   
7.037000000000000e+09    -1.650176058227062e+01   -1.605977808977570e+02   -2.912349502046471e+01   1.081788482751592e+02    -2.909949989537665e+01   1.087254180967244e+02    -1.780185839752196e+01   -1.670937281838247e+02   
7.038000000000000e+09    -1.652334135546459e+01   -1.607944797187947e+02   -2.908678303581440e+01   1.070576033140850e+02    -2.904878546039082e+01   1.075850896525354e+02    -1.780301450831320e+01   -1.675881389462677e+02   
7.039000000000000e+09    -1.654810766607358e+01   -1.610294109884124e+02   -2.906539823290709e+01   1.062513954114196e+02    -2.904672298213352e+01   1.064482873677167e+02    -1.780528390877161e+01   -1.679974942911215e+02   
7.040000000000000e+09    -1.657616217734880e+01   -1.612476847405636e+02   -2.900089590221362e+01   1.048701203103785e+02    -2.897863840600728e+01   1.053952098548142e+02    -1.780459749089578e+01   -1.684090692628638e+02   
7.041000000000000e+09    -1.660943111786691e+01   -1.614674859773861e+02   -2.898361775308850e+01   1.040555433891257e+02    -2.894700269124872e+01   1.041800353795127e+02    -1.781395441885128e+01   -1.687980644423846e+02   
7.042000000000000e+09    -1.663186610683403e+01   -1.616872682455416e+02   -2.895088826549006e+01   1.029257629357459e+02    -2.892702109220366e+01   1.031394830322863e+02    -1.781947658109928e+01   -1.691964499123951e+02   
7.043000000000000e+09    -1.666651159557313e+01   -1.619479364839225e+02   -2.890401679596860e+01   1.016321047687032e+02    -2.887835507845133e+01   1.020972203476317e+02    -1.782048277306383e+01   -1.695531810681391e+02   
7.044000000000000e+09    -1.669132947107251e+01   -1.620775387261536e+02   -2.889667837893713e+01   1.007306076257039e+02    -2.885525587514867e+01   1.009974737442050e+02    -1.781652909870316e+01   -1.698745310328059e+02   
7.045000000000000e+09    -1.672467051016192e+01   -1.622718104309792e+02   -2.888006954959850e+01   9.971520606769974e+01    -2.881795256016084e+01   9.997087038185852e+01    -1.782905209004613e+01   -1.702027176521737e+02   
7.046000000000000e+09    -1.675697127306692e+01   -1.624837266268158e+02   -2.883333531282816e+01   9.849397648080408e+01    -2.877550320753836e+01   9.891487181708470e+01    -1.782177623108829e+01   -1.705643458576374e+02   
7.047000000000000e+09    -1.679299743484705e+01   -1.626284242701526e+02   -2.880998594512943e+01   9.743669522814652e+01    -2.874643993894560e+01   9.774708811130603e+01    -1.782754415651434e+01   -1.707966383225911e+02   
7.048000000000000e+09    -1.682986359162722e+01   -1.627902870686461e+02   -2.877556628717217e+01   9.631420276165477e+01    -2.873681043122211e+01   9.673210550032118e+01    -1.783485331784129e+01   -1.711054671031238e+02   
7.049000000000000e+09    -1.687327156632099e+01   -1.629549842457318e+02   -2.875856705360784e+01   9.528950171204953e+01    -2.868573093672598e+01   9.548408981760507e+01    -1.783863914938014e+01   -1.714045247046635e+02   
7.050000000000000e+09    -1.691281717774574e+01   -1.630567847017110e+02   -2.871225135645739e+01   9.401301429506258e+01    -2.867664113765227e+01   9.445621017621667e+01    -1.785413439172169e+01   -1.715788730179695e+02   
7.051000000000000e+09    -1.694807915464285e+01   -1.632025309247992e+02   -2.869323007984574e+01   9.294674113086978e+01    -2.863899639279437e+01   9.326484114543035e+01    -1.785123588252419e+01   -1.718650877068281e+02   
7.052000000000000e+09    -1.698791736730223e+01   -1.633456766022579e+02   -2.866380093982931e+01   9.183662056031714e+01    -2.865329251268904e+01   9.224808013577787e+01    -1.786017970452520e+01   -1.720237579475660e+02   
7.053000000000000e+09    -1.702526775586753e+01   -1.634554899213398e+02   -2.865246016413014e+01   9.053751979239458e+01    -2.859538506757616e+01   9.106323720690280e+01    -1.787497825636752e+01   -1.722871468433780e+02   
7.054000000000000e+09    -1.707336232393120e+01   -1.636010076203369e+02   -2.860956517237097e+01   8.971625730759887e+01    -2.856379972190084e+01   8.998472269507310e+01    -1.788656461121515e+01   -1.723731383108064e+02   
7.055000000000000e+09    -1.711231086704460e+01   -1.636840782507893e+02   -2.856912747506227e+01   8.861133554239913e+01    -2.852875431822040e+01   8.883347650521809e+01    -1.789926427962970e+01   -1.725681014251918e+02   
7.056000000000000e+09    -1.716031579223155e+01   -1.637382749628861e+02   -2.858926945219779e+01   8.742820359651293e+01    -2.854140335508429e+01   8.778744716186340e+01    -1.791601036828695e+01   -1.726873314875849e+02   
7.057000000000000e+09    -1.720597529974179e+01   -1.638288726245307e+02   -2.853240408575267e+01   8.644513296087369e+01    -2.850903897169147e+01   8.674243295354329e+01    -1.792845397907224e+01   -1.728719038501966e+02   
7.058000000000000e+09    -1.724565539185863e+01   -1.639430562783547e+02   -2.850819633498400e+01   8.527785026992619e+01    -2.848852160282859e+01   8.567617962451801e+01    -1.795312095652697e+01   -1.729290944357020e+02   
7.059000000000000e+09    -1.729475033464583e+01   -1.640454321624707e+02   -2.848204468840428e+01   8.420346654189578e+01    -2.845695457340960e+01   8.466475965114499e+01    -1.796414659352035e+01   -1.730203070717658e+02   
7.060000000000000e+09    -1.735280530547595e+01   -1.641652087098886e+02   -2.847650152263132e+01   8.311534739402705e+01    -2.842490601120640e+01   8.346254761123105e+01    -1.798309343140007e+01   -1.731430589664336e+02   
7.061000000000000e+09    -1.740120714344930e+01   -1.642042375682371e+02   -2.843046607423194e+01   8.215679163211647e+01    -2.841182881248924e+01   8.243242910025376e+01    -1.801251130711309e+01   -1.731557185633629e+02   
7.062000000000000e+09    -1.745906127006765e+01   -1.642668489421239e+02   -2.844326637946406e+01   8.089303970192647e+01    -2.837839292299960e+01   8.140299649844705e+01    -1.803535588744684e+01   -1.732215584482736e+02   
7.063000000000000e+09    -1.750812696089995e+01   -1.643352195276666e+02   -2.840265946942807e+01   8.000272659668173e+01    -2.835368993104503e+01   8.015465774162189e+01    -1.805954595119226e+01   -1.732309407593012e+02   
7.064000000000000e+09    -1.756381120456742e+01   -1.643393626268000e+02   -2.838645975097223e+01   7.872039308222213e+01    -2.836498259042660e+01   7.925144489906994e+01    -1.809752312431561e+01   -1.732435697291489e+02   
7.065000000000000e+09    -1.762211386877842e+01   -1.644334548840738e+02   -2.834627920248024e+01   7.781443297356135e+01    -2.830525897236278e+01   7.793485747974866e+01    -1.812577290009656e+01   -1.732367284360292e+02   
7.066000000000000e+09    -1.767624967668996e+01   -1.644983670166566e+02   -2.834069074138516e+01   7.662065866011422e+01    -2.829581590724978e+01   7.687781491429020e+01    -1.816988943398243e+01   -1.732267891716489e+02   
7.067000000000000e+09    -1.773118412472225e+01   -1.644800108688742e+02   -2.828497724058928e+01   7.557293444510125e+01    -2.828407334101012e+01   7.589239278516573e+01    -1.821371366736233e+01   -1.731376625988354e+02   
7.068000000000000e+09    -1.778476137645739e+01   -1.645361005143323e+02   -2.830275679575498e+01   7.437069754946853e+01    -2.825470754651685e+01   7.472638785528301e+01    -1.826080868703817e+01   -1.730969166454086e+02   
7.069000000000000e+09    -1.784308837993084e+01   -1.646028151387482e+02   -2.826303368763774e+01   7.336349549013194e+01    -2.824976850397556e+01   7.361613096784595e+01    -1.830958432592623e+01   -1.730759392172731e+02   
7.070000000000000e+09    -1.791080782951071e+01   -1.646161880781113e+02   -2.826847400678054e+01   7.215319481687017e+01    -2.822230272169262e+01   7.245742006805528e+01    -1.836529708186909e+01   -1.729484866244520e+02   
7.071000000000000e+09    -1.797214783257808e+01   -1.646880010857784e+02   -2.823536493494956e+01   7.117666441982622e+01    -2.820544107586708e+01   7.137664752632838e+01    -1.843093359287579e+01   -1.728649414313271e+02   
7.072000000000000e+09    -1.803652119758557e+01   -1.646936635646053e+02   -2.822643147642501e+01   7.005475006584113e+01    -2.816913782320932e+01   7.017615400505423e+01    -1.848855226289592e+01   -1.727995434004150e+02   
7.073000000000000e+09    -1.809821432668829e+01   -1.646837696641351e+02   -2.819558596147605e+01   6.875302961196219e+01    -2.815816945259973e+01   6.900357373334909e+01    -1.856251626201673e+01   -1.726851771897076e+02   
7.074000000000000e+09    -1.815762883507206e+01   -1.646691457490885e+02   -2.818150113343791e+01   6.787082561932159e+01    -2.816221621465369e+01   6.808106916741052e+01    -1.863683355929228e+01   -1.725540357186152e+02   
7.075000000000000e+09    -1.821966193180342e+01   -1.646606052114869e+02   -2.818934099885462e+01   6.670831075399828e+01    -2.813938741052259e+01   6.696839125710417e+01    -1.871350977363259e+01   -1.724233363132956e+02   
7.076000000000000e+09    -1.828042540777675e+01   -1.646585032673053e+02   -2.816649934070513e+01   6.552015249416380e+01    -2.812227979176314e+01   6.575130043603400e+01    -1.880102519007425e+01   -1.722534729384381e+02   
7.077000000000000e+09    -1.834179236765087e+01   -1.646405566718545e+02   -2.811729357467725e+01   6.443289850937531e+01    -2.809661335587090e+01   6.469053832879595e+01    -1.888326162978758e+01   -1.721040515375339e+02   
7.078000000000000e+09    -1.840457097269385e+01   -1.645762850142980e+02   -2.815578354250573e+01   6.337948374605292e+01    -2.807367681624817e+01   6.364220712529936e+01    -1.897727440083428e+01   -1.719581743508772e+02   
7.079000000000000e+09    -1.847116298469638e+01   -1.644955878503868e+02   -2.810532067533697e+01   6.229439405747137e+01    -2.809044426772696e+01   6.246967450904465e+01    -1.907180189754881e+01   -1.717449412959967e+02   
7.080000000000000e+09    -1.854008697568443e+01   -1.644896808793667e+02   -2.812405155134816e+01   6.129264128338708e+01    -2.806320806608848e+01   6.130078893464336e+01    -1.917230387349589e+01   -1.715658990023207e+02   
7.081000000000000e+09    -1.859812609595233e+01   -1.644088225574372e+02   -2.809768181062898e+01   6.004596789478893e+01    -2.804248408077979e+01   6.015267649969910e+01    -1.927550879172533e+01   -1.714070164636922e+02   
7.082000000000000e+09    -1.866253534220629e+01   -1.643427192575004e+02   -2.808855772618658e+01   5.905359502315159e+01    -2.803983447768674e+01   5.903431745259092e+01    -1.938403223789235e+01   -1.711539881144767e+02   
7.083000000000000e+09    -1.873003500375609e+01   -1.642368467557612e+02   -2.807374046407572e+01   5.788479621846436e+01    -2.800732345171433e+01   5.805135409714078e+01    -1.950554904769608e+01   -1.709898094298851e+02   
7.084000000000000e+09    -1.879716033040441e+01   -1.641675728677115e+02   -2.805429983950828e+01   5.685020389084001e+01    -2.804270106553160e+01   5.684192519648485e+01    -1.962277859875181e+01   -1.707856668732019e+02   
