[Version] 2.0
! Rohde & Schwarz Vector Network Analyzer
! Rohde-Schwarz,ZNL20-2Port,1323001220200009,1.71.1.10-23.02.1.238
! 
! Port Assignments:
! Nominal Port -> Actual Test Port
! --------------------------------
!   1 -> 1
!   2 -> 2

! Created: GMT+3 2024-09-24 16:07:49

# Hz S DB R 50

[Number of Ports] 2
[Two-Port Data Order] 21_12
[Number of Frequencies] 6001

[Network Data] 
! freq[Hz]               S11[mag dB]              S11[ang]                 S21[mag dB]              S21[ang]                 S12[mag dB]              S12[ang]                 S22[mag dB]              S22[ang]                 
7.000000000000000e+09    -1.607634527833692e+01   -1.509970235582368e+02   -3.024511460890071e+01   1.577601960912196e+02    -3.022045690745244e+01   1.583652232401493e+02    -1.703106333887722e+01   -1.492399024222215e+02   
7.001000000000000e+09    -1.606375674257727e+01   -1.511624483061069e+02   -3.019594285611150e+01   1.565697058672335e+02    -3.018438386684324e+01   1.571429200658523e+02    -1.707632847419941e+01   -1.493935873373704e+02   
7.002000000000000e+09    -1.606166577467242e+01   -1.513354371688168e+02   -3.019501597807135e+01   1.555640088265216e+02    -3.016272217471501e+01   1.559902771530769e+02    -1.711562849394813e+01   -1.495567652690970e+02   
7.003000000000000e+09    -1.605625277486358e+01   -1.514919599769134e+02   -3.019426643897993e+01   1.543521788044373e+02    -3.011543642772501e+01   1.550012057669652e+02    -1.715262663428468e+01   -1.497308439103370e+02   
7.004000000000000e+09    -1.604777797891333e+01   -1.516355584861545e+02   -3.015573729217220e+01   1.533816436891282e+02    -3.011188206292273e+01   1.536947141474899e+02    -1.719261475458767e+01   -1.499270464693937e+02   
7.005000000000000e+09    -1.604670478217121e+01   -1.518011968700652e+02   -3.010211016215276e+01   1.522129768394302e+02    -3.008237828547419e+01   1.527707558020909e+02    -1.723133113603844e+01   -1.501448417707770e+02   
7.006000000000000e+09    -1.604675946878058e+01   -1.519771011789449e+02   -3.008762268885634e+01   1.512335134949200e+02    -3.005980064258670e+01   1.515473203606092e+02    -1.727380589081459e+01   -1.503574060750502e+02   
7.007000000000000e+09    -1.603947671980011e+01   -1.521204097437832e+02   -3.009063095902009e+01   1.502908255709420e+02    -3.004710071762210e+01   1.506313009854415e+02    -1.730943994000643e+01   -1.506309190230141e+02   
7.008000000000000e+09    -1.604295820446687e+01   -1.522906186178765e+02   -3.004210721393447e+01   1.490172183531399e+02    -3.001991691976317e+01   1.494214225342220e+02    -1.734564323226825e+01   -1.508862124051188e+02   
7.009000000000000e+09    -1.603526832225029e+01   -1.524542098996683e+02   -3.004646879959298e+01   1.480667334165689e+02    -2.998573344033823e+01   1.484173756205428e+02    -1.738463041088722e+01   -1.511962320594830e+02   
7.010000000000000e+09    -1.604104287660767e+01   -1.526682531373746e+02   -2.998644399665434e+01   1.470063989464545e+02    -2.998210909238097e+01   1.474031069934059e+02    -1.741388961814634e+01   -1.515254659709922e+02   
7.011000000000000e+09    -1.603635370505870e+01   -1.528160635548690e+02   -3.000871042651789e+01   1.461579213573492e+02    -2.994750335243673e+01   1.462347970809253e+02    -1.744362613818127e+01   -1.518472769788062e+02   
7.012000000000000e+09    -1.603947909276218e+01   -1.529685499919747e+02   -2.996919411715734e+01   1.449735665985718e+02    -2.993281809494766e+01   1.451608846618892e+02    -1.747526314654103e+01   -1.522134749793744e+02   
7.013000000000000e+09    -1.604348156804062e+01   -1.531230651081628e+02   -2.994289145095102e+01   1.439773685042848e+02    -2.991801482294321e+01   1.441625904008852e+02    -1.750747481118339e+01   -1.526114630608488e+02   
7.014000000000000e+09    -1.605181241764980e+01   -1.533543692517561e+02   -2.990071236441048e+01   1.428028749711718e+02    -2.987443193031122e+01   1.431357781456579e+02    -1.753620801053140e+01   -1.530018094068737e+02   
7.015000000000000e+09    -1.604934417251188e+01   -1.534993046069216e+02   -2.989352497055824e+01   1.416322810387643e+02    -2.987824411786083e+01   1.419893077590021e+02    -1.756455208077114e+01   -1.533924246646939e+02   
7.016000000000000e+09    -1.605326966203727e+01   -1.536204820206172e+02   -2.987745437547045e+01   1.409132211441494e+02    -2.982518437188636e+01   1.409915920614122e+02    -1.758982562580618e+01   -1.538147593180587e+02   
7.017000000000000e+09    -1.606373211840496e+01   -1.538110739957112e+02   -2.983433787607710e+01   1.398711198301933e+02    -2.979045104092558e+01   1.401616472881100e+02    -1.761044636734857e+01   -1.542522084398365e+02   
7.018000000000000e+09    -1.607054436275997e+01   -1.540141845044446e+02   -2.980203730944372e+01   1.387528480937835e+02    -2.978428692677319e+01   1.390491117240122e+02    -1.763177502878109e+01   -1.546797316061910e+02   
7.019000000000000e+09    -1.607998165253852e+01   -1.542230647201164e+02   -2.977554632185679e+01   1.377015289619671e+02    -2.976226044939045e+01   1.379734733459139e+02    -1.765149588540747e+01   -1.551198629601539e+02   
7.020000000000000e+09    -1.608451644289034e+01   -1.543970936832882e+02   -2.973851288131378e+01   1.368990350982389e+02    -2.970558952773436e+01   1.368760791748692e+02    -1.767343341846192e+01   -1.556613734162426e+02   
7.021000000000000e+09    -1.609618443513036e+01   -1.546017788827625e+02   -2.966725777499532e+01   1.359837378047221e+02    -2.968926203790788e+01   1.360876102217453e+02    -1.767908070135408e+01   -1.561046113846997e+02   
7.022000000000000e+09    -1.610442958635513e+01   -1.547923865791552e+02   -2.965944104625832e+01   1.347178378383164e+02    -2.963586063731721e+01   1.349903215508548e+02    -1.770148104970755e+01   -1.565226643515196e+02   
7.023000000000000e+09    -1.611675785591652e+01   -1.549664295724345e+02   -2.961933555163817e+01   1.337687950123224e+02    -2.961071358948482e+01   1.339427697272540e+02    -1.770729541005523e+01   -1.570381655422750e+02   
7.024000000000000e+09    -1.612707287381322e+01   -1.552376111427462e+02   -2.957995640460027e+01   1.326771928380988e+02    -2.956317709918576e+01   1.326713322169925e+02    -1.772173460125209e+01   -1.575069097142748e+02   
7.025000000000000e+09    -1.614089934925177e+01   -1.554301018154761e+02   -2.955891900338397e+01   1.317336926447853e+02    -2.954308912373599e+01   1.316363756034663e+02    -1.772793075194458e+01   -1.579892792291739e+02   
7.026000000000000e+09    -1.615216791010657e+01   -1.556912369376367e+02   -2.951253207563476e+01   1.305641141258091e+02    -2.951450239410457e+01   1.307440326163078e+02    -1.772955199382016e+01   -1.584734939726667e+02   
7.027000000000000e+09    -1.616671367188861e+01   -1.559063500235407e+02   -2.945150670471375e+01   1.295103495912966e+02    -2.947778432329750e+01   1.295982991109996e+02    -1.773457464847832e+01   -1.589286219836397e+02   
7.028000000000000e+09    -1.617753138099236e+01   -1.561457643401463e+02   -2.939752186805230e+01   1.285587827212072e+02    -2.945918413219205e+01   1.286438644358763e+02    -1.773642241252346e+01   -1.594640675498785e+02   
7.029000000000000e+09    -1.619161132893126e+01   -1.563913048824144e+02   -2.937285698438650e+01   1.274060737122141e+02    -2.937693466712678e+01   1.273225474049748e+02    -1.774811639918234e+01   -1.599007348603138e+02   
7.030000000000000e+09    -1.621161020921144e+01   -1.566420089250018e+02   -2.933291370580782e+01   1.264830638412059e+02    -2.939322704170498e+01   1.263617284400484e+02    -1.774738916664693e+01   -1.603427572782978e+02   
7.031000000000000e+09    -1.622752779907981e+01   -1.568944048118326e+02   -2.931646052678953e+01   1.253153508981176e+02    -2.931115427678092e+01   1.254583183034355e+02    -1.774844728203691e+01   -1.608737758339795e+02   
7.032000000000000e+09    -1.624064391737895e+01   -1.571106185066397e+02   -2.926322820791373e+01   1.243508516398317e+02    -2.931497939487820e+01   1.242849938207484e+02    -1.774953704384028e+01   -1.613542481909576e+02   
7.033000000000000e+09    -1.626087778508787e+01   -1.573358545418778e+02   -2.925863598599131e+01   1.230700447577169e+02    -2.924254367017321e+01   1.231461183197446e+02    -1.775134007591468e+01   -1.618207305709417e+02   
7.034000000000000e+09    -1.627662863825608e+01   -1.575968826898317e+02   -2.920183949502114e+01   1.220174655227281e+02    -2.923091683592817e+01   1.221387072092413e+02    -1.774972948464450e+01   -1.622015384197543e+02   
7.035000000000000e+09    -1.629340061563228e+01   -1.578413990432414e+02   -2.918912467903538e+01   1.210115433257562e+02    -2.919379873758383e+01   1.209562786360509e+02    -1.774689253876018e+01   -1.626367259625089e+02   
7.036000000000000e+09    -1.631250701961918e+01   -1.581012268925743e+02   -2.916572729452181e+01   1.200749805004446e+02    -2.913857822381583e+01   1.199914745600679e+02    -1.774686553647287e+01   -1.630414189620361e+02   
7.037000000000000e+09    -1.632992828490896e+01   -1.583580739956347e+02   -2.912387275568855e+01   1.190226217724859e+02    -2.914544419559047e+01   1.189675171660089e+02    -1.774097502362949e+01   -1.634475235440853e+02   
7.038000000000000e+09    -1.635219304842158e+01   -1.585563301804302e+02   -2.907250128323775e+01   1.177578030281330e+02    -2.911024278431416e+01   1.178533132180239e+02    -1.773448893063401e+01   -1.639133434328624e+02   
7.039000000000000e+09    -1.636736983040984e+01   -1.587830884121386e+02   -2.904077111664319e+01   1.169413864808193e+02    -2.908902955805107e+01   1.168979853847205e+02    -1.773155928934500e+01   -1.643351954894055e+02   
7.040000000000000e+09    -1.638513615027410e+01   -1.589838880849173e+02   -2.902957988606602e+01   1.156867465106061e+02    -2.906863857565850e+01   1.158751193354572e+02    -1.772357522236988e+01   -1.647348462085840e+02   
7.041000000000000e+09    -1.641404369962799e+01   -1.592164769176812e+02   -2.898454243377673e+01   1.146611874832081e+02    -2.902624887554421e+01   1.146581909025171e+02    -1.771629900420108e+01   -1.650699897877550e+02   
7.042000000000000e+09    -1.642493720993285e+01   -1.594279949088111e+02   -2.894187519633579e+01   1.135419092269758e+02    -2.898230386900211e+01   1.136421086826382e+02    -1.771492353597073e+01   -1.654804235086104e+02   
7.043000000000000e+09    -1.644411120233558e+01   -1.596625121202545e+02   -2.890104080607130e+01   1.125188749276864e+02    -2.893641250521044e+01   1.126755507005707e+02    -1.771003235449374e+01   -1.658610601072205e+02   
7.044000000000000e+09    -1.646993623463377e+01   -1.598399256680820e+02   -2.890576360141459e+01   1.115166100720947e+02    -2.891917724403367e+01   1.115761305649091e+02    -1.769593777242233e+01   -1.662227188390099e+02   
7.045000000000000e+09    -1.648990208348955e+01   -1.600792782532588e+02   -2.885134488665853e+01   1.104729383365721e+02    -2.888517676308163e+01   1.106142067466390e+02    -1.769654680359646e+01   -1.665011910861431e+02   
7.046000000000000e+09    -1.650964257519708e+01   -1.602452239588009e+02   -2.882375393796625e+01   1.092784943838390e+02    -2.884603906446891e+01   1.093932960278562e+02    -1.768816699442242e+01   -1.668614814732361e+02   
7.047000000000000e+09    -1.653648167927037e+01   -1.604390535148899e+02   -2.879989798262254e+01   1.082267531008502e+02    -2.882677428597001e+01   1.082741475295285e+02    -1.769167890877929e+01   -1.671557590099270e+02   
7.048000000000000e+09    -1.656744149631124e+01   -1.606536530673882e+02   -2.878211011989855e+01   1.071896158484084e+02    -2.876763660795098e+01   1.072983509313515e+02    -1.768331420201551e+01   -1.674373711806708e+02   
7.049000000000000e+09    -1.659280442190665e+01   -1.607981471121536e+02   -2.874209165359374e+01   1.060994747759507e+02    -2.877847150060166e+01   1.062296791628258e+02    -1.767675615638035e+01   -1.677064880234178e+02   
7.050000000000000e+09    -1.662123148511635e+01   -1.609892914967016e+02   -2.869639492574592e+01   1.047762618954279e+02    -2.873810337223169e+01   1.052185426124012e+02    -1.768050286932844e+01   -1.679571061615969e+02   
7.051000000000000e+09    -1.665002350618921e+01   -1.611041083646341e+02   -2.866298207942375e+01   1.038567118063636e+02    -2.871963813858120e+01   1.040914566608776e+02    -1.767522853999249e+01   -1.681881524644808e+02   
7.052000000000000e+09    -1.667688413165259e+01   -1.612568960658560e+02   -2.863243613933294e+01   1.027945846698218e+02    -2.870038677559092e+01   1.031122226305199e+02    -1.767685314208552e+01   -1.684028964673973e+02   
7.053000000000000e+09    -1.671100048977003e+01   -1.614421139120856e+02   -2.863030309434215e+01   1.016128716799751e+02    -2.864413427837877e+01   1.019922998006693e+02    -1.767667218595579e+01   -1.685984411089828e+02   
7.054000000000000e+09    -1.674836209270019e+01   -1.615957711002219e+02   -2.858463015376761e+01   1.006095422440867e+02    -2.862924261102439e+01   1.009161785637399e+02    -1.768018281109868e+01   -1.687168630952970e+02   
7.055000000000000e+09    -1.677405759586802e+01   -1.617328973547472e+02   -2.855930353219614e+01   9.951163475856053e+01    -2.861502290472975e+01   9.970129698838761e+01    -1.767735228681303e+01   -1.689257351553345e+02   
7.056000000000000e+09    -1.681210965829786e+01   -1.618389099184993e+02   -2.854636354279123e+01   9.841271221662335e+01    -2.858256280062593e+01   9.883848134548406e+01    -1.768207789443071e+01   -1.690647070116202e+02   
7.057000000000000e+09    -1.684864938748014e+01   -1.619450817385424e+02   -2.851950050126888e+01   9.728128691254885e+01    -2.854198719204699e+01   9.767920472395944e+01    -1.768035799170413e+01   -1.692342569680568e+02   
7.058000000000000e+09    -1.688839104950761e+01   -1.621000554035660e+02   -2.848926104901737e+01   9.626129046082191e+01    -2.852682212686633e+01   9.662939246958250e+01    -1.769361028346173e+01   -1.693169927517293e+02   
7.059000000000000e+09    -1.692824159521524e+01   -1.622195951901490e+02   -2.846491466452532e+01   9.516274781632214e+01    -2.848835428094975e+01   9.555272781848460e+01    -1.770337501531432e+01   -1.693975173722862e+02   
7.060000000000000e+09    -1.696592714982580e+01   -1.623438441891683e+02   -2.845214730197323e+01   9.419479951061918e+01    -2.848067550980407e+01   9.453876850725010e+01    -1.770603254880399e+01   -1.695202839579751e+02   
7.061000000000000e+09    -1.701013929842030e+01   -1.624664858085549e+02   -2.840879141776086e+01   9.296790540260251e+01    -2.844773325804148e+01   9.365877689935586e+01    -1.771849069043556e+01   -1.695333535435038e+02   
7.062000000000000e+09    -1.705318841448651e+01   -1.625646385993834e+02   -2.840277969253770e+01   9.194091579766950e+01    -2.840926565575169e+01   9.237947275788325e+01    -1.772216123446967e+01   -1.695714392479852e+02   
7.063000000000000e+09    -1.710008067500614e+01   -1.627055070467266e+02   -2.836673272316074e+01   9.089913296279063e+01    -2.839077526824332e+01   9.129632135834076e+01    -1.773397285580312e+01   -1.696491680777229e+02   
7.064000000000000e+09    -1.714565942496692e+01   -1.627528638860155e+02   -2.833670337231193e+01   8.991214215178253e+01    -2.838841839098513e+01   9.040647438949986e+01    -1.776126977684438e+01   -1.696449118863079e+02   
7.065000000000000e+09    -1.719044876408532e+01   -1.629452564952999e+02   -2.832210078786865e+01   8.890376874463284e+01    -2.834537733450623e+01   8.918141062358724e+01    -1.777621169686101e+01   -1.697484434144254e+02   
7.066000000000000e+09    -1.723531080305619e+01   -1.629994784513553e+02   -2.831334510708380e+01   8.766073697779078e+01    -2.834323167518765e+01   8.826085375136405e+01    -1.780184967585771e+01   -1.697237064308165e+02   
7.067000000000000e+09    -1.728392568053439e+01   -1.631241935514174e+02   -2.826325026563371e+01   8.653913746055269e+01    -2.829854334537080e+01   8.723242973069780e+01    -1.782941294222972e+01   -1.696777511007709e+02   
7.068000000000000e+09    -1.733324711369012e+01   -1.632114535700813e+02   -2.826566824992388e+01   8.563152879470319e+01    -2.829019270499919e+01   8.604551828107000e+01    -1.786962630766616e+01   -1.696231480449636e+02   
7.069000000000000e+09    -1.738171813065084e+01   -1.633279105592765e+02   -2.823073993219029e+01   8.454051821480795e+01    -2.826094460087311e+01   8.498533531593759e+01    -1.790574225163651e+01   -1.696298567936528e+02   
7.070000000000000e+09    -1.744332207355121e+01   -1.634087905072406e+02   -2.823927045481179e+01   8.349307819920057e+01    -2.823601170774207e+01   8.392748276851628e+01    -1.794481883555553e+01   -1.695592137447907e+02   
7.071000000000000e+09    -1.748891705271627e+01   -1.635258978985427e+02   -2.819564207831075e+01   8.245461251677740e+01    -2.822060772185235e+01   8.290914102168732e+01    -1.799057647499682e+01   -1.695043806013730e+02   
7.072000000000000e+09    -1.755047761897919e+01   -1.636026106026640e+02   -2.819260245292469e+01   8.145697955279871e+01    -2.820151657565088e+01   8.183674724460614e+01    -1.803430145066749e+01   -1.694263114079543e+02   
7.073000000000000e+09    -1.760747997189835e+01   -1.636592576924507e+02   -2.813729121043011e+01   8.024194196803339e+01    -2.817265913766949e+01   8.070727877814275e+01    -1.808784725932033e+01   -1.693611788535282e+02   
7.074000000000000e+09    -1.765737524814112e+01   -1.637371334870287e+02   -2.813253877037983e+01   7.931727635367479e+01    -2.816530582814883e+01   7.972214472094909e+01    -1.814200597652673e+01   -1.692451702637949e+02   
7.075000000000000e+09    -1.771188754711990e+01   -1.638205447805127e+02   -2.811596272033059e+01   7.817753437832691e+01    -2.814765519347955e+01   7.864199089003976e+01    -1.820360841218764e+01   -1.691208568637945e+02   
7.076000000000000e+09    -1.777090771165010e+01   -1.638506764182652e+02   -2.811513387593001e+01   7.711046764524940e+01    -2.812896758569314e+01   7.760986238897743e+01    -1.827073189695397e+01   -1.689927294646553e+02   
7.077000000000000e+09    -1.782468167670812e+01   -1.639267611167689e+02   -2.805619141621296e+01   7.593339592607467e+01    -2.808448519917026e+01   7.653986827903138e+01    -1.833918836573768e+01   -1.688995208096071e+02   
7.078000000000000e+09    -1.789017397999056e+01   -1.639545530108022e+02   -2.808348210776310e+01   7.494709534851796e+01    -2.807470353504002e+01   7.550306200206423e+01    -1.840295852093111e+01   -1.687707484784157e+02   
7.079000000000000e+09    -1.794911904601000e+01   -1.640071715706523e+02   -2.806161180808918e+01   7.384441772020440e+01    -2.805967838587511e+01   7.433886645364416e+01    -1.848047549882601e+01   -1.685965080124464e+02   
7.080000000000000e+09    -1.801023949519145e+01   -1.640490266824141e+02   -2.803488894008980e+01   7.288235133398483e+01    -2.803729875282520e+01   7.324949132763841e+01    -1.855962324435771e+01   -1.684929793761584e+02   
7.081000000000000e+09    -1.805559869920827e+01   -1.640202276755815e+02   -2.803196949112504e+01   7.164898520506230e+01    -2.802502998947489e+01   7.216743040200761e+01    -1.864385104312310e+01   -1.683419489328476e+02   
7.082000000000000e+09    -1.812088786384536e+01   -1.640304705965802e+02   -2.800561346912134e+01   7.055616801907436e+01    -2.799092004836865e+01   7.111016984584941e+01    -1.873857556609902e+01   -1.681716293370957e+02   
7.083000000000000e+09    -1.818578679857446e+01   -1.640685457195928e+02   -2.800063809915857e+01   6.961411256825818e+01    -2.796785902246521e+01   7.010769604178492e+01    -1.882760588051771e+01   -1.680315110893825e+02   
7.084000000000000e+09    -1.824184841384399e+01   -1.640737976676604e+02   -2.796308750174602e+01   6.856427937946903e+01    -2.797994110766946e+01   6.905026347596878e+01    -1.892086999102446e+01   -1.678554963369897e+02   
