[Version] 2.0
! Rohde & Schwarz Vector Network Analyzer
! Rohde-Schwarz,ZNL20-2Port,1323001220200009,1.71.1.10-23.02.1.238
! 
! Port Assignments:
! Nominal Port -> Actual Test Port
! --------------------------------
!   1 -> 1
!   2 -> 2

! Created: GMT+3 2024-09-24 16:07:34

# Hz S DB R 50

[Number of Ports] 2
[Two-Port Data Order] 21_12
[Number of Frequencies] 6001

[Network Data] 
! freq[Hz]               S11[mag dB]              S11[ang]                 S21[mag dB]              S21[ang]                 S12[mag dB]              S12[ang]                 S22[mag dB]              S22[ang]                 
7.000000000000000e+09    -1.605243763432271e+01   -1.516667776968748e+02   -3.022800914566694e+01   1.538205838670098e+02    -3.024306327316323e+01   1.541647508994284e+02    -1.695764410248249e+01   -1.501491162950976e+02   
7.001000000000000e+09    -1.604479682202045e+01   -1.518283386962481e+02   -3.018140697940906e+01   1.527068251003953e+02    -3.023572535512838e+01   1.530543777844223e+02    -1.699422155625614e+01   -1.503117910412338e+02   
7.002000000000000e+09    -1.603863679680940e+01   -1.520079936516537e+02   -3.017416824248951e+01   1.516507482686306e+02    -3.021321899467988e+01   1.518357811438356e+02    -1.703726226186654e+01   -1.505043368571360e+02   
7.003000000000000e+09    -1.603173884553427e+01   -1.521910558989499e+02   -3.019595548298699e+01   1.504724071285097e+02    -3.017757266135220e+01   1.508636645026373e+02    -1.708030206396794e+01   -1.506888848586535e+02   
7.004000000000000e+09    -1.602882839922417e+01   -1.523008164304871e+02   -3.014658997636799e+01   1.493904713638887e+02    -3.012826823443696e+01   1.497790666595864e+02    -1.711901016311672e+01   -1.509312994343451e+02   
7.005000000000000e+09    -1.602943466860195e+01   -1.524754215105432e+02   -3.010894070590552e+01   1.483207585855312e+02    -3.012115367871221e+01   1.486081747684593e+02    -1.716721601738959e+01   -1.511668616272986e+02   
7.006000000000000e+09    -1.602254301359427e+01   -1.526469842296947e+02   -3.008243799649517e+01   1.474231601244844e+02    -3.009848294125062e+01   1.477118481049616e+02    -1.720296001509832e+01   -1.514026506975825e+02   
7.007000000000000e+09    -1.602301273086648e+01   -1.528460833839019e+02   -3.008828253000349e+01   1.462721849711139e+02    -3.006546108570269e+01   1.467645530882648e+02    -1.724377617940661e+01   -1.517147642082257e+02   
7.008000000000000e+09    -1.602147241353371e+01   -1.530316970317381e+02   -3.004599760895140e+01   1.451606670615432e+02    -3.005282378850551e+01   1.455120782420674e+02    -1.728200036756787e+01   -1.519881172735273e+02   
7.009000000000000e+09    -1.601335461844965e+01   -1.531644048491647e+02   -3.000658105415443e+01   1.440326789865566e+02    -3.000260900239334e+01   1.443946156195963e+02    -1.732630344848536e+01   -1.523025987050469e+02   
7.010000000000000e+09    -1.602400717180855e+01   -1.533624958687251e+02   -2.996888925787610e+01   1.430658634800298e+02    -2.998437747641600e+01   1.434249346255349e+02    -1.735986468433872e+01   -1.526267313525596e+02   
7.011000000000000e+09    -1.602744342529568e+01   -1.535223609476429e+02   -2.999003567897279e+01   1.421755850317251e+02    -2.994340894633267e+01   1.423719624978252e+02    -1.739261327079927e+01   -1.530288105364420e+02   
7.012000000000000e+09    -1.602846908488080e+01   -1.537080025668973e+02   -2.994754211364315e+01   1.408971838593285e+02    -2.990657362937609e+01   1.412577470180256e+02    -1.742692099157519e+01   -1.533403684297247e+02   
7.013000000000000e+09    -1.602777646158947e+01   -1.538885656820771e+02   -2.992633457479397e+01   1.400035821085212e+02    -2.992389054528231e+01   1.402945216718938e+02    -1.746178662635688e+01   -1.537760359356116e+02   
7.014000000000000e+09    -1.603864488590342e+01   -1.540565757570959e+02   -2.986899639767212e+01   1.389178839408622e+02    -2.988002845173351e+01   1.391969473015562e+02    -1.748991111253731e+01   -1.542092706605803e+02   
7.015000000000000e+09    -1.604337873546865e+01   -1.542292326836242e+02   -2.984732200586222e+01   1.375446390646129e+02    -2.988993997886102e+01   1.380974127981943e+02    -1.751586599237730e+01   -1.545802805059424e+02   
7.016000000000000e+09    -1.605074065357569e+01   -1.544360354539809e+02   -2.986961860443035e+01   1.367310373467718e+02    -2.987615994288788e+01   1.372030836697407e+02    -1.754529720875696e+01   -1.550791305311479e+02   
7.017000000000000e+09    -1.606133372367649e+01   -1.545967631467793e+02   -2.981256628832625e+01   1.357775918762024e+02    -2.980871664046625e+01   1.360897351235096e+02    -1.756860704178747e+01   -1.555318593380499e+02   
7.018000000000000e+09    -1.606537510076804e+01   -1.547781550796010e+02   -2.978437214005174e+01   1.346930361666636e+02    -2.979511800470070e+01   1.351282316343277e+02    -1.759505853912628e+01   -1.559921612754662e+02   
7.019000000000000e+09    -1.607996000785471e+01   -1.549770910581075e+02   -2.975003795340344e+01   1.335790383163412e+02    -2.975988798305298e+01   1.339802216473911e+02    -1.761498400255088e+01   -1.564448993785211e+02   
7.020000000000000e+09    -1.608658616274118e+01   -1.551779182745768e+02   -2.974681843474105e+01   1.326548908016318e+02    -2.969877226886079e+01   1.329513094605695e+02    -1.763408106681703e+01   -1.569253394848284e+02   
7.021000000000000e+09    -1.609853001879207e+01   -1.553920346792863e+02   -2.968435335352006e+01   1.317685491423475e+02    -2.969183511670608e+01   1.320015008127762e+02    -1.765105534093128e+01   -1.573709879133916e+02   
7.022000000000000e+09    -1.610831027369707e+01   -1.555897285983336e+02   -2.965619584090613e+01   1.306132746171757e+02    -2.966079261257995e+01   1.311073893629761e+02    -1.767427909559212e+01   -1.578490589900319e+02   
7.023000000000000e+09    -1.612342190233805e+01   -1.558119793354881e+02   -2.961753050431202e+01   1.295661541327368e+02    -2.961229976927781e+01   1.299862234722876e+02    -1.767645588880905e+01   -1.583628863258425e+02   
7.024000000000000e+09    -1.613526284751583e+01   -1.560626258928402e+02   -2.957847576301960e+01   1.285111665640094e+02    -2.958018837766311e+01   1.287962803711790e+02    -1.768846214988815e+01   -1.588185005495830e+02   
7.025000000000000e+09    -1.615367774737847e+01   -1.562839318165625e+02   -2.955788161681205e+01   1.275671816638962e+02    -2.955079653999722e+01   1.279009255005558e+02    -1.770600928616140e+01   -1.593146912188365e+02   
7.026000000000000e+09    -1.616433414189618e+01   -1.565630510426289e+02   -2.951158872392735e+01   1.264562495505576e+02    -2.952520854276202e+01   1.267980768222869e+02    -1.771060731331595e+01   -1.597907909702885e+02   
7.027000000000000e+09    -1.618550039542775e+01   -1.567555654576683e+02   -2.946280459976122e+01   1.255410007941854e+02    -2.948494707944875e+01   1.258505064924698e+02    -1.771628871162519e+01   -1.602689283293858e+02   
7.028000000000000e+09    -1.620160470557958e+01   -1.570004940143905e+02   -2.941848708273829e+01   1.243879774611684e+02    -2.945053463564683e+01   1.246368732550853e+02    -1.771823583915434e+01   -1.608279654037712e+02   
7.029000000000000e+09    -1.621787386491767e+01   -1.572679944029563e+02   -2.939344394267458e+01   1.232849370445355e+02    -2.938528668214985e+01   1.236657452855489e+02    -1.772785766214782e+01   -1.613350030143174e+02   
7.030000000000000e+09    -1.623860860215388e+01   -1.575056500450191e+02   -2.935874556094166e+01   1.223422426829938e+02    -2.938382567334013e+01   1.226322913132308e+02    -1.773470429962994e+01   -1.617562796703656e+02   
7.031000000000000e+09    -1.625841821618366e+01   -1.577493648879935e+02   -2.935505477422285e+01   1.213010956245314e+02    -2.934931901526697e+01   1.216031600560659e+02    -1.773601365577856e+01   -1.622702823552138e+02   
7.032000000000000e+09    -1.627180161416519e+01   -1.580073974203760e+02   -2.929027918306529e+01   1.203095417071728e+02    -2.930592709588765e+01   1.205032850178701e+02    -1.774494437528441e+01   -1.627353242307103e+02   
7.033000000000000e+09    -1.629560315779670e+01   -1.582369251500888e+02   -2.927731324223068e+01   1.191195186061417e+02    -2.925645455862385e+01   1.192761549210062e+02    -1.773980656910352e+01   -1.632429685259562e+02   
7.034000000000000e+09    -1.631785130920591e+01   -1.585031843107876e+02   -2.923617464490489e+01   1.181975294419812e+02    -2.922674146258122e+01   1.182649908189756e+02    -1.774694763307415e+01   -1.636581153788368e+02   
7.035000000000000e+09    -1.633391596057264e+01   -1.587500524951199e+02   -2.920388196765574e+01   1.169601123467136e+02    -2.919741152886850e+01   1.171983339145511e+02    -1.774244755914022e+01   -1.640531431571598e+02   
7.036000000000000e+09    -1.635418094402351e+01   -1.589623229228814e+02   -2.919377260171377e+01   1.159967772108476e+02    -2.915011289475821e+01   1.162201572554614e+02    -1.774495735853480e+01   -1.645448301327276e+02   
7.037000000000000e+09    -1.637977956897921e+01   -1.592423875730464e+02   -2.912325115998144e+01   1.149584783092105e+02    -2.913924961102893e+01   1.152033619974289e+02    -1.774716767855547e+01   -1.649221496320572e+02   
7.038000000000000e+09    -1.640252676928933e+01   -1.594520940373931e+02   -2.908260161704547e+01   1.139325964689983e+02    -2.909886032883305e+01   1.140996146372438e+02    -1.773537743850482e+01   -1.653970921028594e+02   
7.039000000000000e+09    -1.641829305634292e+01   -1.596869901728920e+02   -2.906623554085129e+01   1.129438140071270e+02    -2.908767451943127e+01   1.130137569292293e+02    -1.774292681063568e+01   -1.658035215785309e+02   
7.040000000000000e+09    -1.644383128622248e+01   -1.598988673115738e+02   -2.903680784032630e+01   1.118265415797130e+02    -2.903196870827196e+01   1.120512485165593e+02    -1.773437669270981e+01   -1.662185115352043e+02   
7.041000000000000e+09    -1.646797155742365e+01   -1.601295361622917e+02   -2.897644320970704e+01   1.108515100003667e+02    -2.900663750702775e+01   1.108596312563591e+02    -1.773732257138380e+01   -1.665799515918367e+02   
7.042000000000000e+09    -1.648792061577169e+01   -1.603448544417042e+02   -2.895660443001498e+01   1.097058245602020e+02    -2.897239502044249e+01   1.098804287047330e+02    -1.773927094960948e+01   -1.670311677437832e+02   
7.043000000000000e+09    -1.651653193285318e+01   -1.605876726885181e+02   -2.889687342528628e+01   1.085082521489035e+02    -2.892270176571697e+01   1.089390902175261e+02    -1.773661342022287e+01   -1.674103814182005e+02   
7.044000000000000e+09    -1.654029431218031e+01   -1.607435885795814e+02   -2.889917101952618e+01   1.075254045998859e+02    -2.888268832544242e+01   1.078043386715821e+02    -1.773122395652506e+01   -1.678056415515013e+02   
7.045000000000000e+09    -1.656200497815026e+01   -1.609769781621775e+02   -2.884042189381529e+01   1.065106586584029e+02    -2.884723104276659e+01   1.068653883718065e+02    -1.773292896697198e+01   -1.680623894471248e+02   
7.046000000000000e+09    -1.659347660230359e+01   -1.611742315678425e+02   -2.879016701157280e+01   1.052570825551728e+02    -2.878882150783170e+01   1.056728589821970e+02    -1.773358539824302e+01   -1.684142215644503e+02   
7.047000000000000e+09    -1.662437199434557e+01   -1.613312758561925e+02   -2.879414946889905e+01   1.043869531133500e+02    -2.876384244756930e+01   1.044579697706900e+02    -1.772800265210276e+01   -1.686976063580373e+02   
7.048000000000000e+09    -1.665115143625002e+01   -1.615526047025581e+02   -2.874517567883047e+01   1.032071967407501e+02    -2.874543147586782e+01   1.034239369470529e+02    -1.772866504021844e+01   -1.689929209327149e+02   
7.049000000000000e+09    -1.668791270730858e+01   -1.616760998393240e+02   -2.872246853386021e+01   1.021614485531968e+02    -2.872780434440307e+01   1.022808576925129e+02    -1.773159424106929e+01   -1.692462150148304e+02   
7.050000000000000e+09    -1.671815097487226e+01   -1.618621941636045e+02   -2.869235979638176e+01   1.008261108248668e+02    -2.869496763221019e+01   1.013187251706236e+02    -1.772859341634171e+01   -1.694112870598795e+02   
7.051000000000000e+09    -1.674900304884227e+01   -1.619818958937865e+02   -2.864381598787014e+01   9.990561366762691e+01    -2.865585583810105e+01   1.000967338017141e+02    -1.772897630930985e+01   -1.697172683325817e+02   
7.052000000000000e+09    -1.678961827812403e+01   -1.621650078506296e+02   -2.864341444821641e+01   9.879756931974923e+01    -2.865735037682553e+01   9.915573668730588e+01    -1.773752744154106e+01   -1.699289183579067e+02   
7.053000000000000e+09    -1.681714878749614e+01   -1.622912716998213e+02   -2.862161208632811e+01   9.752128504334084e+01    -2.860248024268869e+01   9.790860576251858e+01    -1.774951915954163e+01   -1.701314107967235e+02   
7.054000000000000e+09    -1.686031450607957e+01   -1.624621174322569e+02   -2.857810684132688e+01   9.665649351447841e+01    -2.857413617137988e+01   9.674748324935044e+01    -1.774931488347136e+01   -1.702714969142716e+02   
7.055000000000000e+09    -1.689446708390276e+01   -1.625510444191130e+02   -2.854808339040209e+01   9.549418225046435e+01    -2.851550786519407e+01   9.577899445976246e+01    -1.775304187456491e+01   -1.704549246282293e+02   
7.056000000000000e+09    -1.694042887940134e+01   -1.626621782712579e+02   -2.853530953174598e+01   9.440454768087419e+01    -2.852900536156289e+01   9.480640609946757e+01    -1.776483873063697e+01   -1.706173892977681e+02   
7.057000000000000e+09    -1.697985958985030e+01   -1.627986928233477e+02   -2.850738214072420e+01   9.323068864920785e+01    -2.848229763489931e+01   9.364401860168856e+01    -1.776448821112284e+01   -1.707350177792200e+02   
7.058000000000000e+09    -1.701134802215393e+01   -1.629148000317205e+02   -2.847393117154038e+01   9.218993889726403e+01    -2.845910553544567e+01   9.250071247330347e+01    -1.778592756379310e+01   -1.708548498681897e+02   
7.059000000000000e+09    -1.706193817346039e+01   -1.630458624353745e+02   -2.845918938638318e+01   9.111010054831429e+01    -2.843231723170493e+01   9.156328573570607e+01    -1.779812366415600e+01   -1.709066734798120e+02   
7.060000000000000e+09    -1.710030090780688e+01   -1.631514141930201e+02   -2.843216645895929e+01   9.010268059598643e+01    -2.842841131475276e+01   9.036147048592396e+01    -1.780964024696010e+01   -1.709887327595758e+02   
7.061000000000000e+09    -1.714779152507146e+01   -1.632194010547595e+02   -2.840395710841985e+01   8.894114940291963e+01    -2.840359319859115e+01   8.938739634389341e+01    -1.782903462927265e+01   -1.710802679602482e+02   
7.062000000000000e+09    -1.719388523673698e+01   -1.633905682968484e+02   -2.838987504837137e+01   8.782520082396248e+01    -2.835540523163091e+01   8.828576125894723e+01    -1.783802441149089e+01   -1.710857036812908e+02   
7.063000000000000e+09    -1.724542024411137e+01   -1.634555384007350e+02   -2.835479701384155e+01   8.681773970598206e+01    -2.833594375875889e+01   8.710283067035755e+01    -1.785835576595626e+01   -1.710935434144145e+02   
7.064000000000000e+09    -1.730098674148719e+01   -1.635111464771232e+02   -2.832843053032237e+01   8.575878231601349e+01    -2.833101083630381e+01   8.613842154734158e+01    -1.788744393521034e+01   -1.711097393613972e+02   
7.065000000000000e+09    -1.734426543132938e+01   -1.636498631254556e+02   -2.832498560516514e+01   8.471073384726449e+01    -2.831232041155231e+01   8.493765668392975e+01    -1.791630576347597e+01   -1.711265536597215e+02   
7.066000000000000e+09    -1.739771158953795e+01   -1.636908122368555e+02   -2.828127945069761e+01   8.357679405618440e+01    -2.828739745560633e+01   8.392635562350422e+01    -1.794752084996502e+01   -1.711348420049219e+02   
7.067000000000000e+09    -1.744828969408820e+01   -1.637633529228085e+02   -2.825270354883785e+01   8.256151694236775e+01    -2.824954701331661e+01   8.290091880727773e+01    -1.797888482428601e+01   -1.710778043137821e+02   
7.068000000000000e+09    -1.750352382495194e+01   -1.638751092581030e+02   -2.824511797599025e+01   8.142907676705144e+01    -2.823524348670102e+01   8.162261397973604e+01    -1.801605503591381e+01   -1.710592073740470e+02   
7.069000000000000e+09    -1.755946385522682e+01   -1.639871921580900e+02   -2.821366895098202e+01   8.040433267984979e+01    -2.822906372645672e+01   8.076993908814818e+01    -1.805338028199447e+01   -1.710198639960031e+02   
7.070000000000000e+09    -1.761749216507543e+01   -1.640182020063449e+02   -2.821966200906431e+01   7.937031456790299e+01    -2.819789605203273e+01   7.963494059353357e+01    -1.810749733902363e+01   -1.708936791634021e+02   
7.071000000000000e+09    -1.767080903277862e+01   -1.640756482568841e+02   -2.820009346206074e+01   7.828206950037212e+01    -2.817456730369521e+01   7.848463462379833e+01    -1.815604860662391e+01   -1.708001983837458e+02   
7.072000000000000e+09    -1.773418139278381e+01   -1.641882018285168e+02   -2.817233939517849e+01   7.719021988022052e+01    -2.815432519075138e+01   7.726693998602266e+01    -1.821501140008527e+01   -1.707860871344392e+02   
7.073000000000000e+09    -1.778868804198508e+01   -1.642250653755549e+02   -2.814705006249337e+01   7.603675908670274e+01    -2.813078404895669e+01   7.616329164795570e+01    -1.826420881882618e+01   -1.706522804913214e+02   
7.074000000000000e+09    -1.784319215733104e+01   -1.642722491190218e+02   -2.812689500661497e+01   7.507016000730221e+01    -2.812225590189620e+01   7.531694880280027e+01    -1.832666626602406e+01   -1.705663425527842e+02   
7.075000000000000e+09    -1.789486630187587e+01   -1.643171483499416e+02   -2.810663214542256e+01   7.393733075127234e+01    -2.810425070371127e+01   7.420221019871191e+01    -1.839438658935497e+01   -1.704279528188706e+02   
7.076000000000000e+09    -1.795659847744667e+01   -1.643402360582352e+02   -2.810209814487256e+01   7.274609353255991e+01    -2.810352147705477e+01   7.301046107850907e+01    -1.846304591722866e+01   -1.702894865701333e+02   
7.077000000000000e+09    -1.802108640510561e+01   -1.643630316843849e+02   -2.804146485574375e+01   7.169381565801986e+01    -2.805596019770073e+01   7.205062312853778e+01    -1.853708508315302e+01   -1.701299269799684e+02   
7.078000000000000e+09    -1.808390485369689e+01   -1.644135592778972e+02   -2.807460719547693e+01   7.070838826773364e+01    -2.804271288275761e+01   7.091753057894699e+01    -1.861503715765595e+01   -1.699906343436113e+02   
7.079000000000000e+09    -1.814465992108127e+01   -1.643920374260455e+02   -2.803332350068096e+01   6.953108374013331e+01    -2.805013460924754e+01   6.981424282065183e+01    -1.870045462554397e+01   -1.698589883036788e+02   
7.080000000000000e+09    -1.821432770280322e+01   -1.644653520948568e+02   -2.802123866373881e+01   6.861660980032471e+01    -2.801807427461952e+01   6.862400770051271e+01    -1.878296367287119e+01   -1.697009650468030e+02   
7.081000000000000e+09    -1.827096618857065e+01   -1.643740135086137e+02   -2.802333926872891e+01   6.739574216366437e+01    -2.800361195410993e+01   6.765143368116355e+01    -1.887428458010046e+01   -1.695580360924838e+02   
7.082000000000000e+09    -1.833237970993433e+01   -1.643598256708138e+02   -2.798567798895900e+01   6.628735027602546e+01    -2.798805836270193e+01   6.657852825853894e+01    -1.897291655070164e+01   -1.693871549342477e+02   
7.083000000000000e+09    -1.840014135416406e+01   -1.643105831633807e+02   -2.797726700894130e+01   6.529877006652640e+01    -2.797138039985718e+01   6.543140421741705e+01    -1.907039398365196e+01   -1.691980336644542e+02   
7.084000000000000e+09    -1.846343739585009e+01   -1.642900722439983e+02   -2.794991754800341e+01   6.411533102431126e+01    -2.797169290700186e+01   6.447326691831549e+01    -1.917698288963812e+01   -1.690029826883907e+02   
