[Version] 2.0
! Rohde & Schwarz Vector Network Analyzer
! Rohde-Schwarz,ZNL20-2Port,1323001220200009,1.71.1.10-23.02.1.238
! 
! Port Assignments:
! Nominal Port -> Actual Test Port
! --------------------------------
!   1 -> 1
!   2 -> 2

! Created: GMT+3 2024-09-24 16:02:29

# Hz S DB R 50

[Number of Ports] 2
[Two-Port Data Order] 21_12
[Number of Frequencies] 6001

[Network Data] 
! freq[Hz]               S11[mag dB]              S11[ang]                 S21[mag dB]              S21[ang]                 S12[mag dB]              S12[ang]                 S22[mag dB]              S22[ang]                 
7.000000000000000e+09    -1.747901544508820e+01   -1.441140740298970e+02   -3.076179570729861e+01   -1.314886500653389e+02   -3.073116036636268e+01   -1.301016606893632e+02   -1.930266566640407e+01   -1.398795306896971e+02   
7.001000000000000e+09    -1.746110072881990e+01   -1.440559587930505e+02   -3.075063085546926e+01   -1.326240892483165e+02   -3.073370040848260e+01   -1.314835892981082e+02   -1.933159861888612e+01   -1.396827321871882e+02   
7.002000000000000e+09    -1.744476621279004e+01   -1.440241335963232e+02   -3.077036866388980e+01   -1.337762614756088e+02   -3.075379567023341e+01   -1.327326474386259e+02   -1.935990181028529e+01   -1.395619241828375e+02   
7.003000000000000e+09    -1.742462730111257e+01   -1.440315235090969e+02   -3.083164896339154e+01   -1.346362965914777e+02   -3.075727637361450e+01   -1.338520134151294e+02   -1.939451498570014e+01   -1.394523012288840e+02   
7.004000000000000e+09    -1.739968268451463e+01   -1.439762795357693e+02   -3.083214420121578e+01   -1.359013955580951e+02   -3.076886922802309e+01   -1.350276255488594e+02   -1.942152396878355e+01   -1.393013030249881e+02   
7.005000000000000e+09    -1.737863817155191e+01   -1.439533825321527e+02   -3.084530704784636e+01   -1.370955581537756e+02   -3.076075190052138e+01   -1.363085359860098e+02   -1.945602363435225e+01   -1.391740649588318e+02   
7.006000000000000e+09    -1.736164710781520e+01   -1.439121858681537e+02   -3.080022989381657e+01   -1.381724085313288e+02   -3.076824230418372e+01   -1.372811951021506e+02   -1.948127036213402e+01   -1.390581380041818e+02   
7.007000000000000e+09    -1.733924103757549e+01   -1.438797777470373e+02   -3.084459182363500e+01   -1.393195259540535e+02   -3.075616625303857e+01   -1.383892231759010e+02   -1.950951391278356e+01   -1.390174899954928e+02   
7.008000000000000e+09    -1.731355681883482e+01   -1.438526037506291e+02   -3.083389955329222e+01   -1.404340230532264e+02   -3.078307477935011e+01   -1.397279667039739e+02   -1.953199323761886e+01   -1.390022710672956e+02   
7.009000000000000e+09    -1.728999819525833e+01   -1.438204136838969e+02   -3.086587040060841e+01   -1.413218269172043e+02   -3.078214000120505e+01   -1.407141667986533e+02   -1.956228971391838e+01   -1.389793944109532e+02   
7.010000000000000e+09    -1.727785606467296e+01   -1.438121984145933e+02   -3.087355827713288e+01   -1.426728134172411e+02   -3.076815231922449e+01   -1.419109430304478e+02   -1.959116322182848e+01   -1.389524753625334e+02   
7.011000000000000e+09    -1.725245936424763e+01   -1.437583546362762e+02   -3.086632359087037e+01   -1.433232890321628e+02   -3.080781159081313e+01   -1.428529934186252e+02   -1.960394332819862e+01   -1.390469628835204e+02   
7.012000000000000e+09    -1.723783803061976e+01   -1.437395791880693e+02   -3.085497185457366e+01   -1.446996015358135e+02   -3.081106223807674e+01   -1.441543695836851e+02   -1.961900571422692e+01   -1.391055227221941e+02   
7.013000000000000e+09    -1.721737358382794e+01   -1.437149590874959e+02   -3.085315998129081e+01   -1.456289459712984e+02   -3.077562516754593e+01   -1.452751035631555e+02   -1.964265888208838e+01   -1.391594666470321e+02   
7.014000000000000e+09    -1.720493045234163e+01   -1.437651951617460e+02   -3.085274920685709e+01   -1.469754647027194e+02   -3.080102912205154e+01   -1.462441704561857e+02   -1.965493274554996e+01   -1.393171182773078e+02   
7.015000000000000e+09    -1.718190363879306e+01   -1.437342820787104e+02   -3.086294682193727e+01   -1.480693493249014e+02   -3.078988869558284e+01   -1.471569741237694e+02   -1.966760687557239e+01   -1.394466834714276e+02   
7.016000000000000e+09    -1.716486776954725e+01   -1.436847932821984e+02   -3.086320615898954e+01   -1.490021416767156e+02   -3.078779350405764e+01   -1.484098422194280e+02   -1.968153026551708e+01   -1.395247470692678e+02   
7.017000000000000e+09    -1.714671606684247e+01   -1.436816495465991e+02   -3.086214973576057e+01   -1.501163011485249e+02   -3.078309024922897e+01   -1.497433124271413e+02   -1.969178661023778e+01   -1.397581897444219e+02   
7.018000000000000e+09    -1.713021383827504e+01   -1.436952870821968e+02   -3.085055629148941e+01   -1.512024737198751e+02   -3.077186420901958e+01   -1.506129767953202e+02   -1.969506060855620e+01   -1.399298211652189e+02   
7.019000000000000e+09    -1.711398940374018e+01   -1.437314355149256e+02   -3.086744839504227e+01   -1.522338628602946e+02   -3.077306083699668e+01   -1.517923704775859e+02   -1.968500208090512e+01   -1.400731041510907e+02   
7.020000000000000e+09    -1.708825174240363e+01   -1.437331916450271e+02   -3.085142998688330e+01   -1.532416475242382e+02   -3.076251426994629e+01   -1.531995668839595e+02   -1.969077757780273e+01   -1.403038693680550e+02   
7.021000000000000e+09    -1.707836062068807e+01   -1.437899356699182e+02   -3.077037749915924e+01   -1.543908223698551e+02   -3.072248165847569e+01   -1.540751355051640e+02   -1.967973569822029e+01   -1.405224511137987e+02   
7.022000000000000e+09    -1.706061827734021e+01   -1.438555630944599e+02   -3.079983946497121e+01   -1.554426978131085e+02   -3.072217359297586e+01   -1.551523544689813e+02   -1.968312791660337e+01   -1.407205903515227e+02   
7.023000000000000e+09    -1.704829406410659e+01   -1.438533386375109e+02   -3.079235319300983e+01   -1.566151765198287e+02   -3.074523592952329e+01   -1.563809611637193e+02   -1.967386551116812e+01   -1.409940005601678e+02   
7.024000000000000e+09    -1.703287797630596e+01   -1.439605312165374e+02   -3.080256149185861e+01   -1.575613911789214e+02   -3.073838506204790e+01   -1.575926504868958e+02   -1.965459865259746e+01   -1.412250649181084e+02   
7.025000000000000e+09    -1.701429311484444e+01   -1.439969913441072e+02   -3.078399396877394e+01   -1.585945330223089e+02   -3.071365270650686e+01   -1.585469635273161e+02   -1.964850745809580e+01   -1.414636885355801e+02   
7.026000000000000e+09    -1.699223414938623e+01   -1.441174396434197e+02   -3.076782205098087e+01   -1.598054131000506e+02   -3.069860216845233e+01   -1.596859949322015e+02   -1.962320309361697e+01   -1.417556399407783e+02   
7.027000000000000e+09    -1.698294281046713e+01   -1.441236337665810e+02   -3.075892236343626e+01   -1.609590955845061e+02   -3.070025283947114e+01   -1.608135713739469e+02   -1.960266656490371e+01   -1.420398885122682e+02   
7.028000000000000e+09    -1.696019288367821e+01   -1.442196446640893e+02   -3.071944227469619e+01   -1.621135650241785e+02   -3.066645094076611e+01   -1.620520085083431e+02   -1.958452902088351e+01   -1.423094665292104e+02   
7.029000000000000e+09    -1.694918943318589e+01   -1.443404075776325e+02   -3.072032723219838e+01   -1.634058249749230e+02   -3.066809225497627e+01   -1.632950946516866e+02   -1.956861850928195e+01   -1.426245011400108e+02   
7.030000000000000e+09    -1.693104250991257e+01   -1.444634827931492e+02   -3.067942863962135e+01   -1.644744466102234e+02   -3.068058728964754e+01   -1.642473548904375e+02   -1.954470519612418e+01   -1.428351237293473e+02   
7.031000000000000e+09    -1.691850304056316e+01   -1.445767624285434e+02   -3.067696544637663e+01   -1.652668935830367e+02   -3.064307661660355e+01   -1.655005288307971e+02   -1.951025223533705e+01   -1.431841042205719e+02   
7.032000000000000e+09    -1.689536410180223e+01   -1.446847988105691e+02   -3.066363271507028e+01   -1.664733010842519e+02   -3.064371797659231e+01   -1.665533316486191e+02   -1.949572898200454e+01   -1.434650532576421e+02   
7.033000000000000e+09    -1.688433107429761e+01   -1.447971285082167e+02   -3.067674082832580e+01   -1.674489292582006e+02   -3.063489580751040e+01   -1.678427697626371e+02   -1.945616735992489e+01   -1.437678018787113e+02   
7.034000000000000e+09    -1.686780595621721e+01   -1.449473450446696e+02   -3.063380822609798e+01   -1.686252453771944e+02   -3.060733090443363e+01   -1.686814637442810e+02   -1.942777088810400e+01   -1.439545220162361e+02   
7.035000000000000e+09    -1.685177639178750e+01   -1.450621222724545e+02   -3.064783826081275e+01   -1.697278165626175e+02   -3.061473274499946e+01   -1.700371277457251e+02   -1.939232286341714e+01   -1.441818846733955e+02   
7.036000000000000e+09    -1.684005648760942e+01   -1.451922826228860e+02   -3.059438950997417e+01   -1.704378998453209e+02   -3.058798514545623e+01   -1.710384173655964e+02   -1.936788671740328e+01   -1.444305903832423e+02   
7.037000000000000e+09    -1.681965796836718e+01   -1.453715227625528e+02   -3.060862772448154e+01   -1.718727873138437e+02   -3.054897166660399e+01   -1.719611993263471e+02   -1.932044668361132e+01   -1.446679074511626e+02   
7.038000000000000e+09    -1.680712182969029e+01   -1.454881595634936e+02   -3.057063961873149e+01   -1.731512280546053e+02   -3.055798124246854e+01   -1.731716767925054e+02   -1.927747285862890e+01   -1.450185292277646e+02   
7.039000000000000e+09    -1.678023830388799e+01   -1.456043825104248e+02   -3.055602055508025e+01   -1.741668540217431e+02   -3.055129868624483e+01   -1.740690150472797e+02   -1.924276665357447e+01   -1.452181047393154e+02   
7.040000000000000e+09    -1.677408819830234e+01   -1.457384433301338e+02   -3.054092418894876e+01   -1.751735847419883e+02   -3.051347354036821e+01   -1.752363880264840e+02   -1.919000103814635e+01   -1.455183074603172e+02   
7.041000000000000e+09    -1.675690889623306e+01   -1.458766473656461e+02   -3.050907636865652e+01   -1.761893346660636e+02   -3.049957756399211e+01   -1.764720569921747e+02   -1.914900014227959e+01   -1.457037228469651e+02   
7.042000000000000e+09    -1.673614581356584e+01   -1.459923519678125e+02   -3.050307121074273e+01   -1.773372183251643e+02   -3.050165755079660e+01   -1.775027661746237e+02   -1.911547082733757e+01   -1.458822152515891e+02   
7.043000000000000e+09    -1.672772751228407e+01   -1.461453032535888e+02   -3.048516890314329e+01   -1.785772254469565e+02   -3.045084634025051e+01   -1.786065287116975e+02   -1.905868602321912e+01   -1.462023842486510e+02   
7.044000000000000e+09    -1.670500628138146e+01   -1.462340575923426e+02   -3.045517978500864e+01   -1.794095255213165e+02   -3.046004361661899e+01   -1.796505722504247e+02   -1.900821497928191e+01   -1.464466800444976e+02   
7.045000000000000e+09    -1.668932869248862e+01   -1.463781995855778e+02   -3.044874181816052e+01   1.792977210999996e+02    -3.042643108249993e+01   1.792961681646580e+02    -1.896965797835631e+01   -1.466044365990534e+02   
7.046000000000000e+09    -1.667509218447994e+01   -1.465112160438831e+02   -3.043643774937960e+01   1.780989090562235e+02    -3.042138288139467e+01   1.780845598433201e+02    -1.891502983325686e+01   -1.467917923472472e+02   
7.047000000000000e+09    -1.665720777870099e+01   -1.466162134842709e+02   -3.038411215762095e+01   1.772964060514016e+02    -3.039174532935392e+01   1.770262896941728e+02    -1.886716946706132e+01   -1.469773929815967e+02   
7.048000000000000e+09    -1.664663827085089e+01   -1.467913744853473e+02   -3.038356744432491e+01   1.760654500095754e+02    -3.038340912789772e+01   1.758954126342877e+02    -1.881811464367576e+01   -1.471082904481278e+02   
7.049000000000000e+09    -1.663884339577908e+01   -1.468632044010134e+02   -3.035973803090637e+01   1.749873904241214e+02    -3.036222482535590e+01   1.748081048584423e+02    -1.875809429637758e+01   -1.472109257143586e+02   
7.050000000000000e+09    -1.662090951602927e+01   -1.469637035171076e+02   -3.035276018554509e+01   1.738635854334512e+02    -3.033815387583105e+01   1.737551081965358e+02    -1.870610509262984e+01   -1.473399996351737e+02   
7.051000000000000e+09    -1.661217799574842e+01   -1.470060049252255e+02   -3.030893541121938e+01   1.727319056929190e+02    -3.030444205812872e+01   1.726883124062377e+02    -1.865347034998873e+01   -1.475248407017791e+02   
7.052000000000000e+09    -1.660774580406983e+01   -1.471737432522665e+02   -3.031126456367664e+01   1.716186037794176e+02    -3.032436989645847e+01   1.718839421983477e+02    -1.860139185218392e+01   -1.476140051219732e+02   
7.053000000000000e+09    -1.658672050282522e+01   -1.472302429233618e+02   -3.028022273488526e+01   1.705819074941147e+02    -3.027864430543271e+01   1.705867830841838e+02    -1.855102379439557e+01   -1.477448720814844e+02   
7.054000000000000e+09    -1.658628855854165e+01   -1.473608706442795e+02   -3.023684386581788e+01   1.695796483193088e+02    -3.025371830500262e+01   1.693402547882784e+02    -1.849477110980781e+01   -1.477744694539925e+02   
7.055000000000000e+09    -1.657437777401240e+01   -1.474843851964639e+02   -3.024105674230258e+01   1.683418591652519e+02    -3.025526297989692e+01   1.684578834359271e+02    -1.843165233262680e+01   -1.478853946748776e+02   
7.056000000000000e+09    -1.656690383054434e+01   -1.475538225971068e+02   -3.021544908753282e+01   1.674692041395526e+02    -3.023383448639821e+01   1.674530042455353e+02    -1.838734495259825e+01   -1.479155929164396e+02   
7.057000000000000e+09    -1.655398524828175e+01   -1.476695348306715e+02   -3.016743516130732e+01   1.663061153929031e+02    -3.017633265335459e+01   1.663854964545085e+02    -1.832145612830873e+01   -1.479963801642723e+02   
7.058000000000000e+09    -1.655346599563381e+01   -1.477709542866511e+02   -3.015643248283281e+01   1.651779710036403e+02    -3.017508735013632e+01   1.651707410498208e+02    -1.827709567429623e+01   -1.480207898870772e+02   
7.059000000000000e+09    -1.654820058185532e+01   -1.478650893869666e+02   -3.011642826042682e+01   1.639710342263876e+02    -3.014128568335301e+01   1.640779038486602e+02    -1.821207045788473e+01   -1.480524361500390e+02   
7.060000000000000e+09    -1.654390463763422e+01   -1.480061443982622e+02   -3.008915956017627e+01   1.629666157975491e+02    -3.010802142884221e+01   1.629778034060719e+02    -1.815967997373281e+01   -1.480766870022145e+02   
7.061000000000000e+09    -1.654115592574822e+01   -1.480921222856962e+02   -3.004286509183552e+01   1.617108351731986e+02    -3.009476815789428e+01   1.618592944084068e+02    -1.810560994316800e+01   -1.480015920415779e+02   
7.062000000000000e+09    -1.654777026590666e+01   -1.482323643998452e+02   -3.006456635104784e+01   1.608352381781456e+02    -3.006035907201120e+01   1.607837356092285e+02    -1.804978049500599e+01   -1.480196399069789e+02   
7.063000000000000e+09    -1.654706233991217e+01   -1.483255740791375e+02   -3.000601888850944e+01   1.596350339523717e+02    -3.007075145651961e+01   1.596177346033722e+02    -1.799236161080717e+01   -1.480069999447373e+02   
7.064000000000000e+09    -1.655275803195380e+01   -1.484408430547934e+02   -2.999539673559460e+01   1.585672763677474e+02    -3.003026719050915e+01   1.588020357188087e+02    -1.794833084222863e+01   -1.479108068007104e+02   
7.065000000000000e+09    -1.655850206287504e+01   -1.485978572765257e+02   -2.997539172196220e+01   1.575856484393725e+02    -3.004538758684973e+01   1.573846729688215e+02    -1.790385753788880e+01   -1.479366377088355e+02   
7.066000000000000e+09    -1.655969392531821e+01   -1.486719499071766e+02   -2.996073228372927e+01   1.564542873172956e+02    -3.002956647658484e+01   1.566156229511781e+02    -1.785818521909350e+01   -1.479163670096845e+02   
7.067000000000000e+09    -1.656088651234136e+01   -1.487758263550636e+02   -2.993941543061753e+01   1.552665975815382e+02    -2.996999652502339e+01   1.555242857155231e+02    -1.781289699076768e+01   -1.477713600650640e+02   
7.068000000000000e+09    -1.656597018387723e+01   -1.489396550211746e+02   -2.991729304033676e+01   1.542506124852944e+02    -2.999861184682166e+01   1.545073699049322e+02    -1.777054733454885e+01   -1.477197916877033e+02   
7.069000000000000e+09    -1.657023361624237e+01   -1.491168679320602e+02   -2.987916140272870e+01   1.531578269354893e+02    -2.994985560966215e+01   1.534428404841820e+02    -1.774201927392692e+01   -1.476605052755731e+02   
7.070000000000000e+09    -1.658307813224324e+01   -1.492412815859239e+02   -2.988039096736419e+01   1.522029407540243e+02    -2.992840883870485e+01   1.523084585342728e+02    -1.770660499021579e+01   -1.475304743044333e+02   
7.071000000000000e+09    -1.658602828236030e+01   -1.493870842947589e+02   -2.984990339947315e+01   1.509127943758526e+02    -2.988571437885012e+01   1.513383073613509e+02    -1.768649620756625e+01   -1.474555656939037e+02   
7.072000000000000e+09    -1.659819181853340e+01   -1.495080239474984e+02   -2.981261538295472e+01   1.500843572576873e+02    -2.990457069325697e+01   1.501066528384783e+02    -1.765506370675923e+01   -1.473332474213240e+02   
7.073000000000000e+09    -1.660327159655122e+01   -1.496864261135947e+02   -2.982964830203523e+01   1.487814220042168e+02    -2.990904699796938e+01   1.491589748187838e+02    -1.762420692908807e+01   -1.472376704960860e+02   
7.074000000000000e+09    -1.662107975094771e+01   -1.497872464839833e+02   -2.978963105061348e+01   1.480300729330639e+02    -2.984565780479520e+01   1.482528257977010e+02    -1.760472455767362e+01   -1.470710502438429e+02   
7.075000000000000e+09    -1.663138220477424e+01   -1.499784440910408e+02   -2.978772362801496e+01   1.468546435343947e+02    -2.981683273935852e+01   1.471389252134868e+02    -1.759591733977443e+01   -1.469087552336873e+02   
7.076000000000000e+09    -1.664032079931522e+01   -1.500832517136949e+02   -2.977591802675620e+01   1.459661586075567e+02    -2.983313443305612e+01   1.461797896954071e+02    -1.757348599629738e+01   -1.467619174063785e+02   
7.077000000000000e+09    -1.665208741632768e+01   -1.502476666793262e+02   -2.974156081727659e+01   1.447217215117945e+02    -2.978797858688254e+01   1.450083784994028e+02    -1.756278354306240e+01   -1.465890648965974e+02   
7.078000000000000e+09    -1.666238860446292e+01   -1.503504673711934e+02   -2.973698875937701e+01   1.438553642227780e+02    -2.975743357752985e+01   1.440162814201289e+02    -1.755131251382551e+01   -1.464904561119877e+02   
7.079000000000000e+09    -1.667892860244203e+01   -1.504878478844519e+02   -2.969596424778249e+01   1.428447054442175e+02    -2.976144497878062e+01   1.431871973814112e+02    -1.754893843476687e+01   -1.462990363232497e+02   
7.080000000000000e+09    -1.669370041866094e+01   -1.506669387252327e+02   -2.967389516165596e+01   1.417897408387400e+02    -2.974509351607227e+01   1.418458535546701e+02    -1.754902402529866e+01   -1.461041492004274e+02   
7.081000000000000e+09    -1.670029580330353e+01   -1.507846902776666e+02   -2.966251132495058e+01   1.407392043513372e+02    -2.970993061369225e+01   1.410731058387630e+02    -1.754246854728007e+01   -1.459436191349465e+02   
7.082000000000000e+09    -1.671633334160993e+01   -1.509435802234409e+02   -2.962752443756409e+01   1.395543438405178e+02    -2.969641960779057e+01   1.399509586892553e+02    -1.755106601935723e+01   -1.457349562463572e+02   
7.083000000000000e+09    -1.673304593325375e+01   -1.510438895281639e+02   -2.958606572577403e+01   1.385349485146334e+02    -2.965339700187979e+01   1.389274137378387e+02    -1.755912332925629e+01   -1.456239126898799e+02   
7.084000000000000e+09    -1.675007170033086e+01   -1.511828144426078e+02   -2.955328321344128e+01   1.375675434399858e+02    -2.960972663904931e+01   1.379635421331720e+02    -1.756411264392635e+01   -1.454302124692782e+02   
