[Version] 2.0
! Rohde & Schwarz Vector Network Analyzer
! Rohde-Schwarz,ZNL20-2Port,1323001220200009,1.71.1.10-23.02.1.238
! 
! Port Assignments:
! Nominal Port -> Actual Test Port
! --------------------------------
!   1 -> 1
!   2 -> 2

! Created: GMT+3 2024-09-24 16:02:42

# Hz S DB R 50

[Number of Ports] 2
[Two-Port Data Order] 21_12
[Number of Frequencies] 6001

[Network Data] 
! freq[Hz]               S11[mag dB]              S11[ang]                 S21[mag dB]              S21[ang]                 S12[mag dB]              S12[ang]                 S22[mag dB]              S22[ang]                 
7.000000000000000e+09    -1.750683001877952e+01   -1.441160808757818e+02   -3.077202560218127e+01   -1.295193370855363e+02   -3.075768704025768e+01   -1.290932763535322e+02   -1.933765226124980e+01   -1.398251974361448e+02   
7.001000000000000e+09    -1.748543669335310e+01   -1.440572797020315e+02   -3.076019783575511e+01   -1.307432264669525e+02   -3.078456261578243e+01   -1.301080672374882e+02   -1.936413078292593e+01   -1.396435782707520e+02   
7.002000000000000e+09    -1.746913167547681e+01   -1.440518584232092e+02   -3.078010510376273e+01   -1.319590440731520e+02   -3.079730060950667e+01   -1.313700936040646e+02   -1.939809717749819e+01   -1.395034496170003e+02   
7.003000000000000e+09    -1.744708573025216e+01   -1.440208332418587e+02   -3.083653011501791e+01   -1.328704506662388e+02   -3.078142085570419e+01   -1.326374132158868e+02   -1.942837916763342e+01   -1.393633467447873e+02   
7.004000000000000e+09    -1.742294233186611e+01   -1.439660868860780e+02   -3.079840721025357e+01   -1.338736499921721e+02   -3.080275940348633e+01   -1.338402368053607e+02   -1.944968822542474e+01   -1.392173215516829e+02   
7.005000000000000e+09    -1.741026772729607e+01   -1.438998211387974e+02   -3.081457980455749e+01   -1.352842329718981e+02   -3.081351632418453e+01   -1.349251136938213e+02   -1.948788419048128e+01   -1.390768661469093e+02   
7.006000000000000e+09    -1.739363952656281e+01   -1.438764189297960e+02   -3.083078047203836e+01   -1.365221650780383e+02   -3.082959462312539e+01   -1.360216355072766e+02   -1.951976312799516e+01   -1.390011369962306e+02   
7.007000000000000e+09    -1.737482801653927e+01   -1.438619181121053e+02   -3.080935731096487e+01   -1.375226254947157e+02   -3.082260951511753e+01   -1.371444205914293e+02   -1.954433611460507e+01   -1.389671592903861e+02   
7.008000000000000e+09    -1.734663629925916e+01   -1.438269380754774e+02   -3.082538304199862e+01   -1.386545375418112e+02   -3.085405583030067e+01   -1.383523089629255e+02   -1.957290168058314e+01   -1.389559943298028e+02   
7.009000000000000e+09    -1.733028330689024e+01   -1.438044548315774e+02   -3.084451056821378e+01   -1.397931570185942e+02   -3.082810507804764e+01   -1.394049856312722e+02   -1.960749634059849e+01   -1.389189248591687e+02   
7.010000000000000e+09    -1.730914902827164e+01   -1.437813000918749e+02   -3.085877282056851e+01   -1.409792299934171e+02   -3.085494756508309e+01   -1.406353717260859e+02   -1.962744900647244e+01   -1.389141019669215e+02   
7.011000000000000e+09    -1.728571923198854e+01   -1.437680060534024e+02   -3.084033331916963e+01   -1.417584313119075e+02   -3.084036877734892e+01   -1.417088258011088e+02   -1.964329739319950e+01   -1.389599681015741e+02   
7.012000000000000e+09    -1.726287671881853e+01   -1.436985271677908e+02   -3.084179240078701e+01   -1.430548153487417e+02   -3.086343765451849e+01   -1.427796079809244e+02   -1.966249996658914e+01   -1.389668543411092e+02   
7.013000000000000e+09    -1.724371907447683e+01   -1.437194288798809e+02   -3.083576506448999e+01   -1.438867107465334e+02   -3.083832297297910e+01   -1.437321313371629e+02   -1.967763119971778e+01   -1.391050472275313e+02   
7.014000000000000e+09    -1.723396779488421e+01   -1.436861742159091e+02   -3.084472787883782e+01   -1.453108621159375e+02   -3.085969188444192e+01   -1.450237986503412e+02   -1.969611498782399e+01   -1.392001840078338e+02   
7.015000000000000e+09    -1.721007603779272e+01   -1.436790267387547e+02   -3.085853107547550e+01   -1.463232454267591e+02   -3.086886064991265e+01   -1.457727061864210e+02   -1.970676351931203e+01   -1.393322480127294e+02   
7.016000000000000e+09    -1.719101533515834e+01   -1.436334917717414e+02   -3.084101242594193e+01   -1.471900987314944e+02   -3.085235763546365e+01   -1.469468470291697e+02   -1.971542171017210e+01   -1.395086708006354e+02   
7.017000000000000e+09    -1.717600792554108e+01   -1.436248946267532e+02   -3.081880387073798e+01   -1.484177499526923e+02   -3.083985804020175e+01   -1.482844924170143e+02   -1.973132813849238e+01   -1.396929027353130e+02   
7.018000000000000e+09    -1.715576133267730e+01   -1.436626160838614e+02   -3.084462702719744e+01   -1.495217899497669e+02   -3.083483587174361e+01   -1.493300447348804e+02   -1.973338292060688e+01   -1.398516535625154e+02   
7.019000000000000e+09    -1.714686346885907e+01   -1.436749832911264e+02   -3.081978763159960e+01   -1.505807023927160e+02   -3.085013474686767e+01   -1.503843712235925e+02   -1.972743566693623e+01   -1.399980974115455e+02   
7.020000000000000e+09    -1.712474086815107e+01   -1.436786744523293e+02   -3.081427498679191e+01   -1.514743114810884e+02   -3.083376438689581e+01   -1.517852226050817e+02   -1.973817904812133e+01   -1.402291002462215e+02   
7.021000000000000e+09    -1.711197398619104e+01   -1.437278685662406e+02   -3.075027114453181e+01   -1.528974216237611e+02   -3.078815756862851e+01   -1.525911419014693e+02   -1.972764944753839e+01   -1.404643329144501e+02   
7.022000000000000e+09    -1.708860017558386e+01   -1.437753488822568e+02   -3.076154037405169e+01   -1.538366333490795e+02   -3.078465007977218e+01   -1.537048449909172e+02   -1.972914267985699e+01   -1.406395125543968e+02   
7.023000000000000e+09    -1.707647450017130e+01   -1.437789320362079e+02   -3.074502414686136e+01   -1.549859127839524e+02   -3.078367340562160e+01   -1.550719809367390e+02   -1.970968135809839e+01   -1.409226679697262e+02   
7.024000000000000e+09    -1.705767343569122e+01   -1.438909476012011e+02   -3.073078215456907e+01   -1.560686561457012e+02   -3.075870461235193e+01   -1.562136888760304e+02   -1.969130574908240e+01   -1.411638487497844e+02   
7.025000000000000e+09    -1.704325547877407e+01   -1.439249226382372e+02   -3.070276745619194e+01   -1.572226194316672e+02   -3.073987934129022e+01   -1.572789405697107e+02   -1.968473344519170e+01   -1.414346534965918e+02   
7.026000000000000e+09    -1.702635768744412e+01   -1.440348516118376e+02   -3.073041155001678e+01   -1.583796488431000e+02   -3.074266020814588e+01   -1.583450441070447e+02   -1.966036419376973e+01   -1.416748811373433e+02   
7.027000000000000e+09    -1.700812028915855e+01   -1.440690723421630e+02   -3.071494318060239e+01   -1.596201685586160e+02   -3.070763630132976e+01   -1.594153972665156e+02   -1.964578925654054e+01   -1.419644193024063e+02   
7.028000000000000e+09    -1.699680965731244e+01   -1.441882200937782e+02   -3.067769509438546e+01   -1.607247411429483e+02   -3.073455484496884e+01   -1.607182756203247e+02   -1.963064304914692e+01   -1.423167493152741e+02   
7.029000000000000e+09    -1.697584809566099e+01   -1.442479525115342e+02   -3.070096424240123e+01   -1.620662043380223e+02   -3.068706506121131e+01   -1.619583577184983e+02   -1.960442350960210e+01   -1.425749143670521e+02   
7.030000000000000e+09    -1.696349654471410e+01   -1.443741236363165e+02   -3.065865931557484e+01   -1.631461279741091e+02   -3.070817135808034e+01   -1.628680108248231e+02   -1.957868213334919e+01   -1.428559529769792e+02   
7.031000000000000e+09    -1.694801888637892e+01   -1.444945584702379e+02   -3.066027092625150e+01   -1.640200948632942e+02   -3.066978330911519e+01   -1.640652822245385e+02   -1.955901439018158e+01   -1.431139984514050e+02   
7.032000000000000e+09    -1.693059090070467e+01   -1.445882802961891e+02   -3.064919216447931e+01   -1.653917722210090e+02   -3.068251639740268e+01   -1.650715468876782e+02   -1.953048572657658e+01   -1.434299858861741e+02   
7.033000000000000e+09    -1.691871599253994e+01   -1.447046942252805e+02   -3.065102049268722e+01   -1.663028785018555e+02   -3.069173910603039e+01   -1.665036432004175e+02   -1.950403109528211e+01   -1.437197132871971e+02   
7.034000000000000e+09    -1.690677712097055e+01   -1.448471163869114e+02   -3.061432635973576e+01   -1.676126338678324e+02   -3.069082238819373e+01   -1.674224371643874e+02   -1.946955292420970e+01   -1.439741864320999e+02   
7.035000000000000e+09    -1.688651927437957e+01   -1.449442583457715e+02   -3.062350417874516e+01   -1.685202759260456e+02   -3.065711373465675e+01   -1.686778069794161e+02   -1.943273228216536e+01   -1.442043953940152e+02   
7.036000000000000e+09    -1.686708147406847e+01   -1.450832837483342e+02   -3.058372704337806e+01   -1.696764096016767e+02   -3.063562460385445e+01   -1.698209003894041e+02   -1.940611808862322e+01   -1.444102599321995e+02   
7.037000000000000e+09    -1.685988063910747e+01   -1.452514061613413e+02   -3.059108090837659e+01   -1.707663561552994e+02   -3.063336414519100e+01   -1.706514885746590e+02   -1.937120249781819e+01   -1.446345824537503e+02   
7.038000000000000e+09    -1.684113488138788e+01   -1.453438442210030e+02   -3.056075706100164e+01   -1.718523361754056e+02   -3.060983135770497e+01   -1.718585216677411e+02   -1.932326293238117e+01   -1.449679894251811e+02   
7.039000000000000e+09    -1.681597427806055e+01   -1.454773350632972e+02   -3.053981361266243e+01   -1.728159932199559e+02   -3.059321364806221e+01   -1.727240691838084e+02   -1.928798738500653e+01   -1.451520314435884e+02   
7.040000000000000e+09    -1.680106210718349e+01   -1.455591267547724e+02   -3.052896320526095e+01   -1.740001864355658e+02   -3.056957206293321e+01   -1.739479860351511e+02   -1.923814042044329e+01   -1.454594384565072e+02   
7.041000000000000e+09    -1.678746293648424e+01   -1.457049365934757e+02   -3.049068835126409e+01   -1.751588268685446e+02   -3.055555699906957e+01   -1.750395196048878e+02   -1.920034153372702e+01   -1.456674788301057e+02   
7.042000000000000e+09    -1.677149554833906e+01   -1.458241974688067e+02   -3.048149182237868e+01   -1.762651609240794e+02   -3.054234856318147e+01   -1.761302161470855e+02   -1.915524362253223e+01   -1.458688306578418e+02   
7.043000000000000e+09    -1.675323002516549e+01   -1.460271557224569e+02   -3.048481086789357e+01   -1.777660957245913e+02   -3.052806261599039e+01   -1.773993077731267e+02   -1.910517644628729e+01   -1.461326238690008e+02   
7.044000000000000e+09    -1.673095880483855e+01   -1.460723550866948e+02   -3.044323491279227e+01   -1.785756481112477e+02   -3.051282604308519e+01   -1.784573617676075e+02   -1.905298931870808e+01   -1.463392156051331e+02   
7.045000000000000e+09    -1.672045714921031e+01   -1.462182676035566e+02   -3.043302649931164e+01   -1.795785954085921e+02   -3.045890761622320e+01   -1.794573526824731e+02   -1.901850917136727e+01   -1.465361899116820e+02   
7.046000000000000e+09    -1.669969369475894e+01   -1.463738268439076e+02   -3.044641187114255e+01   1.789967589705699e+02    -3.044633245298345e+01   1.793522820039939e+02    -1.896665720260457e+01   -1.467070052482879e+02   
7.047000000000000e+09    -1.668475844549735e+01   -1.464586562385080e+02   -3.040260315529793e+01   1.781894020022102e+02    -3.045657418694340e+01   1.783501748862427e+02    -1.891555417359263e+01   -1.468673798523367e+02   
7.048000000000000e+09    -1.667289296360635e+01   -1.466071575915963e+02   -3.038968841300357e+01   1.769786107603826e+02    -3.042778330047064e+01   1.773797672065523e+02    -1.886982889531569e+01   -1.470206103670818e+02   
7.049000000000000e+09    -1.666048414304106e+01   -1.466645002435489e+02   -3.035597416969920e+01   1.759000441255786e+02    -3.039568002510042e+01   1.762465376391574e+02    -1.881208715932364e+01   -1.471059067029628e+02   
7.050000000000000e+09    -1.664996357873776e+01   -1.467916985400495e+02   -3.037871882747143e+01   1.746541532067697e+02    -3.039244941250326e+01   1.750345094923301e+02    -1.875787397284472e+01   -1.472408522402735e+02   
7.051000000000000e+09    -1.663437395781004e+01   -1.468257163973100e+02   -3.032785301186395e+01   1.736087664997596e+02    -3.035091863588281e+01   1.740704427261085e+02    -1.869645874268755e+01   -1.474207404428637e+02   
7.052000000000000e+09    -1.662715513044020e+01   -1.469457554762059e+02   -3.031237830984253e+01   1.726211201629170e+02    -3.035546480506435e+01   1.730901895139766e+02    -1.864997817417722e+01   -1.475229270651523e+02   
7.053000000000000e+09    -1.661108377172837e+01   -1.470497621377465e+02   -3.031083211296947e+01   1.716278084537375e+02    -3.032421078747473e+01   1.717858357181355e+02    -1.860299646453076e+01   -1.475913920559083e+02   
7.054000000000000e+09    -1.660878590321585e+01   -1.471715779452643e+02   -3.025696812918333e+01   1.703954808080252e+02    -3.030514228293261e+01   1.707749347708574e+02    -1.853918810623119e+01   -1.476451683925299e+02   
7.055000000000000e+09    -1.659203117561963e+01   -1.472923100511743e+02   -3.025259986783858e+01   1.692931037082085e+02    -3.029323339209725e+01   1.697428090651270e+02    -1.848816356277964e+01   -1.477625291646534e+02   
7.056000000000000e+09    -1.658709221466442e+01   -1.473585285137389e+02   -3.022196542330702e+01   1.682338503078223e+02    -3.027871472633612e+01   1.688110269240565e+02    -1.843340204122745e+01   -1.478138146672034e+02   
7.057000000000000e+09    -1.658076297048784e+01   -1.474557993514958e+02   -3.020899163922373e+01   1.670378290122225e+02    -3.022563794349185e+01   1.676570300298031e+02    -1.837139579368792e+01   -1.478467585395252e+02   
7.058000000000000e+09    -1.657440486896858e+01   -1.475953588908164e+02   -3.020869244203095e+01   1.659343370086110e+02    -3.022483392651553e+01   1.664488809617622e+02    -1.833176445895523e+01   -1.478433730534429e+02   
7.059000000000000e+09    -1.657456805719888e+01   -1.476474001845029e+02   -3.015888960483227e+01   1.649711919495568e+02    -3.018098108303786e+01   1.654738707270573e+02    -1.826999782811372e+01   -1.479078232176171e+02   
7.060000000000000e+09    -1.657255124119772e+01   -1.477806163548239e+02   -3.012737519609633e+01   1.638007641234343e+02    -3.016582927900930e+01   1.642446352069542e+02    -1.821442420647167e+01   -1.478908297095417e+02   
7.061000000000000e+09    -1.656363519818510e+01   -1.478829628536413e+02   -3.010675177915303e+01   1.626667448778821e+02    -3.014834079940050e+01   1.632258779179068e+02    -1.816144740686444e+01   -1.478280600645608e+02   
7.062000000000000e+09    -1.656937745539374e+01   -1.480190788515859e+02   -3.009397674610835e+01   1.615138654691725e+02    -3.011739528686899e+01   1.621319411695353e+02    -1.809843936459739e+01   -1.478516627040234e+02   
7.063000000000000e+09    -1.657031662529993e+01   -1.481174415011855e+02   -3.005755815488323e+01   1.605660395568605e+02    -3.012768845769401e+01   1.609781606509547e+02    -1.804931032947529e+01   -1.477824505090036e+02   
7.064000000000000e+09    -1.657430416344798e+01   -1.482258439657375e+02   -3.005447740048495e+01   1.596209923420672e+02    -3.005070256912317e+01   1.601191474346946e+02    -1.799726468360147e+01   -1.476911514200086e+02   
7.065000000000000e+09    -1.657224421334031e+01   -1.483534307022972e+02   -3.003231338428645e+01   1.583901990317371e+02    -3.007083137903616e+01   1.588003821539774e+02    -1.795593218354396e+01   -1.477107938562181e+02   
7.066000000000000e+09    -1.657007816302598e+01   -1.484374108030028e+02   -3.002895208435976e+01   1.572481060783488e+02    -3.004229007797352e+01   1.579366462830294e+02    -1.790012163305899e+01   -1.476335357157074e+02   
7.067000000000000e+09    -1.658236959208418e+01   -1.485753056149047e+02   -2.997382087180991e+01   1.561373928353479e+02    -2.999499736058080e+01   1.567072364868423e+02    -1.785642529582249e+01   -1.475108267027070e+02   
7.068000000000000e+09    -1.658009912691119e+01   -1.487234791365739e+02   -2.996117536190269e+01   1.551767577391600e+02    -3.000843730994790e+01   1.557160525576337e+02    -1.782268062606130e+01   -1.474351815166583e+02   
7.069000000000000e+09    -1.658414468982465e+01   -1.488503197691519e+02   -2.994306817137375e+01   1.540911771019033e+02    -2.998455950431179e+01   1.547082326840807e+02    -1.778353214777152e+01   -1.473615746337724e+02   
7.070000000000000e+09    -1.659879315067201e+01   -1.489786631573122e+02   -2.994268458164930e+01   1.531354747905956e+02    -2.997300253456395e+01   1.536362265283261e+02    -1.774656626130372e+01   -1.472321209448432e+02   
7.071000000000000e+09    -1.660645101787015e+01   -1.491467902588511e+02   -2.990224406695771e+01   1.519800358885947e+02    -2.992702323322449e+01   1.524205696606334e+02    -1.771951037160361e+01   -1.471405903442833e+02   
7.072000000000000e+09    -1.661454252851198e+01   -1.492854344171519e+02   -2.985974774851711e+01   1.508422306353607e+02    -2.992739691251696e+01   1.514471646572471e+02    -1.769206310293989e+01   -1.470340956079405e+02   
7.073000000000000e+09    -1.662263190641074e+01   -1.494252614937761e+02   -2.991562204743202e+01   1.497412980080917e+02    -2.989093413185491e+01   1.502987076842928e+02    -1.766436286657463e+01   -1.468596906375657e+02   
7.074000000000000e+09    -1.663709495905830e+01   -1.495975364661541e+02   -2.985636823591204e+01   1.487351413643922e+02    -2.987807488260731e+01   1.494776935191941e+02    -1.763691393980758e+01   -1.467237505468614e+02   
7.075000000000000e+09    -1.664228527349281e+01   -1.497653469606731e+02   -2.982628064891356e+01   1.476851990514547e+02    -2.984866998746002e+01   1.484064720039132e+02    -1.762661201091049e+01   -1.465664218132621e+02   
7.076000000000000e+09    -1.665559234214000e+01   -1.498272008778806e+02   -2.983102612944456e+01   1.468280880401950e+02    -2.984163352898657e+01   1.474251741751739e+02    -1.760224063610730e+01   -1.463517055674672e+02   
7.077000000000000e+09    -1.666269965229440e+01   -1.500073845913874e+02   -2.980451841896352e+01   1.454065003771846e+02    -2.981521231230871e+01   1.461134460543091e+02    -1.758997999014438e+01   -1.462266486103807e+02   
7.078000000000000e+09    -1.667977993702171e+01   -1.501354108232483e+02   -2.978378090051907e+01   1.447843394912709e+02    -2.979423956456695e+01   1.450324942874456e+02    -1.757640896460378e+01   -1.460872644565640e+02   
7.079000000000000e+09    -1.669091731520310e+01   -1.502711455116471e+02   -2.975799939601942e+01   1.435543521476375e+02    -2.978733327580572e+01   1.442780389971176e+02    -1.757094637092365e+01   -1.458948652906078e+02   
7.080000000000000e+09    -1.670809579724884e+01   -1.504390515827780e+02   -2.973289801515527e+01   1.426995674282487e+02    -2.976828749597601e+01   1.430416484421968e+02    -1.756283800825176e+01   -1.457167966701467e+02   
7.081000000000000e+09    -1.670862024256923e+01   -1.505447038656077e+02   -2.975565578575814e+01   1.416507354409214e+02    -2.973940663575826e+01   1.421022314106175e+02    -1.756735038664791e+01   -1.455412109412158e+02   
7.082000000000000e+09    -1.672768935798656e+01   -1.506855624901232e+02   -2.973705425729971e+01   1.405390945126515e+02    -2.968329537916869e+01   1.410541143140032e+02    -1.756275293222186e+01   -1.453887758364067e+02   
7.083000000000000e+09    -1.674686157674891e+01   -1.507825665687575e+02   -2.969378176863854e+01   1.395229941363091e+02    -2.967189847060927e+01   1.399133206342840e+02    -1.756543678848482e+01   -1.452138231105874e+02   
7.084000000000000e+09    -1.675843333355053e+01   -1.509510152673453e+02   -2.966322694030825e+01   1.384420575394757e+02    -2.964771875418123e+01   1.390767983727905e+02    -1.757440002884425e+01   -1.450163284611114e+02   
