[Version] 2.0
! Rohde & Schwarz Vector Network Analyzer
! Rohde-Schwarz,ZNL20-2Port,1323001220200009,1.71.1.10-23.02.1.238
! 
! Port Assignments:
! Nominal Port -> Actual Test Port
! --------------------------------
!   1 -> 1
!   2 -> 2

! Created: GMT+3 2024-09-24 16:02:56

# Hz S DB R 50

[Number of Ports] 2
[Two-Port Data Order] 21_12
[Number of Frequencies] 6001

[Network Data] 
! freq[Hz]               S11[mag dB]              S11[ang]                 S21[mag dB]              S21[ang]                 S12[mag dB]              S12[ang]                 S22[mag dB]              S22[ang]                 
7.000000000000000e+09    -1.753898749071579e+01   -1.441451267317046e+02   -3.085220771243628e+01   -1.279655817607071e+02   -3.079654074045168e+01   -1.280747915626239e+02   -1.940763458486631e+01   -1.395515292659133e+02   
7.001000000000000e+09    -1.750885685683444e+01   -1.440826038050896e+02   -3.084461228865404e+01   -1.291688815437169e+02   -3.082209007400179e+01   -1.293530855123541e+02   -1.942277951918259e+01   -1.393768733839585e+02   
7.002000000000000e+09    -1.748917163830333e+01   -1.440636867620043e+02   -3.086821738035831e+01   -1.303154607498790e+02   -3.082912540759619e+01   -1.305103987874247e+02   -1.946207145205722e+01   -1.392338920390564e+02   
7.003000000000000e+09    -1.747272770308871e+01   -1.439905932370249e+02   -3.090561637985516e+01   -1.311673232420223e+02   -3.084305821712194e+01   -1.316713409226183e+02   -1.949313898857448e+01   -1.391008586038432e+02   
7.004000000000000e+09    -1.745113942261782e+01   -1.439787113322557e+02   -3.091119946150731e+01   -1.324568917858070e+02   -3.086701042259118e+01   -1.328537613841468e+02   -1.951358944826337e+01   -1.389836500730778e+02   
7.005000000000000e+09    -1.743824426395907e+01   -1.439191112463140e+02   -3.088843051623652e+01   -1.336139731839324e+02   -3.086957898886109e+01   -1.338094074521468e+02   -1.954725982508763e+01   -1.388926823746000e+02   
7.006000000000000e+09    -1.741716975157643e+01   -1.439208491083309e+02   -3.089209238643781e+01   -1.347911120329260e+02   -3.088814852075718e+01   -1.350901300046345e+02   -1.957566481311645e+01   -1.387625362929740e+02   
7.007000000000000e+09    -1.739569897588670e+01   -1.438914542722158e+02   -3.092418722715604e+01   -1.357139718878855e+02   -3.091094212713800e+01   -1.359914404005809e+02   -1.960143775542516e+01   -1.387328445569287e+02   
7.008000000000000e+09    -1.737558343048902e+01   -1.438627583701767e+02   -3.090450417405236e+01   -1.369925105752797e+02   -3.089559251989562e+01   -1.373181450987132e+02   -1.963074919192604e+01   -1.386994916233709e+02   
7.009000000000000e+09    -1.735467743911754e+01   -1.438391852692704e+02   -3.090171678781929e+01   -1.379695629113627e+02   -3.089544218222565e+01   -1.383731510760200e+02   -1.965049364132670e+01   -1.386726724106690e+02   
7.010000000000000e+09    -1.733508320855540e+01   -1.438148958948337e+02   -3.091475774183380e+01   -1.394898992989098e+02   -3.090825498987649e+01   -1.395246475056653e+02   -1.967311719630344e+01   -1.386675196995437e+02   
7.011000000000000e+09    -1.731763869040778e+01   -1.437466826920165e+02   -3.091682524208003e+01   -1.400935904429097e+02   -3.093361389104908e+01   -1.406397316826771e+02   -1.968889023312635e+01   -1.387078444761232e+02   
7.012000000000000e+09    -1.729237206115165e+01   -1.437096832430821e+02   -3.092398066992193e+01   -1.412904725234111e+02   -3.092496546186881e+01   -1.417524765475924e+02   -1.970569209260575e+01   -1.387510331911426e+02   
7.013000000000000e+09    -1.728080057740175e+01   -1.436751255938088e+02   -3.092357183481663e+01   -1.423766017194085e+02   -3.090744195466229e+01   -1.429022112020026e+02   -1.972294342679430e+01   -1.388917091437910e+02   
7.014000000000000e+09    -1.726703426010039e+01   -1.437247803167543e+02   -3.093826184912087e+01   -1.434943882225583e+02   -3.094187360487545e+01   -1.439807423039760e+02   -1.974746708553904e+01   -1.390046435873455e+02   
7.015000000000000e+09    -1.724416564637784e+01   -1.436620372218461e+02   -3.092804241795710e+01   -1.446354025009582e+02   -3.095821867387955e+01   -1.447379599656816e+02   -1.975719916136290e+01   -1.391212052048578e+02   
7.016000000000000e+09    -1.722436152226124e+01   -1.436223904709696e+02   -3.091888360315232e+01   -1.455328773706131e+02   -3.094995056605678e+01   -1.460920776651032e+02   -1.976254241985135e+01   -1.392903651755915e+02   
7.017000000000000e+09    -1.721119959500306e+01   -1.436259191261555e+02   -3.092741191097490e+01   -1.466987433295343e+02   -3.093507580858414e+01   -1.472709308211826e+02   -1.976496444103544e+01   -1.395149756772850e+02   
7.018000000000000e+09    -1.719115086766699e+01   -1.436951777126330e+02   -3.091219362866170e+01   -1.477427131125868e+02   -3.093560978045047e+01   -1.483098927912887e+02   -1.977454672407327e+01   -1.396515627611662e+02   
7.019000000000000e+09    -1.717505797869227e+01   -1.436643440080421e+02   -3.089989457425681e+01   -1.488999446983963e+02   -3.095469454335029e+01   -1.492417767336757e+02   -1.976989347977488e+01   -1.398047963909837e+02   
7.020000000000000e+09    -1.715701810972806e+01   -1.436849073990474e+02   -3.087871034103959e+01   -1.498044079829569e+02   -3.094111750324038e+01   -1.505371134703576e+02   -1.977455898179986e+01   -1.400759136453234e+02   
7.021000000000000e+09    -1.714025231432599e+01   -1.437278430771692e+02   -3.083849472453238e+01   -1.510371883175908e+02   -3.092431291302805e+01   -1.515145776845065e+02   -1.975880645028917e+01   -1.402761944687542e+02   
7.022000000000000e+09    -1.712487634695842e+01   -1.437751810371765e+02   -3.085836081016588e+01   -1.522186050764369e+02   -3.088776848834623e+01   -1.526049251550220e+02   -1.976603449067686e+01   -1.404827593608462e+02   
7.023000000000000e+09    -1.710571830435149e+01   -1.437848394235956e+02   -3.083524425015031e+01   -1.534241288313169e+02   -3.089332432408855e+01   -1.539415604064859e+02   -1.974444808105188e+01   -1.407989262283484e+02   
7.024000000000000e+09    -1.709790596153402e+01   -1.438530379636894e+02   -3.082619941636207e+01   -1.544688628695782e+02   -3.089242002863245e+01   -1.549918242164790e+02   -1.973350594674210e+01   -1.410184937351613e+02   
7.025000000000000e+09    -1.707854066089227e+01   -1.438777964967093e+02   -3.082330494332976e+01   -1.555211105707727e+02   -3.087721001210281e+01   -1.561282777586811e+02   -1.971865568502052e+01   -1.412574953543224e+02   
7.026000000000000e+09    -1.706039853995918e+01   -1.439725586021365e+02   -3.081288991064660e+01   -1.565718182990371e+02   -3.086507331474843e+01   -1.572465029006251e+02   -1.969514892579220e+01   -1.415192185411623e+02   
7.027000000000000e+09    -1.705040059342665e+01   -1.440116393136008e+02   -3.077923696957271e+01   -1.578974680557515e+02   -3.086773334362041e+01   -1.581819725980453e+02   -1.967539904877306e+01   -1.417763307258294e+02   
7.028000000000000e+09    -1.702840737456129e+01   -1.441103345886882e+02   -3.076808525337238e+01   -1.590358544863969e+02   -3.087279749879787e+01   -1.594656169089600e+02   -1.965535195353595e+01   -1.421019656258345e+02   
7.029000000000000e+09    -1.701499808535585e+01   -1.442256590302526e+02   -3.075086392556162e+01   -1.602364746735254e+02   -3.084428869332903e+01   -1.606706235882971e+02   -1.964027477929138e+01   -1.424243865485182e+02   
7.030000000000000e+09    -1.699892493563433e+01   -1.443244937875671e+02   -3.072904439208605e+01   -1.614872556352798e+02   -3.087755778160778e+01   -1.615832208104042e+02   -1.961131912416687e+01   -1.426369521685622e+02   
7.031000000000000e+09    -1.698548240864984e+01   -1.444395027144181e+02   -3.072734203333776e+01   -1.622942372603088e+02   -3.086410269577571e+01   -1.627567751253667e+02   -1.958752514653943e+01   -1.429790493363827e+02   
7.032000000000000e+09    -1.697117479476822e+01   -1.445729106554223e+02   -3.070213371474435e+01   -1.636439781402959e+02   -3.084651728524340e+01   -1.638910043606467e+02   -1.956566964696910e+01   -1.432877095974884e+02   
7.033000000000000e+09    -1.695319367501653e+01   -1.446190187351929e+02   -3.071267749114351e+01   -1.643559717856056e+02   -3.084511098095586e+01   -1.651057137361201e+02   -1.953227170005988e+01   -1.435689456921359e+02   
7.034000000000000e+09    -1.694257810258986e+01   -1.447873537591253e+02   -3.070901222493608e+01   -1.658348885825937e+02   -3.083669145265906e+01   -1.660273197836239e+02   -1.950086507655062e+01   -1.438173034625585e+02   
7.035000000000000e+09    -1.692262307910669e+01   -1.448997004320805e+02   -3.069009300227199e+01   -1.668730777873108e+02   -3.081848528894798e+01   -1.672687891166921e+02   -1.945906494597640e+01   -1.440736699033988e+02   
7.036000000000000e+09    -1.690566781382688e+01   -1.450263795592444e+02   -3.065901218874766e+01   -1.677406125176500e+02   -3.076915259000038e+01   -1.681788179013340e+02   -1.944212829549041e+01   -1.443306761801921e+02   
7.037000000000000e+09    -1.688920407223998e+01   -1.451582225354054e+02   -3.063461234785445e+01   -1.689340983851342e+02   -3.075127463122072e+01   -1.691114086968962e+02   -1.940418314167279e+01   -1.445281112399237e+02   
7.038000000000000e+09    -1.687810241501730e+01   -1.452758965300678e+02   -3.062603889694962e+01   -1.701794760317754e+02   -3.076408815631853e+01   -1.703929443125225e+02   -1.935322002282143e+01   -1.448436972258694e+02   
7.039000000000000e+09    -1.685523855994297e+01   -1.453730956057224e+02   -3.061833085104542e+01   -1.711382286180985e+02   -3.075113281620697e+01   -1.712932308990602e+02   -1.931959433469748e+01   -1.450931189776337e+02   
7.040000000000000e+09    -1.684218492879107e+01   -1.455075601049788e+02   -3.059102846580197e+01   -1.723526877507089e+02   -3.070304383472260e+01   -1.722384375538919e+02   -1.926541222413305e+01   -1.453558768245931e+02   
7.041000000000000e+09    -1.682997252469039e+01   -1.456162617285789e+02   -3.059391664707230e+01   -1.735256191785383e+02   -3.072044174700035e+01   -1.735305155925979e+02   -1.922441992206818e+01   -1.455427142228828e+02   
7.042000000000000e+09    -1.680930047474990e+01   -1.457218893378485e+02   -3.055152413736920e+01   -1.745331289167930e+02   -3.069895237828609e+01   -1.744597354332326e+02   -1.919252529051852e+01   -1.457645102138032e+02   
7.043000000000000e+09    -1.679261493637429e+01   -1.459245566711860e+02   -3.053473290178368e+01   -1.758907416828763e+02   -3.066039841604322e+01   -1.756031247421943e+02   -1.914907631876579e+01   -1.460458531946648e+02   
7.044000000000000e+09    -1.677542190149333e+01   -1.459705520425159e+02   -3.049879448437564e+01   -1.766162368560468e+02   -3.066810667378933e+01   -1.767225075767588e+02   -1.908826284896270e+01   -1.462585231714369e+02   
7.045000000000000e+09    -1.675958604243171e+01   -1.461100576258655e+02   -3.045964734090496e+01   -1.778605954376461e+02   -3.062863107611343e+01   -1.777549572778775e+02   -1.905956401346147e+01   -1.464463836615845e+02   
7.046000000000000e+09    -1.673712263193610e+01   -1.462065302317084e+02   -3.048772692801496e+01   -1.791906284303357e+02   -3.060932232298957e+01   -1.790061171334978e+02   -1.899644190867535e+01   -1.465944299158966e+02   
7.047000000000000e+09    -1.673085313730658e+01   -1.462842568077153e+02   -3.044716061527392e+01   1.799006520226655e+02    -3.060216407839704e+01   1.799109312095565e+02    -1.895583467352801e+01   -1.467591827924464e+02   
7.048000000000000e+09    -1.671424403568007e+01   -1.464125856744675e+02   -3.045325168674019e+01   1.787081892404078e+02    -3.056634406457065e+01   1.789911782916875e+02    -1.890460254720612e+01   -1.469082084407853e+02   
7.049000000000000e+09    -1.670574521530972e+01   -1.464973205315864e+02   -3.040076725464241e+01   1.776954892752356e+02    -3.055048111518460e+01   1.779156345602285e+02    -1.884407923065312e+01   -1.470622771817131e+02   
7.050000000000000e+09    -1.669028224760672e+01   -1.465921585266068e+02   -3.039215999700950e+01   1.764858613897461e+02    -3.053582868419409e+01   1.770329055806189e+02    -1.879384447118298e+01   -1.472052224888587e+02   
7.051000000000000e+09    -1.668068092557164e+01   -1.466477200745469e+02   -3.036428100297405e+01   1.753261078862044e+02    -3.051012428091303e+01   1.757296175561037e+02    -1.873897683214267e+01   -1.473505084737321e+02   
7.052000000000000e+09    -1.666739271706030e+01   -1.467576113867680e+02   -3.035445296503500e+01   1.743933097804832e+02    -3.049436678128046e+01   1.749930933149610e+02    -1.869450365369068e+01   -1.474358253586715e+02   
7.053000000000000e+09    -1.665298399326640e+01   -1.468925224664512e+02   -3.034964168604192e+01   1.733023717602095e+02    -3.045097065738336e+01   1.737812342233896e+02    -1.863676430778568e+01   -1.474707246006703e+02   
7.054000000000000e+09    -1.664466307183968e+01   -1.469707499009868e+02   -3.030302960496966e+01   1.719832568441664e+02    -3.041910789377885e+01   1.726288470189149e+02    -1.858250926013215e+01   -1.475823774717244e+02   
7.055000000000000e+09    -1.663325018203473e+01   -1.470764460924274e+02   -3.029189493679157e+01   1.709342078135664e+02    -3.039997029486792e+01   1.715685911571572e+02    -1.852385553875429e+01   -1.476321846524024e+02   
7.056000000000000e+09    -1.662815346136934e+01   -1.471289866935116e+02   -3.025084708331374e+01   1.699013656895085e+02    -3.038722196254941e+01   1.706560257424927e+02    -1.847398119460679e+01   -1.476809947675528e+02   
7.057000000000000e+09    -1.661569700882263e+01   -1.471878941587130e+02   -3.024601549832233e+01   1.685633023891302e+02    -3.035430725048190e+01   1.693950373522918e+02    -1.841245506635041e+01   -1.477510299591633e+02   
7.058000000000000e+09    -1.661328278973999e+01   -1.473156936666174e+02   -3.022748773207546e+01   1.676577150949595e+02    -3.034613654448761e+01   1.681813245131502e+02    -1.837497553997343e+01   -1.477280589050103e+02   
7.059000000000000e+09    -1.660989673890188e+01   -1.474420971316524e+02   -3.020100198313365e+01   1.664209605422763e+02    -3.027760291554889e+01   1.671994756600460e+02    -1.831191399057225e+01   -1.476953633598517e+02   
7.060000000000000e+09    -1.660318558122140e+01   -1.475227591731262e+02   -3.019905811640814e+01   1.654191784969125e+02    -3.025044260579637e+01   1.660751230312781e+02    -1.826468640422810e+01   -1.477176292426607e+02   
7.061000000000000e+09    -1.660644637405492e+01   -1.476139173267166e+02   -3.015008447942607e+01   1.642135437610747e+02    -3.025020908680392e+01   1.651462665951532e+02    -1.820485287264178e+01   -1.476393707178501e+02   
7.062000000000000e+09    -1.660021504738128e+01   -1.477280614501119e+02   -3.013790731260658e+01   1.632303398831951e+02    -3.020467005072668e+01   1.638270343591830e+02    -1.814616748292724e+01   -1.476457872750221e+02   
7.063000000000000e+09    -1.660491165484811e+01   -1.478406259991995e+02   -3.011439613532138e+01   1.620856982687431e+02    -3.022346765263191e+01   1.626856764549153e+02    -1.809115302754789e+01   -1.476166439063792e+02   
7.064000000000000e+09    -1.661009548047387e+01   -1.479035682159031e+02   -3.009086083096015e+01   1.610101609111032e+02    -3.016366311068190e+01   1.618244093678068e+02    -1.804812480408926e+01   -1.474994822910007e+02   
7.065000000000000e+09    -1.660790912187228e+01   -1.480756749947870e+02   -3.007026646736826e+01   1.598335421449503e+02    -3.017880503965345e+01   1.604706350306001e+02    -1.800350535390744e+01   -1.474510804797243e+02   
7.066000000000000e+09    -1.660377635760017e+01   -1.481413991527367e+02   -3.004848876589918e+01   1.586706329122933e+02    -3.012748096817002e+01   1.596889025798923e+02    -1.795532381563187e+01   -1.473956525317770e+02   
7.067000000000000e+09    -1.660931377102348e+01   -1.482529844999126e+02   -3.002113038250544e+01   1.575031189792539e+02    -3.008757693155697e+01   1.585967266709456e+02    -1.790912668688667e+01   -1.472494882275468e+02   
7.068000000000000e+09    -1.660889375795308e+01   -1.483847441528517e+02   -3.000918889437450e+01   1.565609863495396e+02    -3.010667046358147e+01   1.576522771961053e+02    -1.787196108214616e+01   -1.472235548011710e+02   
7.069000000000000e+09    -1.661458669912155e+01   -1.485433852283866e+02   -2.999742296864144e+01   1.555711847257997e+02    -3.006043612407408e+01   1.565127478987117e+02    -1.783514222727899e+01   -1.471211866681168e+02   
7.070000000000000e+09    -1.661900809814006e+01   -1.486560646214171e+02   -2.996899168110448e+01   1.545390334128406e+02    -3.003465433080962e+01   1.554033529481233e+02    -1.779819627884984e+01   -1.469449719355918e+02   
7.071000000000000e+09    -1.662134847168927e+01   -1.488188116942886e+02   -2.993610974722449e+01   1.533663674070990e+02    -3.001996003552109e+01   1.544655457919469e+02    -1.777260484404973e+01   -1.468553293068221e+02   
7.072000000000000e+09    -1.662948890791659e+01   -1.489311891748530e+02   -2.991803416265828e+01   1.522867796808958e+02    -3.001038741974676e+01   1.533295658298283e+02    -1.773872471533599e+01   -1.467024956609459e+02   
7.073000000000000e+09    -1.663794467761400e+01   -1.490983572722641e+02   -2.992736797609955e+01   1.511446980587767e+02    -2.999862768427523e+01   1.521916262813221e+02    -1.771334713152326e+01   -1.465631607430801e+02   
7.074000000000000e+09    -1.664875268765922e+01   -1.492483125458766e+02   -2.990167945984078e+01   1.502428414457872e+02    -2.994497835814776e+01   1.512929022769616e+02    -1.769046172918670e+01   -1.463945798364958e+02   
7.075000000000000e+09    -1.665650091973390e+01   -1.494001872673681e+02   -2.990018577031629e+01   1.491435324249426e+02    -2.991866672442914e+01   1.503077351182145e+02    -1.767295577546826e+01   -1.461915523319428e+02   
7.076000000000000e+09    -1.666332156328392e+01   -1.494993875662722e+02   -2.988033586097285e+01   1.482251795803251e+02    -2.991464482771682e+01   1.492540240544564e+02    -1.765633712238234e+01   -1.460372721778606e+02   
7.077000000000000e+09    -1.667465119531762e+01   -1.496397283047315e+02   -2.985576752863552e+01   1.469034683085695e+02    -2.988540929414621e+01   1.480510732229262e+02    -1.763765397587995e+01   -1.458576050443850e+02   
7.078000000000000e+09    -1.668665416305986e+01   -1.498090365141384e+02   -2.981956383164774e+01   1.461815899820316e+02    -2.981409914321629e+01   1.470190081388170e+02    -1.762968672645701e+01   -1.457288588129425e+02   
7.079000000000000e+09    -1.669154925087227e+01   -1.498958765254888e+02   -2.979641525716323e+01   1.449480311605091e+02    -2.981380959282900e+01   1.461299454530579e+02    -1.761836683640496e+01   -1.454987463554718e+02   
7.080000000000000e+09    -1.671006864301034e+01   -1.500905543670982e+02   -2.975387402265189e+01   1.439597874608608e+02    -2.980517639914959e+01   1.449434029216653e+02    -1.761304725307161e+01   -1.453431974852559e+02   
7.081000000000000e+09    -1.671796517820383e+01   -1.502140426450749e+02   -2.977679157993197e+01   1.428787239028340e+02    -2.977032629697139e+01   1.439786291459609e+02    -1.761395726743864e+01   -1.451780112579015e+02   
7.082000000000000e+09    -1.672875988341469e+01   -1.503504510976378e+02   -2.975169616504385e+01   1.416648450902642e+02    -2.974289611298784e+01   1.428649382747938e+02    -1.760530624041343e+01   -1.449867753690678e+02   
7.083000000000000e+09    -1.675178952688214e+01   -1.504596690673737e+02   -2.971398078879492e+01   1.407754274571749e+02    -2.970733736572929e+01   1.417833605654239e+02    -1.761197806506297e+01   -1.447893462767945e+02   
7.084000000000000e+09    -1.675978511176742e+01   -1.505931299845385e+02   -2.969516168423907e+01   1.396291650878773e+02    -2.968588344913320e+01   1.408573966892502e+02    -1.761250852322481e+01   -1.446060560709351e+02   
