[Version] 2.0
! Rohde & Schwarz Vector Network Analyzer
! Rohde-Schwarz,ZNL20-2Port,1323001220200009,1.71.1.10-23.02.1.238
! 
! Port Assignments:
! Nominal Port -> Actual Test Port
! --------------------------------
!   1 -> 1
!   2 -> 2

! Created: GMT+3 2024-09-24 16:03:22

# Hz S DB R 50

[Number of Ports] 2
[Two-Port Data Order] 21_12
[Number of Frequencies] 6001

[Network Data] 
! freq[Hz]               S11[mag dB]              S11[ang]                 S21[mag dB]              S21[ang]                 S12[mag dB]              S12[ang]                 S22[mag dB]              S22[ang]                 
7.000000000000000e+09    -1.759251162625467e+01   -1.442541657911823e+02   -3.084706149491844e+01   -1.258130220413264e+02   -3.073894354106854e+01   -1.247391174430248e+02   -1.954408055468909e+01   -1.396656973502591e+02   
7.001000000000000e+09    -1.756961314427268e+01   -1.441974733385899e+02   -3.085075431436133e+01   -1.269009867675780e+02   -3.073989628625596e+01   -1.260594804532579e+02   -1.957571556104215e+01   -1.394687123472220e+02   
7.002000000000000e+09    -1.755038218792932e+01   -1.441652092638764e+02   -3.088420291883205e+01   -1.281378606897988e+02   -3.074681813705846e+01   -1.271612930861701e+02   -1.960043813045818e+01   -1.392729423387577e+02   
7.003000000000000e+09    -1.753013675143485e+01   -1.440958678085024e+02   -3.093747534768223e+01   -1.289976328146325e+02   -3.074826893389347e+01   -1.284906523018943e+02   -1.962131416517462e+01   -1.391218098560140e+02   
7.004000000000000e+09    -1.751745465909973e+01   -1.440663881485222e+02   -3.093121417740057e+01   -1.299946860518197e+02   -3.077509101110920e+01   -1.295060395069523e+02   -1.965700060607178e+01   -1.389505088570332e+02   
7.005000000000000e+09    -1.749724671708338e+01   -1.440088364799617e+02   -3.090934944943863e+01   -1.313419360950694e+02   -3.080733887947798e+01   -1.306668041391076e+02   -1.968479153673829e+01   -1.388015390068868e+02   
7.006000000000000e+09    -1.747943137003055e+01   -1.439586747444034e+02   -3.094232588893325e+01   -1.326346943134407e+02   -3.079195509734440e+01   -1.318891889618949e+02   -1.970782714333461e+01   -1.386806952428845e+02   
7.007000000000000e+09    -1.745200408295624e+01   -1.439163429561854e+02   -3.093092115541450e+01   -1.334872918183728e+02   -3.080355693192724e+01   -1.331221169396264e+02   -1.973663064605827e+01   -1.386629764612440e+02   
7.008000000000000e+09    -1.743895865685447e+01   -1.439300664274905e+02   -3.094669540502077e+01   -1.349079258737786e+02   -3.078528300189105e+01   -1.342809736991263e+02   -1.975833914069905e+01   -1.385610124244362e+02   
7.009000000000000e+09    -1.741637148625332e+01   -1.438490493524442e+02   -3.095212988405688e+01   -1.357826145550129e+02   -3.082432862553231e+01   -1.354641317449926e+02   -1.978923692918813e+01   -1.385346480021343e+02   
7.010000000000000e+09    -1.740198214077451e+01   -1.438542631192921e+02   -3.096583614015407e+01   -1.370199587073231e+02   -3.084663478332430e+01   -1.364357419963709e+02   -1.980514811059779e+01   -1.385002958204035e+02   
7.011000000000000e+09    -1.737863387533075e+01   -1.437876848380682e+02   -3.094035037124105e+01   -1.377411877792150e+02   -3.085283970998692e+01   -1.376882023300326e+02   -1.981870469894566e+01   -1.385257826713164e+02   
7.012000000000000e+09    -1.735894096411283e+01   -1.437683057624260e+02   -3.097761640973314e+01   -1.389043851005186e+02   -3.083901204869737e+01   -1.388111680267086e+02   -1.983508646132998e+01   -1.386003552262466e+02   
7.013000000000000e+09    -1.733832532518309e+01   -1.437843919388367e+02   -3.096467049715223e+01   -1.400292683277556e+02   -3.085612603746181e+01   -1.399119015289072e+02   -1.985646925289628e+01   -1.386780818889053e+02   
7.014000000000000e+09    -1.733708213974111e+01   -1.437210050357368e+02   -3.097051149872716e+01   -1.412542153582714e+02   -3.083453324021488e+01   -1.410294357201791e+02   -1.987552442085401e+01   -1.387986832057264e+02   
7.015000000000000e+09    -1.731301066353287e+01   -1.436917447778056e+02   -3.098812166637465e+01   -1.424361934845132e+02   -3.086488525946113e+01   -1.419107053344508e+02   -1.988485127428004e+01   -1.388881724877585e+02   
7.016000000000000e+09    -1.729084847008190e+01   -1.436661033815888e+02   -3.095695633326132e+01   -1.433497352963526e+02   -3.085356507368850e+01   -1.432208344965709e+02   -1.988968393773694e+01   -1.389776400664419e+02   
7.017000000000000e+09    -1.727460993191793e+01   -1.436349643352078e+02   -3.096743428016396e+01   -1.446624716478221e+02   -3.085144503691514e+01   -1.445385529089251e+02   -1.989259048054373e+01   -1.391368650482351e+02   
7.018000000000000e+09    -1.725762893631611e+01   -1.436353008060308e+02   -3.097222974546773e+01   -1.456387992007663e+02   -3.084459224383014e+01   -1.456987987237848e+02   -1.989495021034990e+01   -1.393168208378615e+02   
7.019000000000000e+09    -1.724470100778229e+01   -1.436254529121321e+02   -3.095083283024633e+01   -1.468077372953574e+02   -3.083891617407806e+01   -1.466428660841274e+02   -1.989356084070117e+01   -1.394336126257316e+02   
7.020000000000000e+09    -1.722512955462113e+01   -1.436625180467007e+02   -3.095525026808323e+01   -1.477230688113570e+02   -3.084319496502571e+01   -1.480736294403305e+02   -1.989300348333804e+01   -1.396595351037209e+02   
7.021000000000000e+09    -1.721073429238103e+01   -1.437063318759884e+02   -3.092201240096928e+01   -1.488289534817478e+02   -3.082154961037671e+01   -1.489701049437348e+02   -1.988378083367353e+01   -1.398833013918392e+02   
7.022000000000000e+09    -1.719627093434796e+01   -1.437284100917284e+02   -3.093121709082263e+01   -1.499891202731604e+02   -3.079690862317358e+01   -1.500055497963767e+02   -1.988314301288666e+01   -1.400380739492882e+02   
7.023000000000000e+09    -1.718173723828133e+01   -1.437057983622530e+02   -3.090954646871358e+01   -1.510862832018020e+02   -3.079888570242361e+01   -1.514350397956812e+02   -1.986342812630638e+01   -1.403427479689826e+02   
7.024000000000000e+09    -1.716400988373103e+01   -1.437670438301972e+02   -3.090229348425397e+01   -1.523020643143256e+02   -3.083846391875246e+01   -1.525887147033025e+02   -1.984525408772890e+01   -1.405746223532245e+02   
7.025000000000000e+09    -1.715359006132937e+01   -1.438335712063096e+02   -3.088614132794134e+01   -1.531488013114766e+02   -3.078470463932199e+01   -1.536913661676107e+02   -1.983549152335792e+01   -1.408243517889902e+02   
7.026000000000000e+09    -1.714014812107398e+01   -1.439155697048351e+02   -3.088570313997771e+01   -1.544924797556323e+02   -3.079374429851622e+01   -1.548758015274231e+02   -1.980284081563054e+01   -1.410918639946580e+02   
7.027000000000000e+09    -1.712044422740007e+01   -1.439192214061973e+02   -3.084312106627676e+01   -1.555810432332267e+02   -3.078039436096695e+01   -1.558033693451183e+02   -1.978511967695377e+01   -1.413092306038050e+02   
7.028000000000000e+09    -1.710477124758571e+01   -1.439902625305019e+02   -3.082651414644246e+01   -1.569376724873969e+02   -3.076238609762431e+01   -1.572833519803120e+02   -1.977169730786838e+01   -1.416592845000240e+02   
7.029000000000000e+09    -1.708606646726579e+01   -1.440686011797758e+02   -3.084588033882712e+01   -1.580360464079758e+02   -3.075094356465313e+01   -1.585812413641934e+02   -1.974561492452493e+01   -1.419683330911581e+02   
7.030000000000000e+09    -1.707043919615683e+01   -1.441743483988600e+02   -3.078824533273190e+01   -1.591557363262348e+02   -3.079787457031379e+01   -1.593584583384738e+02   -1.971907092322016e+01   -1.421770560367345e+02   
7.031000000000000e+09    -1.705724229050925e+01   -1.442449596076717e+02   -3.081322232403185e+01   -1.600252216167746e+02   -3.077192170099911e+01   -1.606924939260770e+02   -1.968453479110033e+01   -1.424921597254200e+02   
7.032000000000000e+09    -1.704175594399161e+01   -1.443412567833952e+02   -3.077147711765888e+01   -1.613827417724309e+02   -3.077973667207872e+01   -1.617197539119998e+02   -1.966345700933970e+01   -1.427722459724028e+02   
7.033000000000000e+09    -1.702325397469489e+01   -1.444519805016167e+02   -3.081688728574946e+01   -1.622748539328210e+02   -3.077474298818026e+01   -1.631400440119208e+02   -1.963204500553826e+01   -1.430658026111917e+02   
7.034000000000000e+09    -1.700828492135224e+01   -1.445536616795406e+02   -3.076753945763930e+01   -1.636004687861137e+02   -3.075154553942219e+01   -1.639966841594683e+02   -1.960294788549540e+01   -1.432876987528375e+02   
7.035000000000000e+09    -1.699350059343854e+01   -1.446880970654023e+02   -3.078037586562591e+01   -1.645298604579805e+02   -3.077071422531934e+01   -1.652787119170927e+02   -1.956367219582678e+01   -1.435083354143605e+02   
7.036000000000000e+09    -1.697013693750542e+01   -1.447830360483803e+02   -3.077590180572020e+01   -1.656170927528283e+02   -3.070711481640808e+01   -1.661760251989041e+02   -1.953778477130352e+01   -1.438020790737190e+02   
7.037000000000000e+09    -1.696246400062738e+01   -1.449103609809815e+02   -3.072234589838172e+01   -1.667436037411888e+02   -3.070306876733493e+01   -1.673331063088986e+02   -1.949069557503724e+01   -1.439750262179656e+02   
7.038000000000000e+09    -1.694640939857956e+01   -1.450285865196221e+02   -3.073531573951641e+01   -1.680078682535039e+02   -3.069302771842769e+01   -1.685091181574126e+02   -1.943698358840980e+01   -1.442865115190837e+02   
7.039000000000000e+09    -1.692151934179090e+01   -1.451416990223161e+02   -3.069267735080977e+01   -1.688623638883899e+02   -3.068724744582794e+01   -1.694228731177619e+02   -1.939827354959618e+01   -1.445153053580655e+02   
7.040000000000000e+09    -1.690683420802237e+01   -1.452384496811884e+02   -3.072403539126504e+01   -1.700993860872404e+02   -3.065778271855222e+01   -1.705005404945289e+02   -1.935566038027486e+01   -1.448211779089144e+02   
7.041000000000000e+09    -1.689913474494155e+01   -1.453296885372005e+02   -3.066102659831974e+01   -1.712388270154199e+02   -3.068021202922970e+01   -1.718516907069524e+02   -1.931394914863405e+01   -1.450128998074478e+02   
7.042000000000000e+09    -1.687422259832528e+01   -1.454576326361402e+02   -3.063497032618002e+01   -1.723609461787066e+02   -3.066893338707931e+01   -1.729442609241368e+02   -1.927397837770573e+01   -1.452747982275933e+02   
7.043000000000000e+09    -1.685911949810283e+01   -1.456085548828258e+02   -3.066112609626503e+01   -1.736395747090554e+02   -3.063986629260714e+01   -1.740472946235053e+02   -1.922243332724979e+01   -1.454848011135498e+02   
7.044000000000000e+09    -1.683956860318329e+01   -1.456080250356825e+02   -3.062658966254919e+01   -1.744370362712176e+02   -3.064718990852508e+01   -1.751163630537778e+02   -1.916823180581566e+01   -1.457453418696827e+02   
7.045000000000000e+09    -1.682192801720520e+01   -1.457846301436808e+02   -3.058075069555949e+01   -1.757296605342720e+02   -3.060691757498638e+01   -1.762131235218455e+02   -1.913042909839580e+01   -1.459062593049250e+02   
7.046000000000000e+09    -1.680032543698135e+01   -1.458996859946413e+02   -3.060733940649719e+01   -1.768879695158955e+02   -3.061312811927602e+01   -1.774426553291006e+02   -1.907590967900403e+01   -1.461121612129676e+02   
7.047000000000000e+09    -1.678742689125590e+01   -1.459546803761116e+02   -3.056113815798207e+01   -1.777366603329078e+02   -3.061016302517847e+01   -1.782561606145897e+02   -1.902068545022845e+01   -1.462093088577301e+02   
7.048000000000000e+09    -1.677304733602131e+01   -1.460569003734555e+02   -3.054048609529011e+01   -1.791079016772399e+02   -3.059459792589480e+01   -1.794930636540829e+02   -1.898011567797415e+01   -1.463598304722336e+02   
7.049000000000000e+09    -1.676046678911730e+01   -1.461108532231165e+02   -3.052160551830411e+01   1.798978655523363e+02    -3.055201383359725e+01   1.794737756016451e+02    -1.891469165567192e+01   -1.465016621589124e+02   
7.050000000000000e+09    -1.674621239564416e+01   -1.462296963611118e+02   -3.051898883444207e+01   1.785294324772333e+02    -3.054094049161064e+01   1.782952283927134e+02    -1.887135218951687e+01   -1.466409025263098e+02   
7.051000000000000e+09    -1.672768896845808e+01   -1.462696507515988e+02   -3.047835779539637e+01   1.775784957001267e+02    -3.051411283309475e+01   1.772239911813120e+02    -1.880790726420184e+01   -1.468085236210224e+02   
7.052000000000000e+09    -1.671569614524930e+01   -1.463628125274567e+02   -3.045554915308877e+01   1.764595873386424e+02    -3.049796304998935e+01   1.765274587660152e+02    -1.875527019295188e+01   -1.468673207116859e+02   
7.053000000000000e+09    -1.670409283507397e+01   -1.464681231411227e+02   -3.046761813259398e+01   1.755608489360817e+02    -3.049901145922380e+01   1.752273329642142e+02    -1.869754172089166e+01   -1.469390790878449e+02   
7.054000000000000e+09    -1.669392722273930e+01   -1.465305267438178e+02   -3.042170233761891e+01   1.743631646822564e+02    -3.046767734306746e+01   1.741357110905801e+02    -1.864303346052034e+01   -1.470274203329393e+02   
7.055000000000000e+09    -1.667276091690382e+01   -1.466268431919533e+02   -3.039310727438871e+01   1.732064676707760e+02    -3.045810621712153e+01   1.729031048655360e+02    -1.859041004520332e+01   -1.470519994014502e+02   
7.056000000000000e+09    -1.666507678657311e+01   -1.466919580718554e+02   -3.038901660585969e+01   1.721582981474968e+02    -3.041858971039970e+01   1.719755736657696e+02    -1.853278024703644e+01   -1.471331378503235e+02   
7.057000000000000e+09    -1.665778966016592e+01   -1.467813921616389e+02   -3.035108258292126e+01   1.711926350236710e+02    -3.038128814949882e+01   1.708390260375714e+02    -1.847209332356879e+01   -1.471960053618479e+02   
7.058000000000000e+09    -1.664300557592059e+01   -1.468969434632872e+02   -3.032235837547758e+01   1.699623704870934e+02    -3.038338637149268e+01   1.697289084890638e+02    -1.842755005217158e+01   -1.472128111263245e+02   
7.059000000000000e+09    -1.664382327969672e+01   -1.469519553785905e+02   -3.030236003273548e+01   1.687411081877809e+02    -3.036227012752233e+01   1.686691429820966e+02    -1.836575142100466e+01   -1.471777341769450e+02   
7.060000000000000e+09    -1.663333785884515e+01   -1.470724952655194e+02   -3.028586910351016e+01   1.675876275349163e+02    -3.033419959285416e+01   1.676721917337861e+02    -1.830605065572342e+01   -1.472123543294769e+02   
7.061000000000000e+09    -1.663221324876113e+01   -1.471469182101072e+02   -3.025870307683704e+01   1.664998557417410e+02    -3.030171045743871e+01   1.664963243407051e+02    -1.824431353585842e+01   -1.471274735223109e+02   
7.062000000000000e+09    -1.662606823753117e+01   -1.472461985807565e+02   -3.026252555391802e+01   1.655135719657933e+02    -3.029424165768259e+01   1.653156742090289e+02    -1.818547512431932e+01   -1.471707052040907e+02   
7.063000000000000e+09    -1.662373785720057e+01   -1.473581709671065e+02   -3.021081034759220e+01   1.643709352218068e+02    -3.031203818622819e+01   1.641670112393767e+02    -1.813032913161838e+01   -1.471126550893875e+02   
7.064000000000000e+09    -1.662850554954510e+01   -1.474284118885258e+02   -3.020954735103708e+01   1.633725840683367e+02    -3.026017603188562e+01   1.634587022681472e+02    -1.808210887416875e+01   -1.470403366715290e+02   
7.065000000000000e+09    -1.662445125687920e+01   -1.475928702532737e+02   -3.015944549729379e+01   1.622636532643417e+02    -3.024420368530665e+01   1.621193285845662e+02    -1.803670446012340e+01   -1.469712402877009e+02   
7.066000000000000e+09    -1.662226421246653e+01   -1.477132270017712e+02   -3.017569013165235e+01   1.610464244100638e+02    -3.024119777306907e+01   1.610646349131433e+02    -1.798677128756784e+01   -1.469767062840294e+02   
7.067000000000000e+09    -1.662585271377071e+01   -1.477842275129072e+02   -3.012535106854440e+01   1.599636437635334e+02    -3.021709756673744e+01   1.599932963588063e+02    -1.793852080706380e+01   -1.468260208506078e+02   
7.068000000000000e+09    -1.662436976914941e+01   -1.479512666929213e+02   -3.010855019509199e+01   1.589817156517708e+02    -3.020830155130028e+01   1.589066721907501e+02    -1.790423712112521e+01   -1.467404777389528e+02   
7.069000000000000e+09    -1.662761881269219e+01   -1.480867883395778e+02   -3.008463718313579e+01   1.578808072855313e+02    -3.018530175817425e+01   1.578108030016970e+02    -1.786494249813813e+01   -1.467166975579948e+02   
7.070000000000000e+09    -1.664100986707565e+01   -1.481962330349418e+02   -3.008432991043166e+01   1.569181238007401e+02    -3.016365285092599e+01   1.567679478761526e+02    -1.782736867185260e+01   -1.464904813465329e+02   
7.071000000000000e+09    -1.664224561822918e+01   -1.483258192692894e+02   -3.004726240443983e+01   1.556974469898913e+02    -3.014351294582899e+01   1.557767303941298e+02    -1.779955400646046e+01   -1.463996877236899e+02   
7.072000000000000e+09    -1.664828447263925e+01   -1.484594836348107e+02   -3.002864775792222e+01   1.546613515586260e+02    -3.012321425939350e+01   1.547201636643404e+02    -1.777207736300783e+01   -1.462529271743327e+02   
7.073000000000000e+09    -1.665284891275845e+01   -1.485954813581595e+02   -3.002727951670633e+01   1.535684774960556e+02    -3.012684268487951e+01   1.535946423609804e+02    -1.774345664454197e+01   -1.461594522296588e+02   
7.074000000000000e+09    -1.666683346744758e+01   -1.487264302092630e+02   -3.001069945553884e+01   1.524803806982948e+02    -3.009705156147433e+01   1.527926386610035e+02    -1.771971421799494e+01   -1.459387192618725e+02   
7.075000000000000e+09    -1.665639624060928e+01   -1.489035267470060e+02   -2.998042294839816e+01   1.513802006102226e+02    -3.006851394606829e+01   1.515690975190280e+02    -1.769807503776255e+01   -1.457915568576620e+02   
7.076000000000000e+09    -1.666703927903183e+01   -1.490302162339291e+02   -2.997966242299980e+01   1.504622614750552e+02    -3.006210301038468e+01   1.506775965933795e+02    -1.768088735157067e+01   -1.455763070243185e+02   
7.077000000000000e+09    -1.667638175805272e+01   -1.491555224032734e+02   -2.994687035618806e+01   1.490960652135433e+02    -3.003615328046173e+01   1.495762357401725e+02    -1.766187699806389e+01   -1.454224933663798e+02   
7.078000000000000e+09    -1.668148454908491e+01   -1.492918717682033e+02   -2.990290796903217e+01   1.485077096986124e+02    -2.999401806237676e+01   1.484366429973278e+02    -1.764747665503473e+01   -1.452631295144043e+02   
7.079000000000000e+09    -1.669387513425831e+01   -1.494253292189041e+02   -2.987409114990210e+01   1.471946713364848e+02    -2.999788070697797e+01   1.475534529817228e+02    -1.763462376677375e+01   -1.450851789072011e+02   
7.080000000000000e+09    -1.670350436657634e+01   -1.496095657440207e+02   -2.986498409960697e+01   1.461871756331943e+02    -2.997332127801622e+01   1.462687870623535e+02    -1.763200529559901e+01   -1.449096283942720e+02   
7.081000000000000e+09    -1.671316802750127e+01   -1.497270091923615e+02   -2.984158089679335e+01   1.452713863459519e+02    -2.993064640454782e+01   1.454231711967880e+02    -1.763046960028949e+01   -1.447513588915702e+02   
7.082000000000000e+09    -1.672255646472792e+01   -1.498499461346788e+02   -2.983977962532071e+01   1.440848909929228e+02    -2.992014996423007e+01   1.443338909831468e+02    -1.762836674580148e+01   -1.445118757149043e+02   
7.083000000000000e+09    -1.674211336563232e+01   -1.499617563520287e+02   -2.979566758118725e+01   1.430144083576636e+02    -2.988161535020695e+01   1.432171194006249e+02    -1.763046106541731e+01   -1.443638333678420e+02   
7.084000000000000e+09    -1.675401254303199e+01   -1.501187146153612e+02   -2.980820252089070e+01   1.419980111024267e+02    -2.984782787966874e+01   1.424723010988489e+02    -1.764070344454661e+01   -1.441303779119312e+02   
