[Version] 2.0
! Rohde & Schwarz Vector Network Analyzer
! Rohde-Schwarz,ZNL20-2Port,1323001220200009,1.71.1.10-23.02.1.238
! 
! Port Assignments:
! Nominal Port -> Actual Test Port
! --------------------------------
!   1 -> 1
!   2 -> 2

! Created: GMT+3 2024-09-24 16:03:39

# Hz S DB R 50

[Number of Ports] 2
[Two-Port Data Order] 21_12
[Number of Frequencies] 6001

[Network Data] 
! freq[Hz]               S11[mag dB]              S11[ang]                 S21[mag dB]              S21[ang]                 S12[mag dB]              S12[ang]                 S22[mag dB]              S22[ang]                 
7.000000000000000e+09    -1.770476878613447e+01   -1.441503346003749e+02   -3.085455052270071e+01   -1.213993327464385e+02   -3.087449603874617e+01   -1.211034292255002e+02   -1.967935442788345e+01   -1.395676822707090e+02   
7.001000000000000e+09    -1.767804023466845e+01   -1.441093227054983e+02   -3.086117474397714e+01   -1.225835271521820e+02   -3.091870508430167e+01   -1.222748164561864e+02   -1.971926159615276e+01   -1.393914933622026e+02   
7.002000000000000e+09    -1.765830409771833e+01   -1.440298558937415e+02   -3.087536186887382e+01   -1.237763285506016e+02   -3.095189159719206e+01   -1.235962384622939e+02   -1.974630530966962e+01   -1.392002059198851e+02   
7.003000000000000e+09    -1.764215601429769e+01   -1.439499703339969e+02   -3.089618962235595e+01   -1.248464355574003e+02   -3.096518958154664e+01   -1.246030417616457e+02   -1.977871104777873e+01   -1.390498943007475e+02   
7.004000000000000e+09    -1.762488547998795e+01   -1.439218290858886e+02   -3.090437385172230e+01   -1.258987180209017e+02   -3.098323583563420e+01   -1.258812761562898e+02   -1.980112890891576e+01   -1.388043505196439e+02   
7.005000000000000e+09    -1.760672095254015e+01   -1.438329793601340e+02   -3.091972816286276e+01   -1.271351736038724e+02   -3.097472236718718e+01   -1.268444132729855e+02   -1.983658989730545e+01   -1.386890271187386e+02   
7.006000000000000e+09    -1.758887860057230e+01   -1.437935983417349e+02   -3.093095398709724e+01   -1.283637783263993e+02   -3.096937267410322e+01   -1.280270987970950e+02   -1.986048711100040e+01   -1.385353111277183e+02   
7.007000000000000e+09    -1.756493925706645e+01   -1.437645700253670e+02   -3.096620006491170e+01   -1.295368044472992e+02   -3.098575614724485e+01   -1.289922360403063e+02   -1.988654860960851e+01   -1.384343358189408e+02   
7.008000000000000e+09    -1.754591271838833e+01   -1.436991780721773e+02   -3.094607037557045e+01   -1.307594943303552e+02   -3.100282853636912e+01   -1.302470631834474e+02   -1.990814806608295e+01   -1.383941401422690e+02   
7.009000000000000e+09    -1.751851314127322e+01   -1.436560295241852e+02   -3.096877210959331e+01   -1.317808873476721e+02   -3.100590864407598e+01   -1.313436223614338e+02   -1.994013650061078e+01   -1.382839297526021e+02   
7.010000000000000e+09    -1.750440072924140e+01   -1.436438374380785e+02   -3.095731866475629e+01   -1.329848454607358e+02   -3.103050497927193e+01   -1.326545957803502e+02   -1.995399194000481e+01   -1.382793835271648e+02   
7.011000000000000e+09    -1.747597294664405e+01   -1.435517100862709e+02   -3.094484555011587e+01   -1.337872297124491e+02   -3.101717885777703e+01   -1.336773947367147e+02   -1.996911542482032e+01   -1.382875085719621e+02   
7.012000000000000e+09    -1.746111433126642e+01   -1.435013338718980e+02   -3.097176028357887e+01   -1.351385932180911e+02   -3.102508459578861e+01   -1.348606964139498e+02   -1.998868212112303e+01   -1.382985342866908e+02   
7.013000000000000e+09    -1.743546397381908e+01   -1.434753137052334e+02   -3.097592075221172e+01   -1.360887690304300e+02   -3.104056975955655e+01   -1.358442659365293e+02   -2.000590734575959e+01   -1.384039121390606e+02   
7.014000000000000e+09    -1.742613291699705e+01   -1.435039894723871e+02   -3.100039782927248e+01   -1.372777031141643e+02   -3.103049612958284e+01   -1.370201594926169e+02   -2.001907430804449e+01   -1.384764337818842e+02   
7.015000000000000e+09    -1.740533936459193e+01   -1.434364299307355e+02   -3.100811589357577e+01   -1.385335766182723e+02   -3.105866016626626e+01   -1.379441098934468e+02   -2.002832875544101e+01   -1.385545248194499e+02   
7.016000000000000e+09    -1.738152668456683e+01   -1.433437125746877e+02   -3.096996085666276e+01   -1.394762764326939e+02   -3.104956522069476e+01   -1.390854497047510e+02   -2.003946672856844e+01   -1.386561643051961e+02   
7.017000000000000e+09    -1.736273426468724e+01   -1.433128980787035e+02   -3.097935796768877e+01   -1.405227490678044e+02   -3.104468284102525e+01   -1.403944574433422e+02   -2.004297101260336e+01   -1.388406424788192e+02   
7.018000000000000e+09    -1.734811049561450e+01   -1.433914256081098e+02   -3.101038682367152e+01   -1.414505264386895e+02   -3.106232539212980e+01   -1.413686020720071e+02   -2.004585443773055e+01   -1.390166396547702e+02   
7.019000000000000e+09    -1.732516084075514e+01   -1.433643072235596e+02   -3.099554950799985e+01   -1.428475915573279e+02   -3.102513372680930e+01   -1.424780627887144e+02   -2.003206925523158e+01   -1.391347730816248e+02   
7.020000000000000e+09    -1.730895121425609e+01   -1.433485476732766e+02   -3.097856164802811e+01   -1.436446092438643e+02   -3.103224371678511e+01   -1.437828678683440e+02   -2.004435074198144e+01   -1.393908626407657e+02   
7.021000000000000e+09    -1.729667816344776e+01   -1.433988323662445e+02   -3.093839552047222e+01   -1.451550840593417e+02   -3.100612842249239e+01   -1.449088418739539e+02   -2.002280973598734e+01   -1.396055852425434e+02   
7.022000000000000e+09    -1.727429557253303e+01   -1.434341792213156e+02   -3.096265535007136e+01   -1.461672205666889e+02   -3.097740094326006e+01   -1.460397344327562e+02   -2.003053823091414e+01   -1.397957859681696e+02   
7.023000000000000e+09    -1.726409217358978e+01   -1.433937930153085e+02   -3.096075839880407e+01   -1.472778111767843e+02   -3.100680195439695e+01   -1.472419814707476e+02   -2.000827131244734e+01   -1.400295712008560e+02   
7.024000000000000e+09    -1.725035110255216e+01   -1.434523669078649e+02   -3.092712209841986e+01   -1.485234157288590e+02   -3.100238524214478e+01   -1.483544447962554e+02   -1.999005027347833e+01   -1.402808875931357e+02   
7.025000000000000e+09    -1.723110452877897e+01   -1.434966091068742e+02   -3.091461257465298e+01   -1.495749812903204e+02   -3.099696499076760e+01   -1.495305596376707e+02   -1.997900584518214e+01   -1.404807228044232e+02   
7.026000000000000e+09    -1.721296838174638e+01   -1.435633264817772e+02   -3.093436591903280e+01   -1.507209667625925e+02   -3.097175742360243e+01   -1.508313153333243e+02   -1.995650573489513e+01   -1.407965455452334e+02   
7.027000000000000e+09    -1.720155844583829e+01   -1.435805979939036e+02   -3.092952821557393e+01   -1.518726106734561e+02   -3.097299846634358e+01   -1.518287262738212e+02   -1.994080947173617e+01   -1.409796004165115e+02   
7.028000000000000e+09    -1.717757491870445e+01   -1.436566369586732e+02   -3.088102718893355e+01   -1.532117883140002e+02   -3.095833839657753e+01   -1.530574952598569e+02   -1.991480520666774e+01   -1.413473557597979e+02   
7.029000000000000e+09    -1.716407654067880e+01   -1.437272809783831e+02   -3.092760578135870e+01   -1.544431339126198e+02   -3.097926817191860e+01   -1.542650933103897e+02   -1.989441724815790e+01   -1.416109824025728e+02   
7.030000000000000e+09    -1.714852218274410e+01   -1.438092840132418e+02   -3.087548533028248e+01   -1.555741084608966e+02   -3.097073261426911e+01   -1.550643899884712e+02   -1.986249208530956e+01   -1.418783871946310e+02   
7.031000000000000e+09    -1.712942955835752e+01   -1.439126558546504e+02   -3.085656351284165e+01   -1.565043095729571e+02   -3.095575482082352e+01   -1.562477980395132e+02   -1.984253200756028e+01   -1.421492175360171e+02   
7.032000000000000e+09    -1.711150994489531e+01   -1.440324592481446e+02   -3.085689887517776e+01   -1.577993581462930e+02   -3.094737483492635e+01   -1.574724458390586e+02   -1.981655258975809e+01   -1.424633435185012e+02   
7.033000000000000e+09    -1.709990437242142e+01   -1.440919945069933e+02   -3.086867125447008e+01   -1.587231125908815e+02   -3.097675386596669e+01   -1.586919320511729e+02   -1.978508878154660e+01   -1.427172560082377e+02   
7.034000000000000e+09    -1.708000614146008e+01   -1.442220206108650e+02   -3.086626842341666e+01   -1.600066818015730e+02   -3.094208098061569e+01   -1.598248719625986e+02   -1.975638337018553e+01   -1.429098768821985e+02   
7.035000000000000e+09    -1.706112814147101e+01   -1.443216687034332e+02   -3.085095401789869e+01   -1.610109856843956e+02   -3.095207812894930e+01   -1.608837702547569e+02   -1.971188203149298e+01   -1.431705710562357e+02   
7.036000000000000e+09    -1.704343958391453e+01   -1.444283974672497e+02   -3.082399744963789e+01   -1.620842608353384e+02   -3.091876280846802e+01   -1.620265793224069e+02   -1.968446148816991e+01   -1.434008195605644e+02   
7.037000000000000e+09    -1.702729706238300e+01   -1.445816960834295e+02   -3.080893155655064e+01   -1.632930087489364e+02   -3.089986756751027e+01   -1.629681453601677e+02   -1.964189324133678e+01   -1.435536941588236e+02   
7.038000000000000e+09    -1.701236514902434e+01   -1.446590854838877e+02   -3.080857989430520e+01   -1.645053430346266e+02   -3.088728538902775e+01   -1.640931209633015e+02   -1.959340305824322e+01   -1.438915765645548e+02   
7.039000000000000e+09    -1.698588964575983e+01   -1.447446189421643e+02   -3.076516323447287e+01   -1.656141533080431e+02   -3.089821390378059e+01   -1.650167826383320e+02   -1.955255433210862e+01   -1.441097873097016e+02   
7.040000000000000e+09    -1.697054109015632e+01   -1.448299149382503e+02   -3.078708166275908e+01   -1.666061755271534e+02   -3.085422835207793e+01   -1.662272602193071e+02   -1.950289487298313e+01   -1.443741296713071e+02   
7.041000000000000e+09    -1.696052964710949e+01   -1.449605058576660e+02   -3.077789163776371e+01   -1.677581250645642e+02   -3.086944579594549e+01   -1.673101511055867e+02   -1.946306376494112e+01   -1.446054401276192e+02   
7.042000000000000e+09    -1.693633880256058e+01   -1.450640989254051e+02   -3.074503758730076e+01   -1.691193375345474e+02   -3.082777487722189e+01   -1.683599626553464e+02   -1.941869699580138e+01   -1.448262189503812e+02   
7.043000000000000e+09    -1.692188756435928e+01   -1.452293599416588e+02   -3.074809607023336e+01   -1.705283741943280e+02   -3.079279701079080e+01   -1.695827002186138e+02   -1.937338704857257e+01   -1.450180577280577e+02   
7.044000000000000e+09    -1.689893143384551e+01   -1.452511691173545e+02   -3.070601129723066e+01   -1.713423131310348e+02   -3.079669537205055e+01   -1.706088939328592e+02   -1.931192356114100e+01   -1.452432209387561e+02   
7.045000000000000e+09    -1.688399620396903e+01   -1.453609479255948e+02   -3.068631394637493e+01   -1.725063989961004e+02   -3.076541886933171e+01   -1.717017553996105e+02   -1.927277583678191e+01   -1.454136850346598e+02   
7.046000000000000e+09    -1.686023175352461e+01   -1.455076488014087e+02   -3.072251582511971e+01   -1.736023191637326e+02   -3.077153144620725e+01   -1.728301149930028e+02   -1.921156316269657e+01   -1.455867386831635e+02   
7.047000000000000e+09    -1.684720430524435e+01   -1.455655045555758e+02   -3.067830132665987e+01   -1.746099659337795e+02   -3.074177250035067e+01   -1.740054533319719e+02   -1.916388885164118e+01   -1.456947654956047e+02   
7.048000000000000e+09    -1.683188756459365e+01   -1.456787355965836e+02   -3.066862724281572e+01   -1.758161605582732e+02   -3.073341302441807e+01   -1.750331836132640e+02   -1.910669749018423e+01   -1.458648878964600e+02   
7.049000000000000e+09    -1.682374226206006e+01   -1.457468512327241e+02   -3.065375268860027e+01   -1.769790059272103e+02   -3.070306938076390e+01   -1.763543479052127e+02   -1.904524749229421e+01   -1.459857019918355e+02   
7.050000000000000e+09    -1.680553652622641e+01   -1.458161748187714e+02   -3.066660883806888e+01   -1.782207802337105e+02   -3.069599857607584e+01   -1.774004497643693e+02   -1.899485194925337e+01   -1.460790457675144e+02   
7.051000000000000e+09    -1.678878664502550e+01   -1.458670273182739e+02   -3.062661705268636e+01   -1.792523874746673e+02   -3.064241906279695e+01   -1.784530171795461e+02   -1.893987360779990e+01   -1.462374793985493e+02   
7.052000000000000e+09    -1.677525383059391e+01   -1.459537868057168e+02   -3.062233831811213e+01   1.796808124272837e+02    -3.064544715252035e+01   -1.794182793020739e+02   -1.888337559902502e+01   -1.462781682981282e+02   
7.053000000000000e+09    -1.676167701166381e+01   -1.460434931704398e+02   -3.063701507206554e+01   1.787336312981935e+02    -3.063713127264401e+01   1.794326628100007e+02    -1.882398474370667e+01   -1.463893196004925e+02   
7.054000000000000e+09    -1.675058691552304e+01   -1.461133938632902e+02   -3.055890141932807e+01   1.775651168836368e+02    -3.060647354360711e+01   1.783131866417835e+02    -1.877140555232516e+01   -1.464157540048052e+02   
7.055000000000000e+09    -1.673726177968012e+01   -1.462167716874306e+02   -3.057784841808855e+01   1.764389284136269e+02    -3.060643396615335e+01   1.770578425651133e+02    -1.870839310920174e+01   -1.465247843493089e+02   
7.056000000000000e+09    -1.672570264527863e+01   -1.462516059030708e+02   -3.056626773689251e+01   1.754658455354219e+02    -3.055206486982426e+01   1.763569477064519e+02    -1.865340180317438e+01   -1.465671487710471e+02   
7.057000000000000e+09    -1.671687102792102e+01   -1.463668020427689e+02   -3.050710654253662e+01   1.742245518707720e+02    -3.051693644423437e+01   1.750369393884634e+02    -1.859481094786881e+01   -1.465921611969416e+02   
7.058000000000000e+09    -1.670525944268369e+01   -1.464489708875375e+02   -3.051870124331266e+01   1.733871351997906e+02    -3.050918819321440e+01   1.739173102881791e+02    -1.854413006382427e+01   -1.465752556989569e+02   
7.059000000000000e+09    -1.670305842088118e+01   -1.465217006313106e+02   -3.046515232195078e+01   1.719937444846672e+02    -3.047686318318382e+01   1.728207995535955e+02    -1.847711189884592e+01   -1.465446778783378e+02   
7.060000000000000e+09    -1.669639469256552e+01   -1.466191620894564e+02   -3.045450874668289e+01   1.710036187946510e+02    -3.045735513166046e+01   1.716088551021135e+02    -1.841623611051319e+01   -1.465683809413927e+02   
7.061000000000000e+09    -1.669140112820818e+01   -1.466557082828221e+02   -3.043869867582851e+01   1.698188322876893e+02    -3.042299021294717e+01   1.705235316362350e+02    -1.836252380405500e+01   -1.464903196734343e+02   
7.062000000000000e+09    -1.668604618940169e+01   -1.467716862389480e+02   -3.042359233215601e+01   1.687862774295047e+02    -3.041676056898478e+01   1.693736109516954e+02    -1.830530821399422e+01   -1.464864902565475e+02   
7.063000000000000e+09    -1.668278822125433e+01   -1.468701639903213e+02   -3.040429410769998e+01   1.675291571320384e+02    -3.043165910979480e+01   1.682602347656861e+02    -1.824633003741121e+01   -1.464526643368908e+02   
7.064000000000000e+09    -1.668378953507595e+01   -1.469708192821101e+02   -3.037053784963400e+01   1.664480033339347e+02    -3.037096243459540e+01   1.673399271382250e+02    -1.818904441872513e+01   -1.462954588486187e+02   
7.065000000000000e+09    -1.668211538888857e+01   -1.470996510930580e+02   -3.035647464335707e+01   1.654452809704464e+02    -3.038691134728875e+01   1.661486930282763e+02    -1.814540018689042e+01   -1.462568414355008e+02   
7.066000000000000e+09    -1.668201747333360e+01   -1.472133886460018e+02   -3.034162825220314e+01   1.642524190034672e+02    -3.034416366385167e+01   1.652177605944451e+02    -1.808879871462808e+01   -1.461729756548773e+02   
7.067000000000000e+09    -1.668304467594899e+01   -1.472990788176464e+02   -3.031561903434817e+01   1.629865850821306e+02    -3.029538146127362e+01   1.639712439653595e+02    -1.804545980732911e+01   -1.460277109369529e+02   
7.068000000000000e+09    -1.668592803056968e+01   -1.473966089412510e+02   -3.029449247483771e+01   1.622195832728933e+02    -3.031107414469325e+01   1.631133900277383e+02    -1.800207248331056e+01   -1.459427719814180e+02   
7.069000000000000e+09    -1.668386996869442e+01   -1.475872108984339e+02   -3.027830147468928e+01   1.610015024125261e+02    -3.028179541121770e+01   1.619264403393396e+02    -1.796099255153173e+01   -1.458720252768334e+02   
7.070000000000000e+09    -1.669746476426378e+01   -1.476638575515325e+02   -3.025861874941771e+01   1.600181063910254e+02    -3.023487253233003e+01   1.606168080678194e+02    -1.792006004401251e+01   -1.457241930703814e+02   
7.071000000000000e+09    -1.669629148112549e+01   -1.477634922139719e+02   -3.025417163793026e+01   1.587745013345681e+02    -3.024206974109477e+01   1.597505360663726e+02    -1.789423419779996e+01   -1.455939277054496e+02   
7.072000000000000e+09    -1.670168813168073e+01   -1.479086887656993e+02   -3.022089698851283e+01   1.577435447356255e+02    -3.021945331690912e+01   1.584672563591265e+02    -1.786142118090438e+01   -1.454821530993913e+02   
7.073000000000000e+09    -1.670528715656963e+01   -1.480733456775907e+02   -3.022708044805146e+01   1.565801587484531e+02    -3.021476171778070e+01   1.574721160191731e+02    -1.782543514741365e+01   -1.452834714371758e+02   
7.074000000000000e+09    -1.671364522307620e+01   -1.481433819280585e+02   -3.018087978785661e+01   1.556643042458006e+02    -3.017319304946653e+01   1.564345585387797e+02    -1.779514223532693e+01   -1.451310931310349e+02   
7.075000000000000e+09    -1.671031383523848e+01   -1.483471586862144e+02   -3.018249931897127e+01   1.546222704434998e+02    -3.016432087425543e+01   1.555661862739405e+02    -1.777767018836012e+01   -1.449270895701921e+02   
7.076000000000000e+09    -1.672272911799877e+01   -1.484085707954938e+02   -3.017100030743761e+01   1.537198349276510e+02    -3.015253088797279e+01   1.544984420128648e+02    -1.775672777503088e+01   -1.447081549144847e+02   
7.077000000000000e+09    -1.672363258500505e+01   -1.485703857728129e+02   -3.014168495790693e+01   1.522316717615864e+02    -3.008538613261837e+01   1.532726049981939e+02    -1.773563018335170e+01   -1.445405141429734e+02   
7.078000000000000e+09    -1.673676380627045e+01   -1.486565366180345e+02   -3.011832546589131e+01   1.515681804617769e+02    -3.007226417844012e+01   1.520905856726783e+02    -1.771816869710449e+01   -1.443951430877332e+02   
7.079000000000000e+09    -1.674639774489245e+01   -1.487922239174093e+02   -3.011205309184063e+01   1.504604677828977e+02    -3.003399413847820e+01   1.512810500419346e+02    -1.770831795202131e+01   -1.441584994896509e+02   
7.080000000000000e+09    -1.675889517475684e+01   -1.489117865924285e+02   -3.008647049439622e+01   1.495138314915286e+02    -3.003058004272199e+01   1.500789409893577e+02    -1.770166586179295e+01   -1.439652189625053e+02   
7.081000000000000e+09    -1.676164344106280e+01   -1.490450304595348e+02   -3.008046067954892e+01   1.484681742539539e+02    -2.999863041133166e+01   1.489331055628624e+02    -1.769990871054737e+01   -1.437716014108767e+02   
7.082000000000000e+09    -1.677411649537578e+01   -1.491822196821853e+02   -3.004283109315477e+01   1.473023689978509e+02    -2.998062037335419e+01   1.478595335604591e+02    -1.768951887124821e+01   -1.435315380272486e+02   
7.083000000000000e+09    -1.678301829460739e+01   -1.492893856905819e+02   -3.000070349571357e+01   1.463218925285871e+02    -2.994141753950539e+01   1.467852830437804e+02    -1.768973116532070e+01   -1.433210363653253e+02   
7.084000000000000e+09    -1.679570859869261e+01   -1.494213303829589e+02   -2.998525074291782e+01   1.451093185241807e+02    -2.992440631783531e+01   1.457908120014249e+02    -1.769629017686439e+01   -1.431490609004241e+02   
