[Version] 2.0
! Rohde & Schwarz Vector Network Analyzer
! Rohde-Schwarz,ZNL20-2Port,1323001220200009,1.71.1.10-23.02.1.238
! 
! Port Assignments:
! Nominal Port -> Actual Test Port
! --------------------------------
!   1 -> 1
!   2 -> 2

! Created: GMT+3 2024-09-24 16:04:04

# Hz S DB R 50

[Number of Ports] 2
[Two-Port Data Order] 21_12
[Number of Frequencies] 6001

[Network Data] 
! freq[Hz]               S11[mag dB]              S11[ang]                 S21[mag dB]              S21[ang]                 S12[mag dB]              S12[ang]                 S22[mag dB]              S22[ang]                 
7.000000000000000e+09    -1.785822168735283e+01   -1.444433410664155e+02   -3.091964729149241e+01   -1.144870283374353e+02   -3.088994344105402e+01   -1.140806118379826e+02   -1.997346741440678e+01   -1.398551918562360e+02   
7.001000000000000e+09    -1.783843097709291e+01   -1.443829023683803e+02   -3.092210911597348e+01   -1.157528750058855e+02   -3.091156725159862e+01   -1.150719317060814e+02   -2.000141519324261e+01   -1.396738850364353e+02   
7.002000000000000e+09    -1.782641009049570e+01   -1.442964778126167e+02   -3.093381764502168e+01   -1.168526490391061e+02   -3.096120342038784e+01   -1.164009392297644e+02   -2.004070592676349e+01   -1.394205984513358e+02   
7.003000000000000e+09    -1.780490195098091e+01   -1.442116321542327e+02   -3.098040865440549e+01   -1.177055896670927e+02   -3.096861473540078e+01   -1.175272676139712e+02   -2.005635264846994e+01   -1.391704019806225e+02   
7.004000000000000e+09    -1.778578629917057e+01   -1.441408099433308e+02   -3.099001578240630e+01   -1.190412809412020e+02   -3.097180563935834e+01   -1.186720025452036e+02   -2.008439109506488e+01   -1.389270960665797e+02   
7.005000000000000e+09    -1.776483478510781e+01   -1.440434956775430e+02   -3.098358390906201e+01   -1.202098283745790e+02   -3.099574180301705e+01   -1.198451420479109e+02   -2.011954288367457e+01   -1.387935986589145e+02   
7.006000000000000e+09    -1.774754780588713e+01   -1.439995002471889e+02   -3.101421595264732e+01   -1.213714140179674e+02   -3.099477509268160e+01   -1.210016266010074e+02   -2.015283772368796e+01   -1.386138628682248e+02   
7.007000000000000e+09    -1.772793642255255e+01   -1.439270411171025e+02   -3.103582735889680e+01   -1.223847179726937e+02   -3.099922645027872e+01   -1.222029784974350e+02   -2.017303295875308e+01   -1.384742039301609e+02   
7.008000000000000e+09    -1.770564013693740e+01   -1.438725303649766e+02   -3.102954362857489e+01   -1.238027991488066e+02   -3.101412358702000e+01   -1.233849419504553e+02   -2.019905227944181e+01   -1.383834153066242e+02   
7.009000000000000e+09    -1.768659001074117e+01   -1.438174813874841e+02   -3.106018660894660e+01   -1.248333616426221e+02   -3.102813648844795e+01   -1.245576916640304e+02   -2.022699895808781e+01   -1.383275425208667e+02   
7.010000000000000e+09    -1.766875616494260e+01   -1.437343477513029e+02   -3.105627939347162e+01   -1.260290694044888e+02   -3.104534753876052e+01   -1.257176717765644e+02   -2.024565416967513e+01   -1.382346321063304e+02   
7.011000000000000e+09    -1.765121673350966e+01   -1.436799230567686e+02   -3.105705393509698e+01   -1.268212915831714e+02   -3.104305867359541e+01   -1.267130168843276e+02   -2.026730737253931e+01   -1.382508370350225e+02   
7.012000000000000e+09    -1.763329952664356e+01   -1.436201774827992e+02   -3.109048573160948e+01   -1.281886480510902e+02   -3.106546786339466e+01   -1.279406440878760e+02   -2.028420348106321e+01   -1.381807147056221e+02   
7.013000000000000e+09    -1.761014101781454e+01   -1.435478020424553e+02   -3.107750892907317e+01   -1.291080492451317e+02   -3.107694677413483e+01   -1.290809643567010e+02   -2.030294475318394e+01   -1.382878438107631e+02   
7.014000000000000e+09    -1.760139279645246e+01   -1.434912629009706e+02   -3.109189020534508e+01   -1.303746685236859e+02   -3.109058161018961e+01   -1.302036834383662e+02   -2.031820083590141e+01   -1.383486261800346e+02   
7.015000000000000e+09    -1.758436689589313e+01   -1.434340647838904e+02   -3.109860040750462e+01   -1.315286431707597e+02   -3.110311021841884e+01   -1.309564618761771e+02   -2.032733233341162e+01   -1.383865091752237e+02   
7.016000000000000e+09    -1.756546315123372e+01   -1.433154645499287e+02   -3.108449129649676e+01   -1.323750753521214e+02   -3.111068032212088e+01   -1.323047074437397e+02   -2.034059205039715e+01   -1.384799339866065e+02   
7.017000000000000e+09    -1.755028754750120e+01   -1.432719552414630e+02   -3.108259799197018e+01   -1.335745524578431e+02   -3.107634640559917e+01   -1.336931484704536e+02   -2.034756249597031e+01   -1.386523044293636e+02   
7.018000000000000e+09    -1.752472668674924e+01   -1.432808992043627e+02   -3.110368363639064e+01   -1.348450128369700e+02   -3.109078882940756e+01   -1.346568390617638e+02   -2.034447109631614e+01   -1.387215978619924e+02   
7.019000000000000e+09    -1.751450612476189e+01   -1.432275767868952e+02   -3.108662474672787e+01   -1.359221544321207e+02   -3.111183030160388e+01   -1.357638483624082e+02   -2.033329674237114e+01   -1.388620892322212e+02   
7.020000000000000e+09    -1.749282790963814e+01   -1.431950250614935e+02   -3.106858049899033e+01   -1.369417233980049e+02   -3.108487978428407e+01   -1.371415616156295e+02   -2.034206765402224e+01   -1.391091844683513e+02   
7.021000000000000e+09    -1.747794458785753e+01   -1.432037137695202e+02   -3.102948657746139e+01   -1.381592451568606e+02   -3.105412750839911e+01   -1.381641474379584e+02   -2.033631976148511e+01   -1.392653053531758e+02   
7.022000000000000e+09    -1.746195352499861e+01   -1.432012434452007e+02   -3.105025339776280e+01   -1.393194458636413e+02   -3.104900467148244e+01   -1.393517974478534e+02   -2.032684642386088e+01   -1.393608005781430e+02   
7.023000000000000e+09    -1.744675675797394e+01   -1.431724660012324e+02   -3.104243608940019e+01   -1.405749137509024e+02   -3.105828030433982e+01   -1.406241328246713e+02   -2.031267193443417e+01   -1.396123805425997e+02   
7.024000000000000e+09    -1.742663936381718e+01   -1.431629666239347e+02   -3.107124329452747e+01   -1.417176653678123e+02   -3.106726929876685e+01   -1.419397559587069e+02   -2.029969110795989e+01   -1.398411176452792e+02   
7.025000000000000e+09    -1.741175163314684e+01   -1.431710694512365e+02   -3.102353185798071e+01   -1.428826554891707e+02   -3.106088761972903e+01   -1.430789123079222e+02   -2.028315556582197e+01   -1.399962188206530e+02   
7.026000000000000e+09    -1.739626745650819e+01   -1.432176333806735e+02   -3.105815942780908e+01   -1.442383056978996e+02   -3.105136560478315e+01   -1.440941259589391e+02   -2.024973751954036e+01   -1.402760026637344e+02   
7.027000000000000e+09    -1.737767948472182e+01   -1.432294040197657e+02   -3.105313559129068e+01   -1.453603715705119e+02   -3.104034485524174e+01   -1.451883108295251e+02   -2.023165800343678e+01   -1.404775280786749e+02   
7.028000000000000e+09    -1.735510650271572e+01   -1.432614761175541e+02   -3.100035135367041e+01   -1.465673558104588e+02   -3.104114466995433e+01   -1.464783669012370e+02   -2.020685690873453e+01   -1.408032010292131e+02   
7.029000000000000e+09    -1.733589799493146e+01   -1.433225990216818e+02   -3.105269808296702e+01   -1.479155640596227e+02   -3.104961566311005e+01   -1.478247019565015e+02   -2.019283000721096e+01   -1.410372653568643e+02   
7.030000000000000e+09    -1.732227948567301e+01   -1.434082590650557e+02   -3.101319310898781e+01   -1.490787820141404e+02   -3.106867446178292e+01   -1.489184309536455e+02   -2.016466270487340e+01   -1.412381145883498e+02   
7.031000000000000e+09    -1.730215903567063e+01   -1.434589202113087e+02   -3.100366156143270e+01   -1.500156554654537e+02   -3.107998995386474e+01   -1.501446788413146e+02   -2.013238936530824e+01   -1.415481978165137e+02   
7.032000000000000e+09    -1.728196311094215e+01   -1.435283635692320e+02   -3.099446731211406e+01   -1.514538103474789e+02   -3.105602255988281e+01   -1.510900901669631e+02   -2.011497232870465e+01   -1.418725856953100e+02   
7.033000000000000e+09    -1.727002508300926e+01   -1.436007972814402e+02   -3.104911309041304e+01   -1.523747494793364e+02   -3.107803872113833e+01   -1.524617535395128e+02   -2.007992928822757e+01   -1.420866212789345e+02   
7.034000000000000e+09    -1.725136094224771e+01   -1.436982506468132e+02   -3.099927927903154e+01   -1.536287755853797e+02   -3.105498984815920e+01   -1.535198668932628e+02   -2.004374118717364e+01   -1.422989388372671e+02   
7.035000000000000e+09    -1.723360756517783e+01   -1.437759497414534e+02   -3.100036688679458e+01   -1.546384030578824e+02   -3.106466339724410e+01   -1.547423916535884e+02   -2.000604293197206e+01   -1.424594016208627e+02   
7.036000000000000e+09    -1.721091048280537e+01   -1.438652471662961e+02   -3.097331406024126e+01   -1.555250431807536e+02   -3.102694381246807e+01   -1.559581452366941e+02   -1.997699384555109e+01   -1.427052931699567e+02   
7.037000000000000e+09    -1.719334932875285e+01   -1.439591961379357e+02   -3.095727476120169e+01   -1.569392165679414e+02   -3.100529094164366e+01   -1.568429023256192e+02   -1.993460809736919e+01   -1.428936791109373e+02   
7.038000000000000e+09    -1.717467534128431e+01   -1.440390171862899e+02   -3.096742366073299e+01   -1.579629875663025e+02   -3.100276504939328e+01   -1.581457573650388e+02   -1.988390065321580e+01   -1.431619872589819e+02   
7.039000000000000e+09    -1.714749362910842e+01   -1.440972239298949e+02   -3.094557119740188e+01   -1.592296016132739e+02   -3.102031167044587e+01   -1.590957313775891e+02   -1.984541044657880e+01   -1.432914394868375e+02   
7.040000000000000e+09    -1.713083914255667e+01   -1.441739828354724e+02   -3.095358525593941e+01   -1.603905286314964e+02   -3.098410842964469e+01   -1.600996465240542e+02   -1.979861873917612e+01   -1.435455122813578e+02   
7.041000000000000e+09    -1.711361062226997e+01   -1.442520137135503e+02   -3.093991353323117e+01   -1.614905282986849e+02   -3.099511763522764e+01   -1.613875477911618e+02   -1.974640262619901e+01   -1.437469870246007e+02   
7.042000000000000e+09    -1.709175268655976e+01   -1.443543181214924e+02   -3.091324285642813e+01   -1.628503845191542e+02   -3.099901644810683e+01   -1.625082116139905e+02   -1.970134706568334e+01   -1.438521838789620e+02   
7.043000000000000e+09    -1.707170175710596e+01   -1.444897801159704e+02   -3.089974174228500e+01   -1.639118482550810e+02   -3.096108989078853e+01   -1.637819857175165e+02   -1.964862286654024e+01   -1.441015640925156e+02   
7.044000000000000e+09    -1.705131065966869e+01   -1.445114910915528e+02   -3.089543541508082e+01   -1.650083587025147e+02   -3.095748657335055e+01   -1.646320214738315e+02   -1.959344467466612e+01   -1.442389337270887e+02   
7.045000000000000e+09    -1.702660068176421e+01   -1.445903929722354e+02   -3.087890392107459e+01   -1.660018994665364e+02   -3.091823556534027e+01   -1.658425192647680e+02   -1.955116505857050e+01   -1.443920355174154e+02   
7.046000000000000e+09    -1.700385921791942e+01   -1.447126850947103e+02   -3.088432121542643e+01   -1.673982515211865e+02   -3.093580080393128e+01   -1.671739890367748e+02   -1.948214832638764e+01   -1.445472462513018e+02   
7.047000000000000e+09    -1.698372484050136e+01   -1.447506249243984e+02   -3.084127789902392e+01   -1.682872469363100e+02   -3.093490773233283e+01   -1.682599357358802e+02   -1.942445709717502e+01   -1.447004741886226e+02   
7.048000000000000e+09    -1.696649294662360e+01   -1.448654587014250e+02   -3.086796882722903e+01   -1.694435726517806e+02   -3.090078993808121e+01   -1.693594039398335e+02   -1.935976475568375e+01   -1.447709841784856e+02   
7.049000000000000e+09    -1.695444875931976e+01   -1.449162020704586e+02   -3.082748923526609e+01   -1.706014248650576e+02   -3.090044796720780e+01   -1.703231366961976e+02   -1.930108985629914e+01   -1.448550840458122e+02   
7.050000000000000e+09    -1.693528666617292e+01   -1.449874951837368e+02   -3.083431101281990e+01   -1.719118153869439e+02   -3.089543317347683e+01   -1.714427151278347e+02   -1.924517918784330e+01   -1.449124976583680e+02   
7.051000000000000e+09    -1.691575742919178e+01   -1.449932158412234e+02   -3.081185231545190e+01   -1.729394531833098e+02   -3.087206018197045e+01   -1.726665352350131e+02   -1.918531190618568e+01   -1.450822812580415e+02   
7.052000000000000e+09    -1.690432130541044e+01   -1.450952700318464e+02   -3.081364229230129e+01   -1.741100643238516e+02   -3.083832844742511e+01   -1.735693105741652e+02   -1.911870221840555e+01   -1.451439049130575e+02   
7.053000000000000e+09    -1.688146230156007e+01   -1.451518539861517e+02   -3.080073861552321e+01   -1.751900261684892e+02   -3.085540113049342e+01   -1.749181374608557e+02   -1.905790976825018e+01   -1.451831277204267e+02   
7.054000000000000e+09    -1.687020594412190e+01   -1.452162502027197e+02   -3.073156318228731e+01   -1.762475903193706e+02   -3.082607622012677e+01   -1.759929209027600e+02   -1.899137403693093e+01   -1.451936612867038e+02   
7.055000000000000e+09    -1.685460046214328e+01   -1.453217186496097e+02   -3.075258127895140e+01   -1.774751092719495e+02   -3.079382744665526e+01   -1.770212216318249e+02   -1.892857839524478e+01   -1.452648745295348e+02   
7.056000000000000e+09    -1.684031714604485e+01   -1.453489130883502e+02   -3.071674039171082e+01   -1.784738912524955e+02   -3.077405878423901e+01   -1.780452233858840e+02   -1.886551967546907e+01   -1.452879942614138e+02   
7.057000000000000e+09    -1.682819208756039e+01   -1.454144032733624e+02   -3.070277064772624e+01   -1.796042796591604e+02   -3.075154157647091e+01   -1.792079725058717e+02   -1.880071030757431e+01   -1.453367184817747e+02   
7.058000000000000e+09    -1.681816803108775e+01   -1.455232133194562e+02   -3.068511806565802e+01   1.791964682682708e+02    -3.072652068123191e+01   1.797047315187662e+02    -1.874142718690627e+01   -1.453057550441469e+02   
7.059000000000000e+09    -1.680410128123868e+01   -1.455941729822473e+02   -3.066321800942649e+01   1.780188114951808e+02    -3.069852548394173e+01   1.783766278716591e+02    -1.867771335458527e+01   -1.452490491179059e+02   
7.060000000000000e+09    -1.679785057638561e+01   -1.456538787632707e+02   -3.066164071715793e+01   1.768616022606040e+02    -3.068503683779846e+01   1.774363795702259e+02    -1.861749934179736e+01   -1.452545266729785e+02   
7.061000000000000e+09    -1.679054073925003e+01   -1.457488157757986e+02   -3.063427424991991e+01   1.757312305273862e+02    -3.064803252353777e+01   1.761369088986293e+02    -1.855413699880832e+01   -1.451481037449774e+02   
7.062000000000000e+09    -1.678413051041538e+01   -1.458143654549416e+02   -3.059646100594546e+01   1.746033622545378e+02    -3.063004287037439e+01   1.750200468774932e+02    -1.848926729245875e+01   -1.451417063407923e+02   
7.063000000000000e+09    -1.677625329463575e+01   -1.459026988699988e+02   -3.057975546440280e+01   1.734021856279197e+02    -3.062149194089475e+01   1.739976684682306e+02    -1.842126526342647e+01   -1.450818062469947e+02   
7.064000000000000e+09    -1.677765477873266e+01   -1.459644010555358e+02   -3.055750619192617e+01   1.724133921477088e+02    -3.057979410230821e+01   1.730497628546517e+02    -1.836758750503298e+01   -1.449565086164146e+02   
7.065000000000000e+09    -1.677197656559975e+01   -1.461170522464222e+02   -3.055539787872931e+01   1.712479679138781e+02    -3.060961642791090e+01   1.717202879745600e+02    -1.832243474710828e+01   -1.448633643480028e+02   
7.066000000000000e+09    -1.677010844811939e+01   -1.462024297340182e+02   -3.056284486152339e+01   1.700991767961788e+02    -3.056799229129773e+01   1.707260305586272e+02    -1.825441276968168e+01   -1.448021216052007e+02   
7.067000000000000e+09    -1.676606713607596e+01   -1.462563747838546e+02   -3.050779645908218e+01   1.688168031435320e+02    -3.054126151901327e+01   1.693988342015518e+02    -1.820477118472838e+01   -1.446553231839921e+02   
7.068000000000000e+09    -1.676766086076558e+01   -1.463311203985270e+02   -3.047913307431749e+01   1.679140655671307e+02    -3.055522893721692e+01   1.685023034715803e+02    -1.814820821611515e+01   -1.445411348974713e+02   
7.069000000000000e+09    -1.676472554791491e+01   -1.465284900191365e+02   -3.045103159087794e+01   1.666598528629743e+02    -3.050718881679565e+01   1.673760064903784e+02    -1.810168841557284e+01   -1.444273774733043e+02   
7.070000000000000e+09    -1.676819511957665e+01   -1.465946502415941e+02   -3.046284356500658e+01   1.658654633331558e+02    -3.050041972288472e+01   1.662984415325217e+02    -1.806354718596578e+01   -1.442165471656918e+02   
7.071000000000000e+09    -1.676935005133135e+01   -1.467404203625883e+02   -3.044172708460227e+01   1.646044373975721e+02    -3.048501609759473e+01   1.651052525806381e+02    -1.802457645230096e+01   -1.440173525774637e+02   
7.072000000000000e+09    -1.677454858058935e+01   -1.468641784907767e+02   -3.042054237263879e+01   1.635586431932029e+02    -3.047233496267587e+01   1.639482165175031e+02    -1.798091912508168e+01   -1.439573276219576e+02   
7.073000000000000e+09    -1.676738661105467e+01   -1.469693492957556e+02   -3.045726742584188e+01   1.622907312582638e+02    -3.046769071540691e+01   1.630524425225480e+02    -1.794799708826795e+01   -1.437566049465493e+02   
7.074000000000000e+09    -1.677899661589377e+01   -1.471036633590753e+02   -3.039994377314247e+01   1.613128932789002e+02    -3.042499113195341e+01   1.618665447151839e+02    -1.791440795751260e+01   -1.436376432657448e+02   
7.075000000000000e+09    -1.677210394882897e+01   -1.472509706913052e+02   -3.039527186061223e+01   1.601316447568228e+02    -3.040893920061304e+01   1.608911662587832e+02    -1.788156747639896e+01   -1.433504642959923e+02   
7.076000000000000e+09    -1.677861393462076e+01   -1.473337808212201e+02   -3.037238928946677e+01   1.591451437610363e+02    -3.038054666692802e+01   1.599287331684614e+02    -1.785133192810527e+01   -1.431405449286382e+02   
7.077000000000000e+09    -1.678089497605031e+01   -1.474733095737112e+02   -3.037417667208047e+01   1.578042958748792e+02    -3.034935492652893e+01   1.585609103328346e+02    -1.783123690057052e+01   -1.429527800402566e+02   
7.078000000000000e+09    -1.678334887347181e+01   -1.475505439998485e+02   -3.031449853416440e+01   1.571778661142065e+02    -3.032940084304640e+01   1.575638463056863e+02    -1.780755530317941e+01   -1.428034906891224e+02   
7.079000000000000e+09    -1.679268992809499e+01   -1.476720732395566e+02   -3.032406334453687e+01   1.558410096800856e+02    -3.031017813047605e+01   1.566075677038124e+02    -1.778641091479972e+01   -1.425681224256110e+02   
7.080000000000000e+09    -1.680261695587791e+01   -1.478684195657278e+02   -3.027771584791716e+01   1.549703723523897e+02    -3.031502574364706e+01   1.553018668675317e+02    -1.777076482315144e+01   -1.423620481939317e+02   
7.081000000000000e+09    -1.679459036092238e+01   -1.479545323467730e+02   -3.028125602336781e+01   1.539645289430979e+02    -3.027802603828292e+01   1.544135874658232e+02    -1.775879315881587e+01   -1.421571161208259e+02   
7.082000000000000e+09    -1.680194277944399e+01   -1.480755812819233e+02   -3.026068380112765e+01   1.527096828392845e+02    -3.025568208707339e+01   1.532233120580038e+02    -1.775111259472946e+01   -1.419551314307477e+02   
7.083000000000000e+09    -1.681534268941819e+01   -1.481771589693541e+02   -3.022710004429700e+01   1.516888013262461e+02    -3.021364828782561e+01   1.523045258226793e+02    -1.773863372102604e+01   -1.417621379488158e+02   
7.084000000000000e+09    -1.681472751498886e+01   -1.483015278514025e+02   -3.019638332774790e+01   1.506372794203994e+02    -3.019442132170966e+01   1.511115300112560e+02    -1.773940820219003e+01   -1.415198453134957e+02   
