[Version] 2.0
! Rohde & Schwarz Vector Network Analyzer
! Rohde-Schwarz,ZNL20-2Port,1323001220200009,1.71.1.10-23.02.1.238
! 
! Port Assignments:
! Nominal Port -> Actual Test Port
! --------------------------------
!   1 -> 1
!   2 -> 2

! Created: GMT+3 2024-09-24 16:05:02

# Hz S DB R 50

[Number of Ports] 2
[Two-Port Data Order] 21_12
[Number of Frequencies] 6001

[Network Data] 
! freq[Hz]               S11[mag dB]              S11[ang]                 S21[mag dB]              S21[ang]                 S12[mag dB]              S12[ang]                 S22[mag dB]              S22[ang]                 
7.000000000000000e+09    -1.813562489725146e+01   -1.447816049955058e+02   -3.088850151070789e+01   -1.040328861714068e+02   -3.106809217339433e+01   -1.037465376073388e+02   -2.044642873636396e+01   -1.405988941635691e+02   
7.001000000000000e+09    -1.811484740287368e+01   -1.446529694175220e+02   -3.091622642381127e+01   -1.050924753143917e+02   -3.112653404394941e+01   -1.049443373597629e+02   -2.048640644963210e+01   -1.403226905093564e+02   
7.002000000000000e+09    -1.809574511443338e+01   -1.445432965367997e+02   -3.093157354549930e+01   -1.063975836348032e+02   -3.115886195957030e+01   -1.061451510072735e+02   -2.052757641599260e+01   -1.399446153230607e+02   
7.003000000000000e+09    -1.807666063859514e+01   -1.443974800476008e+02   -3.094417915644262e+01   -1.073050934655255e+02   -3.114864990108767e+01   -1.073403631908278e+02   -2.055552156035882e+01   -1.396719179316179e+02   
7.004000000000000e+09    -1.806063678156442e+01   -1.443081969157134e+02   -3.096914688941512e+01   -1.084566081872363e+02   -3.120080098139297e+01   -1.084940401199712e+02   -2.058183167525881e+01   -1.393448549811166e+02   
7.005000000000000e+09    -1.804744955484259e+01   -1.441536652060390e+02   -3.100216695567086e+01   -1.098180295025973e+02   -3.119907060920482e+01   -1.094556396919719e+02   -2.061588462595045e+01   -1.390983784363064e+02   
7.006000000000000e+09    -1.802993703130053e+01   -1.441053041392555e+02   -3.101911574562474e+01   -1.111202317280110e+02   -3.121254923897459e+01   -1.105162731234357e+02   -2.064910246294371e+01   -1.388585874973528e+02   
7.007000000000000e+09    -1.800377694482165e+01   -1.440166120420212e+02   -3.101578568741635e+01   -1.119631093708983e+02   -3.122258732116898e+01   -1.118568923526911e+02   -2.067052389896512e+01   -1.386682169603228e+02   
7.008000000000000e+09    -1.798520565323726e+01   -1.439124902273793e+02   -3.103348629798688e+01   -1.135404857831402e+02   -3.124130826002384e+01   -1.128772335787188e+02   -2.069417002851464e+01   -1.384709618672840e+02   
7.009000000000000e+09    -1.795912751114836e+01   -1.438280331025246e+02   -3.106833124602161e+01   -1.144766404719988e+02   -3.127030106965544e+01   -1.141450796310485e+02   -2.071845297089975e+01   -1.383364803763926e+02   
7.010000000000000e+09    -1.794512802279588e+01   -1.437197867184305e+02   -3.107672118079669e+01   -1.158499514088898e+02   -3.129663790744436e+01   -1.152554124809420e+02   -2.074796250335471e+01   -1.382861520351735e+02   
7.011000000000000e+09    -1.792004073892272e+01   -1.436231732899250e+02   -3.106881300914576e+01   -1.166158496173831e+02   -3.128957743142120e+01   -1.163523133047252e+02   -2.075467867215819e+01   -1.381748497337770e+02   
7.012000000000000e+09    -1.790181272178580e+01   -1.435070531668480e+02   -3.109812408839861e+01   -1.179429631911229e+02   -3.127665173203695e+01   -1.172944648106406e+02   -2.077769162082901e+01   -1.381178329259002e+02   
7.013000000000000e+09    -1.788116141258948e+01   -1.434549548851737e+02   -3.109947219979366e+01   -1.189762512210746e+02   -3.130962827133948e+01   -1.185477716020547e+02   -2.080318242235889e+01   -1.380455238304748e+02   
7.014000000000000e+09    -1.787343661112178e+01   -1.434011250586440e+02   -3.111723789280498e+01   -1.203660250537658e+02   -3.129090395832301e+01   -1.196279927272818e+02   -2.081687117351275e+01   -1.381036081883137e+02   
7.015000000000000e+09    -1.784608509182319e+01   -1.432570040694116e+02   -3.115313404470456e+01   -1.212836176668972e+02   -3.130534417378695e+01   -1.204803851300926e+02   -2.082216682598376e+01   -1.380305006888390e+02   
7.016000000000000e+09    -1.783249475918715e+01   -1.431469100306637e+02   -3.113081521369664e+01   -1.225552887349353e+02   -3.132294197217689e+01   -1.219635105926868e+02   -2.082805635679533e+01   -1.380938045675832e+02   
7.017000000000000e+09    -1.781624839920973e+01   -1.430677230409161e+02   -3.113446315789192e+01   -1.236926875636707e+02   -3.131790017894794e+01   -1.232502293822389e+02   -2.084185562895292e+01   -1.381993537058611e+02   
7.018000000000000e+09    -1.779517974882935e+01   -1.430417064399779e+02   -3.116548792674317e+01   -1.247373020017848e+02   -3.131708333080948e+01   -1.242731871352810e+02   -2.083749707607617e+01   -1.382380720083352e+02   
7.019000000000000e+09    -1.777500385599529e+01   -1.429541650143592e+02   -3.115809361161983e+01   -1.259540805171419e+02   -3.133608259341243e+01   -1.253668626486923e+02   -2.083178036205535e+01   -1.382631281715508e+02   
7.020000000000000e+09    -1.775420591405667e+01   -1.428949383073038e+02   -3.114183670809942e+01   -1.271130876919915e+02   -3.134515573789175e+01   -1.266743999277654e+02   -2.083021403578627e+01   -1.384788076661786e+02   
7.021000000000000e+09    -1.774336834971842e+01   -1.428590700580145e+02   -3.109798280812033e+01   -1.286282788725438e+02   -3.131128798265845e+01   -1.279347399116277e+02   -2.082087937802557e+01   -1.385488486072458e+02   
7.022000000000000e+09    -1.771554237831575e+01   -1.428346567702821e+02   -3.112251084511039e+01   -1.295475329611811e+02   -3.130856203796031e+01   -1.290936743462676e+02   -2.081772067842076e+01   -1.386669278938534e+02   
7.023000000000000e+09    -1.770295938383561e+01   -1.427453663797981e+02   -3.113616181155180e+01   -1.308510805602359e+02   -3.132320213488389e+01   -1.302297001542624e+02   -2.079854135030896e+01   -1.388526550215454e+02   
7.024000000000000e+09    -1.768943467895834e+01   -1.427871426748466e+02   -3.115940791782649e+01   -1.321028986960389e+02   -3.133370724992232e+01   -1.314803390965293e+02   -2.077655921596395e+01   -1.390287674382556e+02   
7.025000000000000e+09    -1.766353241707088e+01   -1.427299632824810e+02   -3.117925468410331e+01   -1.332796368362526e+02   -3.133475433770515e+01   -1.325093903789507e+02   -2.075854785006777e+01   -1.391340700508825e+02   
7.026000000000000e+09    -1.764325457620792e+01   -1.427534488262275e+02   -3.116349905814523e+01   -1.345611721222657e+02   -3.132032888441288e+01   -1.336419860011252e+02   -2.073088868377597e+01   -1.393416243555153e+02   
7.027000000000000e+09    -1.762814951004829e+01   -1.427001894342873e+02   -3.118007890893814e+01   -1.356423385051969e+02   -3.133073537695048e+01   -1.347698726185805e+02   -2.070076152667957e+01   -1.394638122898490e+02   
7.028000000000000e+09    -1.760440045311347e+01   -1.427519284336561e+02   -3.116731269192435e+01   -1.370666995530225e+02   -3.132028215193580e+01   -1.360828220004768e+02   -2.067432199503057e+01   -1.397526188078918e+02   
7.029000000000000e+09    -1.759069935886845e+01   -1.427596630364483e+02   -3.118577228720767e+01   -1.380174730399707e+02   -3.132752826200934e+01   -1.375114668739723e+02   -2.064139388224356e+01   -1.399696246203010e+02   
7.030000000000000e+09    -1.756873690460756e+01   -1.428068138715075e+02   -3.115843734572351e+01   -1.392547329448482e+02   -3.136191181803511e+01   -1.383284248696431e+02   -2.061325314608141e+01   -1.401315362480937e+02   
7.031000000000000e+09    -1.754951712478205e+01   -1.428739074254944e+02   -3.117792455160677e+01   -1.404757215119687e+02   -3.134497604051976e+01   -1.398191356424959e+02   -2.058004989484287e+01   -1.403282504547977e+02   
7.032000000000000e+09    -1.752671681399160e+01   -1.429313441151790e+02   -3.114638683892939e+01   -1.417912357014117e+02   -3.134051241104856e+01   -1.406164248496404e+02   -2.055801036966918e+01   -1.406329028545929e+02   
7.033000000000000e+09    -1.750961248501729e+01   -1.429208614591477e+02   -3.117253598885175e+01   -1.425556613555569e+02   -3.136471588420010e+01   -1.418507820896202e+02   -2.051398081218025e+01   -1.408062546830279e+02   
7.034000000000000e+09    -1.748386346373431e+01   -1.429816906818452e+02   -3.117924636244020e+01   -1.440657550063133e+02   -3.134631053945990e+01   -1.431329167794069e+02   -2.046319921463655e+01   -1.409077791936964e+02   
7.035000000000000e+09    -1.746424709110218e+01   -1.430544004347950e+02   -3.118206386446045e+01   -1.451927092524287e+02   -3.134469081658717e+01   -1.442303078236530e+02   -2.041413672956913e+01   -1.411769593263700e+02   
7.036000000000000e+09    -1.743826786496692e+01   -1.431062561071062e+02   -3.114897474472583e+01   -1.460701189942784e+02   -3.131663353589298e+01   -1.454881164558092e+02   -2.038009551998417e+01   -1.413520756754727e+02   
7.037000000000000e+09    -1.742469501598414e+01   -1.431857337994026e+02   -3.117072855022599e+01   -1.473769385086159e+02   -3.129057097538929e+01   -1.463222452223462e+02   -2.033351774646679e+01   -1.415054716508100e+02   
7.038000000000000e+09    -1.739935113019938e+01   -1.432246812436964e+02   -3.115022584704725e+01   -1.485820035790620e+02   -3.130176323169184e+01   -1.475802907642277e+02   -2.027001881987266e+01   -1.417558142704890e+02   
7.039000000000000e+09    -1.737021646710877e+01   -1.432788914781224e+02   -3.113539950820860e+01   -1.498008211763901e+02   -3.128959468441863e+01   -1.484810329278134e+02   -2.022336960504543e+01   -1.419196827950342e+02   
7.040000000000000e+09    -1.734991733765515e+01   -1.433309020946009e+02   -3.115569992507044e+01   -1.508111542605427e+02   -3.129777784959935e+01   -1.498183898386525e+02   -2.016819120709255e+01   -1.421713265472196e+02   
7.041000000000000e+09    -1.733265398011591e+01   -1.433970483150849e+02   -3.114878227226134e+01   -1.520585631927944e+02   -3.127594803930851e+01   -1.509720172000957e+02   -2.011909005416128e+01   -1.423141870425563e+02   
7.042000000000000e+09    -1.730552065903222e+01   -1.434628313474039e+02   -3.111714712541683e+01   -1.532652112896093e+02   -3.126286246868371e+01   -1.519656196328607e+02   -2.006575118064460e+01   -1.424880132419462e+02   
7.043000000000000e+09    -1.728897313471255e+01   -1.435747228543556e+02   -3.112414821381749e+01   -1.545435456895856e+02   -3.123863700789076e+01   -1.532872361725513e+02   -2.000476640517548e+01   -1.426917671511059e+02   
7.044000000000000e+09    -1.725664142158419e+01   -1.435717909155040e+02   -3.111534576875865e+01   -1.554617416295426e+02   -3.122898602474582e+01   -1.544160319944946e+02   -1.994325619413682e+01   -1.428382607242879e+02   
7.045000000000000e+09    -1.723994296992118e+01   -1.436168356337879e+02   -3.109201827401740e+01   -1.568003666038895e+02   -3.121399850117616e+01   -1.555593867201411e+02   -1.989089959412214e+01   -1.429764318378653e+02   
7.046000000000000e+09    -1.721189588961663e+01   -1.437184354915958e+02   -3.111700513014160e+01   -1.579935157953402e+02   -3.118036511232079e+01   -1.566640939432335e+02   -1.981638617289999e+01   -1.431261870548144e+02   
7.047000000000000e+09    -1.718838882943895e+01   -1.437395251888355e+02   -3.107214721007249e+01   -1.591611765553218e+02   -3.119650636834974e+01   -1.577843800025476e+02   -1.976210179191012e+01   -1.432412268867947e+02   
7.048000000000000e+09    -1.716878241095745e+01   -1.438058121302264e+02   -3.106218324152743e+01   -1.602834431554178e+02   -3.116471002751609e+01   -1.590034754849988e+02   -1.969835690763836e+01   -1.432873322003051e+02   
7.049000000000000e+09    -1.715164991530365e+01   -1.438464133048978e+02   -3.104739102445543e+01   -1.614674872750782e+02   -3.113682980755251e+01   -1.602425593502770e+02   -1.961782136565980e+01   -1.433969397917900e+02   
7.050000000000000e+09    -1.712274105614497e+01   -1.439077262338151e+02   -3.107425656710189e+01   -1.626520065789422e+02   -3.113203149237763e+01   -1.614085592734423e+02   -1.955945507379044e+01   -1.434306088501223e+02   
7.051000000000000e+09    -1.710349277610152e+01   -1.439247587837545e+02   -3.105219623303921e+01   -1.639191138515089e+02   -3.112286643345916e+01   -1.624634262128582e+02   -1.949647487195073e+01   -1.435532702818026e+02   
7.052000000000000e+09    -1.708856858985316e+01   -1.439488925064497e+02   -3.104217239743464e+01   -1.650271322518655e+02   -3.110270232194197e+01   -1.634363094890895e+02   -1.942991888647261e+01   -1.436015558904206e+02   
7.053000000000000e+09    -1.706335169820627e+01   -1.440242321558338e+02   -3.102667468348627e+01   -1.660243997104882e+02   -3.108764646179254e+01   -1.646339015100762e+02   -1.936070220991095e+01   -1.436110754475954e+02   
7.054000000000000e+09    -1.705327377488194e+01   -1.440670196592982e+02   -3.098953224080640e+01   -1.673391856862248e+02   -3.105639513618115e+01   -1.660186972060266e+02   -1.929090868843132e+01   -1.436490736659653e+02   
7.055000000000000e+09    -1.703081819862066e+01   -1.441522388536970e+02   -3.100704544093152e+01   -1.685328723629433e+02   -3.104880110729241e+01   -1.672202508993864e+02   -1.922300131923632e+01   -1.436802307087014e+02   
7.056000000000000e+09    -1.701109038881247e+01   -1.441341900101132e+02   -3.098393064630944e+01   -1.695089890837611e+02   -3.099677478426351e+01   -1.679619083714619e+02   -1.914969105708681e+01   -1.436855675968984e+02   
7.057000000000000e+09    -1.699680592490521e+01   -1.441756139398068e+02   -3.096342521968903e+01   -1.708456616711562e+02   -3.097713590145702e+01   -1.693003751966338e+02   -1.907931858218387e+01   -1.437108675981918e+02   
7.058000000000000e+09    -1.697737496065989e+01   -1.442651009839451e+02   -3.094155174681749e+01   -1.721081260670741e+02   -3.097508545719206e+01   -1.705570853984101e+02   -1.901715311310809e+01   -1.436609301257813e+02   
7.059000000000000e+09    -1.697158348165623e+01   -1.443193084680692e+02   -3.093439353780921e+01   -1.731095551288692e+02   -3.092387107805741e+01   -1.715822625875203e+02   -1.894109310065378e+01   -1.436328651110706e+02   
7.060000000000000e+09    -1.696104901073217e+01   -1.444267626824347e+02   -3.092117465690377e+01   -1.741747068809717e+02   -3.088762431221765e+01   -1.727645956521449e+02   -1.887303342590280e+01   -1.435747534612545e+02   
7.061000000000000e+09    -1.694828471246277e+01   -1.444605150993350e+02   -3.088386237423232e+01   -1.755366352441334e+02   -3.086690570449080e+01   -1.740142439968776e+02   -1.880168060688956e+01   -1.434862911859253e+02   
7.062000000000000e+09    -1.693730518123753e+01   -1.444840276109112e+02   -3.087197222597574e+01   -1.766478612353897e+02   -3.086015949984052e+01   -1.753982034684065e+02   -1.873402118346571e+01   -1.434590966704444e+02   
7.063000000000000e+09    -1.692713251900322e+01   -1.445690758509266e+02   -3.082023368370635e+01   -1.778828011469236e+02   -3.086766393104494e+01   -1.765213469082168e+02   -1.866347039708955e+01   -1.433527880246820e+02   
7.064000000000000e+09    -1.692199415725572e+01   -1.445996491874230e+02   -3.082824550002785e+01   -1.789771921558235e+02   -3.080525071702450e+01   -1.774327951401556e+02   -1.860372190294161e+01   -1.432495967429838e+02   
7.065000000000000e+09    -1.691009802677569e+01   -1.447221704250955e+02   -3.079796384497882e+01   1.799971526759224e+02    -3.084105589332471e+01   -1.788774743289648e+02   -1.854695830101736e+01   -1.432078540958566e+02   
7.066000000000000e+09    -1.690702230716396e+01   -1.447981686411461e+02   -3.080496473344707e+01   1.786606499416699e+02    -3.077650192561430e+01   -1.799736949792965e+02   -1.847187903448006e+01   -1.430900709761633e+02   
7.067000000000000e+09    -1.689973538707212e+01   -1.448720281692315e+02   -3.076809982282355e+01   1.773817297922847e+02    -3.075758461899201e+01   1.787212310579609e+02    -1.841911788171426e+01   -1.429202920983453e+02   
7.068000000000000e+09    -1.688909481422349e+01   -1.449625978640949e+02   -3.077546727888205e+01   1.761847590588094e+02    -3.078221852930280e+01   1.776765400185001e+02    -1.835979070829855e+01   -1.427771965627351e+02   
7.069000000000000e+09    -1.689565573598131e+01   -1.451180033473788e+02   -3.076695158736766e+01   1.751362195610865e+02    -3.073785269089583e+01   1.767098431333051e+02    -1.830986205974751e+01   -1.426855394678138e+02   
7.070000000000000e+09    -1.689268753433564e+01   -1.452082302427007e+02   -3.073766771099457e+01   1.741005745884947e+02    -3.073290957638231e+01   1.754263184645481e+02    -1.825513878107629e+01   -1.424616857982097e+02   
7.071000000000000e+09    -1.688340858391964e+01   -1.453222469136513e+02   -3.072261853664137e+01   1.729094332860384e+02    -3.072512908008326e+01   1.741769465201194e+02    -1.821187384732569e+01   -1.423319302248669e+02   
7.072000000000000e+09    -1.688206448202579e+01   -1.454016239223659e+02   -3.068948886544145e+01   1.718163774305355e+02    -3.072098799212293e+01   1.730493296819554e+02    -1.816541474332341e+01   -1.421832760102492e+02   
7.073000000000000e+09    -1.687947978356832e+01   -1.455515779912789e+02   -3.073406547444450e+01   1.704190659643062e+02    -3.072664832498209e+01   1.718488529182309e+02    -1.812047373386054e+01   -1.420220391266807e+02   
7.074000000000000e+09    -1.688914602414760e+01   -1.456309865716229e+02   -3.068921093495467e+01   1.696449463376566e+02    -3.064437942968921e+01   1.708794267633929e+02    -1.808740282178856e+01   -1.418096235983634e+02   
7.075000000000000e+09    -1.687388207098614e+01   -1.457743370331954e+02   -3.068794305133296e+01   1.684997088468992e+02    -3.063659261699233e+01   1.698017076345191e+02    -1.805379977188973e+01   -1.416200852226536e+02   
7.076000000000000e+09    -1.688689614656684e+01   -1.458538829263434e+02   -3.070415977749896e+01   1.674599258482909e+02    -3.062641779590620e+01   1.687517381065591e+02    -1.802292143476930e+01   -1.413884610385375e+02   
7.077000000000000e+09    -1.688159895347421e+01   -1.459407902309779e+02   -3.067551511369364e+01   1.660788724770836e+02    -3.061110721110066e+01   1.673901039320434e+02    -1.799228592288224e+01   -1.411514108040163e+02   
7.078000000000000e+09    -1.688535660250254e+01   -1.460996091679880e+02   -3.063489074801950e+01   1.653886986416104e+02    -3.058958288327658e+01   1.663155209183709e+02    -1.796582476179167e+01   -1.409719561960078e+02   
7.079000000000000e+09    -1.688357313347923e+01   -1.462124425481001e+02   -3.061971660435632e+01   1.640819109647024e+02    -3.055010079869719e+01   1.653180609432477e+02    -1.794719873452323e+01   -1.407685684936979e+02   
7.080000000000000e+09    -1.689254544844941e+01   -1.463344641639282e+02   -3.060899524982430e+01   1.630601870928169e+02    -3.055746961839920e+01   1.640522915343501e+02    -1.792220059532074e+01   -1.405284718770588e+02   
7.081000000000000e+09    -1.688451832841231e+01   -1.464081882587312e+02   -3.061478750747029e+01   1.619977254259466e+02    -3.050224441313813e+01   1.630462239319263e+02    -1.791534111217650e+01   -1.403023560208281e+02   
7.082000000000000e+09    -1.689310247137154e+01   -1.465762402556595e+02   -3.059393614069126e+01   1.607898088284415e+02    -3.049035148640090e+01   1.618295292253219e+02    -1.789215187931664e+01   -1.400594518890083e+02   
7.083000000000000e+09    -1.689784689533332e+01   -1.466219972328805e+02   -3.054877657293056e+01   1.599126998281048e+02    -3.047123657555111e+01   1.606890382171617e+02    -1.788594475000274e+01   -1.398198848489373e+02   
7.084000000000000e+09    -1.690002364452326e+01   -1.467700692535786e+02   -3.052926879177418e+01   1.585171399797004e+02    -3.043454525473484e+01   1.597420245390283e+02    -1.786584521771965e+01   -1.396295698363398e+02   
