[Version] 2.0
! Rohde & Schwarz Vector Network Analyzer
! Rohde-Schwarz,ZNL20-2Port,1323001220200009,1.71.1.10-23.02.1.238
! 
! Port Assignments:
! Nominal Port -> Actual Test Port
! --------------------------------
!   1 -> 1
!   2 -> 2

! Created: GMT+3 2024-09-24 16:05:16

# Hz S DB R 50

[Number of Ports] 2
[Two-Port Data Order] 21_12
[Number of Frequencies] 6001

[Network Data] 
! freq[Hz]               S11[mag dB]              S11[ang]                 S21[mag dB]              S21[ang]                 S12[mag dB]              S12[ang]                 S22[mag dB]              S22[ang]                 
7.000000000000000e+09    -1.843335872118626e+01   -1.458779693728398e+02   -3.110056596397678e+01   -8.954053046848013e+01   -3.114409457773030e+01   -8.829605220600524e+01   -2.106068674108557e+01   -1.424876518373159e+02   
7.001000000000000e+09    -1.841160023667656e+01   -1.457103756980256e+02   -3.112500410719746e+01   -9.072960733454053e+01   -3.113856495925246e+01   -8.940448064045333e+01   -2.109753237292976e+01   -1.422043335285938e+02   
7.002000000000000e+09    -1.839844312670634e+01   -1.455935787101650e+02   -3.113367285179553e+01   -9.196945489924357e+01   -3.118899394369886e+01   -9.055250475228324e+01   -2.115008493243698e+01   -1.417210193869620e+02   
7.003000000000000e+09    -1.838467899779618e+01   -1.454372895009527e+02   -3.120548541410358e+01   -9.287313085173479e+01   -3.121400750338994e+01   -9.197306015395310e+01   -2.118299932324087e+01   -1.413881912898076e+02   
7.004000000000000e+09    -1.837006870493298e+01   -1.452981937783352e+02   -3.120931598217702e+01   -9.389977342247954e+01   -3.124334554877706e+01   -9.308576867276560e+01   -2.122054250052998e+01   -1.410400046877861e+02   
7.005000000000000e+09    -1.834734104535152e+01   -1.451156486712554e+02   -3.124027550561312e+01   -9.532450759070457e+01   -3.124997318061231e+01   -9.414864865424930e+01   -2.126873269585699e+01   -1.406525686390301e+02   
7.006000000000000e+09    -1.833722951572062e+01   -1.450001411372493e+02   -3.127382248669098e+01   -9.667843168384837e+01   -3.128918225840051e+01   -9.536628418469293e+01   -2.130319599532532e+01   -1.403411417494971e+02   
7.007000000000000e+09    -1.831876371750314e+01   -1.449237534439485e+02   -3.129811821647332e+01   -9.748847713695457e+01   -3.128837747607396e+01   -9.657426579802707e+01   -2.133452585388527e+01   -1.401252316894818e+02   
7.008000000000000e+09    -1.830105710638665e+01   -1.447710024084338e+02   -3.132412954042714e+01   -9.905971257544026e+01   -3.130622709169105e+01   -9.774944684938562e+01   -2.136105912086881e+01   -1.398497139163190e+02   
7.009000000000000e+09    -1.827593915345788e+01   -1.446315055132013e+02   -3.133833826446095e+01   -9.997048956748009e+01   -3.134229143289918e+01   -9.906461772921210e+01   -2.140144977696102e+01   -1.396217358788983e+02   
7.010000000000000e+09    -1.826848423453296e+01   -1.445217781509998e+02   -3.137470487852151e+01   -1.013286440219125e+02   -3.136307949702804e+01   -1.001129144100961e+02   -2.142867689306513e+01   -1.393919083070095e+02   
7.011000000000000e+09    -1.825239652212236e+01   -1.443605520501394e+02   -3.135907697886132e+01   -1.023578079070878e+02   -3.137469802480899e+01   -1.012742630875606e+02   -2.145097973073878e+01   -1.392985639922833e+02   
7.012000000000000e+09    -1.823019764023119e+01   -1.442305547838490e+02   -3.140328555168214e+01   -1.035937981333475e+02   -3.140188219857938e+01   -1.024306583445124e+02   -2.147962687841450e+01   -1.391207664390803e+02   
7.013000000000000e+09    -1.820879321786371e+01   -1.440999896179390e+02   -3.138536442950302e+01   -1.046978745922682e+02   -3.142903744669679e+01   -1.037685123372507e+02   -2.150368212616857e+01   -1.389589309205932e+02   
7.014000000000000e+09    -1.820197272313908e+01   -1.440004732442227e+02   -3.143223533516593e+01   -1.058922707843180e+02   -3.143650931770917e+01   -1.047950775878807e+02   -2.152724591625858e+01   -1.389537917494531e+02   
7.015000000000000e+09    -1.818521504755519e+01   -1.438955224213667e+02   -3.146517083787974e+01   -1.071354332318188e+02   -3.143912922327846e+01   -1.059915935598071e+02   -2.153352407833237e+01   -1.387988274307255e+02   
7.016000000000000e+09    -1.816737936755538e+01   -1.437516107005814e+02   -3.145671454952956e+01   -1.082715005544288e+02   -3.144674194035509e+01   -1.071507193497200e+02   -2.155003722116021e+01   -1.387344279743618e+02   
7.017000000000000e+09    -1.815354424391058e+01   -1.435900455437929e+02   -3.146896642462156e+01   -1.092689166774280e+02   -3.147861209225016e+01   -1.085969090189712e+02   -2.155361806829326e+01   -1.387647065130344e+02   
7.018000000000000e+09    -1.813262101352871e+01   -1.435423109425980e+02   -3.149348156461464e+01   -1.105363256042878e+02   -3.146623673770888e+01   -1.096008233892746e+02   -2.155014377479919e+01   -1.387873699531599e+02   
7.019000000000000e+09    -1.811634599932570e+01   -1.434362741568538e+02   -3.150301880804582e+01   -1.117333264768939e+02   -3.147593191701724e+01   -1.107402799638661e+02   -2.154512758510304e+01   -1.387590093006432e+02   
7.020000000000000e+09    -1.809658539229873e+01   -1.433400234646186e+02   -3.150656086185726e+01   -1.128757729315219e+02   -3.154101245591090e+01   -1.120962344691769e+02   -2.154723518770282e+01   -1.388389671190880e+02   
7.021000000000000e+09    -1.809080612384771e+01   -1.432701560619525e+02   -3.147706344340646e+01   -1.144682026086909e+02   -3.149203775097331e+01   -1.133224465699124e+02   -2.153236046215152e+01   -1.388250373902959e+02   
7.022000000000000e+09    -1.806879416094942e+01   -1.432098761636834e+02   -3.150032719412258e+01   -1.154827896958084e+02   -3.148728643040202e+01   -1.144245815030597e+02   -2.153194379484222e+01   -1.388836463720067e+02   
7.023000000000000e+09    -1.805302624657281e+01   -1.431162966636840e+02   -3.153513992116270e+01   -1.166436903407152e+02   -3.151920205478475e+01   -1.158228107200241e+02   -2.150199868422736e+01   -1.390357785664496e+02   
7.024000000000000e+09    -1.803759429008457e+01   -1.430855665901618e+02   -3.153116647321697e+01   -1.178798500363422e+02   -3.154853211840988e+01   -1.170848207440063e+02   -2.148774870636194e+01   -1.390786883472706e+02   
7.025000000000000e+09    -1.802123727846575e+01   -1.429975406940130e+02   -3.154387681967981e+01   -1.189593645200222e+02   -3.153442462489786e+01   -1.184368261162823e+02   -2.146983651177108e+01   -1.391963596591589e+02   
7.026000000000000e+09    -1.800432833159446e+01   -1.429759830257013e+02   -3.153908035204361e+01   -1.202225473263623e+02   -3.154978240447255e+01   -1.194732339872460e+02   -2.142833825039135e+01   -1.393578218983620e+02   
7.027000000000000e+09    -1.798451156616089e+01   -1.429245877995085e+02   -3.158450759474865e+01   -1.214738833477807e+02   -3.152446015666241e+01   -1.207996220381978e+02   -2.140869051609010e+01   -1.393869453328923e+02   
7.028000000000000e+09    -1.796661060816622e+01   -1.429073316329184e+02   -3.159087968091828e+01   -1.228439916816074e+02   -3.155545720513975e+01   -1.219307483844733e+02   -2.137332227565657e+01   -1.396778955809980e+02   
7.029000000000000e+09    -1.795007435326697e+01   -1.428783523324199e+02   -3.162807449665076e+01   -1.240345878220960e+02   -3.158218838258809e+01   -1.234934748194267e+02   -2.135104104333109e+01   -1.397969984329278e+02   
7.030000000000000e+09    -1.793181978315055e+01   -1.428567842921343e+02   -3.160249395246500e+01   -1.252196324894545e+02   -3.159764773675720e+01   -1.243827527095952e+02   -2.131366945658506e+01   -1.399152684231226e+02   
7.031000000000000e+09    -1.790765957490144e+01   -1.428654602366851e+02   -3.160622223206782e+01   -1.262544442290835e+02   -3.159973660740640e+01   -1.257992728653172e+02   -2.127810852227606e+01   -1.400265375103747e+02   
7.032000000000000e+09    -1.788607333938146e+01   -1.428679082211601e+02   -3.159849789030270e+01   -1.276007828176841e+02   -3.158754222811716e+01   -1.268520067637928e+02   -2.124081244632870e+01   -1.402258931460793e+02   
7.033000000000000e+09    -1.787275465183787e+01   -1.428532906620246e+02   -3.161382624853825e+01   -1.284039265533206e+02   -3.162164517343644e+01   -1.281837003394546e+02   -2.118925293721103e+01   -1.403902692725234e+02   
7.034000000000000e+09    -1.785060726606100e+01   -1.428554581009567e+02   -3.163656414123386e+01   -1.299824563314562e+02   -3.162213148171949e+01   -1.293620560750330e+02   -2.115130881303369e+01   -1.405156939355767e+02   
7.035000000000000e+09    -1.782777574320126e+01   -1.428886207748314e+02   -3.163597083101412e+01   -1.309787974958731e+02   -3.163816682442711e+01   -1.306452164833954e+02   -2.109167309146426e+01   -1.406472858405955e+02   
7.036000000000000e+09    -1.780543336752787e+01   -1.429167843135392e+02   -3.161407368223686e+01   -1.321784095824308e+02   -3.160622566521482e+01   -1.319549966714791e+02   -2.105672271314095e+01   -1.408366883902731e+02   
7.037000000000000e+09    -1.778867756339880e+01   -1.429442412937117e+02   -3.162415884956843e+01   -1.334750031594823e+02   -3.160909225794624e+01   -1.329857368771715e+02   -2.099606615089191e+01   -1.408797789352743e+02   
7.038000000000000e+09    -1.776908196619148e+01   -1.429442621919855e+02   -3.163859700821990e+01   -1.345764855705621e+02   -3.162593605179195e+01   -1.341799290939006e+02   -2.093764219033235e+01   -1.410557082475505e+02   
7.039000000000000e+09    -1.773827032103635e+01   -1.429563089314410e+02   -3.160995899630860e+01   -1.357967734367299e+02   -3.159244227874023e+01   -1.351628991008867e+02   -2.088117098050682e+01   -1.411855102177019e+02   
7.040000000000000e+09    -1.771834638442134e+01   -1.429629757956461e+02   -3.162766843606164e+01   -1.369285348230981e+02   -3.160065054524247e+01   -1.364160763344896e+02   -2.081880695627355e+01   -1.413786360402187e+02   
7.041000000000000e+09    -1.769667138051523e+01   -1.429801343270279e+02   -3.160001754810208e+01   -1.382843060175251e+02   -3.162705594137771e+01   -1.377351474528003e+02   -2.076308532288543e+01   -1.414013028836603e+02   
7.042000000000000e+09    -1.766584648102063e+01   -1.429882273889188e+02   -3.162302821621163e+01   -1.395663927980488e+02   -3.162706867740604e+01   -1.388846790946697e+02   -2.071625774011297e+01   -1.414645871745674e+02   
7.043000000000000e+09    -1.764671686073787e+01   -1.430179526732125e+02   -3.163628988773671e+01   -1.407922172244863e+02   -3.159666205750701e+01   -1.402182257695893e+02   -2.064106168259175e+01   -1.416722342368769e+02   
7.044000000000000e+09    -1.762440454424278e+01   -1.430266578012519e+02   -3.160286864753079e+01   -1.418851242881606e+02   -3.162433882676999e+01   -1.413424117983594e+02   -2.056608010880316e+01   -1.417369065010056e+02   
7.045000000000000e+09    -1.759855594969580e+01   -1.430550018469301e+02   -3.157688124931681e+01   -1.431722315094275e+02   -3.158881143275501e+01   -1.426049150342639e+02   -2.050287780738535e+01   -1.418217520830362e+02   
7.046000000000000e+09    -1.756681600549164e+01   -1.430686689952249e+02   -3.162085622024403e+01   -1.444192635399416e+02   -3.161460921740739e+01   -1.439671988867631e+02   -2.042840688495479e+01   -1.419247506915294e+02   
7.047000000000000e+09    -1.754552699089274e+01   -1.430870622641139e+02   -3.157905160528683e+01   -1.453953789985318e+02   -3.158583686332559e+01   -1.450255405916893e+02   -2.036512308173122e+01   -1.419515872995271e+02   
7.048000000000000e+09    -1.752125514295400e+01   -1.430920051878798e+02   -3.156233293788526e+01   -1.467031552722393e+02   -3.155506635382041e+01   -1.461614192305586e+02   -2.028328020616847e+01   -1.419774377387424e+02   
7.049000000000000e+09    -1.750488665694406e+01   -1.430806736159118e+02   -3.155963215123631e+01   -1.481144360455710e+02   -3.160445013807979e+01   -1.473328933883496e+02   -2.021517060633123e+01   -1.419928672652833e+02   
7.050000000000000e+09    -1.747925398417472e+01   -1.431056980987709e+02   -3.161062249723210e+01   -1.491212053134866e+02   -3.154446892124590e+01   -1.486835959438966e+02   -2.012983587216792e+01   -1.419733147512702e+02   
7.051000000000000e+09    -1.745881966253430e+01   -1.430330477252830e+02   -3.156027776262754e+01   -1.504643935788907e+02   -3.154178673316048e+01   -1.498461925806600e+02   -2.005738254370103e+01   -1.420776818535142e+02   
7.052000000000000e+09    -1.743176557312477e+01   -1.430831134856869e+02   -3.153483380209512e+01   -1.515254462778249e+02   -3.151906716755376e+01   -1.507784828790535e+02   -1.999014077779549e+01   -1.420549633041388e+02   
7.053000000000000e+09    -1.740963433440407e+01   -1.430826105084874e+02   -3.154289087699892e+01   -1.526183312534682e+02   -3.155642124013124e+01   -1.519450784383156e+02   -1.990993514170676e+01   -1.419887588911583e+02   
7.054000000000000e+09    -1.739541822628668e+01   -1.431076765761814e+02   -3.153245855968513e+01   -1.539062836483685e+02   -3.154834404917498e+01   -1.531937009095604e+02   -1.982339955965376e+01   -1.419550713372716e+02   
7.055000000000000e+09    -1.737222593383721e+01   -1.430761515140664e+02   -3.152467246768057e+01   -1.551827976248798e+02   -3.153129406459399e+01   -1.544534042496930e+02   -1.974543361138140e+01   -1.419459100083590e+02   
7.056000000000000e+09    -1.734923204946861e+01   -1.431020071539877e+02   -3.150766020138413e+01   -1.562321144822100e+02   -3.149461369828384e+01   -1.555566504589878e+02   -1.966265067483539e+01   -1.418805554795502e+02   
7.057000000000000e+09    -1.733300434379737e+01   -1.430746627355817e+02   -3.151353712010091e+01   -1.575763363732501e+02   -3.146221589973411e+01   -1.569529889839138e+02   -1.958378828542002e+01   -1.418344237856139e+02   
7.058000000000000e+09    -1.731316939426479e+01   -1.431053506122499e+02   -3.148159325273875e+01   -1.586949069447838e+02   -3.145733234802822e+01   -1.581159092860671e+02   -1.950344258560656e+01   -1.417510957280916e+02   
7.059000000000000e+09    -1.729982990126076e+01   -1.430803484079265e+02   -3.148323868673043e+01   -1.599120340261252e+02   -3.143796214239031e+01   -1.593439785097497e+02   -1.942399693744088e+01   -1.416203416679404e+02   
7.060000000000000e+09    -1.728374499921791e+01   -1.430840831478746e+02   -3.144541890160162e+01   -1.611362324517864e+02   -3.142817863892951e+01   -1.605889967066898e+02   -1.934156670576563e+01   -1.416094940700277e+02   
7.061000000000000e+09    -1.726948014954831e+01   -1.431498702516436e+02   -3.142509111342732e+01   -1.625050041867152e+02   -3.139860382670030e+01   -1.617189162729763e+02   -1.927053881909587e+01   -1.414327008183838e+02   
7.062000000000000e+09    -1.725649563797990e+01   -1.431518260515922e+02   -3.141036305449417e+01   -1.635417633525036e+02   -3.140354061759277e+01   -1.631030301094956e+02   -1.918815475953346e+01   -1.413078342567358e+02   
7.063000000000000e+09    -1.723953171582557e+01   -1.431658669714224e+02   -3.138705798487536e+01   -1.649388516643414e+02   -3.142214536903911e+01   -1.643540948885132e+02   -1.910275349136280e+01   -1.411991200602684e+02   
7.064000000000000e+09    -1.723162272234958e+01   -1.431717273604053e+02   -3.136472035664412e+01   -1.660767800831894e+02   -3.134825282261254e+01   -1.653867442552083e+02   -1.902814797550045e+01   -1.410255723583797e+02   
7.065000000000000e+09    -1.721586082291425e+01   -1.432481019147139e+02   -3.133176467963928e+01   -1.673527271020931e+02   -3.139200598587765e+01   -1.667307454053128e+02   -1.896218994778081e+01   -1.409272261562766e+02   
7.066000000000000e+09    -1.720589594737422e+01   -1.432616756200467e+02   -3.134270058725930e+01   -1.685277781574380e+02   -3.134139287988729e+01   -1.677503511046381e+02   -1.887957827478920e+01   -1.408048946569742e+02   
7.067000000000000e+09    -1.719434860530128e+01   -1.432891148685343e+02   -3.132811497570235e+01   -1.696724523144889e+02   -3.131023643849608e+01   -1.691797941403041e+02   -1.880880539184037e+01   -1.406036054202243e+02   
7.068000000000000e+09    -1.718352408681893e+01   -1.433776925550025e+02   -3.131194754536145e+01   -1.708665174121502e+02   -3.134501967220632e+01   -1.702409314834009e+02   -1.875043342629100e+01   -1.404513218830239e+02   
7.069000000000000e+09    -1.717321172267181e+01   -1.434801036593975e+02   -3.130704543160924e+01   -1.721608239439258e+02   -3.131340210121278e+01   -1.714921117055779e+02   -1.868232768451949e+01   -1.403345020192034e+02   
7.070000000000000e+09    -1.717303469738108e+01   -1.434693348051287e+02   -3.128030567831406e+01   -1.731017426537988e+02   -3.131365059427306e+01   -1.726606223590089e+02   -1.862419944344111e+01   -1.400580199655585e+02   
7.071000000000000e+09    -1.715489898209226e+01   -1.435576372452631e+02   -3.128342782320036e+01   -1.744490399490488e+02   -3.127941138398925e+01   -1.738378557931675e+02   -1.856674560885316e+01   -1.398659663058860e+02   
7.072000000000000e+09    -1.715427044371884e+01   -1.436383014256942e+02   -3.125959181515872e+01   -1.757221198420483e+02   -3.129653078251597e+01   -1.750466202302661e+02   -1.851270079619442e+01   -1.396907016874230e+02   
7.073000000000000e+09    -1.714508870756034e+01   -1.436854652255293e+02   -3.130513126293724e+01   -1.767696295770437e+02   -3.129145196613329e+01   -1.760545610122866e+02   -1.846423280142658e+01   -1.394467909893503e+02   
7.074000000000000e+09    -1.714056349608448e+01   -1.438034715950702e+02   -3.123753015088128e+01   -1.780207894920975e+02   -3.124025402580487e+01   -1.772293136979587e+02   -1.841467088624167e+01   -1.392299643852514e+02   
7.075000000000000e+09    -1.712731687950290e+01   -1.438643598079659e+02   -3.123573285217646e+01   -1.791927484173273e+02   -3.120265332136968e+01   -1.784660480705971e+02   -1.837323908055284e+01   -1.389553942629384e+02   
7.076000000000000e+09    -1.712750908967674e+01   -1.439367349598002e+02   -3.123142947967569e+01   1.798418599393761e+02    -3.119445135881287e+01   -1.796936536139478e+02   -1.832321262513406e+01   -1.387277387723827e+02   
7.077000000000000e+09    -1.711260477985343e+01   -1.440466512272848e+02   -3.120698356734012e+01   1.784024988047560e+02    -3.118696864711590e+01   1.793329916678932e+02    -1.828926490279109e+01   -1.384517428323693e+02   
7.078000000000000e+09    -1.711185394100974e+01   -1.441012999702983e+02   -3.117162885291221e+01   1.774503242326309e+02    -3.116804863112386e+01   1.779553220992014e+02    -1.824919157838487e+01   -1.382228512686866e+02   
7.079000000000000e+09    -1.710904395794492e+01   -1.441936166550381e+02   -3.115902286967255e+01   1.763604088379890e+02    -3.115584591311778e+01   1.770872532299496e+02    -1.821531620950098e+01   -1.380266119934808e+02   
7.080000000000000e+09    -1.710103884039676e+01   -1.443525449252058e+02   -3.113828415882341e+01   1.751349305364081e+02    -3.114080498091294e+01   1.757012704283191e+02    -1.818441096040115e+01   -1.377043172310108e+02   
7.081000000000000e+09    -1.709714007705852e+01   -1.443714988650019e+02   -3.111386094611982e+01   1.742092531430179e+02    -3.110279422718705e+01   1.746354085973922e+02    -1.816279486482107e+01   -1.374982333243003e+02   
7.082000000000000e+09    -1.709331219356863e+01   -1.444824693374383e+02   -3.108449655446872e+01   1.728320778191661e+02    -3.108172516274758e+01   1.735023850644600e+02    -1.813072611226686e+01   -1.372227165199532e+02   
7.083000000000000e+09    -1.709206292202624e+01   -1.445497789832985e+02   -3.106048803561284e+01   1.716303020923654e+02    -3.102210353402584e+01   1.721689261689628e+02    -1.811473685406214e+01   -1.369774074739883e+02   
7.084000000000000e+09    -1.708688204455775e+01   -1.446455918500720e+02   -3.106397455995184e+01   1.705181117514056e+02    -3.099218963804862e+01   1.711598260728803e+02    -1.809386345407959e+01   -1.367343630935931e+02   
