[Version] 2.0
! Rohde & Schwarz Vector Network Analyzer
! Rohde-Schwarz,ZNL20-2Port,1323001220200009,1.71.1.10-23.02.1.238
! 
! Port Assignments:
! Nominal Port -> Actual Test Port
! --------------------------------
!   1 -> 1
!   2 -> 2

! Created: GMT+3 2024-09-24 15:50:20

# Hz S DB R 50

[Number of Ports] 2
[Two-Port Data Order] 21_12
[Number of Frequencies] 6001

[Network Data] 
! freq[Hz]               S11[mag dB]              S11[ang]                 S21[mag dB]              S21[ang]                 S12[mag dB]              S12[ang]                 S22[mag dB]              S22[ang]                 
7.000000000000000e+09    -1.885721776207052e+01   -1.431299211038426e+02   -2.994321881907981e+01   -8.261487794427148e+01   -2.986363978941853e+01   -8.214775274337480e+01   -2.129921334329206e+01   -1.403750526940618e+02   
7.001000000000000e+09    -1.883176396280320e+01   -1.429183163681904e+02   -2.997957554976377e+01   -8.368053395159200e+01   -2.989718483077685e+01   -8.321980064356585e+01   -2.133288699290400e+01   -1.398769242846128e+02   
7.002000000000000e+09    -1.881504315048517e+01   -1.427875573927485e+02   -2.998738822575342e+01   -8.486393745659635e+01   -2.994509570184875e+01   -8.423833018122542e+01   -2.138008904069044e+01   -1.393852132848258e+02   
7.003000000000000e+09    -1.879190325807144e+01   -1.425674481234628e+02   -3.003164225725397e+01   -8.556115897590951e+01   -2.998609692056726e+01   -8.550015549218814e+01   -2.141039118898912e+01   -1.390749134377088e+02   
7.004000000000000e+09    -1.876469991094822e+01   -1.424456078691810e+02   -3.005944322042112e+01   -8.687250051156752e+01   -3.002929219003475e+01   -8.642099942361615e+01   -2.143670709348574e+01   -1.386864562354336e+02   
7.005000000000000e+09    -1.874596113935713e+01   -1.422148606942992e+02   -3.010924731364031e+01   -8.811910980821575e+01   -3.004233311540309e+01   -8.759598184187263e+01   -2.147353688142576e+01   -1.382675942374761e+02   
7.006000000000000e+09    -1.872439481616216e+01   -1.420698578328067e+02   -3.013985239393727e+01   -8.908232387082732e+01   -3.007246346742773e+01   -8.877866359549988e+01   -2.150764023304332e+01   -1.378690215683318e+02   
7.007000000000000e+09    -1.870208731091245e+01   -1.419131763152468e+02   -3.014564380150771e+01   -9.015975180031575e+01   -3.009921866019528e+01   -8.996056264499640e+01   -2.154571269922902e+01   -1.376442235193763e+02   
7.008000000000000e+09    -1.867326658108090e+01   -1.417207125451959e+02   -3.019921395978400e+01   -9.125095680573708e+01   -3.012836942630766e+01   -9.102073701356801e+01   -2.156910993069590e+01   -1.372985531463333e+02   
7.009000000000000e+09    -1.864550829130535e+01   -1.415291092766733e+02   -3.023021151169774e+01   -9.236155440132568e+01   -3.015841848771171e+01   -9.218150313082465e+01   -2.159042552224988e+01   -1.370598168885419e+02   
7.010000000000000e+09    -1.863218552516282e+01   -1.413334193008920e+02   -3.024522762732926e+01   -9.354515593893420e+01   -3.018864726402591e+01   -9.321706706821651e+01   -2.161655288814444e+01   -1.368361734371914e+02   
7.011000000000000e+09    -1.859159030216242e+01   -1.411576827270181e+02   -3.026997450594703e+01   -9.442970067310731e+01   -3.021171252678705e+01   -9.450652693342715e+01   -2.163590443212162e+01   -1.366530715434550e+02   
7.012000000000000e+09    -1.856939338472633e+01   -1.409803072356802e+02   -3.030221091440529e+01   -9.550488660827837e+01   -3.023187817684072e+01   -9.547498224853732e+01   -2.165221106191633e+01   -1.364386573626218e+02   
7.013000000000000e+09    -1.854310490812166e+01   -1.408590640339971e+02   -3.030156922688346e+01   -9.660714535097429e+01   -3.030112657386309e+01   -9.653088239775123e+01   -2.167511846033442e+01   -1.363260769455261e+02   
7.014000000000000e+09    -1.852898713153452e+01   -1.406907702598931e+02   -3.035994847353452e+01   -9.783227066403724e+01   -3.027430229588897e+01   -9.756971459733286e+01   -2.168898222069540e+01   -1.362472245062611e+02   
7.015000000000000e+09    -1.850153232716373e+01   -1.404857729577048e+02   -3.040771898698104e+01   -9.867186556601901e+01   -3.031222045121714e+01   -9.870877074603513e+01   -2.169172319265934e+01   -1.361213985654575e+02   
7.016000000000000e+09    -1.847862840331658e+01   -1.403047002983874e+02   -3.038511701993457e+01   -9.969739192431626e+01   -3.032200345047448e+01   -9.975816627244436e+01   -2.169858667603011e+01   -1.360550791721854e+02   
7.017000000000000e+09    -1.845729497419655e+01   -1.401562389873782e+02   -3.042170380309192e+01   -1.008593094932429e+02   -3.036243715418728e+01   -1.011141435686308e+02   -2.170704177607602e+01   -1.360623769853636e+02   
7.018000000000000e+09    -1.841937516722344e+01   -1.400310168852670e+02   -3.040945423422085e+01   -1.018511890100920e+02   -3.038489370110310e+01   -1.021104117893598e+02   -2.169779865545069e+01   -1.360116749915075e+02   
7.019000000000000e+09    -1.840317029293502e+01   -1.399094952441636e+02   -3.047125217962838e+01   -1.029371527217973e+02   -3.040382406541757e+01   -1.031855166421617e+02   -2.168438140494845e+01   -1.360436594832047e+02   
7.020000000000000e+09    -1.837258833281283e+01   -1.397786875778941e+02   -3.044728563448162e+01   -1.039773581261629e+02   -3.044969791201085e+01   -1.043313698193903e+02   -2.169133590882476e+01   -1.360685665668296e+02   
7.021000000000000e+09    -1.835245558165934e+01   -1.396603749642128e+02   -3.045786687416097e+01   -1.052952162495842e+02   -3.042278559369290e+01   -1.056119602855284e+02   -2.167263028495440e+01   -1.361329433993889e+02   
7.022000000000000e+09    -1.832447822761911e+01   -1.395842721549054e+02   -3.048202250711510e+01   -1.063281716259079e+02   -3.043227403396489e+01   -1.066433807535299e+02   -2.166617769583450e+01   -1.361528776367594e+02   
7.023000000000000e+09    -1.830104911926497e+01   -1.394341191246598e+02   -3.048149022184898e+01   -1.075148463690731e+02   -3.048428316835926e+01   -1.078355721636772e+02   -2.162761933513468e+01   -1.362724838267739e+02   
7.024000000000000e+09    -1.827725676879239e+01   -1.393938779542085e+02   -3.051280954271972e+01   -1.086195178798023e+02   -3.050097564171157e+01   -1.088168613356922e+02   -2.161456060941902e+01   -1.363437122954298e+02   
7.025000000000000e+09    -1.824938769607695e+01   -1.392537025900857e+02   -3.051265776036236e+01   -1.096661354861976e+02   -3.051907648749331e+01   -1.102661579960064e+02   -2.159546990885929e+01   -1.365103410845626e+02   
7.026000000000000e+09    -1.822011048716272e+01   -1.392646475564562e+02   -3.054727759450197e+01   -1.109199496832222e+02   -3.053677816103678e+01   -1.112736103145008e+02   -2.155642543476623e+01   -1.366116528560025e+02   
7.027000000000000e+09    -1.819578945043671e+01   -1.391733019008082e+02   -3.055172404410223e+01   -1.120683894187960e+02   -3.052304399472101e+01   -1.124247898022569e+02   -2.152613176394030e+01   -1.367578340128592e+02   
7.028000000000000e+09    -1.816522164826600e+01   -1.391157484441055e+02   -3.056743737636727e+01   -1.131846069036470e+02   -3.056045450331208e+01   -1.136359058590272e+02   -2.149311642891779e+01   -1.369408322059928e+02   
7.029000000000000e+09    -1.814069061275951e+01   -1.390992816327937e+02   -3.061322422099924e+01   -1.143221983094440e+02   -3.059976223388422e+01   -1.148926066443135e+02   -2.145971864059246e+01   -1.370424208241332e+02   
7.030000000000000e+09    -1.811504029576089e+01   -1.390442131439634e+02   -3.059891648492460e+01   -1.156506484245884e+02   -3.062363025899280e+01   -1.157258743770201e+02   -2.141740944715588e+01   -1.371880830891081e+02   
7.031000000000000e+09    -1.808532422298821e+01   -1.390401023832387e+02   -3.060056561839147e+01   -1.166298811148122e+02   -3.063693285279733e+01   -1.169644340534871e+02   -2.138101797394060e+01   -1.373599846600842e+02   
7.032000000000000e+09    -1.805084654602369e+01   -1.390230252647048e+02   -3.063301312751995e+01   -1.178096549684006e+02   -3.063361365350237e+01   -1.180406777516622e+02   -2.134752151426821e+01   -1.375518292486793e+02   
7.033000000000000e+09    -1.802822456510373e+01   -1.389952762321018e+02   -3.065056914233014e+01   -1.188101592465542e+02   -3.068012099512898e+01   -1.192823953112761e+02   -2.129684496912598e+01   -1.378063940619076e+02   
7.034000000000000e+09    -1.799311754462867e+01   -1.389817812792523e+02   -3.064427828698829e+01   -1.199018295751699e+02   -3.068202665414707e+01   -1.204758677405028e+02   -2.125583225340048e+01   -1.378131314738932e+02   
7.035000000000000e+09    -1.796642384392754e+01   -1.389874516493974e+02   -3.066667662210812e+01   -1.210559918156416e+02   -3.073345435282060e+01   -1.213897378269131e+02   -2.119720724992347e+01   -1.380389033463310e+02   
7.036000000000000e+09    -1.792844416572979e+01   -1.389775210039519e+02   -3.068957542842831e+01   -1.219627142997398e+02   -3.073246830931012e+01   -1.226340168748665e+02   -2.115390893404431e+01   -1.381610778463752e+02   
7.037000000000000e+09    -1.790009769484601e+01   -1.390505334603460e+02   -3.068865751070899e+01   -1.231454485844538e+02   -3.072346671239191e+01   -1.236489689571989e+02   -2.109135787259591e+01   -1.382398864290948e+02   
7.038000000000000e+09    -1.786580907575686e+01   -1.390058854122989e+02   -3.069797250683225e+01   -1.243078529353039e+02   -3.074045773559971e+01   -1.246981602344869e+02   -2.103055622985459e+01   -1.384060051163403e+02   
7.039000000000000e+09    -1.782861768665154e+01   -1.390158049275888e+02   -3.071678781417661e+01   -1.254909426617961e+02   -3.074799397057090e+01   -1.258195042994907e+02   -2.097537806331809e+01   -1.385108576131267e+02   
7.040000000000000e+09    -1.779619904542596e+01   -1.390183408845457e+02   -3.071504466857460e+01   -1.265537028673614e+02   -3.076245482023710e+01   -1.270003358438224e+02   -2.090570833840781e+01   -1.387236473434130e+02   
7.041000000000000e+09    -1.776361642750585e+01   -1.390559616231980e+02   -3.072732011811826e+01   -1.277229087162675e+02   -3.078482597861211e+01   -1.278564058833877e+02   -2.084799373031310e+01   -1.387948719610630e+02   
7.042000000000000e+09    -1.773146462581479e+01   -1.390407123187555e+02   -3.070246160231598e+01   -1.288506694485857e+02   -3.078221547089070e+01   -1.291095701507961e+02   -2.079275023435827e+01   -1.389186485209037e+02   
7.043000000000000e+09    -1.769878417909307e+01   -1.391080719879520e+02   -3.072795486347447e+01   -1.300063979363296e+02   -3.080249593049568e+01   -1.302491049572316e+02   -2.071926162884687e+01   -1.391442791910281e+02   
7.044000000000000e+09    -1.766422397052630e+01   -1.390868756161558e+02   -3.069052716266435e+01   -1.311563214667553e+02   -3.081638937367043e+01   -1.313516789084889e+02   -2.062944300006741e+01   -1.392344150115032e+02   
7.045000000000000e+09    -1.762541123583637e+01   -1.391230427767399e+02   -3.070470353055580e+01   -1.324627653114587e+02   -3.079355608247475e+01   -1.325385514533189e+02   -2.058029284762444e+01   -1.393021449520250e+02   
7.046000000000000e+09    -1.759079157178118e+01   -1.391347144012005e+02   -3.074076390237014e+01   -1.334891325887960e+02   -3.080042375374562e+01   -1.337956353462191e+02   -2.049081762734182e+01   -1.394016124849814e+02   
7.047000000000000e+09    -1.755344972661744e+01   -1.391139211815789e+02   -3.072567539049479e+01   -1.345983556651768e+02   -3.082188874338780e+01   -1.346984004773053e+02   -2.041845111762757e+01   -1.394483859705048e+02   
7.048000000000000e+09    -1.752524211831251e+01   -1.392159197260897e+02   -3.072809631405027e+01   -1.357173150255078e+02   -3.083102611303838e+01   -1.358161242760816e+02   -2.034810430692512e+01   -1.394654869070180e+02   
7.049000000000000e+09    -1.749972543566781e+01   -1.391354817047746e+02   -3.071495622214648e+01   -1.369831652881043e+02   -3.081960751292927e+01   -1.369435593803464e+02   -2.026639031218574e+01   -1.395405011782780e+02   
7.050000000000000e+09    -1.746113325654069e+01   -1.391366754377214e+02   -3.075810507006808e+01   -1.380330666136607e+02   -3.084406367315186e+01   -1.380658462971806e+02   -2.018739317084369e+01   -1.395266293271291e+02   
7.051000000000000e+09    -1.742723074283841e+01   -1.391420995023173e+02   -3.074373745157913e+01   -1.393563880419223e+02   -3.084107590196922e+01   -1.392189263306328e+02   -2.010494437733043e+01   -1.396284813907896e+02   
7.052000000000000e+09    -1.739706446762028e+01   -1.391559292823838e+02   -3.073758878902281e+01   -1.403368596245792e+02   -3.080882567140477e+01   -1.402134145873356e+02   -2.002540959211473e+01   -1.395941488397286e+02   
7.053000000000000e+09    -1.736376245137755e+01   -1.391661688735324e+02   -3.075672883597683e+01   -1.415191932267329e+02   -3.083979637206219e+01   -1.413360411242188e+02   -1.994541049749032e+01   -1.396520440213564e+02   
7.054000000000000e+09    -1.733039502579037e+01   -1.392108809744155e+02   -3.074592276636189e+01   -1.427567047052012e+02   -3.081833787150899e+01   -1.425551726086217e+02   -1.985719647668313e+01   -1.396402687400348e+02   
7.055000000000000e+09    -1.729781605015892e+01   -1.392519836634410e+02   -3.074785946862017e+01   -1.437357820443194e+02   -3.082963905513945e+01   -1.436349565181418e+02   -1.976806079408494e+01   -1.396333010926477e+02   
7.056000000000000e+09    -1.726996206555892e+01   -1.392115529228028e+02   -3.071332568744729e+01   -1.448070438396954e+02   -3.081680031799260e+01   -1.446316966323785e+02   -1.968734677930706e+01   -1.395973040682934e+02   
7.057000000000000e+09    -1.724405418472507e+01   -1.392512595325455e+02   -3.071885007805411e+01   -1.459484940026904e+02   -3.080850909722767e+01   -1.458727722807869e+02   -1.960132181304988e+01   -1.396299640722897e+02   
7.058000000000000e+09    -1.721439288407705e+01   -1.392901003476838e+02   -3.071031529149035e+01   -1.471099721503871e+02   -3.080344199226507e+01   -1.469900294786806e+02   -1.952963704362341e+01   -1.395518897575583e+02   
7.059000000000000e+09    -1.718660226866784e+01   -1.393021760709748e+02   -3.071056702314899e+01   -1.483068000880459e+02   -3.078785432215115e+01   -1.480850802474066e+02   -1.944565576728435e+01   -1.394676730365399e+02   
7.060000000000000e+09    -1.716559210672263e+01   -1.393556326518747e+02   -3.070249641628410e+01   -1.495045283486509e+02   -3.079098444265099e+01   -1.492437298730181e+02   -1.935951458473419e+01   -1.394670169746133e+02   
7.061000000000000e+09    -1.714133273672611e+01   -1.393804570885333e+02   -3.068025953540923e+01   -1.506490580931579e+02   -3.074730250177688e+01   -1.504194953906510e+02   -1.927672604625533e+01   -1.393258187134855e+02   
7.062000000000000e+09    -1.711848543236330e+01   -1.394846606293612e+02   -3.068302874876949e+01   -1.519410226172159e+02   -3.077825664987290e+01   -1.515127353633847e+02   -1.919158797453058e+01   -1.392631921803268e+02   
7.063000000000000e+09    -1.709846106389795e+01   -1.394252837846063e+02   -3.067201380631132e+01   -1.529522410641235e+02   -3.080371450870764e+01   -1.527335492974283e+02   -1.909484929698281e+01   -1.391799394351223e+02   
7.064000000000000e+09    -1.707634595549055e+01   -1.395388824563433e+02   -3.066612465076462e+01   -1.540782228562704e+02   -3.075484854865575e+01   -1.537308972884210e+02   -1.902810727308754e+01   -1.390758435580193e+02   
7.065000000000000e+09    -1.705981029555505e+01   -1.396189290088336e+02   -3.068201408293677e+01   -1.555415611814689e+02   -3.081392549676498e+01   -1.550914553684244e+02   -1.895816213983652e+01   -1.389367343309436e+02   
7.066000000000000e+09    -1.703399183748022e+01   -1.396691666944832e+02   -3.066374349233007e+01   -1.566073380368915e+02   -3.078268766075357e+01   -1.558872527514287e+02   -1.887681108343317e+01   -1.388374022973410e+02   
7.067000000000000e+09    -1.701417831898248e+01   -1.397164317777470e+02   -3.067459748268868e+01   -1.578457877712941e+02   -3.075541795712364e+01   -1.574158810227033e+02   -1.880243869576308e+01   -1.386471825650691e+02   
7.068000000000000e+09    -1.699944191930207e+01   -1.398297923794529e+02   -3.068052571497304e+01   -1.588582179342821e+02   -3.076457904723388e+01   -1.581109666055307e+02   -1.873362823692587e+01   -1.384669867761041e+02   
7.069000000000000e+09    -1.698135628777406e+01   -1.399500450426565e+02   -3.066474033748648e+01   -1.601917693296980e+02   -3.074943162629799e+01   -1.594254592335068e+02   -1.867372853663401e+01   -1.383378922114375e+02   
7.070000000000000e+09    -1.697179297082002e+01   -1.399869263685435e+02   -3.062286590687602e+01   -1.611881704677895e+02   -3.073974919078888e+01   -1.606578519019534e+02   -1.860649511503750e+01   -1.381219556208328e+02   
7.071000000000000e+09    -1.695032899968870e+01   -1.401313111510760e+02   -3.063530677081444e+01   -1.622682086458562e+02   -3.074361991117856e+01   -1.618385796954086e+02   -1.854767266211998e+01   -1.378983456081922e+02   
7.072000000000000e+09    -1.693874055453637e+01   -1.402145629562350e+02   -3.059774422948430e+01   -1.636165589344175e+02   -3.073958728561659e+01   -1.629611580977570e+02   -1.849025835731000e+01   -1.377456351162668e+02   
7.073000000000000e+09    -1.692470135945219e+01   -1.403161618708364e+02   -3.065398651078671e+01   -1.644840339402643e+02   -3.074470229890980e+01   -1.637434771536155e+02   -1.842879954650901e+01   -1.375393467447538e+02   
7.074000000000000e+09    -1.691446058141337e+01   -1.404500591412754e+02   -3.061397830891723e+01   -1.657237618577547e+02   -3.071467273722242e+01   -1.650045076312996e+02   -1.838367538458309e+01   -1.372685438165693e+02   
7.075000000000000e+09    -1.689918206842790e+01   -1.405823082532517e+02   -3.064564962104607e+01   -1.667562922105822e+02   -3.072193445983622e+01   -1.661962710261171e+02   -1.833230615317792e+01   -1.370995053856184e+02   
7.076000000000000e+09    -1.688863943545410e+01   -1.406314779359892e+02   -3.060469960253526e+01   -1.678466349897094e+02   -3.068417561804114e+01   -1.670695285072809e+02   -1.828686058254516e+01   -1.368097001062647e+02   
7.077000000000000e+09    -1.687395674309776e+01   -1.407930046600324e+02   -3.062708349589733e+01   -1.691337572502285e+02   -3.067941785380387e+01   -1.683288998504784e+02   -1.823994720482655e+01   -1.365681912081477e+02   
7.078000000000000e+09    -1.686276005522669e+01   -1.408362109821610e+02   -3.056525481348772e+01   -1.700330905133049e+02   -3.065471457960741e+01   -1.695863338206390e+02   -1.819632371952142e+01   -1.363266271126849e+02   
7.079000000000000e+09    -1.685618955191551e+01   -1.409793290746615e+02   -3.058667697059393e+01   -1.713708830304660e+02   -3.063855220995089e+01   -1.705304005376003e+02   -1.815881418201998e+01   -1.360745316759500e+02   
7.080000000000000e+09    -1.684626726418465e+01   -1.411486484754721e+02   -3.055504401134487e+01   -1.723777617973196e+02   -3.066678965919294e+01   -1.717640235178667e+02   -1.811939598509992e+01   -1.358542976006399e+02   
7.081000000000000e+09    -1.683132237846971e+01   -1.412405371915081e+02   -3.055884084741155e+01   -1.735800561652773e+02   -3.066346617890129e+01   -1.727012693879402e+02   -1.809626089833716e+01   -1.355762374223276e+02   
7.082000000000000e+09    -1.681866549214240e+01   -1.413265562774569e+02   -3.057883453306384e+01   -1.747188969467125e+02   -3.062979819903673e+01   -1.739671844083621e+02   -1.806528942503671e+01   -1.353633278681249e+02   
7.083000000000000e+09    -1.680966794810300e+01   -1.414542918293027e+02   -3.052730904043011e+01   -1.757157934990735e+02   -3.061000419194205e+01   -1.751019864553180e+02   -1.804026429500747e+01   -1.351125442364150e+02   
7.084000000000000e+09    -1.681046340914775e+01   -1.415987342073361e+02   -3.052996117541114e+01   -1.769787969016739e+02   -3.058164197451859e+01   -1.761798924518614e+02   -1.801551933291999e+01   -1.348697645252191e+02   
