[Version] 2.0
! Rohde & Schwarz Vector Network Analyzer
! Rohde-Schwarz,ZNL20-2Port,1323001220200009,1.71.1.10-23.02.1.238
! 
! Port Assignments:
! Nominal Port -> Actual Test Port
! --------------------------------
!   1 -> 1
!   2 -> 2

! Created: GMT+3 2024-09-24 15:44:04

# Hz S DB R 50

[Number of Ports] 2
[Two-Port Data Order] 21_12
[Number of Frequencies] 6001

[Network Data] 
! freq[Hz]               S11[mag dB]              S11[ang]                 S21[mag dB]              S21[ang]                 S12[mag dB]              S12[ang]                 S22[mag dB]              S22[ang]                 
7.000000000000000e+09    -1.836421261819067e+01   -1.584164614518434e+02   -4.461494497532770e+01   6.024469459241762e+01    -4.466474119334444e+01   6.107220963920483e+01    -1.984256862008472e+01   -1.545941657840830e+02   
7.001000000000000e+09    -1.838119992437818e+01   -1.583064866426110e+02   -4.463409834892857e+01   6.068269260014554e+01    -4.455525768710125e+01   6.130504093439779e+01    -1.991009613823615e+01   -1.544025492780952e+02   
7.002000000000000e+09    -1.839980877090657e+01   -1.581488532955006e+02   -4.481068615422544e+01   5.979576907830294e+01    -4.461039589661717e+01   6.084280488609725e+01    -1.998573641148085e+01   -1.542221967320143e+02   
7.003000000000000e+09    -1.842308974179088e+01   -1.580329258711090e+02   -4.460244299928500e+01   5.965675462096682e+01    -4.460509446755854e+01   6.089581112704182e+01    -2.005144651978151e+01   -1.540467092651395e+02   
7.004000000000000e+09    -1.843914216719945e+01   -1.579248491750275e+02   -4.473795755760748e+01   6.050455227086242e+01    -4.454251470749834e+01   6.058446191817576e+01    -2.012187611391252e+01   -1.538927376770861e+02   
7.005000000000000e+09    -1.845558640144216e+01   -1.577669458708626e+02   -4.475628367324157e+01   6.053316470195386e+01    -4.460700901450943e+01   6.060190277951456e+01    -2.018730542192127e+01   -1.537633102507313e+02   
7.006000000000000e+09    -1.847481929544777e+01   -1.575957564748728e+02   -4.461771444126103e+01   6.079400568374754e+01    -4.456425571241476e+01   6.064312156541497e+01    -2.025021081653453e+01   -1.536415783634238e+02   
7.007000000000000e+09    -1.849481372919944e+01   -1.575227582957043e+02   -4.468401765836034e+01   6.036778390876715e+01    -4.461498204871599e+01   6.039593459288734e+01    -2.031517015549084e+01   -1.535458910261196e+02   
7.008000000000000e+09    -1.851947646144122e+01   -1.573950872731122e+02   -4.469484284113642e+01   6.102910314233598e+01    -4.457380833009942e+01   6.131522077719434e+01    -2.037722437616829e+01   -1.534960143869810e+02   
7.009000000000000e+09    -1.853881179408341e+01   -1.572154598745392e+02   -4.457719525443410e+01   6.049032415314651e+01    -4.455815911068618e+01   6.110250614112800e+01    -2.043037995512040e+01   -1.534792400442802e+02   
7.010000000000000e+09    -1.855915433264727e+01   -1.570818795239860e+02   -4.458837223426017e+01   6.094158386963922e+01    -4.453826576425274e+01   6.086204591496124e+01    -2.048094427896619e+01   -1.534834115135460e+02   
7.011000000000000e+09    -1.857831534564060e+01   -1.569555221622877e+02   -4.464977658455948e+01   5.961430198489732e+01    -4.457214463397581e+01   6.063672910356613e+01    -2.053686151780544e+01   -1.535172996706629e+02   
7.012000000000000e+09    -1.859230166474856e+01   -1.567847563725430e+02   -4.450524167695397e+01   6.082579916027895e+01    -4.447499841412126e+01   6.049945547281980e+01    -2.058308888167399e+01   -1.535902061460456e+02   
7.013000000000000e+09    -1.861269463708054e+01   -1.566317833635506e+02   -4.461648315055672e+01   6.052861456327539e+01    -4.441403239500414e+01   6.078837670199458e+01    -2.063417891596531e+01   -1.537136370714735e+02   
7.014000000000000e+09    -1.863809953582282e+01   -1.565415829692020e+02   -4.446487016696288e+01   6.066210238906792e+01    -4.442224285252559e+01   6.052565071167020e+01    -2.067984937358769e+01   -1.538696467490377e+02   
7.015000000000000e+09    -1.866601977090973e+01   -1.564210798529363e+02   -4.425762144321587e+01   6.010208605850552e+01    -4.432437536988627e+01   6.024398508066896e+01    -2.071588088818420e+01   -1.539807544791938e+02   
7.016000000000000e+09    -1.868025015400130e+01   -1.562318212214084e+02   -4.445116587439016e+01   5.965847687001781e+01    -4.436656158783607e+01   6.012400434881788e+01    -2.076867299583520e+01   -1.541511554748747e+02   
7.017000000000000e+09    -1.870418555515706e+01   -1.560250366470288e+02   -4.435923726361639e+01   6.028149219413140e+01    -4.426243299694883e+01   6.056948197055466e+01    -2.080487484851513e+01   -1.544232685311424e+02   
7.018000000000000e+09    -1.872136827262918e+01   -1.559418785311360e+02   -4.422037896514009e+01   5.891583320415679e+01    -4.428665123015306e+01   5.977212121285223e+01    -2.084327916886319e+01   -1.545364990247233e+02   
7.019000000000000e+09    -1.874926136107983e+01   -1.557399701815298e+02   -4.416270581950290e+01   5.950435732523889e+01    -4.418419358974936e+01   6.029450255537262e+01    -2.088540232425946e+01   -1.546931136715351e+02   
7.020000000000000e+09    -1.876243310565036e+01   -1.555997725078633e+02   -4.415332585373015e+01   5.922469466957514e+01    -4.410098616357872e+01   5.995362425416134e+01    -2.091569409138192e+01   -1.549726390367265e+02   
7.021000000000000e+09    -1.878487734159999e+01   -1.554559687502408e+02   -4.426819837582432e+01   6.047121151223006e+01    -4.402759840759142e+01   5.985192925387594e+01    -2.094913229648946e+01   -1.551973273257092e+02   
7.022000000000000e+09    -1.880401407473790e+01   -1.553206918738050e+02   -4.415803438981882e+01   5.949184414306674e+01    -4.419124757773439e+01   5.977096185787300e+01    -2.098795826274187e+01   -1.554012878557927e+02   
7.023000000000000e+09    -1.882785968600589e+01   -1.551360588261601e+02   -4.403056309723004e+01   5.905414154896047e+01    -4.404876618096264e+01   5.899437935309572e+01    -2.099907831593857e+01   -1.556602264877338e+02   
7.024000000000000e+09    -1.884787734567877e+01   -1.550450557758677e+02   -4.390079108256857e+01   5.851923203649644e+01    -4.381532184888830e+01   5.828411282132737e+01    -2.102515876206283e+01   -1.558670326799411e+02   
7.025000000000000e+09    -1.886539461198382e+01   -1.548427555282080e+02   -4.390655741239789e+01   5.795644438919880e+01    -4.394327584057642e+01   5.830954396708684e+01    -2.105551653015289e+01   -1.561296978022596e+02   
7.026000000000000e+09    -1.888655898558788e+01   -1.547282735953360e+02   -4.378969568145210e+01   5.753078663144708e+01    -4.387390929343426e+01   5.758637297720612e+01    -2.106603757351388e+01   -1.563397431679714e+02   
7.027000000000000e+09    -1.890505079833821e+01   -1.545728148976808e+02   -4.371887272389887e+01   5.755778160722431e+01    -4.395524276456905e+01   5.752892418928625e+01    -2.109889192893339e+01   -1.564904758322396e+02   
7.028000000000000e+09    -1.891390097815793e+01   -1.544140898864879e+02   -4.379618785510174e+01   5.797803244579784e+01    -4.375686102025742e+01   5.697086879925887e+01    -2.111087492702525e+01   -1.567330422659732e+02   
7.029000000000000e+09    -1.893184118017157e+01   -1.542539155065352e+02   -4.359943510957250e+01   5.716110717544760e+01    -4.368401937151970e+01   5.772797642737881e+01    -2.112714026333411e+01   -1.569739212093852e+02   
7.030000000000000e+09    -1.894264568741805e+01   -1.541229372908680e+02   -4.381067128784068e+01   5.635187579146331e+01    -4.370283056782910e+01   5.521269953723863e+01    -2.113949033201204e+01   -1.570966210583462e+02   
7.031000000000000e+09    -1.896117023587439e+01   -1.539822958490097e+02   -4.373781671013785e+01   5.579842228816585e+01    -4.377852144268947e+01   5.565081948158119e+01    -2.114741475029367e+01   -1.572810675195005e+02   
7.032000000000000e+09    -1.897192323201506e+01   -1.538858871073574e+02   -4.363267023596600e+01   5.560111996770132e+01    -4.364296237412111e+01   5.544016238497439e+01    -2.115853456329747e+01   -1.574263391976421e+02   
7.033000000000000e+09    -1.898280265479460e+01   -1.537262855791986e+02   -4.358446173071091e+01   5.418680230409288e+01    -4.354847400954889e+01   5.543451688999662e+01    -2.116191787587717e+01   -1.575712965025637e+02   
7.034000000000000e+09    -1.898911583082799e+01   -1.535543242882534e+02   -4.363459678014912e+01   5.486927891614393e+01    -4.374645790823525e+01   5.423103144294038e+01    -2.116712366309067e+01   -1.576285599187209e+02   
7.035000000000000e+09    -1.899391953097862e+01   -1.534119926360698e+02   -4.359623324245865e+01   5.404028881334127e+01    -4.357726315873703e+01   5.353888690302448e+01    -2.115956862018357e+01   -1.577184931427272e+02   
7.036000000000000e+09    -1.900510829210539e+01   -1.532752083862811e+02   -4.368488488795694e+01   5.311161217306578e+01    -4.370365686971045e+01   5.363263337785113e+01    -2.116805518017298e+01   -1.578140770142615e+02   
7.037000000000000e+09    -1.900929208881885e+01   -1.531672031869366e+02   -4.372223769645026e+01   5.332710135630566e+01    -4.381141069816408e+01   5.339303804020477e+01    -2.115934806991131e+01   -1.578085801483645e+02   
7.038000000000000e+09    -1.901243837725424e+01   -1.530052009724585e+02   -4.365203252601924e+01   5.325293328060977e+01    -4.371357407864389e+01   5.216617761249833e+01    -2.113451711098235e+01   -1.578772302944277e+02   
7.039000000000000e+09    -1.900935614994761e+01   -1.528753066086512e+02   -4.381581751942700e+01   5.163804553133961e+01    -4.377059974189973e+01   5.290511076685080e+01    -2.112789409079344e+01   -1.578835142704933e+02   
7.040000000000000e+09    -1.901933417623271e+01   -1.527171529815193e+02   -4.374348639752557e+01   5.203462681521069e+01    -4.369578993547457e+01   5.284379312241910e+01    -2.110198843436942e+01   -1.579346337588163e+02   
7.041000000000000e+09    -1.902495679906972e+01   -1.525851424152865e+02   -4.365845557320078e+01   5.231544147653222e+01    -4.363594079422334e+01   5.222528834848543e+01    -2.108306112492073e+01   -1.578782542959895e+02   
7.042000000000000e+09    -1.901502851418804e+01   -1.524931817829212e+02   -4.384408471974566e+01   5.228815368547269e+01    -4.381098683702157e+01   5.163357613321682e+01    -2.106263555791230e+01   -1.578235430098696e+02   
7.043000000000000e+09    -1.902255911608263e+01   -1.524051488362814e+02   -4.365824795145112e+01   5.167689522651526e+01    -4.366993152484397e+01   5.196126998568602e+01    -2.103194080767184e+01   -1.578582782196140e+02   
7.044000000000000e+09    -1.902372103117675e+01   -1.522051406295914e+02   -4.383992977435217e+01   5.150173821891767e+01    -4.364022612288722e+01   5.190161979004853e+01    -2.099017801027199e+01   -1.578252892031863e+02   
7.045000000000000e+09    -1.902051342502501e+01   -1.520792252315266e+02   -4.375937799579066e+01   5.150545951063506e+01    -4.368689248042382e+01   5.203171860451414e+01    -2.096804052375276e+01   -1.576940461366775e+02   
7.046000000000000e+09    -1.902670636768862e+01   -1.519434725010367e+02   -4.360036474483647e+01   5.109788505053566e+01    -4.353422930627247e+01   5.224302620453640e+01    -2.092892593360216e+01   -1.575980747160437e+02   
7.047000000000000e+09    -1.902843206752036e+01   -1.517830120358459e+02   -4.372277496362769e+01   5.150126306219975e+01    -4.363496241210068e+01   5.118218337169300e+01    -2.088650368553655e+01   -1.574956979386884e+02   
7.048000000000000e+09    -1.903048404207803e+01   -1.516569096386904e+02   -4.370502412808388e+01   5.097841819134206e+01    -4.360041328700597e+01   5.119154843566560e+01    -2.085188515205571e+01   -1.574228060122155e+02   
7.049000000000000e+09    -1.904211096984744e+01   -1.514853828941476e+02   -4.362619515069763e+01   5.102981416189168e+01    -4.352678994171882e+01   5.086827090463986e+01    -2.081626160450474e+01   -1.572333470416456e+02   
7.050000000000000e+09    -1.903633769736030e+01   -1.513226362239631e+02   -4.351683377720473e+01   5.188567723631977e+01    -4.361615248819582e+01   5.068811702100374e+01    -2.077162504597332e+01   -1.570932806028744e+02   
7.051000000000000e+09    -1.903760759183010e+01   -1.511433226715327e+02   -4.349796683402981e+01   5.144027505051727e+01    -4.357325996826076e+01   5.088734708466592e+01    -2.073153965450002e+01   -1.570214710957598e+02   
7.052000000000000e+09    -1.904209409612202e+01   -1.509852032001921e+02   -4.347611337342788e+01   5.101773624744944e+01    -4.364598270538213e+01   5.020295677882332e+01    -2.069213552671863e+01   -1.568856848632492e+02   
7.053000000000000e+09    -1.904647391327624e+01   -1.508114829361311e+02   -4.333728648190365e+01   4.997857111226140e+01    -4.335152794164178e+01   5.063047027387726e+01    -2.064939169505006e+01   -1.566848404431158e+02   
7.054000000000000e+09    -1.905307672165232e+01   -1.506449913021214e+02   -4.340398047362498e+01   5.023492432146767e+01    -4.339607194409563e+01   5.025549365992919e+01    -2.060340493267604e+01   -1.565025543182836e+02   
7.055000000000000e+09    -1.905340331604947e+01   -1.504674110102619e+02   -4.322346729898815e+01   4.938665350172781e+01    -4.328180016908497e+01   4.917164300637012e+01    -2.056175018051744e+01   -1.563676645973530e+02   
7.056000000000000e+09    -1.906501728050526e+01   -1.502634115084966e+02   -4.333628674812162e+01   4.902704088844127e+01    -4.336049929476743e+01   4.948385016080270e+01    -2.051517892736834e+01   -1.561616463522018e+02   
7.057000000000000e+09    -1.907618498764338e+01   -1.500916558817906e+02   -4.322401929816692e+01   4.842637544419333e+01    -4.325910059083387e+01   4.893848828919415e+01    -2.047597642569961e+01   -1.559831138486994e+02   
7.058000000000000e+09    -1.907296019848232e+01   -1.499182046615052e+02   -4.314696628254541e+01   4.765453755333317e+01    -4.318793204745803e+01   4.825383056906788e+01    -2.045822576554928e+01   -1.557743431482989e+02   
7.059000000000000e+09    -1.908290553104969e+01   -1.497055950936056e+02   -4.322446387394422e+01   4.747556810541182e+01    -4.312719445509437e+01   4.851045158514763e+01    -2.040842395055668e+01   -1.554868777593612e+02   
7.060000000000000e+09    -1.908928576799474e+01   -1.495458921172817e+02   -4.309378476260534e+01   4.723248933476397e+01    -4.311711452490588e+01   4.789838770327635e+01    -2.037009156369246e+01   -1.552330645765097e+02   
7.061000000000000e+09    -1.910337226721287e+01   -1.493233188147085e+02   -4.297752519373301e+01   4.673190835114848e+01    -4.324688498693845e+01   4.725025674814099e+01    -2.033841104564883e+01   -1.549360226512600e+02   
7.062000000000000e+09    -1.910698488380725e+01   -1.491428138392251e+02   -4.308499257021893e+01   4.618946283720648e+01    -4.305300689705995e+01   4.676568699488204e+01    -2.030906545108765e+01   -1.546022813240119e+02   
7.063000000000000e+09    -1.912108766024392e+01   -1.488900177547080e+02   -4.304817109864118e+01   4.549222320635328e+01    -4.292377955791042e+01   4.559715232058722e+01    -2.027272018513782e+01   -1.542835105022462e+02   
7.064000000000000e+09    -1.913598773677518e+01   -1.486663363388800e+02   -4.294317736217334e+01   4.509215062804734e+01    -4.313256002146609e+01   4.556719640622516e+01    -2.023553570558513e+01   -1.538836138320402e+02   
7.065000000000000e+09    -1.913863730432631e+01   -1.485093497176707e+02   -4.304665360177813e+01   4.408049787860874e+01    -4.294562785117990e+01   4.448830504610064e+01    -2.021172441837202e+01   -1.535819560219148e+02   
7.066000000000000e+09    -1.914049442622720e+01   -1.482875005995581e+02   -4.292383780352583e+01   4.345903568632728e+01    -4.304343150611694e+01   4.367489255251720e+01    -2.018400168419613e+01   -1.531902293159049e+02   
7.067000000000000e+09    -1.915061070442939e+01   -1.480716384797188e+02   -4.300897266453855e+01   4.366656958980629e+01    -4.294743809975357e+01   4.373415944907259e+01    -2.016160096131537e+01   -1.527398470699837e+02   
7.068000000000000e+09    -1.916068766524496e+01   -1.479368981029090e+02   -4.307080045461637e+01   4.227652878209474e+01    -4.302732941735755e+01   4.208887151378617e+01    -2.014605605268427e+01   -1.522628950129080e+02   
7.069000000000000e+09    -1.915943034591825e+01   -1.477336039669118e+02   -4.304216566330190e+01   4.228922592286469e+01    -4.308572065783608e+01   4.196673324508468e+01    -2.012344543765326e+01   -1.518843942883278e+02   
7.070000000000000e+09    -1.917477257009295e+01   -1.475433449959737e+02   -4.319559825890796e+01   4.076371245277879e+01    -4.302903842488629e+01   4.176017956674711e+01    -2.010436060480124e+01   -1.513447037118190e+02   
7.071000000000000e+09    -1.916740555767903e+01   -1.473928237848424e+02   -4.313211835193245e+01   4.099949135087896e+01    -4.312475599748816e+01   4.098613979779726e+01    -2.009404651676473e+01   -1.508746382539609e+02   
7.072000000000000e+09    -1.918132534162384e+01   -1.471798907900913e+02   -4.318053208977631e+01   4.044492221096807e+01    -4.312428013238051e+01   4.048850306083502e+01    -2.007077849249362e+01   -1.503526798908958e+02   
7.073000000000000e+09    -1.918758328176389e+01   -1.470428874407950e+02   -4.308641218113345e+01   3.916081312018078e+01    -4.317494401269195e+01   3.956129054256621e+01    -2.006438953890463e+01   -1.498450592478301e+02   
7.074000000000000e+09    -1.919466594370290e+01   -1.468311140013539e+02   -4.323864707571584e+01   3.907422830233293e+01    -4.334170994242379e+01   3.897307379772858e+01    -2.005958030238375e+01   -1.493625043346611e+02   
7.075000000000000e+09    -1.919770524683178e+01   -1.467420406952201e+02   -4.323063210971035e+01   3.851686573968141e+01    -4.340692946835438e+01   3.879934378842691e+01    -2.004455161693835e+01   -1.487415727068713e+02   
7.076000000000000e+09    -1.919559297644861e+01   -1.464162150164820e+02   -4.337938819108543e+01   3.752110755517844e+01    -4.345349634249230e+01   3.821097229673780e+01    -2.003612106350555e+01   -1.481264922468573e+02   
7.077000000000000e+09    -1.919274385055572e+01   -1.463235155361313e+02   -4.332687589121542e+01   3.731980655679696e+01    -4.339140830238151e+01   3.826202465943348e+01    -2.003242734165472e+01   -1.475543792387083e+02   
7.078000000000000e+09    -1.919803271997946e+01   -1.461376957019600e+02   -4.352405794400575e+01   3.719397533044117e+01    -4.347382893287868e+01   3.866642773810466e+01    -2.001921565856332e+01   -1.470054833047751e+02   
7.079000000000000e+09    -1.919862710526425e+01   -1.459933132338061e+02   -4.345310426577203e+01   3.757119426843455e+01    -4.361531507957253e+01   3.743622721782805e+01    -2.001981302846933e+01   -1.464201274660663e+02   
7.080000000000000e+09    -1.920084459702628e+01   -1.458694739067582e+02   -4.368523007453555e+01   3.730983215900918e+01    -4.347617575712695e+01   3.768792227300020e+01    -2.001435931318507e+01   -1.458339195752332e+02   
7.081000000000000e+09    -1.919425858599613e+01   -1.456462204944665e+02   -4.358155899304305e+01   3.674704968451540e+01    -4.371135454533933e+01   3.744556127162929e+01    -2.001579529323738e+01   -1.452638107839102e+02   
7.082000000000000e+09    -1.919397741826916e+01   -1.455436535887377e+02   -4.372418702765681e+01   3.717941971223096e+01    -4.373624972609348e+01   3.723422810107263e+01    -2.001380821990636e+01   -1.446996671229610e+02   
7.083000000000000e+09    -1.919949564539535e+01   -1.453640975123910e+02   -4.378772848876917e+01   3.774416321773720e+01    -4.383983578352399e+01   3.760180330922852e+01    -2.001330734878261e+01   -1.441184244199299e+02   
7.084000000000000e+09    -1.920370901029226e+01   -1.452586455945248e+02   -4.378210637281359e+01   3.765505222033732e+01    -4.396785109509388e+01   3.796507291166849e+01    -2.001271918042839e+01   -1.434921407210793e+02   
