[Version] 2.0
! Rohde & Schwarz Vector Network Analyzer
! Rohde-Schwarz,ZNL20-2Port,1323001220200009,1.71.1.10-23.02.1.238
! 
! Port Assignments:
! Nominal Port -> Actual Test Port
! --------------------------------
!   1 -> 1

! Created: GMT 2024-09-05 11:09:20

# Hz S DB R 50

[Number of Ports] 1
[Number of Frequencies] 2001

[Network Data] 
! freq[Hz]               S11[mag dB]              S11[ang]                 
1.000000000000000e+10    -1.880339556685697e+01   -1.011627917844089e+02   
1.000100000000000e+10    -1.881035945773918e+01   -1.012733386595700e+02   
1.000200000000000e+10    -1.884884736016124e+01   -1.010542596687664e+02   
1.000300000000000e+10    -1.883079824786190e+01   -1.011934307946554e+02   
1.000400000000000e+10    -1.884733123886680e+01   -1.012455113492349e+02   
1.000500000000000e+10    -1.882752528349778e+01   -1.013577396391876e+02   
1.000600000000000e+10    -1.887459841975793e+01   -1.013813465149603e+02   
1.000700000000000e+10    -1.883302613756058e+01   -1.016773366679194e+02   
1.000800000000000e+10    -1.886750551673398e+01   -1.015151977179341e+02   
1.000900000000000e+10    -1.884706677463669e+01   -1.013724985008572e+02   
1.001000000000000e+10    -1.887510932138228e+01   -1.017626608280087e+02   
1.001100000000000e+10    -1.887891306006258e+01   -1.016707882283475e+02   
1.001200000000000e+10    -1.889585000305675e+01   -1.019274360936938e+02   
1.001300000000000e+10    -1.891318155116527e+01   -1.019198067903216e+02   
1.001400000000000e+10    -1.891762502185190e+01   -1.019513050486648e+02   
1.001500000000000e+10    -1.889207151178696e+01   -1.022201754135769e+02   
1.001600000000000e+10    -1.892115757042694e+01   -1.022264475734614e+02   
1.001700000000000e+10    -1.896517957603228e+01   -1.023341633675225e+02   
1.001800000000000e+10    -1.894359434690750e+01   -1.023813927542373e+02   
1.001900000000000e+10    -1.895902842472701e+01   -1.026089134138179e+02   
1.002000000000000e+10    -1.897147897276398e+01   -1.026179921541098e+02   
1.002100000000000e+10    -1.898447862331020e+01   -1.025931761375911e+02   
1.002200000000000e+10    -1.898956993687700e+01   -1.028252007516243e+02   
1.002300000000000e+10    -1.900871228107879e+01   -1.030266722337930e+02   
1.002400000000000e+10    -1.898552475694606e+01   -1.032085162840750e+02   
1.002500000000000e+10    -1.900984364794146e+01   -1.032533269191354e+02   
1.002600000000000e+10    -1.900414244853294e+01   -1.033682702359343e+02   
1.002700000000000e+10    -1.901925465764986e+01   -1.034272361875005e+02   
1.002800000000000e+10    -1.901648920983501e+01   -1.037135999900232e+02   
1.002900000000000e+10    -1.901489661559724e+01   -1.037060104199875e+02   
1.003000000000000e+10    -1.903296127461363e+01   -1.039993995933471e+02   
1.003100000000000e+10    -1.901172654432578e+01   -1.041954752099666e+02   
1.003200000000000e+10    -1.901357068667131e+01   -1.042947794603549e+02   
1.003300000000000e+10    -1.905209975346690e+01   -1.044308367089309e+02   
1.003400000000000e+10    -1.902384785630606e+01   -1.045935814386521e+02   
1.003500000000000e+10    -1.903523186400648e+01   -1.046449734423593e+02   
1.003600000000000e+10    -1.904785403257472e+01   -1.049193091427552e+02   
1.003700000000000e+10    -1.902471603118237e+01   -1.051868008304021e+02   
1.003800000000000e+10    -1.904341413224263e+01   -1.051699639657698e+02   
1.003900000000000e+10    -1.899736786930435e+01   -1.054250252540646e+02   
1.004000000000000e+10    -1.902800378822155e+01   -1.054873804533493e+02   
1.004100000000000e+10    -1.899745021725798e+01   -1.055702093757589e+02   
1.004200000000000e+10    -1.904533551064068e+01   -1.055662061878229e+02   
1.004300000000000e+10    -1.901258098834904e+01   -1.058377643564832e+02   
1.004400000000000e+10    -1.895462141570430e+01   -1.060188738168829e+02   
1.004500000000000e+10    -1.900163961380688e+01   -1.060646640202782e+02   
1.004600000000000e+10    -1.898178065703292e+01   -1.060099677244776e+02   
1.004700000000000e+10    -1.896612687843665e+01   -1.064264182485285e+02   
1.004800000000000e+10    -1.895953348699987e+01   -1.065640639231666e+02   
1.004900000000000e+10    -1.896274270293372e+01   -1.065411437857234e+02   
1.005000000000000e+10    -1.895594813892643e+01   -1.067046464443710e+02   
1.005100000000000e+10    -1.892595925897548e+01   -1.066859480292098e+02   
1.005200000000000e+10    -1.890805547742975e+01   -1.067601197218574e+02   
1.005300000000000e+10    -1.887577072476506e+01   -1.071246400220879e+02   
1.005400000000000e+10    -1.890221637242615e+01   -1.070272678571100e+02   
1.005500000000000e+10    -1.887066182649633e+01   -1.072582807446500e+02   
1.005600000000000e+10    -1.886083692488281e+01   -1.071307352727251e+02   
1.005700000000000e+10    -1.885356517451900e+01   -1.073924885167932e+02   
1.005800000000000e+10    -1.883916305942590e+01   -1.072165105504448e+02   
1.005900000000000e+10    -1.881269339713559e+01   -1.074641687465392e+02   
1.006000000000000e+10    -1.882235701929807e+01   -1.073841021161472e+02   
1.006100000000000e+10    -1.880108121535640e+01   -1.073699729121568e+02   
1.006200000000000e+10    -1.882109590624700e+01   -1.073421991067261e+02   
1.006300000000000e+10    -1.877110280755738e+01   -1.073333346304584e+02   
1.006400000000000e+10    -1.877387565404302e+01   -1.074723588653963e+02   
1.006500000000000e+10    -1.873577497180750e+01   -1.077403972533232e+02   
1.006600000000000e+10    -1.874705455899015e+01   -1.075131374282779e+02   
1.006700000000000e+10    -1.874447737100641e+01   -1.076224420213177e+02   
1.006800000000000e+10    -1.875035056264922e+01   -1.077240903987675e+02   
1.006900000000000e+10    -1.872549508634935e+01   -1.075903539790190e+02   
1.007000000000000e+10    -1.870392791728379e+01   -1.075441536042125e+02   
1.007100000000000e+10    -1.871847586461238e+01   -1.075499390897109e+02   
1.007200000000000e+10    -1.869152583826212e+01   -1.076538529128805e+02   
1.007300000000000e+10    -1.869881350433399e+01   -1.074906415780691e+02   
1.007400000000000e+10    -1.866791468423083e+01   -1.075896415737514e+02   
1.007500000000000e+10    -1.869056815935328e+01   -1.076821736777779e+02   
1.007600000000000e+10    -1.866685328920174e+01   -1.078011719123600e+02   
1.007700000000000e+10    -1.869598081371714e+01   -1.075942835549807e+02   
1.007800000000000e+10    -1.866502342507835e+01   -1.074866375359980e+02   
1.007900000000000e+10    -1.866501346288602e+01   -1.074582882370745e+02   
1.008000000000000e+10    -1.863953376017278e+01   -1.074009053400752e+02   
1.008100000000000e+10    -1.864758016651989e+01   -1.078974958927708e+02   
1.008200000000000e+10    -1.865528300343633e+01   -1.078365906288111e+02   
1.008300000000000e+10    -1.868001324724231e+01   -1.074770805545759e+02   
1.008400000000000e+10    -1.866399245465112e+01   -1.076746001190019e+02   
1.008500000000000e+10    -1.868121898631899e+01   -1.077558053217718e+02   
1.008600000000000e+10    -1.867089261199023e+01   -1.075959322500635e+02   
1.008700000000000e+10    -1.868645273897212e+01   -1.076986083889774e+02   
1.008800000000000e+10    -1.868871177422575e+01   -1.077298258278250e+02   
1.008900000000000e+10    -1.871165131680966e+01   -1.076281672807937e+02   
1.009000000000000e+10    -1.870263236920964e+01   -1.076947735592159e+02   
1.009100000000000e+10    -1.871009813292212e+01   -1.079715597942940e+02   
1.009200000000000e+10    -1.870421487371927e+01   -1.078900747281417e+02   
1.009300000000000e+10    -1.873985205265567e+01   -1.080452855697190e+02   
1.009400000000000e+10    -1.873599254784800e+01   -1.079979173306247e+02   
1.009500000000000e+10    -1.874936390004303e+01   -1.082121328141644e+02   
1.009600000000000e+10    -1.876436735964758e+01   -1.081039414903281e+02   
1.009700000000000e+10    -1.876644206910962e+01   -1.082174032073952e+02   
1.009800000000000e+10    -1.880475979115472e+01   -1.081286390501519e+02   
1.009900000000000e+10    -1.879695271218331e+01   -1.082203693202240e+02   
1.010000000000000e+10    -1.881172145714630e+01   -1.084551121917560e+02   
1.010100000000000e+10    -1.883425171893910e+01   -1.084907919836333e+02   
1.010200000000000e+10    -1.884398056680381e+01   -1.084758860791971e+02   
1.010300000000000e+10    -1.886723954726297e+01   -1.085227361802953e+02   
1.010400000000000e+10    -1.885308502960540e+01   -1.085408155029080e+02   
1.010500000000000e+10    -1.888180387135479e+01   -1.088157055556014e+02   
1.010600000000000e+10    -1.889194875718457e+01   -1.087126390360443e+02   
1.010700000000000e+10    -1.889274550417945e+01   -1.089880334113182e+02   
1.010800000000000e+10    -1.895722924566854e+01   -1.087807682890339e+02   
1.010900000000000e+10    -1.893418050429771e+01   -1.091313684715117e+02   
1.011000000000000e+10    -1.894061070015575e+01   -1.090328196140174e+02   
1.011100000000000e+10    -1.893970355723620e+01   -1.092861714126956e+02   
1.011200000000000e+10    -1.894306276141445e+01   -1.094133793474667e+02   
1.011300000000000e+10    -1.891348553272640e+01   -1.096597556792725e+02   
1.011400000000000e+10    -1.895567281717435e+01   -1.096168072702670e+02   
1.011500000000000e+10    -1.894268855585887e+01   -1.097892691871001e+02   
1.011600000000000e+10    -1.896227268881022e+01   -1.098039701481804e+02   
1.011700000000000e+10    -1.896846947407703e+01   -1.101316028009707e+02   
1.011800000000000e+10    -1.898089938417541e+01   -1.102165853564948e+02   
1.011900000000000e+10    -1.897076471074065e+01   -1.104142524088306e+02   
1.012000000000000e+10    -1.894860476562643e+01   -1.104136737707884e+02   
1.012100000000000e+10    -1.894333593186485e+01   -1.106927089095970e+02   
1.012200000000000e+10    -1.895435688055738e+01   -1.107132798101750e+02   
1.012300000000000e+10    -1.895128591261424e+01   -1.110499522039952e+02   
1.012400000000000e+10    -1.898249397026347e+01   -1.110951255360328e+02   
1.012500000000000e+10    -1.897861422625692e+01   -1.112599363448563e+02   
1.012600000000000e+10    -1.895830930151103e+01   -1.114666788863856e+02   
1.012700000000000e+10    -1.894789245024359e+01   -1.117821097591711e+02   
1.012800000000000e+10    -1.894707943686187e+01   -1.118492890983924e+02   
1.012900000000000e+10    -1.892854085867835e+01   -1.119539357174925e+02   
1.013000000000000e+10    -1.895415674082204e+01   -1.121043496637484e+02   
1.013100000000000e+10    -1.895438488223957e+01   -1.122700013558434e+02   
1.013200000000000e+10    -1.891972547196869e+01   -1.124824120985813e+02   
1.013300000000000e+10    -1.893971241810886e+01   -1.125518001074831e+02   
1.013400000000000e+10    -1.892825910010290e+01   -1.126225824903879e+02   
1.013500000000000e+10    -1.891680016215572e+01   -1.126929431986083e+02   
1.013600000000000e+10    -1.891429083197285e+01   -1.127917695329563e+02   
1.013700000000000e+10    -1.888962611889229e+01   -1.129364798156329e+02   
1.013800000000000e+10    -1.889412797017794e+01   -1.131352869802993e+02   
1.013900000000000e+10    -1.887335506729649e+01   -1.131873922027871e+02   
1.014000000000000e+10    -1.886492667405912e+01   -1.131689553553575e+02   
1.014100000000000e+10    -1.885307658627722e+01   -1.133297024575854e+02   
1.014200000000000e+10    -1.883709286864445e+01   -1.133375217020906e+02   
1.014300000000000e+10    -1.884260033494390e+01   -1.135080757892064e+02   
1.014400000000000e+10    -1.881484429366827e+01   -1.134154779521828e+02   
1.014500000000000e+10    -1.880797741279826e+01   -1.136199581897171e+02   
1.014600000000000e+10    -1.879409755234376e+01   -1.136717723470529e+02   
1.014700000000000e+10    -1.878000096683127e+01   -1.135822961093269e+02   
1.014800000000000e+10    -1.877219138165069e+01   -1.136899295434064e+02   
1.014900000000000e+10    -1.873580062845851e+01   -1.137671679758595e+02   
1.015000000000000e+10    -1.874956933913665e+01   -1.137932842385359e+02   
1.015100000000000e+10    -1.874828942766654e+01   -1.137285681632756e+02   
1.015200000000000e+10    -1.869620645301882e+01   -1.137691800959560e+02   
1.015300000000000e+10    -1.870034467594088e+01   -1.139154281756134e+02   
1.015400000000000e+10    -1.868236330982807e+01   -1.138059788600678e+02   
1.015500000000000e+10    -1.868446532630830e+01   -1.140894772689316e+02   
1.015600000000000e+10    -1.865896941461049e+01   -1.138174752257014e+02   
1.015700000000000e+10    -1.863125441954206e+01   -1.137822823952817e+02   
1.015800000000000e+10    -1.864276737331173e+01   -1.139055055069050e+02   
1.015900000000000e+10    -1.862233878437606e+01   -1.138537886108642e+02   
1.016000000000000e+10    -1.860817184038553e+01   -1.137088079702571e+02   
1.016100000000000e+10    -1.857969631996014e+01   -1.140564384535289e+02   
1.016200000000000e+10    -1.857576228630975e+01   -1.137174182162193e+02   
1.016300000000000e+10    -1.856440236013701e+01   -1.137858554753671e+02   
1.016400000000000e+10    -1.860470826657757e+01   -1.138798385784681e+02   
1.016500000000000e+10    -1.855642104544427e+01   -1.138356512022115e+02   
1.016600000000000e+10    -1.857023043003802e+01   -1.138921432130744e+02   
1.016700000000000e+10    -1.854403813008796e+01   -1.138586698492491e+02   
1.016800000000000e+10    -1.855719531235900e+01   -1.138476747183111e+02   
1.016900000000000e+10    -1.855753570808340e+01   -1.138515417184586e+02   
1.017000000000000e+10    -1.854666910711441e+01   -1.139741242245503e+02   
1.017100000000000e+10    -1.854736087815057e+01   -1.140699597556176e+02   
1.017200000000000e+10    -1.855239325925917e+01   -1.139706571164400e+02   
1.017300000000000e+10    -1.857878809244647e+01   -1.141927904617933e+02   
1.017400000000000e+10    -1.856517980662034e+01   -1.140363336666183e+02   
1.017500000000000e+10    -1.854776450900432e+01   -1.139671443790519e+02   
1.017600000000000e+10    -1.853531568582286e+01   -1.138697346758134e+02   
1.017700000000000e+10    -1.857065700896829e+01   -1.140603367772818e+02   
1.017800000000000e+10    -1.859502878974081e+01   -1.140248249767404e+02   
1.017900000000000e+10    -1.858907168325705e+01   -1.139063416566977e+02   
1.018000000000000e+10    -1.860025857797254e+01   -1.141423902593736e+02   
1.018100000000000e+10    -1.860056857000780e+01   -1.140246089766106e+02   
1.018200000000000e+10    -1.862562780271465e+01   -1.140040181387570e+02   
1.018300000000000e+10    -1.860639244228057e+01   -1.139306162624962e+02   
1.018400000000000e+10    -1.861650451143530e+01   -1.141393466702774e+02   
1.018500000000000e+10    -1.864143617649210e+01   -1.141016736862181e+02   
1.018600000000000e+10    -1.862688627922116e+01   -1.143356903237413e+02   
1.018700000000000e+10    -1.865503892140526e+01   -1.141653152166327e+02   
1.018800000000000e+10    -1.866045817977068e+01   -1.143021649532961e+02   
1.018900000000000e+10    -1.868415902945996e+01   -1.143446544916115e+02   
1.019000000000000e+10    -1.867353160721927e+01   -1.142460086718554e+02   
1.019100000000000e+10    -1.866890305406125e+01   -1.142146096889644e+02   
1.019200000000000e+10    -1.866666835101909e+01   -1.143649786399836e+02   
1.019300000000000e+10    -1.869913238958026e+01   -1.146379867305767e+02   
1.019400000000000e+10    -1.869058868724098e+01   -1.145566702830670e+02   
1.019500000000000e+10    -1.870570218978908e+01   -1.147227047269678e+02   
1.019600000000000e+10    -1.868378366522136e+01   -1.146115194540543e+02   
1.019700000000000e+10    -1.871248045106296e+01   -1.147377379917831e+02   
1.019800000000000e+10    -1.872093579502000e+01   -1.149928343803033e+02   
1.019900000000000e+10    -1.872230312323025e+01   -1.149352329245159e+02   
1.020000000000000e+10    -1.870824975135669e+01   -1.151834005371397e+02   
1.020100000000000e+10    -1.874248974596268e+01   -1.152062643702655e+02   
1.020200000000000e+10    -1.872546046039349e+01   -1.153144689496793e+02   
1.020300000000000e+10    -1.874617129777079e+01   -1.156374795266477e+02   
1.020400000000000e+10    -1.873636989271467e+01   -1.157653679458482e+02   
1.020500000000000e+10    -1.873360728161886e+01   -1.159293523618580e+02   
1.020600000000000e+10    -1.873096150192350e+01   -1.157694425355832e+02   
1.020700000000000e+10    -1.876931764589903e+01   -1.160456406702594e+02   
1.020800000000000e+10    -1.876218324043501e+01   -1.164290162270337e+02   
1.020900000000000e+10    -1.876475318562433e+01   -1.163454313689841e+02   
1.021000000000000e+10    -1.872938051207147e+01   -1.165259253473347e+02   
1.021100000000000e+10    -1.874132839655656e+01   -1.166846835354918e+02   
1.021200000000000e+10    -1.878997498757098e+01   -1.169157129884264e+02   
1.021300000000000e+10    -1.875179158978424e+01   -1.170497683397919e+02   
1.021400000000000e+10    -1.879718053322629e+01   -1.171709991504258e+02   
1.021500000000000e+10    -1.873479892413845e+01   -1.173708245057571e+02   
1.021600000000000e+10    -1.874793503548352e+01   -1.175319687370959e+02   
1.021700000000000e+10    -1.876585035465266e+01   -1.174788173534809e+02   
1.021800000000000e+10    -1.876781283596873e+01   -1.177567463032551e+02   
1.021900000000000e+10    -1.874547276461666e+01   -1.178131834458539e+02   
1.022000000000000e+10    -1.877974926619261e+01   -1.178160133645134e+02   
1.022100000000000e+10    -1.872776147824712e+01   -1.181013906893639e+02   
1.022200000000000e+10    -1.874664328550114e+01   -1.180713938916018e+02   
1.022300000000000e+10    -1.872767892989053e+01   -1.182637133370813e+02   
1.022400000000000e+10    -1.874721717808447e+01   -1.184652199423421e+02   
1.022500000000000e+10    -1.870309671815096e+01   -1.184652214942792e+02   
1.022600000000000e+10    -1.874220784314351e+01   -1.185733716641616e+02   
1.022700000000000e+10    -1.871738428030461e+01   -1.186918474983339e+02   
1.022800000000000e+10    -1.871432549124808e+01   -1.186355492444999e+02   
1.022900000000000e+10    -1.867938062961212e+01   -1.188224883031749e+02   
1.023000000000000e+10    -1.867011881193003e+01   -1.190006209482550e+02   
1.023100000000000e+10    -1.864419095745485e+01   -1.189749497000178e+02   
1.023200000000000e+10    -1.866519854442662e+01   -1.190063140511698e+02   
1.023300000000000e+10    -1.861481492100205e+01   -1.190549430118090e+02   
1.023400000000000e+10    -1.864451121471399e+01   -1.193674303783514e+02   
1.023500000000000e+10    -1.859439527585040e+01   -1.193051428520036e+02   
1.023600000000000e+10    -1.861193343048426e+01   -1.192601703633811e+02   
1.023700000000000e+10    -1.858607882349017e+01   -1.193908966399148e+02   
1.023800000000000e+10    -1.858563432406439e+01   -1.195989291304475e+02   
1.023900000000000e+10    -1.856907849680890e+01   -1.193784216633943e+02   
1.024000000000000e+10    -1.856134140322042e+01   -1.196828301367696e+02   
1.024100000000000e+10    -1.853907215618548e+01   -1.197809949520811e+02   
1.024200000000000e+10    -1.850196080863201e+01   -1.196787515300075e+02   
1.024300000000000e+10    -1.852853872120099e+01   -1.197663270468508e+02   
1.024400000000000e+10    -1.850678854065895e+01   -1.198164599929252e+02   
1.024500000000000e+10    -1.848799165533411e+01   -1.198058484622934e+02   
1.024600000000000e+10    -1.845542018186101e+01   -1.200346903132982e+02   
1.024700000000000e+10    -1.848991549239172e+01   -1.200236326817332e+02   
1.024800000000000e+10    -1.847921252948057e+01   -1.203042879222594e+02   
1.024900000000000e+10    -1.842574504093118e+01   -1.202462799076175e+02   
1.025000000000000e+10    -1.846127171906124e+01   -1.201711315527362e+02   
1.025100000000000e+10    -1.846594519066366e+01   -1.202432516220516e+02   
1.025200000000000e+10    -1.843887228761571e+01   -1.204096525355108e+02   
1.025300000000000e+10    -1.845624177045031e+01   -1.203573270712663e+02   
1.025400000000000e+10    -1.843045536313980e+01   -1.203492463714679e+02   
1.025500000000000e+10    -1.846156972582488e+01   -1.204499635927104e+02   
1.025600000000000e+10    -1.844149783715172e+01   -1.204616853184672e+02   
