[Version] 2.0
! Rohde & Schwarz Vector Network Analyzer
! Rohde-Schwarz,ZNL20-2Port,1323001220200009,1.71.1.10-23.02.1.238
! 
! Port Assignments:
! Nominal Port -> Actual Test Port
! --------------------------------
!   1 -> 1

! Created: GMT 2024-09-05 11:10:21

# Hz S DB R 50

[Number of Ports] 1
[Number of Frequencies] 2001

[Network Data] 
! freq[Hz]               S11[mag dB]              S11[ang]                 
1.000000000000000e+10    -1.887266770386527e+01   -1.032152691264110e+02   
1.000100000000000e+10    -1.892510720212426e+01   -1.032820948698151e+02   
1.000200000000000e+10    -1.897954026389704e+01   -1.031448272247368e+02   
1.000300000000000e+10    -1.900364343763033e+01   -1.029384228930392e+02   
1.000400000000000e+10    -1.905600060492584e+01   -1.029228649176578e+02   
1.000500000000000e+10    -1.909278221007378e+01   -1.028859319312079e+02   
1.000600000000000e+10    -1.913194819232129e+01   -1.025352614608214e+02   
1.000700000000000e+10    -1.912201480017392e+01   -1.024799709262467e+02   
1.000800000000000e+10    -1.918892757389601e+01   -1.024001868603344e+02   
1.000900000000000e+10    -1.918915530457927e+01   -1.018948406685806e+02   
1.001000000000000e+10    -1.920850950337068e+01   -1.017466844297949e+02   
1.001100000000000e+10    -1.921824599067076e+01   -1.014962055175302e+02   
1.001200000000000e+10    -1.922387363785705e+01   -1.013298421575929e+02   
1.001300000000000e+10    -1.918940841196998e+01   -1.010703301106101e+02   
1.001400000000000e+10    -1.920635635090018e+01   -1.008801444694494e+02   
1.001500000000000e+10    -1.917450097484932e+01   -1.008633181319465e+02   
1.001600000000000e+10    -1.915674930336661e+01   -1.006541308490281e+02   
1.001700000000000e+10    -1.915453467482898e+01   -1.006533472229736e+02   
1.001800000000000e+10    -1.911585776738235e+01   -1.006338342525018e+02   
1.001900000000000e+10    -1.909099309405978e+01   -1.006663199728072e+02   
1.002000000000000e+10    -1.908403108183680e+01   -1.004587650673014e+02   
1.002100000000000e+10    -1.903289638814120e+01   -1.006375404797240e+02   
1.002200000000000e+10    -1.897580700835635e+01   -1.007229946948487e+02   
1.002300000000000e+10    -1.895838708277260e+01   -1.008151488873623e+02   
1.002400000000000e+10    -1.891308477208518e+01   -1.011820568468734e+02   
1.002500000000000e+10    -1.888256166750019e+01   -1.014391956816498e+02   
1.002600000000000e+10    -1.882836527051943e+01   -1.017000762070408e+02   
1.002700000000000e+10    -1.881372031875042e+01   -1.019147273548237e+02   
1.002800000000000e+10    -1.876628651570854e+01   -1.024151466472594e+02   
1.002900000000000e+10    -1.875100811272019e+01   -1.026137775118545e+02   
1.003000000000000e+10    -1.875628123350043e+01   -1.029896734664548e+02   
1.003100000000000e+10    -1.872688267188302e+01   -1.035155405530722e+02   
1.003200000000000e+10    -1.875279012058462e+01   -1.039689750692528e+02   
1.003300000000000e+10    -1.873043500324697e+01   -1.043058175124618e+02   
1.003400000000000e+10    -1.871286201831915e+01   -1.049323306993468e+02   
1.003500000000000e+10    -1.871820500794788e+01   -1.050143790207116e+02   
1.003600000000000e+10    -1.874743179812082e+01   -1.055167998405492e+02   
1.003700000000000e+10    -1.874747015406140e+01   -1.060586936104746e+02   
1.003800000000000e+10    -1.877561688604199e+01   -1.063689741113613e+02   
1.003900000000000e+10    -1.877720910014623e+01   -1.069804958945397e+02   
1.004000000000000e+10    -1.882316738969474e+01   -1.070358762892897e+02   
1.004100000000000e+10    -1.884373024464028e+01   -1.073789158424350e+02   
1.004200000000000e+10    -1.890791027788883e+01   -1.074739234316326e+02   
1.004300000000000e+10    -1.893163755635346e+01   -1.079940534456855e+02   
1.004400000000000e+10    -1.894877553178947e+01   -1.082056386641333e+02   
1.004500000000000e+10    -1.898382305020730e+01   -1.083866509824883e+02   
1.004600000000000e+10    -1.901814809439696e+01   -1.082486783276818e+02   
1.004700000000000e+10    -1.905160780567200e+01   -1.087789074165173e+02   
1.004800000000000e+10    -1.907610220571209e+01   -1.085339830498577e+02   
1.004900000000000e+10    -1.914437186993682e+01   -1.085527859742396e+02   
1.005000000000000e+10    -1.920135132759737e+01   -1.083595067148718e+02   
1.005100000000000e+10    -1.918517495686691e+01   -1.082968571715075e+02   
1.005200000000000e+10    -1.918992568700861e+01   -1.082043531780499e+02   
1.005300000000000e+10    -1.920467663731564e+01   -1.080332950865003e+02   
1.005400000000000e+10    -1.922520017653390e+01   -1.078708246432275e+02   
1.005500000000000e+10    -1.923037229216465e+01   -1.078273724764466e+02   
1.005600000000000e+10    -1.924153083953506e+01   -1.073098769938778e+02   
1.005700000000000e+10    -1.921863065751550e+01   -1.072965822067253e+02   
1.005800000000000e+10    -1.918371165393684e+01   -1.068224609688991e+02   
1.005900000000000e+10    -1.915661226760692e+01   -1.067116285149424e+02   
1.006000000000000e+10    -1.911414062828485e+01   -1.064916144612141e+02   
1.006100000000000e+10    -1.909658833099972e+01   -1.063622699541301e+02   
1.006200000000000e+10    -1.905133740074687e+01   -1.058074254171655e+02   
1.006300000000000e+10    -1.899715331884895e+01   -1.055802021076030e+02   
1.006400000000000e+10    -1.894112680251959e+01   -1.057647167189580e+02   
1.006500000000000e+10    -1.888710225833601e+01   -1.056269366157929e+02   
1.006600000000000e+10    -1.884666905610899e+01   -1.055628774686357e+02   
1.006700000000000e+10    -1.880319667634086e+01   -1.053571186040424e+02   
1.006800000000000e+10    -1.877833825754676e+01   -1.057232665904272e+02   
1.006900000000000e+10    -1.866405832864008e+01   -1.054951122616874e+02   
1.007000000000000e+10    -1.863606528008002e+01   -1.056179625256378e+02   
1.007100000000000e+10    -1.856974194337398e+01   -1.057609399920137e+02   
1.007200000000000e+10    -1.852732547250811e+01   -1.060770834009413e+02   
1.007300000000000e+10    -1.851040354201869e+01   -1.061186315392802e+02   
1.007400000000000e+10    -1.844391890299062e+01   -1.064527563981626e+02   
1.007500000000000e+10    -1.842280541888109e+01   -1.065705716920819e+02   
1.007600000000000e+10    -1.838756669033134e+01   -1.069107145794823e+02   
1.007700000000000e+10    -1.838293671346120e+01   -1.071011425090251e+02   
1.007800000000000e+10    -1.837098133596072e+01   -1.073650269454599e+02   
1.007900000000000e+10    -1.834428882251882e+01   -1.073298945763913e+02   
1.008000000000000e+10    -1.833006144880293e+01   -1.077796151709950e+02   
1.008100000000000e+10    -1.834969459753337e+01   -1.084766190569281e+02   
1.008200000000000e+10    -1.837277685212036e+01   -1.084565202206622e+02   
1.008300000000000e+10    -1.841776216307323e+01   -1.088365721421472e+02   
1.008400000000000e+10    -1.841908847722098e+01   -1.090450237479289e+02   
1.008500000000000e+10    -1.844347920760625e+01   -1.092448596909786e+02   
1.008600000000000e+10    -1.848144511360243e+01   -1.094568524189015e+02   
1.008700000000000e+10    -1.853824902177110e+01   -1.096579784448084e+02   
1.008800000000000e+10    -1.857464896787716e+01   -1.099828806828518e+02   
1.008900000000000e+10    -1.864201796647232e+01   -1.099402873324199e+02   
1.009000000000000e+10    -1.867492837549202e+01   -1.100665057144818e+02   
1.009100000000000e+10    -1.871618772845555e+01   -1.100592369576943e+02   
1.009200000000000e+10    -1.880018782098137e+01   -1.101995068568845e+02   
1.009300000000000e+10    -1.886328862555465e+01   -1.100640643129334e+02   
1.009400000000000e+10    -1.890281973781225e+01   -1.101515548089201e+02   
1.009500000000000e+10    -1.895581429242505e+01   -1.099845997885853e+02   
1.009600000000000e+10    -1.900559262187673e+01   -1.096747156464945e+02   
1.009700000000000e+10    -1.904950219458900e+01   -1.097181158407919e+02   
1.009800000000000e+10    -1.909868637878939e+01   -1.092939271624237e+02   
1.009900000000000e+10    -1.913682467483529e+01   -1.092062284629308e+02   
1.010000000000000e+10    -1.914270273121216e+01   -1.092939639858243e+02   
1.010100000000000e+10    -1.919185117036073e+01   -1.087297223043240e+02   
1.010200000000000e+10    -1.921371323949965e+01   -1.084240272850037e+02   
1.010300000000000e+10    -1.920804999120389e+01   -1.083711656907865e+02   
1.010400000000000e+10    -1.920021233615581e+01   -1.080240151496065e+02   
1.010500000000000e+10    -1.919830062038812e+01   -1.079750554237184e+02   
1.010600000000000e+10    -1.919184597545093e+01   -1.073566904928056e+02   
1.010700000000000e+10    -1.916322358947139e+01   -1.076217167471735e+02   
1.010800000000000e+10    -1.917878580972684e+01   -1.070455761027012e+02   
1.010900000000000e+10    -1.910951213275704e+01   -1.071970474089426e+02   
1.011000000000000e+10    -1.908981855435332e+01   -1.070946688453331e+02   
1.011100000000000e+10    -1.901713246310871e+01   -1.072086134271165e+02   
1.011200000000000e+10    -1.899255098423664e+01   -1.072383666615409e+02   
1.011300000000000e+10    -1.894409015326654e+01   -1.073683975787362e+02   
1.011400000000000e+10    -1.893268352596994e+01   -1.074585349457262e+02   
1.011500000000000e+10    -1.886127386873904e+01   -1.076437943698310e+02   
1.011600000000000e+10    -1.885634576044069e+01   -1.077462324121733e+02   
1.011700000000000e+10    -1.883659459610008e+01   -1.082426645839232e+02   
1.011800000000000e+10    -1.879242555646434e+01   -1.085477408940653e+02   
1.011900000000000e+10    -1.874383877921679e+01   -1.089736331148728e+02   
1.012000000000000e+10    -1.871530780118506e+01   -1.092427255592093e+02   
1.012100000000000e+10    -1.868705328368079e+01   -1.097130787051507e+02   
1.012200000000000e+10    -1.864113267417733e+01   -1.098933013425488e+02   
1.012300000000000e+10    -1.864160267898052e+01   -1.104345268960735e+02   
1.012400000000000e+10    -1.862933229981642e+01   -1.108125562738228e+02   
1.012500000000000e+10    -1.863910933179653e+01   -1.113238995689955e+02   
1.012600000000000e+10    -1.866045872470829e+01   -1.118968332055557e+02   
1.012700000000000e+10    -1.862873461468757e+01   -1.123426062557841e+02   
1.012800000000000e+10    -1.868044708578715e+01   -1.127360809283958e+02   
1.012900000000000e+10    -1.865391693116571e+01   -1.131648624345017e+02   
1.013000000000000e+10    -1.869554934514107e+01   -1.134610852634517e+02   
1.013100000000000e+10    -1.873787384712904e+01   -1.140698743928062e+02   
1.013200000000000e+10    -1.876287933993847e+01   -1.142660190640682e+02   
1.013300000000000e+10    -1.878760261292657e+01   -1.147582385595565e+02   
1.013400000000000e+10    -1.879799263474088e+01   -1.148027060239506e+02   
1.013500000000000e+10    -1.885331731976027e+01   -1.151759309635172e+02   
1.013600000000000e+10    -1.890402393601654e+01   -1.151374834239358e+02   
1.013700000000000e+10    -1.890758877305309e+01   -1.152143460469342e+02   
1.013800000000000e+10    -1.896492724477091e+01   -1.154210157386907e+02   
1.013900000000000e+10    -1.900160155171498e+01   -1.154118749112501e+02   
1.014000000000000e+10    -1.901470696375101e+01   -1.152898816829069e+02   
1.014100000000000e+10    -1.905691259940226e+01   -1.154126316997643e+02   
1.014200000000000e+10    -1.906276449271256e+01   -1.150250540958293e+02   
1.014300000000000e+10    -1.910030200686424e+01   -1.149265593493129e+02   
1.014400000000000e+10    -1.912461437449200e+01   -1.146354468149157e+02   
1.014500000000000e+10    -1.913180452670956e+01   -1.147048984573919e+02   
1.014600000000000e+10    -1.910210917671499e+01   -1.144241228740361e+02   
1.014700000000000e+10    -1.912008302150651e+01   -1.138204606905996e+02   
1.014800000000000e+10    -1.912218636835722e+01   -1.137812103698236e+02   
1.014900000000000e+10    -1.909737114131547e+01   -1.135296083468241e+02   
1.015000000000000e+10    -1.906534082075769e+01   -1.132024656029120e+02   
1.015100000000000e+10    -1.903522606902078e+01   -1.129108040605426e+02   
1.015200000000000e+10    -1.898621567361960e+01   -1.125379621773291e+02   
1.015300000000000e+10    -1.896284438314837e+01   -1.125873946903093e+02   
1.015400000000000e+10    -1.889820505099182e+01   -1.120800953479888e+02   
1.015500000000000e+10    -1.888941547615057e+01   -1.121759012196014e+02   
1.015600000000000e+10    -1.882936993659170e+01   -1.118715302522852e+02   
1.015700000000000e+10    -1.875962816847064e+01   -1.116940453672161e+02   
1.015800000000000e+10    -1.868853464413488e+01   -1.118723450570318e+02   
1.015900000000000e+10    -1.863794105325796e+01   -1.118325235057528e+02   
1.016000000000000e+10    -1.856735997505037e+01   -1.118708016469848e+02   
1.016100000000000e+10    -1.853467436735859e+01   -1.119809463992433e+02   
1.016200000000000e+10    -1.850331077081733e+01   -1.120303954276288e+02   
1.016300000000000e+10    -1.841982629108062e+01   -1.120876682776691e+02   
1.016400000000000e+10    -1.839565326515694e+01   -1.122968085359408e+02   
1.016500000000000e+10    -1.834269690943476e+01   -1.124974508722372e+02   
1.016600000000000e+10    -1.834182471059655e+01   -1.128329213087422e+02   
1.016700000000000e+10    -1.830010154454205e+01   -1.130486079061157e+02   
1.016800000000000e+10    -1.827689246012413e+01   -1.132003043375119e+02   
1.016900000000000e+10    -1.825796338522721e+01   -1.135619753099670e+02   
1.017000000000000e+10    -1.824366990265175e+01   -1.138777030802759e+02   
1.017100000000000e+10    -1.825039670185253e+01   -1.142815159480498e+02   
1.017200000000000e+10    -1.824079615832524e+01   -1.143458580508208e+02   
1.017300000000000e+10    -1.826631716853975e+01   -1.149052652701155e+02   
1.017400000000000e+10    -1.828610749182341e+01   -1.149875694495354e+02   
1.017500000000000e+10    -1.831613413307857e+01   -1.154226230525440e+02   
1.017600000000000e+10    -1.833977835347137e+01   -1.154792650941918e+02   
1.017700000000000e+10    -1.838371299060742e+01   -1.156117558294419e+02   
1.017800000000000e+10    -1.841118211302822e+01   -1.159286080087972e+02   
1.017900000000000e+10    -1.846270460681642e+01   -1.159339762626192e+02   
1.018000000000000e+10    -1.851752106644428e+01   -1.160073521477658e+02   
1.018100000000000e+10    -1.855529517919893e+01   -1.161229063951834e+02   
1.018200000000000e+10    -1.859411937146812e+01   -1.161850072219771e+02   
1.018300000000000e+10    -1.865200907550727e+01   -1.162401102286017e+02   
1.018400000000000e+10    -1.872588415716697e+01   -1.162319388000757e+02   
1.018500000000000e+10    -1.876137303390246e+01   -1.161789985823980e+02   
1.018600000000000e+10    -1.879755360803438e+01   -1.162091860034020e+02   
1.018700000000000e+10    -1.884316034286431e+01   -1.159544316337585e+02   
1.018800000000000e+10    -1.890792838096205e+01   -1.157343887767717e+02   
1.018900000000000e+10    -1.894080146643155e+01   -1.156739251613197e+02   
1.019000000000000e+10    -1.895629927144679e+01   -1.152773175179811e+02   
1.019100000000000e+10    -1.897688245899925e+01   -1.152105876164432e+02   
1.019200000000000e+10    -1.902212842497449e+01   -1.148166993653815e+02   
1.019300000000000e+10    -1.901754567007787e+01   -1.149316184535649e+02   
1.019400000000000e+10    -1.901925871242717e+01   -1.145608543192277e+02   
1.019500000000000e+10    -1.901794894184651e+01   -1.145113707929566e+02   
1.019600000000000e+10    -1.899738078305719e+01   -1.141888206439999e+02   
1.019700000000000e+10    -1.900807982434828e+01   -1.139105893204156e+02   
1.019800000000000e+10    -1.899334671460821e+01   -1.138278873972639e+02   
1.019900000000000e+10    -1.896995586220585e+01   -1.134858401787384e+02   
1.020000000000000e+10    -1.892525181100389e+01   -1.136830187254081e+02   
1.020100000000000e+10    -1.889515151686957e+01   -1.137541878589347e+02   
1.020200000000000e+10    -1.882433596129567e+01   -1.135955342353990e+02   
1.020300000000000e+10    -1.881710868582024e+01   -1.136499281712911e+02   
1.020400000000000e+10    -1.877488720394902e+01   -1.136467978448429e+02   
1.020500000000000e+10    -1.874470129593230e+01   -1.137516903168595e+02   
1.020600000000000e+10    -1.870496143394715e+01   -1.139180046122326e+02   
1.020700000000000e+10    -1.867702237549466e+01   -1.141784955972360e+02   
1.020800000000000e+10    -1.864864966865648e+01   -1.144610090981633e+02   
1.020900000000000e+10    -1.859495750563179e+01   -1.148113821346514e+02   
1.021000000000000e+10    -1.855745435706840e+01   -1.151106387025619e+02   
1.021100000000000e+10    -1.852307891321771e+01   -1.153979032955619e+02   
1.021200000000000e+10    -1.853596100923935e+01   -1.156817259786969e+02   
1.021300000000000e+10    -1.848007987364540e+01   -1.162848614022289e+02   
1.021400000000000e+10    -1.850520478095311e+01   -1.164893867285789e+02   
1.021500000000000e+10    -1.846110212860123e+01   -1.170676680708810e+02   
1.021600000000000e+10    -1.844376149934381e+01   -1.175446034714091e+02   
1.021700000000000e+10    -1.845989901456336e+01   -1.177987138686452e+02   
1.021800000000000e+10    -1.845439661431141e+01   -1.182906845105855e+02   
1.021900000000000e+10    -1.846353471864435e+01   -1.185385753806478e+02   
1.022000000000000e+10    -1.850538627420900e+01   -1.189380232435463e+02   
1.022100000000000e+10    -1.848326916423540e+01   -1.192944645900201e+02   
1.022200000000000e+10    -1.851769565436978e+01   -1.195345748833399e+02   
1.022300000000000e+10    -1.851806876998403e+01   -1.198494409567627e+02   
1.022400000000000e+10    -1.856743227169967e+01   -1.202270302892823e+02   
1.022500000000000e+10    -1.859855806336991e+01   -1.203904483355822e+02   
1.022600000000000e+10    -1.864206329827605e+01   -1.206814101878574e+02   
1.022700000000000e+10    -1.864376821042022e+01   -1.207720338713546e+02   
1.022800000000000e+10    -1.871548390819958e+01   -1.207620492519007e+02   
1.022900000000000e+10    -1.870872956472763e+01   -1.208538858556587e+02   
1.023000000000000e+10    -1.875641210519880e+01   -1.209478930116858e+02   
1.023100000000000e+10    -1.875155909726637e+01   -1.208290473434681e+02   
1.023200000000000e+10    -1.883121217682606e+01   -1.209027093103341e+02   
1.023300000000000e+10    -1.880085811468721e+01   -1.208225940801173e+02   
1.023400000000000e+10    -1.886875562058326e+01   -1.207308642194692e+02   
1.023500000000000e+10    -1.885669232044008e+01   -1.205533685700626e+02   
1.023600000000000e+10    -1.887716268974652e+01   -1.203155124918303e+02   
1.023700000000000e+10    -1.888752183092016e+01   -1.202392322960628e+02   
1.023800000000000e+10    -1.888098764198429e+01   -1.201389855894888e+02   
1.023900000000000e+10    -1.887562998063111e+01   -1.196895696387688e+02   
1.024000000000000e+10    -1.888189430516321e+01   -1.197295082823924e+02   
1.024100000000000e+10    -1.883916587588055e+01   -1.195197096114719e+02   
1.024200000000000e+10    -1.882298161178807e+01   -1.192545893519792e+02   
1.024300000000000e+10    -1.878349418872877e+01   -1.190791558382917e+02   
1.024400000000000e+10    -1.876789248560908e+01   -1.188506920243420e+02   
1.024500000000000e+10    -1.874922577865313e+01   -1.185491843437701e+02   
1.024600000000000e+10    -1.867645271749162e+01   -1.187307549209526e+02   
1.024700000000000e+10    -1.864037700922191e+01   -1.184824870245470e+02   
1.024800000000000e+10    -1.861460201922212e+01   -1.185012788746391e+02   
1.024900000000000e+10    -1.855885434223444e+01   -1.183393122856820e+02   
1.025000000000000e+10    -1.850706147408592e+01   -1.182696440907073e+02   
1.025100000000000e+10    -1.847204088252538e+01   -1.183183226334166e+02   
1.025200000000000e+10    -1.842151583122002e+01   -1.184987560542442e+02   
1.025300000000000e+10    -1.838646500164609e+01   -1.186063326616617e+02   
1.025400000000000e+10    -1.832684463954318e+01   -1.186493835012657e+02   
1.025500000000000e+10    -1.832819823645458e+01   -1.188347826943852e+02   
1.025600000000000e+10    -1.827703912803705e+01   -1.190885318536820e+02   
