#  HZ   S   RI   R     50.00 
! Rohde & Schwarz Vector Network Analyzer 
! Rohde-Schwarz,ZNB20-2Port,1311601062102128,3.60
! Created: UTC 4/29/2024, 3:47:13 PM
! freq[Hz]                re:S11                  im:S11                  re:S21                  im:S21                  re:S12                  im:S12                  re:S22                  im:S22
 1.000000000000000E5     9.964111314713056E-1    4.729840364978278E-3   -6.801544609183013E-5   -1.070042109340064E-4    3.363721692300707E-5    7.094715545909267E-5    1.010991013089100      -1.108256074618643E-2
 1.007003988035892E7     9.974932103664825E-1   -1.394271373789953E-2    9.458327536457888E-6   -5.443036563144643E-7    7.945853222610632E-6   -1.619990450608664E-5    9.959612965469667E-1   -1.457636380386682E-2
 2.004007976071785E7     9.996923936340069E-1   -2.723680899431187E-2    2.170334821645747E-5   -1.812385696797044E-5    1.984151234767307E-5   -1.440526046892508E-6    9.987206171879301E-1   -2.773737883455153E-2
 3.001011964107677E7     9.977740962896735E-1   -4.107476633972285E-2   -3.793823668511662E-6    4.847245797661515E-6    3.621292759815242E-5   -1.431891104110490E-5    9.975546428695032E-1   -4.206590750752998E-2
 3.998015952143569E7     9.976922734993338E-1   -5.304996147172562E-2    1.055321111897294E-5   -1.565207272198711E-5   -4.119756600307987E-6   -5.212841299526663E-6    9.975967487818470E-1   -5.670356553630540E-2
 4.995019940179461E7     9.961288418879588E-1   -6.589636098215855E-2    2.122419248740723E-5    1.524373602416168E-5    6.935050515881454E-6    3.357862651185998E-6    9.965558360717649E-1   -6.917038196349594E-2
 5.992023928215354E7     9.943486306671536E-1   -7.860579292308005E-2    1.363752342256203E-5    1.995707700527600E-6    4.557612640255369E-6    3.724898873528523E-6    9.947794092952964E-1   -8.202219637043794E-2
 6.989027916251247E7     9.931013864765068E-1   -9.169981551181708E-2    1.427851410159178E-5    1.191627050406540E-5    2.493093934117771E-5   -3.096920676229622E-6    9.933425550784011E-1   -9.496854788274960E-2
 7.986031904287139E7     9.924464182383073E-1   -1.050771564092366E-1   -1.381497222605281E-5    1.650933717959363E-5   -5.197002511028070E-6   -1.244524295802239E-5    9.922722085798954E-1   -1.080808588889316E-1
 8.983035892323031E7     9.914326058753398E-1   -1.186767639118865E-1    1.916275482545193E-5    9.303702962968758E-6   -4.705536422583578E-6    8.360066886324556E-6    9.907336961713409E-1   -1.212861612568064E-1
 9.980039880358922E7     9.893992123012945E-1   -1.323195466583739E-1    3.376478113463525E-6    1.246413574018253E-5   -4.588367143670064E-6    8.556426059593187E-6    9.885947654646789E-1   -1.346112664891659E-1
 1.097704386839482E8     9.865580755041683E-1   -1.454637313860875E-1   -1.805378113623922E-5    5.271731741985679E-6   -6.936711824336063E-6    2.616006819094265E-5    9.860883207347743E-1   -1.479191837245900E-1
 1.197404785643071E8     9.848605491180211E-1   -1.588709210290952E-1    5.328990421958484E-6    8.379448850667059E-6   -1.206482127367917E-5    5.789026205151368E-6    9.843356510283202E-1   -1.612750627277983E-1
 1.297105184446660E8     9.829120232859443E-1   -1.717396542042674E-1   -7.236397100813614E-6    4.344849792457599E-6    6.063917744979807E-6   -9.636629666436893E-6    9.828020272102097E-1   -1.745837458649977E-1
 1.396805583250249E8     9.814320908522812E-1   -1.845578997156705E-1   -3.274191003235098E-6    3.358592912996272E-6    3.850896482840885E-6    2.188306123007984E-6    9.810230759194920E-1   -1.875871199514885E-1
 1.496505982053838E8     9.788976139810694E-1   -1.970200111964787E-1   -4.991416377771078E-6   -5.278223373853501E-6   -1.178414019750891E-6    5.486132215076816E-6    9.785113006109387E-1   -2.004936424505182E-1
 1.596206380857428E8     9.761794233380323E-1   -2.093204617278091E-1   -2.960517049436511E-6    5.886867165061471E-6    9.489753000692063E-6   -1.033249844312560E-5    9.756715648989874E-1   -2.133508798811957E-1
 1.695906779661017E8     9.731724686053240E-1   -2.221729551555330E-1   -8.835397102962100E-6    1.053647157097530E-5   -3.927919551496703E-6   -1.250824925452232E-5    9.728456325823645E-1   -2.261800507950823E-1
 1.795607178464606E8     9.706413354271677E-1   -2.346542558797308E-1    3.625774480767128E-6   -9.648133921348081E-6   -3.062998522272612E-6   -7.011022965422988E-6    9.702234234939507E-1   -2.381394830092539E-1
 1.895307577268195E8     9.676566467680086E-1   -2.469281405162677E-1    1.002801831086723E-5    1.064410789832588E-5    7.484718145198114E-6   -2.800336879058662E-6    9.667584601418139E-1   -2.506504376079839E-1
 1.995007976071784E8     9.638773218201485E-1   -2.593942733786621E-1    5.556351518446006E-6    1.571766129609393E-5   -1.120635808700309E-5   -2.337316227572396E-6    9.626626969077435E-1   -2.632623471739245E-1
 2.094708374875374E8     9.604474004143394E-1   -2.721715807973555E-1    4.127011147215466E-6    6.741065842026278E-6    7.241405436156974E-6    5.909762722455842E-6    9.589231624570493E-1   -2.762776190629857E-1
 2.194408773678963E8     9.572408950178148E-1   -2.849756265091347E-1   -6.209422237862214E-6    1.448547888554014E-5   -2.654880939840043E-6   -8.091217601104676E-6    9.549499358868678E-1   -2.892030478644365E-1
 2.294109172482552E8     9.537179501742064E-1   -2.973102303025876E-1    7.845325535047427E-6    5.028088912405312E-6   -3.386057715036957E-6   -1.541550602206815E-5    9.508895093276659E-1   -3.018138474585399E-1
 2.393809571286142E8     9.505198599418784E-1   -3.093576601674140E-1    2.052280061090322E-5    3.354390259589269E-6    1.480290956463185E-5   -6.960255990722969E-6    9.468828458813022E-1   -3.141312016067591E-1
 2.493509970089731E8     9.467384096060396E-1   -3.231523707215189E-1   -8.611557330872809E-6   -1.777970688906939E-5    4.875015084280734E-6    2.248871070166349E-6    9.440316196470039E-1   -3.276507623856600E-1
 2.593210368893320E8     9.425410069331233E-1   -3.351614857688149E-1   -4.114114214210095E-6   -1.146088238449693E-5    1.557873952480833E-5    1.325059906251510E-7    9.398966893267738E-1   -3.408693481561638E-1
 2.692910767696909E8     9.384897557453816E-1   -3.465437597675311E-1    1.000782530675014E-5    9.699335930403802E-7   -4.582832517259713E-6    7.404756152469400E-6    9.355554316035395E-1   -3.529595228868122E-1
 2.792611166500499E8     9.337815277562295E-1   -3.582035046542297E-1   -9.623837221057214E-6    6.542326900229210E-6    1.089417423795724E-5    1.975874813990649E-5    9.309042435546018E-1   -3.647159977473293E-1
 2.892311565304088E8     9.289558518037910E-1   -3.701905751650173E-1   -8.442351652501270E-6    2.618520512743443E-6   -3.283251196421956E-6   -2.120906418873808E-6    9.261179563161965E-1   -3.768180647311081E-1
 2.992011964107677E8     9.241494626799557E-1   -3.823361681907730E-1   -8.233645755853962E-6   -8.612022167082597E-6    1.035443779895648E-5   -7.961878993725373E-6    9.214093239071196E-1   -3.886801742544106E-1
 3.091712362911266E8     9.188936232503474E-1   -3.946333774075433E-1    2.046633312243991E-6   -7.819007968248802E-6   -1.982701622211390E-5   -1.608937264948018E-6    9.156411550861810E-1   -4.001620380746204E-1
 3.191412761714855E8     9.133085512845915E-1   -4.070014411332038E-1    2.040537664779031E-5    3.278111620348114E-6    1.584129026717896E-5   -4.271407615361156E-6    9.096875666455164E-1   -4.119564288096081E-1
 3.291113160518445E8     9.077029257585733E-1   -4.197623028868688E-1    7.404524073394326E-6   -1.706295247646191E-6   -1.289970447152617E-5    1.003158708512703E-5    9.033477662677364E-1   -4.243416568929557E-1
 3.390813559322034E8     9.020305791533255E-1   -4.325404335581953E-1   -2.013101258378151E-6   -5.053057422192633E-6    6.728222575513739E-6   -1.373598126318931E-5    8.968473272491253E-1   -4.369444103486764E-1
 3.490513958125623E8     8.968387017837443E-1   -4.451773958596569E-1    1.089225734847278E-5   -3.903502492775480E-6    3.075727509001307E-6    1.206291870973614E-5    8.905715963203943E-1   -4.495132522831238E-1
 3.590214356929212E8     8.915728132930812E-1   -4.576784816565200E-1    2.356230755100668E-6   -5.958134846087898E-6   -4.692492266756769E-6   -3.617413896609338E-6    8.844469109730129E-1   -4.621453869582630E-1
 3.689914755732802E8     8.859641978879019E-1   -4.697579948435435E-1    1.211861105935523E-5    1.102268587758926E-5    2.525384028303393E-5   -1.625288856821979E-6    8.789333595252355E-1   -4.747387082814223E-1
 3.789615154536391E8     8.797638778892746E-1   -4.809817981972568E-1   -1.399939048852382E-6   -9.396858643552962E-6    6.463916111011807E-6    1.645133789442597E-5    8.737801135399613E-1   -4.867496051091972E-1
 3.889315553339980E8     8.741484086824608E-1   -4.917154738769856E-1    9.134630364501487E-6    5.288537966896972E-6    2.574145232317328E-6    3.976997611012696E-6    8.679839531144459E-1   -4.988257969040815E-1
 3.989015952143569E8     8.675474542910956E-1   -5.025356686178514E-1    1.758558493376382E-5    2.769990117477255E-6   -1.517910634503745E-5   -1.390815832744246E-5    8.611485722990804E-1   -5.097175420394512E-1
 4.088716350947158E8     8.603753709347804E-1   -5.133113650920698E-1    5.563604846349176E-6   -1.390409229488754E-5    2.068693984436102E-5    1.940369528116102E-5    8.543101004867323E-1   -5.206628276310296E-1
 4.188416749750748E8     8.533546593315465E-1   -5.248687653112176E-1   -7.276141890774761E-7   -4.301240557964596E-8    1.174222566655344E-5   -8.782170426910149E-7    8.475571951369670E-1   -5.314813707241580E-1
 4.288117148554337E8     8.459688414238543E-1   -5.365100395429844E-1    2.111195270355822E-6    4.417076348651142E-7    4.617705131754435E-7    8.103677695428204E-6    8.405840028143692E-1   -5.417793802528326E-1
 4.387817547357926E8     8.383513766918002E-1   -5.479266487490206E-1   -5.336822506107965E-6    6.027937972305335E-8    3.667420657553315E-6    7.482994020715259E-6    8.326900006426554E-1   -5.523640819146580E-1
 4.487517946161516E8     8.305875638846413E-1   -5.598403546393395E-1    3.082701784197211E-6    7.726760828573093E-6    1.759791263181307E-5    1.838587561161649E-6    8.241887642134474E-1   -5.634442609975461E-1
 4.587218344965104E8     8.236924471367546E-1   -5.717543124461044E-1    3.962741401160118E-7    1.417084411534684E-5    2.758942373809745E-6    6.654221754453037E-6    8.159373660128089E-1   -5.752952811622294E-1
 4.686918743768694E8     8.170133066103554E-1   -5.829830150536703E-1   -1.023592519238885E-5    5.387501629827970E-6    7.782885913569235E-6    1.845514236245928E-6    8.078490335226163E-1   -5.868273352394530E-1
 4.786619142572283E8     8.099947874726886E-1   -5.939294850317648E-1   -3.959426205636027E-6    5.026931857071569E-6   -6.580988954188708E-6    1.691518254865329E-6    7.992903300053605E-1   -5.981049171206755E-1
 4.886319541375872E8     8.024573447829080E-1   -6.043612500061496E-1   -3.799756302664195E-6    1.415650179413462E-5   -1.206219950187201E-5   -1.528570869825849E-5    7.905027006163710E-1   -6.088854130045515E-1
 4.986019940179462E8     7.941834251794646E-1   -6.150410950330348E-1   -4.967807834908552E-6    2.646530389005086E-6   -1.019835943043393E-5   -3.987706592434717E-7    7.822436050511429E-1   -6.197043122161556E-1
 5.085720338983051E8     7.857706293145572E-1   -6.241970657712560E-1    5.094284721106772E-6   -7.149858001107138E-8   -1.471696843681760E-6    1.721889667527073E-5    7.747403122265727E-1   -6.302824556579423E-1
 5.185420737786640E8     7.784344114666051E-1   -6.332985113502632E-1    1.648383835229398E-5    8.487255294304399E-7    6.904668953828885E-6    8.546854224059930E-6    7.669132070589775E-1   -6.400964380705898E-1
 5.285121136590229E8     7.701718182608290E-1   -6.428301793378238E-1    7.381717523064443E-7    7.011237312641680E-6    1.424233570641215E-5    1.245330251618409E-5    7.589947063079620E-1   -6.496016967965027E-1
 5.384821535393819E8     7.615731601550252E-1   -6.529859449072994E-1   -3.586785985778920E-6   -8.759152288035982E-6    1.024238032036458E-5    8.341351513084960E-6    7.509387448799240E-1   -6.593494632966490E-1
 5.484521934197408E8     7.534324008613589E-1   -6.634598790654372E-1    1.599958957056810E-7   -6.811721516264500E-6   -4.298819874943026E-6   -6.204880303858161E-6    7.424834988624138E-1   -6.692475842242023E-1
 5.584222333000997E8     7.448533491497934E-1   -6.744764838428444E-1    2.922444593776235E-7    1.388074073301657E-6   -1.341540534114126E-5   -1.233370692788155E-5    7.335296143046837E-1   -6.793357371691007E-1
 5.683922731804587E8     7.357887351810043E-1   -6.849141728591908E-1   -1.306045314837601E-5   -3.905273869984331E-6   -1.976776542258265E-6   -1.987864067244528E-5    7.231560010495984E-1   -6.890655815334568E-1
 5.783623130608176E8     7.264585273338322E-1   -6.948429511250669E-1   -1.904088609457638E-5   -5.517203043250259E-7   -2.513301730618412E-5    3.159142773408682E-6    7.125508883709535E-1   -6.987334792933194E-1
 5.883323529411764E8     7.171927327381116E-1   -7.049131709413248E-1   -5.108886076577658E-6   -3.670078599742427E-6   -1.082094776975079E-5    1.072146820530140E-5    7.021646808658601E-1   -7.086870894894798E-1
 5.983023928215353E8     7.081582525926645E-1   -7.148926935302207E-1   -1.458324143463768E-6    1.084774419190815E-5   -1.064193161788260E-5   -1.254308138753283E-5    6.918555239954323E-1   -7.181871749481685E-1
 6.082724327018943E8     6.986594368719479E-1   -7.246229560712834E-1    2.841331095147922E-6   -7.534283432104526E-7   -2.607053227516349E-5   -2.905624975379612E-7    6.817891318122181E-1   -7.277577800736835E-1
 6.182424725822532E8     6.888201512505169E-1   -7.342258807126844E-1   -9.014364838180822E-6   -5.504502083907894E-6    2.025964137059892E-5    2.131327470314789E-5    6.717453072202024E-1   -7.370428889174844E-1
 6.282125124626122E8     6.781970399057013E-1   -7.436623249848909E-1   -4.462675391103395E-6    1.596190820215070E-5   -1.005927938713712E-5    6.990609428202297E-6    6.628611671325860E-1   -7.467159570707467E-1
 6.381825523429711E8     6.685457319781977E-1   -7.508284410707419E-1    1.191994587733722E-5   -1.612533352051519E-6    1.217035969517666E-5   -4.282373075238806E-7    6.539535128047019E-1   -7.556537884224592E-1
 6.481525922233300E8     6.596678591124620E-1   -7.594817871729823E-1   -1.473795747439771E-6    4.323213291394611E-6    1.410508962452661E-5    1.117613316828619E-5    6.446806068662599E-1   -7.639622498895221E-1
 6.581226321036890E8     6.498919981077723E-1   -7.683131605519317E-1    7.030807391076280E-6   -1.263930718860257E-5    1.724502629739741E-6   -7.454224580235385E-6    6.346541520448035E-1   -7.723323193093582E-1
 6.680926719840479E8     6.399365813032313E-1   -7.769775932443678E-1    2.752970254895105E-6   -1.104843314781708E-5   -1.325914957921249E-5   -1.395175771324705E-5    6.241051531666745E-1   -7.803354095860363E-1
 6.780627118644068E8     6.301766044718634E-1   -7.852242544377346E-1   -1.082312554384475E-5    5.272639323229918E-6   -6.975975989287029E-6   -1.965240318948864E-6    6.131451860741239E-1   -7.882726416002003E-1
 6.880327517447658E8     6.198712582960834E-1   -7.935231071948574E-1   -6.720196776992004E-6    1.154519230775768E-5   -9.555123333730388E-7    1.985993818673651E-6    6.017009050469498E-1   -7.958946283273287E-1
 6.980027916251246E8     6.088709812021692E-1   -8.017544613866725E-1   -1.704708560058293E-5    6.556541170744081E-6   -1.908859395572197E-7    2.916527368299132E-7    5.900427747340723E-1   -8.035674636012954E-1
 7.079728315054835E8     5.974459667526266E-1   -8.099673513324506E-1   -1.305203894037269E-5    6.022854525679806E-6   -1.260024871854429E-5   -2.786706638639381E-5    5.785573228267840E-1   -8.115759254258208E-1
 7.179428713858424E8     5.862679719743894E-1   -8.183883228965355E-1    7.409538313941593E-6   -7.617926026877080E-6   -1.329900483059622E-6   -1.011790935232492E-6    5.674102588944892E-1   -8.200944082181254E-1
 7.279129112662014E8     5.753875417324492E-1   -8.270237768178123E-1   -8.605628379701634E-6    8.557440200142350E-6    9.014751220735690E-6    4.800329953053185E-6    5.560571018401200E-1   -8.287395361783489E-1
 7.378829511465603E8     5.641018359509958E-1   -8.357682090411548E-1   -5.745346584292921E-6    2.660526119811581E-6    2.425203101891342E-6    7.012594359659526E-6    5.447473598218177E-1   -8.369840390456058E-1
 7.478529910269192E8     5.520895482871634E-1   -8.442712553779746E-1    5.564849711041787E-6   -4.369872860820681E-6    6.131658289753578E-6    7.904477174817286E-6    5.335774629299980E-1   -8.447137815373502E-1
 7.578230309072782E8     5.393827618643280E-1   -8.512650804024018E-1   -1.871938926013022E-6   -6.245990163471479E-6   -9.221476354864051E-6   -1.288099925247922E-5    5.225887443021088E-1   -8.516915024054541E-1
 7.677930707876371E8     5.289699534823061E-1   -8.567625186724743E-1    4.484620689246062E-6   -9.726766677678969E-6    3.612776400010468E-6    7.755487908287763E-6    5.112972331702923E-1   -8.581009508708998E-1
 7.777631106679960E8     5.194359658641929E-1   -8.637532300868297E-1   -8.774684306246689E-6    1.084659068409850E-5   -5.846286501510089E-6    6.435214999953781E-6    4.997075396719565E-1   -8.646984494836426E-1
 7.877331505483550E8     5.091650170832761E-1   -8.707355054699010E-1    5.748059286858511E-6   -8.909698778115579E-6    7.441585061112885E-6    4.782763184856701E-6    4.878749762722299E-1   -8.713531488419157E-1
 7.977031904287138E8     4.979453756190367E-1   -8.770055632788849E-1    1.345520390054241E-5   -2.283931816494470E-6   -7.914908910290179E-6   -6.798329031348190E-6    4.750851339954353E-1   -8.777676566853224E-1
 8.076732303090727E8     4.861326706757016E-1   -8.828466690301023E-1   -7.136604548977015E-6   -9.299890895044928E-6    8.891745506102834E-6    7.048589290998954E-6    4.622894373190073E-1   -8.839705738058571E-1
 8.176432701894317E8     4.742013057971868E-1   -8.890158795664723E-1    1.209457549846896E-5    3.032170256892399E-6   -1.992054708169049E-5   -8.103910669191827E-6    4.494421628184062E-1   -8.903920509299186E-1
 8.276133100697906E8     4.619647069066757E-1   -8.954820334114815E-1    5.510354181240781E-8    4.277158623872758E-6    1.613064788880612E-5    5.435925044384713E-6    4.367566169347198E-1   -8.969243862050423E-1
 8.375833499501495E8     4.492321805758066E-1   -9.018412069768101E-1    7.973022225816891E-7   -5.929553272770303E-6    1.139713297470012E-6   -1.573056480507014E-5    4.245748933635073E-1   -9.036123203985109E-1
 8.475533898305085E8     4.365347456357078E-1   -9.082754770131106E-1    7.024637998037665E-6   -8.041308538922274E-6    3.589161601309921E-6    1.610687411218267E-5    4.127790399788485E-1   -9.096352030119922E-1
 8.575234297108674E8     4.237481652650379E-1   -9.145187280381173E-1   -7.881375171616584E-6    1.402029534892976E-5   -4.299354534425981E-6    1.140102094085266E-5    4.011653361543936E-1   -9.149887702391644E-1
 8.674934695912263E8     4.108493378003887E-1   -9.212527414263108E-1    4.968024850005815E-6    4.845073765613669E-7    1.550753856159158E-7    1.337594076182219E-5    3.890029336634361E-1   -9.199641265091389E-1
 8.774635094715853E8     3.978248427250987E-1   -9.280142689715604E-1    5.095359474760785E-6    7.415940384577970E-7   -1.082173713996197E-5   -1.628750963575487E-6    3.764386095565374E-1   -9.245255458127984E-1
 8.874335493519442E8     3.848181369881530E-1   -9.325287889381839E-1   -3.425845959117953E-6    6.107820755112275E-6   -1.348050966309752E-6   -1.174354692766561E-5    3.632562676890304E-1   -9.289148681427126E-1
 8.974035892323031E8     3.732999717145995E-1   -9.360570555031015E-1    5.937258001381992E-6   -2.787306868564383E-6   -5.813600646131713E-7    3.267064636009210E-6    3.496730253342941E-1   -9.332700228119467E-1
