#  HZ   S   RI   R     50.00 
! Rohde & Schwarz Vector Network Analyzer 
! Rohde-Schwarz,ZNB20-2Port,1311601062102128,3.60
! Created: UTC 4/29/2024, 3:47:03 PM
! freq[Hz]                re:S11                  im:S11                  re:S21                  im:S21                  re:S12                  im:S12                  re:S22                  im:S22
 1.000000000000000E5     9.957140910101644E-1    4.781469970139858E-3    2.880943415000523E-5    9.774429861397162E-5   -4.078428608470415E-5   -9.431335823802441E-5    1.010970215169088      -1.109329912510966E-2
 1.007003988035892E7     9.989533486115145E-1   -1.391874305374194E-2   -1.103144807322844E-5    1.654000691505635E-5   -7.554291789540118E-6    1.836291163702271E-5    9.958363521599924E-1   -1.445762944522996E-2
 2.004007976071785E7     9.997191985666037E-1   -2.732348288954511E-2    2.567461660300614E-6   -1.140587447695143E-5   -8.359361976128549E-6    1.738479409755862E-5    9.987815864202111E-1   -2.773396626978254E-2
 3.001011964107677E7     9.982480738438598E-1   -4.108745205029472E-2    5.306829082874661E-6   -1.007002623269706E-5    4.940703199031057E-6   -5.388993196958026E-6    9.975973017285791E-1   -4.198744809416372E-2
 3.998015952143569E7     9.972660893721219E-1   -5.298161772412380E-2    1.857120167590374E-5    1.910614345002273E-6   -3.038226801767111E-7   -1.610150372351654E-6    9.977005387068939E-1   -5.680891974111853E-2
 4.995019940179461E7     9.953303298254780E-1   -6.593839867952801E-2   -1.412957009349621E-6    6.372773926081557E-6    1.647713815858337E-5   -2.189871843861919E-6    9.966085348355648E-1   -6.918183323327023E-2
 5.992023928215354E7     9.937484301525206E-1   -7.876174699476517E-2    8.959663666747433E-6   -4.386357062087908E-8   -1.053545025109317E-5   -5.811849480251626E-7    9.946639556509390E-1   -8.199078737267917E-2
 6.989027916251247E7     9.932503651192759E-1   -9.168550401487398E-2    9.354115944232394E-7   -4.779439147734986E-6   -1.814185924792356E-5    1.699990776221675E-6    9.934125340829455E-1   -9.488665378454743E-2
 7.986031904287139E7     9.930167763564731E-1   -1.052559922315518E-1   -3.293130183353288E-6    4.081504663534710E-6   -6.717527516019177E-6   -1.635547083818278E-5    9.924091376439271E-1   -1.080738742343034E-1
 8.983035892323031E7     9.916466555867477E-1   -1.187182868473448E-1   -1.171413988335267E-5    7.240098940410324E-7    5.992092405775475E-6    4.439825616421730E-6    9.908413778967122E-1   -1.213031465852745E-1
 9.980039880358922E7     9.889203884491612E-1   -1.321772744479649E-1    1.176539386451501E-5   -7.496221435548923E-6   -1.513859526638995E-6   -7.517988292265813E-6    9.884755471137997E-1   -1.346072908397500E-1
 1.097704386839482E8     9.859332990243217E-1   -1.453163541140767E-1    1.891582697084372E-5    1.556682175779381E-5    5.046528473594627E-6    1.857837437826144E-5    9.860209567825498E-1   -1.479437562278996E-1
 1.197404785643071E8     9.848514350344263E-1   -1.588163121188247E-1    8.489715714534484E-6   -1.315244135241757E-5    4.790477513714063E-6    9.496635501022793E-6    9.841977173160834E-1   -1.612815437701247E-1
 1.297105184446660E8     9.830373508811570E-1   -1.717019687908160E-1    2.915832127131434E-6    1.162954160207550E-6    9.575682329100840E-6   -4.026692301875303E-6    9.828384151536339E-1   -1.745111591931305E-1
 1.396805583250249E8     9.819154840924593E-1   -1.845772950154593E-1    1.437182548820836E-6   -1.305778663492052E-5   -3.092846791557144E-6    1.807004181408234E-5    9.809517030371110E-1   -1.875762665434405E-1
 1.496505982053838E8     9.785866102261834E-1   -1.969990607117730E-1    1.361816942043386E-5    1.320953554862507E-5    5.161733246380531E-6   -3.173079819760336E-6    9.785237533954259E-1   -2.004698996985626E-1
 1.596206380857428E8     9.758306884624882E-1   -2.092571705044147E-1    5.644473963807431E-6    3.411387306118320E-6   -3.041652687775519E-6   -7.602755655543742E-6    9.757420848384476E-1   -2.133383899813004E-1
 1.695906779661017E8     9.731291524407016E-1   -2.222659667135093E-1   -1.747069464260566E-6    1.071496168997529E-5    1.427982117868017E-5    3.066747194515551E-6    9.728073833672751E-1   -2.261557773457999E-1
 1.795607178464606E8     9.708073550680181E-1   -2.347269692570302E-1   -6.674317137663086E-6    1.583414736949471E-6   -2.337719312741168E-6   -1.275886652361961E-5    9.702492645722494E-1   -2.381529249912988E-1
 1.895307577268195E8     9.675191132837286E-1   -2.468413563618361E-1   -6.448140432778036E-6   -7.933928043222165E-6    1.081357467618834E-5    1.199628368409560E-5    9.668785233368906E-1   -2.506233949305539E-1
 1.995007976071784E8     9.635837626424361E-1   -2.592632359629822E-1    2.169602594526505E-6    3.999317229215819E-6    1.093062400222121E-5    1.128227880314163E-5    9.627123363398784E-1   -2.632907393518345E-1
 2.094708374875374E8     9.604931252550691E-1   -2.721777392535017E-1   -2.555869194803716E-6   -1.224735931013408E-5   -1.034499295957680E-5   -3.576535680270628E-6    9.588928394943889E-1   -2.762346767693049E-1
 2.194408773678963E8     9.573863795204621E-1   -2.850175278006429E-1   -4.037354060153607E-6    5.513185885386895E-6    4.497338569004027E-6   -2.807349190329228E-6    9.551538494205776E-1   -2.892620714335973E-1
 2.294109172482552E8     9.537365843880721E-1   -2.973170234958775E-1    3.363699354136106E-6   -1.527199377380045E-6    7.156665567958757E-6   -5.752283787716074E-6    9.510225500847473E-1   -3.018670973797948E-1
 2.393809571286142E8     9.504336107818382E-1   -3.093281798223370E-1    1.165803122789967E-6   -3.412967779340173E-6   -4.896063370952857E-6    3.943843491545699E-6    9.469978512125060E-1   -3.141431081000742E-1
 2.493509970089731E8     9.467593650604261E-1   -3.230555768385039E-1    8.888361702860817E-6    3.948123005610690E-6   -1.188894723806410E-5    1.390356245322454E-5    9.440483506140923E-1   -3.276668811890493E-1
 2.593210368893320E8     9.427437949416725E-1   -3.351563005379544E-1    2.859627749744071E-6    3.106194244198940E-6   -8.956440157656102E-6    8.057672371383470E-6    9.398418204221650E-1   -3.409504583093717E-1
 2.692910767696909E8     9.385202885110278E-1   -3.465395057844757E-1   -1.559072838861592E-6   -2.322350950699215E-6    1.128457460871361E-5    5.411062864383765E-6    9.355961740248199E-1   -3.529234486007874E-1
 2.792611166500499E8     9.337888284753787E-1   -3.582051522877654E-1    1.531889499285754E-5   -5.412465096028384E-6   -1.563684308039493E-5    7.137918120496678E-6    9.310105578724869E-1   -3.647246123380176E-1
 2.892311565304088E8     9.288915980596671E-1   -3.702329297130557E-1    5.581730346064311E-6   -3.731740288970584E-6    8.176111414745994E-6    5.855873584872907E-6    9.261351860717396E-1   -3.768620672150939E-1
 2.992011964107677E8     9.241225703187068E-1   -3.822622301017251E-1    7.264807529066239E-6   -3.250744921579452E-6    9.425579207512865E-6   -7.625209756611369E-6    9.212361317584958E-1   -3.887504467168560E-1
 3.091712362911266E8     9.188153834083272E-1   -3.946112270084758E-1    8.210625485610808E-6    4.076197250364797E-6   -2.474758204939506E-7    1.857539262802674E-5    9.158319109402724E-1   -4.001976537797398E-1
 3.191412761714855E8     9.132953857447113E-1   -4.070598997351604E-1   -2.187645110519528E-6    1.897503086044941E-5    1.719011415881409E-5   -1.710254736554642E-6    9.097760102102928E-1   -4.119661159481295E-1
 3.291113160518445E8     9.077489729686810E-1   -4.197292303176126E-1   -4.209238393164217E-6    9.173535784550238E-7   -1.237159802213906E-5   -1.901370594925796E-5    9.032639156097741E-1   -4.243344443498369E-1
 3.390813559322034E8     9.020013690020533E-1   -4.324787518842924E-1   -1.416612407424102E-5   -5.425431224142570E-6    2.751499171330226E-6    1.421984385198929E-5    8.969210320984969E-1   -4.369163822877321E-1
 3.490513958125623E8     8.967595074668865E-1   -4.450990503772204E-1   -1.129268801769684E-5    2.559077930639838E-6    4.427535775831888E-6    4.650491202087576E-7    8.904933478006327E-1   -4.494304355225941E-1
 3.590214356929212E8     8.913936724105728E-1   -4.576027490087119E-1    5.548062771253813E-6    6.912733367562197E-6    1.343649519060845E-5    1.220349012860221E-6    8.845594842713443E-1   -4.621732189642873E-1
 3.689914755732802E8     8.859789769257194E-1   -4.698478959223258E-1   -1.390540042773029E-5   -1.861292862869046E-6    3.782329454684416E-6    8.080009748971889E-6    8.791881245293213E-1   -4.747900096556464E-1
 3.789615154536391E8     8.799116964414506E-1   -4.810508392744610E-1   -2.705668677359690E-6    5.796089362456880E-6   -1.061282601061346E-5   -1.505550803549215E-5    8.738787646332363E-1   -4.867593466150574E-1
 3.889315553339980E8     8.741380585628569E-1   -4.917145022754499E-1    1.110697709011121E-5   -7.159088471831152E-6   -1.309217293993769E-5    1.130965369801291E-5    8.679832105870062E-1   -4.987666261760903E-1
 3.989015952143569E8     8.674325010783285E-1   -5.024414831997619E-1    2.867124935988892E-7    8.584954750049912E-6   -2.010774292596315E-5   -1.870717403071858E-5    8.610598080873676E-1   -5.097162188796350E-1
 4.088716350947158E8     8.602207906763187E-1   -5.132393615959748E-1   -8.070870147931559E-6   -4.460315170303491E-7    4.587964918103552E-7   -6.383535244851141E-6    8.543825156468399E-1   -5.206832771879947E-1
 4.188416749750748E8     8.533938643863228E-1   -5.248407724673055E-1   -1.522434499175903E-5   -5.708889701085252E-8    1.235530736449011E-5    8.281411690206357E-6    8.476951964863761E-1   -5.314319037298156E-1
 4.288117148554337E8     8.461341460445884E-1   -5.366095469559939E-1   -1.727813295645072E-5    9.989463979709541E-6    1.137960433372672E-6   -1.593666556852016E-6    8.406878503976116E-1   -5.417938848546949E-1
 4.387817547357926E8     8.383114047766088E-1   -5.480171947181260E-1    2.408444537602345E-6    1.367489456491614E-5    5.492637922792440E-6    1.590380541744648E-6    8.326297253569159E-1   -5.522469773026295E-1
 4.487517946161516E8     8.305043436371062E-1   -5.598062631457547E-1   -8.520033559962904E-7    4.762126187841721E-6    4.835127481699483E-6    8.324488604953216E-6    8.242108344044011E-1   -5.634642601350723E-1
 4.587218344965104E8     8.236744786144344E-1   -5.718173433359597E-1    6.567670759214882E-6   -8.656124667041188E-6    3.297274743886761E-6   -2.279589388653686E-6    8.160485228748067E-1   -5.752392284052216E-1
 4.686918743768694E8     8.171279605329276E-1   -5.833004140414146E-1    1.394036809525824E-5   -2.134816140673901E-6   -4.173224948955769E-6    6.313648168111909E-6    8.079379066312872E-1   -5.868082522759439E-1
 4.786619142572283E8     8.098350152961979E-1   -5.939136875194017E-1    2.744421985231649E-7   -1.040957269428689E-5   -4.999741662662983E-6    1.499349418418639E-5    7.993631694743163E-1   -5.979928643942830E-1
 4.886319541375872E8     8.023960882346375E-1   -6.043880326858933E-1    9.748003529704397E-6   -1.312539645966175E-6    4.058331911362841E-6    2.198812371603813E-6    7.904499906080101E-1   -6.088182969897404E-1
 4.986019940179462E8     7.942863142863538E-1   -6.150770456735994E-1   -2.536504848711128E-6   -1.969644699686781E-5   -1.380234174013562E-5    7.994176783225466E-6    7.822528899105489E-1   -6.197324858984881E-1
 5.085720338983051E8     7.858423697090798E-1   -6.243203741542883E-1    4.841021642492408E-6   -5.094953004208020E-7    9.316242062484655E-6    1.849268562834913E-5    7.747723137896247E-1   -6.303443704591557E-1
 5.185420737786640E8     7.784008229096581E-1   -6.332626443715165E-1    3.747155777786990E-6   -3.754490566891221E-7   -7.760815745188467E-6    2.745303641042346E-6    7.670080176476339E-1   -6.400751944880905E-1
 5.285121136590229E8     7.701312645766889E-1   -6.428540454413053E-1    9.754657420090807E-6   -5.204538040760880E-7    1.269045099236579E-5    3.926503607630353E-6    7.589665139792452E-1   -6.496431204499148E-1
 5.384821535393819E8     7.615875693443523E-1   -6.530768410470589E-1   -1.128935378109656E-6   -4.877440011964185E-7   -3.381028623648474E-6   -4.474149860860073E-6    7.508698336329244E-1   -6.593189323914963E-1
 5.484521934197408E8     7.534337585552480E-1   -6.636207024117392E-1   -1.000483096210726E-5    1.807386328410347E-6    7.106692604510325E-7   -6.526113089711948E-6    7.424557999978320E-1   -6.692407934333997E-1
 5.584222333000997E8     7.448246554527117E-1   -6.744345794650684E-1   -1.634196367081197E-6    3.410817381387988E-6    8.844383131626582E-6    3.267194146222622E-6    7.334249349120413E-1   -6.790652439541356E-1
 5.683922731804587E8     7.358171025838680E-1   -6.848883775033339E-1    3.002193347371766E-6    4.885702559416673E-6   -1.478512660107431E-5   -7.753697684891956E-6    7.231808646370462E-1   -6.890957013622065E-1
 5.783623130608176E8     7.264201832678185E-1   -6.948628255765674E-1   -3.039583041329703E-6   -7.056909187996931E-6   -2.207903390415066E-5   -4.328536206786780E-6    7.127203491153569E-1   -6.988965120977627E-1
 5.883323529411764E8     7.172694575393598E-1   -7.049680887033882E-1   -2.157946123638924E-5   -2.535967616799206E-5   -1.312608795730020E-5   -2.412386399582960E-5    7.022137059202259E-1   -7.086300787765141E-1
 5.983023928215353E8     7.081166620662662E-1   -7.150206108138593E-1    8.418636816644833E-6   -3.152381207372800E-6   -5.340679934941249E-6   -1.498590992895315E-5    6.919756713097768E-1   -7.182979539144789E-1
 6.082724327018943E8     6.986586340384010E-1   -7.247085182774609E-1    6.502610500949492E-6    6.926202534864445E-6   -5.340067984676675E-6   -1.010338402538226E-5    6.816995683189112E-1   -7.276078697832294E-1
 6.182424725822532E8     6.888145199326748E-1   -7.344047998921662E-1    1.213082010243492E-6   -2.708834742768304E-6    1.730912368918743E-5    1.922502354099776E-5    6.718186546860276E-1   -7.370896197728515E-1
 6.282125124626122E8     6.782709249976790E-1   -7.436956994524627E-1    1.779511135797637E-5   -8.521326064189026E-6   -1.527160741026955E-5    3.854231267315970E-6    6.628135006864853E-1   -7.466549722648169E-1
 6.381825523429711E8     6.685627063051915E-1   -7.508011871299161E-1    1.952778358044032E-6    5.120292624089239E-6   -3.474538178338717E-7    5.605968917891388E-6    6.539653078039711E-1   -7.556005302701523E-1
 6.481525922233300E8     6.595527961749010E-1   -7.594695632823186E-1   -2.828892113262096E-6   -7.901104726730227E-6    1.799057592515315E-5    2.390599397639692E-5    6.447222228350692E-1   -7.639901073171651E-1
 6.581226321036890E8     6.498524067412726E-1   -7.683044061189808E-1   -3.253082949390736E-6    5.037565554092629E-6    1.042781176032040E-5    8.697098749049804E-6    6.347486101480456E-1   -7.723349765721061E-1
 6.680926719840479E8     6.398965545003618E-1   -7.770488024465688E-1   -2.091044959746828E-6   -2.241060137807199E-6    3.093093637337874E-6   -4.615493281001946E-6    6.241236280213510E-1   -7.804312259967068E-1
 6.780627118644068E8     6.301293896039848E-1   -7.852007743516833E-1   -4.606260161193725E-7   -1.106341114349254E-5   -5.842176082009682E-6   -1.493693073693384E-5    6.130508640623330E-1   -7.882838674508893E-1
 6.880327517447658E8     6.198366024106425E-1   -7.935538980887925E-1   -1.093870626021323E-5   -1.146276255258402E-5    8.257891464002876E-6   -1.347042024077816E-5    6.017584440606885E-1   -7.959850316326531E-1
 6.980027916251246E8     6.088448728095289E-1   -8.017833220081542E-1   -4.240668506110592E-7   -5.424170141139173E-6    8.240381126616363E-6    1.100176617648595E-6    5.902219629862351E-1   -8.036633696762210E-1
 7.079728315054835E8     5.974823003737401E-1   -8.100609633083261E-1   -1.595070238553597E-6   -1.461489543828856E-5   -8.979382683609443E-6    9.129003605828584E-6    5.786068755143915E-1   -8.114431197559216E-1
 7.179428713858424E8     5.862321479941971E-1   -8.184562719591616E-1    1.017100055607507E-5    3.431776915177206E-6    2.279023466975129E-5   -1.991302430440197E-6    5.673736645999815E-1   -8.200129043165374E-1
 7.279129112662014E8     5.752937344219498E-1   -8.269400605182811E-1    5.488400804029484E-6   -1.024595314292261E-6   -2.078350473204366E-7   -6.274541460635728E-6    5.560486833361085E-1   -8.287395365450319E-1
 7.378829511465603E8     5.641779424493222E-1   -8.358068775781325E-1    5.802896520566920E-7   -1.392535699457131E-5    5.798036197204421E-7   -6.955565187204036E-6    5.448272444482448E-1   -8.371351971818525E-1
 7.478529910269192E8     5.520542004600030E-1   -8.442468316647871E-1   -4.252183328864426E-7   -1.524012028483004E-5    4.291164025409335E-6   -1.249117838189582E-6    5.336134836022912E-1   -8.447399347118013E-1
 7.578230309072782E8     5.393879044199719E-1   -8.513747660208878E-1    7.502940800939627E-6    1.646379092769163E-6    6.679914218421530E-6   -8.222034156841842E-6    5.225221651791507E-1   -8.517134562220066E-1
 7.677930707876371E8     5.290496748743840E-1   -8.567213319642478E-1   -1.937098737188006E-5    7.257298032804323E-6    1.604208700158497E-5   -9.873406191324328E-6    5.113333939690137E-1   -8.580662748248675E-1
 7.777631106679960E8     5.193731742248135E-1   -8.637411067285802E-1    1.538918568310888E-5   -4.555862004616740E-6   -7.461331276036091E-6   -9.078526793584602E-7    4.997987731005091E-1   -8.647541332242619E-1
 7.877331505483550E8     5.090936196314767E-1   -8.706923178977634E-1   -1.097272730163919E-5   -4.808599879047237E-6   -4.491739238743220E-6   -5.289163303712682E-6    4.878915724589318E-1   -8.713654955665351E-1
 7.977031904287138E8     4.979698435814764E-1   -8.771622278381186E-1   -7.543650886620083E-6   -1.960902952977676E-8   -5.938211102077210E-6    1.304047766946086E-5    4.751010643247054E-1   -8.778308546945025E-1
 8.076732303090727E8     4.862278226160615E-1   -8.828671955584863E-1    3.785999287635981E-6   -5.296840520242303E-6   -1.564582608617120E-5    1.391636435420007E-5    4.622769362274405E-1   -8.839232438794000E-1
 8.176432701894317E8     4.740870330755013E-1   -8.888941154773446E-1    2.297375851595782E-6   -7.958171407968710E-7    3.177473636547625E-6   -8.596676433365871E-6    4.493782030058991E-1   -8.902456994859864E-1
 8.276133100697906E8     4.619040869644955E-1   -8.953629549610260E-1    1.436294113839281E-5   -6.843527434675384E-6    6.389012764088505E-6    1.029628665052092E-6    4.367803119774527E-1   -8.969428231178216E-1
 8.375833499501495E8     4.493038028201952E-1   -9.017428375033629E-1    2.481529343510690E-6    4.790587685063592E-6    1.502266461502925E-6    6.086706780526003E-6    4.246569946913763E-1   -9.035877116979459E-1
 8.475533898305085E8     4.364435031654958E-1   -9.082873531624748E-1   -2.439985773829744E-6   -2.721436052048660E-6    3.975848014188895E-6   -2.223172839796698E-6    4.129525255904403E-1   -9.098505661834206E-1
 8.575234297108674E8     4.236666871693589E-1   -9.145711532682974E-1   -1.252890999397900E-5    1.877175057141161E-6    2.029871496679700E-6   -6.970214177065292E-7    4.010758420980194E-1   -9.150014024772464E-1
 8.674934695912263E8     4.108780532953899E-1   -9.212459224479372E-1   -1.094208311446257E-6   -8.132743089002411E-6   -3.668048941946890E-6    3.127257677876947E-6    3.890195466005376E-1   -9.199164802724180E-1
 8.774635094715853E8     3.977094442792761E-1   -9.277661468321732E-1   -3.717001871948339E-6   -8.630238362876534E-6   -1.117798403013284E-5   -3.189484473278885E-6    3.763996333922447E-1   -9.244756540892981E-1
 8.874335493519442E8     3.846148922850430E-1   -9.323508102658533E-1   -8.133105560485168E-6   -9.030459693414219E-6    5.535289959448103E-6    3.888509872555585E-6    3.632187594611245E-1   -9.290762346615549E-1
 8.974035892323031E8     3.733851757157352E-1   -9.362986833809424E-1   -1.303806629896081E-5   -9.798323268599366E-6   -4.572912407770481E-6    6.498989891119883E-6    3.496735142752607E-1   -9.333710305666159E-1
