#  HZ   S   RI   R     50.00 
! Rohde & Schwarz Vector Network Analyzer 
! Rohde-Schwarz,ZNB20-2Port,1311601062102128,3.60
! Created: UTC 4/29/2024, 3:47:05 PM
! freq[Hz]                re:S11                  im:S11                  re:S21                  im:S21                  re:S12                  im:S12                  re:S22                  im:S22
 1.000000000000000E5     9.963661990650176E-1    4.497922584478148E-3    1.155055026445564E-5    1.008357115641327E-4    8.248523128467428E-5    2.325728708845982E-4    1.011177623610098      -1.094478368032716E-2
 1.007003988035892E7     9.976380201426822E-1   -1.386429607642868E-2   -2.652259357159239E-6   -1.630754492982840E-5   -6.697590855883041E-6    7.516881639337525E-6    9.957459506501967E-1   -1.443163751887585E-2
 2.004007976071785E7     9.998873629154967E-1   -2.718534454590428E-2    1.000085793304247E-5    2.275033523802025E-5    1.992903998879394E-6    1.627422386255549E-5    9.988766791505185E-1   -2.772241506543763E-2
 3.001011964107677E7     9.978446816914480E-1   -4.097994701171702E-2    4.186232416338006E-6   -8.935849796394523E-7   -3.289235708150487E-6   -7.982662186205674E-6    9.975114731779618E-1   -4.205509272911510E-2
 3.998015952143569E7     9.975803041608363E-1   -5.296059668540283E-2   -6.126242019008165E-7   -1.076231387434328E-5    6.896011132238862E-6   -1.050758758000642E-5    9.977462621436073E-1   -5.678584543527152E-2
 4.995019940179461E7     9.960227180985454E-1   -6.592397201298006E-2   -1.680694680104595E-5    5.220647104866687E-6   -1.628130366097847E-5   -3.662588750010328E-6    9.966352688200933E-1   -6.928559427939128E-2
 5.992023928215354E7     9.942246812629635E-1   -7.875438476610097E-2   -8.399408680750813E-6    7.269169615477360E-6   -9.632917388977493E-6   -4.449695311560924E-6    9.946625571869077E-1   -8.200360274495672E-2
 6.989027916251247E7     9.931211523282178E-1   -9.168614983820311E-2    8.275711892650131E-6   -1.197411761782194E-5   -7.918899538338221E-6   -2.335234185297748E-5    9.933464671299432E-1   -9.498102492178914E-2
 7.986031904287139E7     9.925887319442919E-1   -1.051973970603984E-1   -7.152563954168705E-6   -4.502311635521943E-6    1.040810678349254E-5    1.418489431842292E-6    9.923489864489037E-1   -1.080945264146455E-1
 8.983035892323031E7     9.914301819485311E-1   -1.186332380020033E-1    2.410070987671838E-6   -1.066691988026390E-5    8.075384575152747E-7   -5.390404238892012E-6    9.909515675255625E-1   -1.213340053499743E-1
 9.980039880358922E7     9.892961074974087E-1   -1.321918078785896E-1    1.861367696219968E-5   -9.650470077094459E-6   -4.415236392055833E-6    1.251815279940497E-5    9.887663901003297E-1   -1.345752023204623E-1
 1.097704386839482E8     9.865651287680899E-1   -1.454248478179051E-1    2.321981967108191E-6    3.662039221372248E-6   -9.813651555661655E-6    1.018483375635840E-5    9.861060901473647E-1   -1.479170076566256E-1
 1.197404785643071E8     9.849431439268379E-1   -1.588496117090701E-1   -3.184038052949397E-6   -1.767226012718114E-5   -5.378045748256133E-8    6.253682200662856E-6    9.842122290578741E-1   -1.612008625657093E-1
 1.297105184446660E8     9.830350172460648E-1   -1.716470540523210E-1   -6.546491851088169E-6    2.822786873585094E-6    3.511001475081740E-6   -5.485559218035564E-6    9.828385049072038E-1   -1.745224660631876E-1
 1.396805583250249E8     9.815019802402728E-1   -1.845786967009033E-1    2.958033147935024E-6   -1.315119970954180E-5    1.648009591497170E-5   -3.661789533086066E-6    9.808881160521852E-1   -1.875902910771995E-1
 1.496505982053838E8     9.788889663361030E-1   -1.969359338933619E-1    2.714648986759682E-6   -6.002801973863984E-6    1.367476228519887E-5   -1.093477219063431E-7    9.784632371890708E-1   -2.004218322904614E-1
 1.596206380857428E8     9.761850965747081E-1   -2.093898510869674E-1    7.413515880320866E-6   -9.173315505693205E-6    2.153716437636543E-6    1.138734609693489E-6    9.756969016544638E-1   -2.133811981541446E-1
 1.695906779661017E8     9.733304742950553E-1   -2.222412651073815E-1   -9.537194486457009E-6   -1.120754606650775E-5   -4.287023854437412E-6   -7.024181329314060E-6    9.728438679408720E-1   -2.261695849337389E-1
 1.795607178464606E8     9.706551666922091E-1   -2.346106217889284E-1    5.572264276623210E-7   -9.510970389639979E-7   -6.840555913973125E-6   -1.998209102684382E-6    9.702112464683624E-1   -2.381516057222579E-1
 1.895307577268195E8     9.676198038371350E-1   -2.469148364435081E-1   -3.999177012774924E-7   -3.809349386452241E-6   -7.200647342352382E-6   -2.346008174203217E-5    9.668302726602842E-1   -2.506051216750281E-1
 1.995007976071784E8     9.639170088963339E-1   -2.593119410884436E-1   -1.155886007138527E-5   -4.729675017064299E-6    6.204715997216784E-6    1.385341693260736E-5    9.627239209153672E-1   -2.632575925063663E-1
 2.094708374875374E8     9.604991169879522E-1   -2.722121523369622E-1    5.226729530576298E-6    3.574022559436619E-6    5.259010159448679E-6    1.877701573528256E-5    9.588619068495391E-1   -2.762685536151314E-1
 2.194408773678963E8     9.572714944743439E-1   -2.849138660738457E-1   -1.351087160760901E-5    6.206348873914908E-6    2.135070781886961E-6   -9.584970408377927E-6    9.551153862514026E-1   -2.891802114744913E-1
 2.294109172482552E8     9.537257746643266E-1   -2.972919993675407E-1    9.246009351273029E-6   -2.288133119789978E-6   -2.117707597806662E-5    2.309866032452909E-6    9.509529418320785E-1   -3.018927845745099E-1
 2.393809571286142E8     9.506600817764979E-1   -3.093599401005854E-1   -5.372354413319271E-6   -1.176208805113675E-5   -8.617393984374368E-6    6.116294002786494E-6    9.469644430453412E-1   -3.140937090700197E-1
 2.493509970089731E8     9.468278483533574E-1   -3.232160585672447E-1    1.094158128679368E-5   -8.544707481985710E-6    4.406637203310189E-6   -3.960607410592213E-6    9.439974541050227E-1   -3.277325156416994E-1
 2.593210368893320E8     9.427480291614264E-1   -3.351203403917344E-1   -1.825998378329724E-7    2.268021117253172E-5   -1.921170166117485E-5   -1.976737844728505E-5    9.398506647449915E-1   -3.409156889099804E-1
 2.692910767696909E8     9.385084538534331E-1   -3.465288567764924E-1   -5.207240828514258E-6   -2.365916928613377E-6   -1.191967953575584E-5    3.881030925280818E-6    9.355083477169296E-1   -3.530176427660076E-1
 2.792611166500499E8     9.338669249376117E-1   -3.581654476625403E-1    8.001789262405567E-6   -1.017112130635550E-6   -1.831734766846602E-5   -2.454523575564633E-5    9.310564644452098E-1   -3.647247798477748E-1
 2.892311565304088E8     9.289513786474799E-1   -3.702332457934093E-1   -1.134655373595449E-5    2.822078845198535E-6    1.123765671274547E-5   -3.824792763644071E-6    9.261974492272432E-1   -3.768390246256588E-1
 2.992011964107677E8     9.241342387003869E-1   -3.823382026306045E-1   -1.512581085116700E-5    2.487112360668180E-6   -3.777481767626451E-6    1.542621114718042E-5    9.212931606375366E-1   -3.887278735509636E-1
 3.091712362911266E8     9.190044671652662E-1   -3.946731255084073E-1    1.947843869215103E-6   -6.680281760439485E-6    1.213297375796896E-5   -1.098469357038745E-5    9.157743223920254E-1   -4.001555258280172E-1
 3.191412761714855E8     9.135437100675790E-1   -4.071000086678371E-1    3.223088047574570E-6    1.318503270334692E-5   -2.452555844328918E-7    9.184322754691145E-6    9.097503707819660E-1   -4.119504231557223E-1
 3.291113160518445E8     9.078231052768060E-1   -4.198738260427227E-1    5.787733441446441E-6    3.758694689189129E-6    1.539531453598885E-6   -8.796381314991091E-6    9.034377362166419E-1   -4.244386790781533E-1
 3.390813559322034E8     9.020446694445945E-1   -4.325428075607780E-1    6.206544158828813E-6   -6.549991035233960E-6    1.663053877262955E-5    5.929902339831089E-6    8.968617180742756E-1   -4.369058707628586E-1
 3.490513958125623E8     8.967373027335563E-1   -4.451824165808597E-1   -4.933737694046267E-7   -1.123812382327809E-6   -5.181671383063024E-6   -1.478445739041108E-5    8.904736274634288E-1   -4.493660543046123E-1
 3.590214356929212E8     8.913995255309674E-1   -4.576769105993082E-1   -2.260381977204924E-6   -1.385840441445751E-5   -4.712494988105118E-6   -1.422304826215700E-5    8.845469554672909E-1   -4.621961333742339E-1
 3.689914755732802E8     8.860998640648171E-1   -4.699369649103253E-1    9.654427008584673E-6   -7.737588863396233E-7    6.104861489533122E-6    5.544350573304208E-6    8.790229613058557E-1   -4.747013511466718E-1
 3.789615154536391E8     8.799112212289210E-1   -4.811223263260963E-1   -2.923077855577996E-6    1.930194482878176E-5    1.318970940837829E-5    1.255892429287090E-5    8.737970181026067E-1   -4.868686788212677E-1
 3.889315553339980E8     8.741533737105519E-1   -4.917068732107499E-1   -2.747715919783288E-6   -1.056656241321199E-5    4.804334032783060E-6   -1.685540226105328E-7    8.680680147042561E-1   -4.987678312862581E-1
 3.989015952143569E8     8.675061033014844E-1   -5.024800805304972E-1   -5.122629454308904E-6   -3.361525210743271E-6   -2.578316603768270E-5   -8.908014748472604E-6    8.611233574763801E-1   -5.096931589427870E-1
 4.088716350947158E8     8.604273480035585E-1   -5.133615201733860E-1   -9.221403007677409E-6    6.927811966404599E-6   -1.392365499578954E-5   -1.020923339220294E-5    8.543004790660840E-1   -5.207523206415892E-1
 4.188416749750748E8     8.533987012381145E-1   -5.248992331487268E-1    8.828064992116031E-6    5.055353780943802E-6    8.123206690249439E-6   -6.691570783000262E-6    8.476040762965457E-1   -5.314601597897090E-1
 4.288117148554337E8     8.461682497491348E-1   -5.365846433243674E-1   -1.326602251136032E-5   -1.000717207738378E-6   -4.400124612413871E-6    1.420673595740938E-5    8.406302952718413E-1   -5.418845085068605E-1
 4.387817547357926E8     8.382244780604128E-1   -5.480645840936548E-1   -5.605064681304903E-6    1.498764149962861E-5   -2.423003482188960E-6   -1.355887989622350E-5    8.326500615201209E-1   -5.523355874991640E-1
 4.487517946161516E8     8.306752194640628E-1   -5.599089870723220E-1    3.505127607354411E-6   -1.439275294475769E-5    5.009731071483958E-6    1.234693857387026E-5    8.242097212993460E-1   -5.634630376466617E-1
 4.587218344965104E8     8.237260756479005E-1   -5.719006882447076E-1   -2.095072866558453E-6   -3.927479969048905E-6   -2.251533784885739E-6   -8.208557459407025E-9    8.160268003381673E-1   -5.752669029231233E-1
 4.686918743768694E8     8.170919427952227E-1   -5.832400952139719E-1    1.146464542918024E-5   -2.862885240205452E-7   -1.447292095093745E-6    1.778989145906571E-6    8.078384851939752E-1   -5.867676278498414E-1
 4.786619142572283E8     8.100166984051472E-1   -5.940724009707792E-1    2.973185919056579E-6   -2.321278922962171E-6    1.103877734069834E-5   -5.440242938752660E-6    7.993365520512026E-1   -5.980077788219840E-1
 4.886319541375872E8     8.024708710432021E-1   -6.044536660841887E-1    7.833937852080267E-6    5.267354824843543E-6   -7.928604251772005E-7    1.649879895588591E-5    7.906403743754282E-1   -6.088926363304805E-1
 4.986019940179462E8     7.942228065582150E-1   -6.151787075934513E-1   -7.623989673519241E-6   -4.524256884176817E-7   -2.654534083634873E-5   -1.043914363419963E-5    7.823387533354256E-1   -6.196993083625778E-1
 5.085720338983051E8     7.858373927031000E-1   -6.243129566812373E-1   -8.786030743293940E-6    1.586906527514742E-5    1.049815075983958E-5   -1.961305122972581E-6    7.746045877816866E-1   -6.302450444410915E-1
 5.185420737786640E8     7.784459840268957E-1   -6.333969781720390E-1    1.895644603140925E-6    8.053862873419001E-6   -4.345508267449038E-6    5.224910922477045E-6    7.670041813109303E-1   -6.400375245159957E-1
 5.285121136590229E8     7.701678890532860E-1   -6.429638706668660E-1    7.508344583012537E-7   -5.691198207018498E-6    4.696585259295831E-6   -2.300684637328280E-6    7.590850370362273E-1   -6.496904579147971E-1
 5.384821535393819E8     7.615571802131184E-1   -6.530531733389439E-1   -1.158507435486866E-5    8.129142546142311E-6   -2.125667287432419E-5   -6.451344763416861E-6    7.509288782094853E-1   -6.594245308416791E-1
 5.484521934197408E8     7.534187899555849E-1   -6.635803612576696E-1    2.932251423155954E-6    2.088029553645382E-6   -1.546931010024387E-5   -8.187324725245680E-6    7.424867066949644E-1   -6.691388555936959E-1
 5.584222333000997E8     7.448699641438975E-1   -6.745237032642321E-1   -4.987424326497691E-6    8.246792791816970E-7   -4.630240844621212E-6    1.680745143262100E-6    7.333237171439414E-1   -6.791035634468755E-1
 5.683922731804587E8     7.357225254848883E-1   -6.850029868823295E-1    2.136146823332986E-5    9.180036607360727E-7    7.276545820036874E-7   -1.613224709333579E-5    7.232748833687306E-1   -6.891462911466486E-1
 5.783623130608176E8     7.263755505832710E-1   -6.948959041691816E-1    5.455968306631949E-6    1.834613974151368E-6    9.430776516185617E-6    1.182685819285268E-6    7.127288190243117E-1   -6.989521670171336E-1
 5.883323529411764E8     7.172445785907574E-1   -7.049508579051552E-1   -2.366493207366313E-6    1.095386956659568E-5   -1.774316174204214E-5   -9.659359722826222E-6    7.021805794278617E-1   -7.085001659584250E-1
 5.983023928215353E8     7.080817060543757E-1   -7.149482290728983E-1   -5.400354144169926E-6    9.056762461062943E-6    5.715178126457668E-6   -5.079136807881366E-6    6.918600293950903E-1   -7.181486446311297E-1
 6.082724327018943E8     6.986646366167716E-1   -7.248464053192994E-1   -8.326959824755582E-6    2.334445238385119E-6    1.485694076129565E-5    1.408289828048602E-5    6.816163166111868E-1   -7.275549016449827E-1
 6.182424725822532E8     6.888489653467186E-1   -7.343813352358314E-1   -8.447097656492617E-6    4.271195807410139E-6   -1.425848248380479E-5   -1.764628428439951E-5    6.718507406871103E-1   -7.370653897271688E-1
 6.282125124626122E8     6.783996843880785E-1   -7.438340928921642E-1    3.076941302836734E-6   -7.557570898288673E-6    1.006209618820703E-5   -4.909519770245775E-7    6.628690462760822E-1   -7.466985841497256E-1
 6.381825523429711E8     6.685608284568003E-1   -7.508977572620295E-1   -9.597105718480133E-6    2.632627394915422E-6    1.079901214768657E-5    2.925082828618069E-6    6.538288290339882E-1   -7.554874248096867E-1
 6.481525922233300E8     6.596291594470394E-1   -7.594612768676009E-1   -1.761221940583227E-6   -1.029259398779806E-6    1.081042728246098E-5   -1.132094215668504E-5    6.447685361896063E-1   -7.640346658713338E-1
 6.581226321036890E8     6.498670409546993E-1   -7.683723506628998E-1    1.494580950616651E-5   -1.572120988979551E-5   -3.398906873515005E-6   -7.606966137589511E-7    6.346775700517592E-1   -7.724014764495792E-1
 6.680926719840479E8     6.399666922256917E-1   -7.770962068243156E-1    4.392866001987999E-6    4.627525397233751E-6    8.330988938723248E-6   -1.860610959123310E-5    6.240431975808756E-1   -7.803915249790542E-1
 6.780627118644068E8     6.301652925948270E-1   -7.852744818834024E-1   -3.834932116653551E-6   -5.568299433574562E-6    1.399754362877505E-6   -8.501993671687783E-6    6.130540230387569E-1   -7.882809559642131E-1
 6.880327517447658E8     6.198159813273427E-1   -7.935582431260133E-1    1.007376813188913E-5    8.151999689453672E-6   -5.061065113050590E-6   -8.985956250798046E-6    6.016713843658174E-1   -7.959131846378558E-1
 6.980027916251246E8     6.088409360313930E-1   -8.017355159304042E-1    4.749133277698871E-6   -8.643123912539163E-6   -1.788123562626183E-5    1.114078125653329E-5    5.901691575885866E-1   -8.035906613347655E-1
 7.079728315054835E8     5.974518690854174E-1   -8.101510759665442E-1   -5.700230714978070E-6   -5.243960161065200E-6    4.715671708990777E-8   -1.545942852133743E-6    5.786089597707413E-1   -8.115800977300202E-1
 7.179428713858424E8     5.862685121127200E-1   -8.186527561133865E-1   -8.028032650274311E-6   -8.808944886081901E-6    1.615977163212387E-6   -1.354734099880885E-6    5.672830756084184E-1   -8.200818616034494E-1
 7.279129112662014E8     5.753324588820845E-1   -8.270951714357548E-1    4.328427154797226E-6    7.675221464874065E-6   -1.340450424072060E-6   -1.190630970108435E-7    5.560495071292361E-1   -8.288260926814919E-1
 7.378829511465603E8     5.640462673368942E-1   -8.357963203558160E-1   -2.926981153550107E-6    1.214349920014891E-5   -4.232417384354774E-6    1.454078040669289E-5    5.447666831925497E-1   -8.370406488367931E-1
 7.478529910269192E8     5.520484906375447E-1   -8.441398366769373E-1   -5.191052378802297E-7   -8.882349287582756E-6    1.581117772919637E-6    4.185490714046899E-6    5.336716077908520E-1   -8.447890699523375E-1
 7.578230309072782E8     5.394732581875145E-1   -8.514906696202161E-1   -7.403418304742906E-6    5.000128068457911E-6    3.144959070816042E-6    3.253291048202227E-6    5.225157016111197E-1   -8.516245534477417E-1
 7.677930707876371E8     5.290715132561558E-1   -8.568996911225691E-1   -6.374215625408325E-6    8.571784009986072E-6   -1.643546421503882E-5   -5.380177019129346E-6    5.113196539793848E-1   -8.581578917756071E-1
 7.777631106679960E8     5.194355852764244E-1   -8.638331293522711E-1   -6.071586543847012E-6   -5.384580448316345E-6    7.611240222187582E-6   -2.453253281488719E-5    4.998119790820362E-1   -8.647701792084818E-1
 7.877331505483550E8     5.090834620813189E-1   -8.706790209365676E-1   -8.948911576281258E-7    1.174687131208798E-5    1.975339033403616E-5    2.123476842786793E-5    4.878618596360491E-1   -8.713186909567557E-1
 7.977031904287138E8     4.978766133925873E-1   -8.771689131757875E-1    6.496244678894177E-6   -1.645228317135873E-5    1.334919793146735E-6    1.657392714254107E-6    4.750712764682303E-1   -8.778821844892793E-1
 8.076732303090727E8     4.862499728745324E-1   -8.830009956141643E-1   -3.896190371449727E-7   -2.430119693922088E-6    1.197758694321432E-5   -1.023575220449708E-5    4.622456566358328E-1   -8.839561114767620E-1
 8.176432701894317E8     4.742827301829919E-1   -8.890217348626470E-1    8.277780865092405E-6    8.271527443621400E-6   -1.632583153608130E-5   -3.583677236010306E-7    4.494091304420928E-1   -8.903913265955604E-1
 8.276133100697906E8     4.619870070611534E-1   -8.954666736097575E-1    1.111606520751127E-6   -1.061517951396645E-5   -2.271148586717096E-6    2.599285844000578E-5    4.367683584364416E-1   -8.970702137696270E-1
 8.375833499501495E8     4.493339970447870E-1   -9.018650424536739E-1    9.647164874381200E-6    6.389031278894584E-6   -5.917275149272925E-6   -4.134874466544466E-6    4.246635686869640E-1   -9.036082604234906E-1
 8.475533898305085E8     4.364961329739450E-1   -9.082994841353331E-1    2.166014215493620E-6    4.162299778042774E-6   -9.581917466494824E-6    4.172017530898331E-6    4.128312244590668E-1   -9.097543943646079E-1
 8.575234297108674E8     4.237097202691392E-1   -9.146324699618381E-1    3.823260508361214E-6   -1.114771220569696E-5    1.122113964257006E-5   -5.773229570177796E-6    4.011614809875315E-1   -9.151640851165106E-1
 8.674934695912263E8     4.109472559335781E-1   -9.213016972333434E-1    8.673440822492151E-6    5.997013892639067E-7   -6.452824674016060E-6   -6.803895206249501E-6    3.890374118837008E-1   -9.199570478535606E-1
 8.774635094715853E8     3.977834410745359E-1   -9.278940773302353E-1    1.525466240947247E-5    5.155442095831992E-6    1.201801972560195E-5   -7.422194119762811E-6    3.763918520076220E-1   -9.246155729596681E-1
 8.874335493519442E8     3.848381266050184E-1   -9.326138696263181E-1    4.046909489432643E-6    3.958020980854306E-6   -2.150127763488099E-5   -2.907518982731443E-6    3.632702593599459E-1   -9.289206745916050E-1
 8.974035892323031E8     3.734155983368199E-1   -9.361916779026660E-1   -1.250466893790275E-6   -8.805944949124387E-6   -5.842302661124018E-6    1.996128741487958E-5    3.497304725480104E-1   -9.334009107554899E-1
