#  HZ   S   RI   R     50.00 
! Rohde & Schwarz Vector Network Analyzer 
! Rohde-Schwarz,ZNB20-2Port,1311601062102128,3.60
! Created: UTC 4/29/2024, 3:44:46 PM
! freq[Hz]                re:S11                  im:S11                  re:S21                  im:S21                  re:S12                  im:S12                  re:S22                  im:S22
 1.000000000000000E5     9.961711226235662E-1    4.707683336748433E-3    3.105803019856652E-7   -4.882642640881782E-5    7.010618542637957E-5   -1.577371433545753E-4    1.011095124009295      -1.128175687263572E-2
 1.007003988035892E7     9.975084263774990E-1   -1.381685405258260E-2    9.705549889887912E-7   -5.250744042644675E-6    6.135078106613909E-6   -1.026511071891414E-5    9.958436936305227E-1   -1.452855988636032E-2
 2.004007976071785E7     9.999030996749065E-1   -2.722622413201219E-2   -1.152752216620551E-5   -1.101228383031510E-5   -2.905535612086201E-5   -1.445313787288065E-5    9.985133445937991E-1   -2.770244862364944E-2
 3.001011964107677E7     9.978132424483153E-1   -4.103408948876876E-2   -2.632805985675459E-6    1.183612633863470E-5    1.054519825816938E-5   -8.650917037473807E-6    9.974013501205490E-1   -4.198799110383311E-2
 3.998015952143569E7     9.976812070993410E-1   -5.307136143084688E-2    1.240728993548329E-5    3.135658419934067E-5    6.327552967827618E-6   -1.053276889425592E-5    9.975126745418675E-1   -5.672375067941305E-2
 4.995019940179461E7     9.959184248341786E-1   -6.589124999908298E-2    9.637206518261796E-6    4.344794585141325E-6   -7.576384718747982E-6   -7.020704971781582E-6    9.965891271120046E-1   -6.929084165516260E-2
 5.992023928215354E7     9.942305633865947E-1   -7.883177942875130E-2   -2.285046700425039E-5    8.000528264615230E-6   -1.326327044978287E-5    1.814440920636721E-5    9.946957497631249E-1   -8.204125424604951E-2
 6.989027916251247E7     9.930925805181638E-1   -9.174030144794464E-2   -1.478904539641678E-5   -7.759935228863626E-6   -2.410898812819520E-5    1.611605326641660E-6    9.933153756861764E-1   -9.486075863300225E-2
 7.986031904287139E7     9.924653342613241E-1   -1.051025187528049E-1   -6.060105211217697E-6    1.209358225292631E-5    5.855271179433857E-6    3.131604003326123E-5    9.922304510214297E-1   -1.080844420118460E-1
 8.983035892323031E7     9.914571721224928E-1   -1.186811695244393E-1    2.130122255870507E-5   -1.341897509953883E-5   -2.738122260954097E-6    5.174661626652910E-6    9.906777679703986E-1   -1.212110050519828E-1
 9.980039880358922E7     9.892775155890234E-1   -1.322273630590412E-1    7.391201054648410E-6    1.168524834891953E-6   -1.365520546422961E-6    1.373198813431675E-5    9.887080571012113E-1   -1.345857832917070E-1
 1.097704386839482E8     9.863301246443199E-1   -1.454150690093623E-1   -8.846843264824961E-8   -2.023105730056780E-5   -1.270740758045847E-5   -7.740286885130015E-7    9.861047749985122E-1   -1.478648670157672E-1
 1.197404785643071E8     9.847650126209361E-1   -1.588286785038518E-1   -9.886341276670404E-6   -1.454116985839587E-5    4.523195115868654E-6   -8.576687273207114E-6    9.842120491470767E-1   -1.612721942337421E-1
 1.297105184446660E8     9.829384118623365E-1   -1.716687117409113E-1   -1.005955094675325E-5   -8.367807231389483E-6    4.626968391696853E-6    7.000791147964085E-6    9.826603469433696E-1   -1.745501417402966E-1
 1.396805583250249E8     9.815285137448628E-1   -1.844992205147029E-1   -2.828984822088002E-5   -8.385643295707674E-7   -1.212397681132575E-6   -4.373435474488565E-6    9.808186296009022E-1   -1.876003742299880E-1
 1.496505982053838E8     9.787556345658389E-1   -1.969262345849113E-1    5.527363197396897E-6   -2.210425926465235E-5   -4.571740275169315E-6    6.980191802404503E-6    9.785117731889409E-1   -2.005323685160408E-1
 1.596206380857428E8     9.761792077307069E-1   -2.092815530239594E-1    6.304772019613589E-6   -8.327183213530491E-6    2.695461463944139E-6    9.462321193232152E-6    9.757481763043697E-1   -2.134671634302309E-1
 1.695906779661017E8     9.732041469447590E-1   -2.221836565121845E-1   -4.882365517232107E-6   -2.892299201200797E-6    9.469767306285980E-6    1.136079986185602E-5    9.727489954264074E-1   -2.261604651916349E-1
 1.795607178464606E8     9.707099497786554E-1   -2.346301287710610E-1    2.071724932517995E-5   -1.037896961043249E-7    1.340235669572100E-5   -7.158188757174194E-6    9.702109798818719E-1   -2.380253600007091E-1
 1.895307577268195E8     9.675899091776998E-1   -2.468356127178590E-1   -2.201663289030411E-6    2.338022697908114E-7   -1.429706099477477E-6   -1.580324361120034E-5    9.668172282372708E-1   -2.506267476723975E-1
 1.995007976071784E8     9.638886378298297E-1   -2.593515886240758E-1   -3.024354736486699E-6    6.683888977023382E-6   -1.021425977269849E-5   -1.624637041705679E-5    9.626420247587386E-1   -2.633090672345879E-1
 2.094708374875374E8     9.604896691090066E-1   -2.722389947629069E-1    3.781807229426861E-6    4.811509357951259E-6    7.231195818500575E-6    7.055575259112761E-8    9.587238564182283E-1   -2.762307156776599E-1
 2.194408773678963E8     9.572806111351989E-1   -2.849515486941135E-1    4.257736078580838E-7    4.093388547480729E-7   -2.517974713995857E-5    1.304038662054435E-5    9.551553638252381E-1   -2.892579618312263E-1
 2.294109172482552E8     9.535685652716722E-1   -2.972234830869336E-1    4.694198571105190E-6    1.576015767116085E-6   -1.239401263308430E-5    5.552472238775856E-6    9.509547040694113E-1   -3.019521040246468E-1
 2.393809571286142E8     9.505628768277239E-1   -3.093109367194128E-1   -4.125298161666857E-6    4.007879359915363E-6    1.075175735866390E-5    1.936290224427393E-5    9.468667898646388E-1   -3.139973350925461E-1
 2.493509970089731E8     9.467623663363163E-1   -3.231074436083572E-1    5.795668001964842E-6   -5.480158354274473E-6    8.999193451040160E-6    8.211821061862089E-7    9.439794986102863E-1   -3.277259429161342E-1
 2.593210368893320E8     9.426354993051034E-1   -3.351204489786843E-1    6.581683925768086E-6   -9.956964369633444E-7   -6.886874472243756E-6   -6.881239011473802E-6    9.397773340931016E-1   -3.409555528358011E-1
 2.692910767696909E8     9.384803305480865E-1   -3.465039604835843E-1   -1.380197974541796E-6    3.033891396127460E-6   -2.064384959998618E-5    2.013238004574067E-5    9.355127139982732E-1   -3.528725839276478E-1
 2.792611166500499E8     9.338264356095668E-1   -3.581911585767942E-1    9.677483512849437E-6   -1.260042569017652E-5   -4.002134391554008E-6    8.290901849642153E-6    9.309626960466555E-1   -3.646631768768352E-1
 2.892311565304088E8     9.289009091008865E-1   -3.702060778168814E-1    5.530120705075816E-7   -6.733631773923042E-8   -2.862591116009800E-6    2.291669894139048E-6    9.261737044241719E-1   -3.768121200724736E-1
 2.992011964107677E8     9.241133972160749E-1   -3.823539167930848E-1   -1.109218919235234E-5    2.209235027123246E-6   -8.375128709502539E-6   -4.906116068664703E-6    9.211615981693559E-1   -3.886464683215765E-1
 3.091712362911266E8     9.188752181679991E-1   -3.946640919266403E-1   -5.135013798712696E-7    1.727685711038747E-5   -3.438441142969418E-7    4.151388112966569E-6    9.157709328306819E-1   -4.001568803022568E-1
 3.191412761714855E8     9.132701994209000E-1   -4.069766481900677E-1   -3.974137512594086E-6   -7.616757489703969E-6    8.119203030144181E-6    4.585874426070110E-6    9.098077807704946E-1   -4.119604194221490E-1
 3.291113160518445E8     9.076737294131944E-1   -4.196759705690651E-1    4.275683137258169E-6    3.781575272381786E-6   -7.416028325579127E-6   -2.361142094801668E-6    9.033905312722313E-1   -4.243558322587888E-1
 3.390813559322034E8     9.020313428220981E-1   -4.325300302034193E-1    3.841516437896097E-6   -2.414767749028885E-6   -3.127063512192406E-6    1.335765952865848E-5    8.968205587143677E-1   -4.369344421415142E-1
 3.490513958125623E8     8.967372399135000E-1   -4.451771979750667E-1    1.256721004038485E-6    1.682972632113621E-6    5.510995645367032E-6   -3.101217409728681E-5    8.904591137671826E-1   -4.494246042447619E-1
 3.590214356929212E8     8.913639305764706E-1   -4.575910763049920E-1    5.375715845115211E-6   -5.636270339711175E-6   -1.187615262700421E-5   -1.363502178597757E-5    8.845301027672200E-1   -4.621217681218089E-1
 3.689914755732802E8     8.859646324861453E-1   -4.697818472308002E-1   -9.377077861956659E-6   -8.378359198880053E-6   -1.436653921205967E-5   -6.914528517864485E-6    8.790566500841637E-1   -4.747231509100913E-1
 3.789615154536391E8     8.798466232688591E-1   -4.810493844809810E-1    7.843553523506806E-7   -1.957202306183366E-5   -1.066721942092146E-6   -7.013772145710815E-6    8.738170602951955E-1   -4.867357786167174E-1
 3.889315553339980E8     8.742279216586235E-1   -4.917644497809040E-1   -7.216310751162520E-6    9.851044853011741E-6    6.929590081450028E-6   -7.556435066442069E-6    8.678638978193914E-1   -4.987100702086810E-1
 3.989015952143569E8     8.675272719413007E-1   -5.023912934222358E-1   -3.456746888737496E-6    2.695595217299724E-6   -1.174717052677074E-5    3.414945526477735E-7    8.610843625301017E-1   -5.096714605320474E-1
 4.088716350947158E8     8.602190460314453E-1   -5.132495194746991E-1    5.031956184292517E-6    4.363253309424326E-6    5.345099457118261E-6   -1.718881957543494E-5    8.542682635025879E-1   -5.206789725245351E-1
 4.188416749750748E8     8.534115117317453E-1   -5.248817648203461E-1   -4.958836646941914E-6   -1.271465395535180E-5   -9.042208368698788E-6   -4.224094327126135E-6    8.476444631994130E-1   -5.314914020787679E-1
 4.288117148554337E8     8.461492884602412E-1   -5.365576505162537E-1   -6.636221802788599E-6   -6.881347382671906E-6   -1.452988704325869E-6   -2.707887757386330E-6    8.405523757496065E-1   -5.418194970104510E-1
 4.387817547357926E8     8.382551197982410E-1   -5.479799643812399E-1    6.335897488317207E-6   -7.860647976890510E-6   -5.021705153877912E-7   -5.671305703830025E-6    8.326020116932688E-1   -5.522402431868051E-1
 4.487517946161516E8     8.305113181667396E-1   -5.598318472956937E-1    1.605514823122244E-5    9.900722920155430E-6   -1.558949038443027E-7    6.303888640839650E-6    8.242882052818579E-1   -5.635032144854465E-1
 4.587218344965104E8     8.236029073375812E-1   -5.717721521901664E-1   -1.922130695300452E-5   -7.176223623219912E-7   -1.731994545743699E-6   -3.222809126162012E-6    8.160454715342946E-1   -5.751608813807699E-1
 4.686918743768694E8     8.171678370189435E-1   -5.832300894935275E-1   -1.648794776068119E-5   -8.413597663338196E-6    1.984502521884430E-6    4.528735114107824E-6    8.077501595227563E-1   -5.866983344553220E-1
 4.786619142572283E8     8.098957029110780E-1   -5.939234727200502E-1    1.027511737032999E-6    8.694941499841832E-6    5.041155345970753E-6    1.457146849267991E-5    7.992599709948718E-1   -5.979792354803150E-1
 4.886319541375872E8     8.022861418401308E-1   -6.043135625770605E-1   -2.800390399847548E-6   -2.639300560563224E-6    1.163239160157189E-6    5.636469746907421E-6    7.905406501216302E-1   -6.088899587888247E-1
 4.986019940179462E8     7.941567066009694E-1   -6.150850894178358E-1    6.067853998929234E-7    4.889268653182078E-6    1.045823702894065E-6    1.642774241126866E-5    7.823189570791080E-1   -6.197436635448177E-1
 5.085720338983051E8     7.858172234285064E-1   -6.242912637177725E-1    1.622275161149196E-5   -1.208176076171242E-5   -1.001070581623159E-5   -2.446177236763399E-5    7.745116425142895E-1   -6.301604297791843E-1
 5.185420737786640E8     7.785156822600011E-1   -6.332996737057434E-1   -1.201702486142793E-5    1.280520267525681E-5    1.125147145131162E-5   -2.086682636110149E-5    7.668972155986149E-1   -6.400728612031488E-1
 5.285121136590229E8     7.700829978707415E-1   -6.428840953191871E-1   -3.244496719734274E-6   -1.555220668930442E-5    1.053343121002777E-6    2.767872915707072E-6    7.589822101324354E-1   -6.496691823464094E-1
 5.384821535393819E8     7.615580792137905E-1   -6.529330640467707E-1    1.664352465717552E-6    2.062938311933858E-6    2.251419896043342E-6    6.316941336664869E-7    7.509156640982063E-1   -6.593135230384333E-1
 5.484521934197408E8     7.533944221698633E-1   -6.636075638707231E-1   -6.631607929422807E-6    6.298823119952011E-6    8.821969273731234E-6   -1.926441279474813E-6    7.424700023307435E-1   -6.692018267242533E-1
 5.584222333000997E8     7.447784859023029E-1   -6.744625104801502E-1    7.457436303130158E-6   -4.779126659116065E-6    4.318235702592135E-6   -1.082628815771461E-6    7.333718349596484E-1   -6.791909313389926E-1
 5.683922731804587E8     7.356528538343793E-1   -6.848803553385404E-1   -4.173153804345849E-6   -2.604930399860358E-6   -1.691153555870362E-6    8.673749588708177E-6    7.232063842762102E-1   -6.890913059982221E-1
 5.783623130608176E8     7.263632832058465E-1   -6.948424556598223E-1    6.724542830259426E-6   -1.255857120763003E-5   -7.616726509767401E-6    2.456383616052556E-5    7.127339031015807E-1   -6.988422278882604E-1
 5.883323529411764E8     7.172030464874980E-1   -7.048082275040849E-1   -1.236122369052895E-5    2.518292010874385E-6    9.369298370271159E-6   -8.760968834471407E-6    7.022997236379004E-1   -7.085014851413454E-1
 5.983023928215353E8     7.080829144112336E-1   -7.149715040257981E-1   -8.709119762396851E-6    2.067543461333315E-6    6.442655810981120E-6   -6.459040294727863E-6    6.918843775011477E-1   -7.182414256408765E-1
 6.082724327018943E8     6.986454791556813E-1   -7.246416295930828E-1   -7.698934335620264E-6    1.629646271665701E-5    3.577839795580362E-6    2.723941743117777E-6    6.817184504206668E-1   -7.275885868243511E-1
 6.182424725822532E8     6.887831253027904E-1   -7.342654246793663E-1    2.705916631233414E-6    8.081206363243249E-6    8.268956674320383E-6   -2.831595166368731E-5    6.717003893113129E-1   -7.370559202565533E-1
 6.282125124626122E8     6.783372099524773E-1   -7.437128124648927E-1   -1.593846194133991E-6    1.611698271415483E-5    2.573526587020141E-6   -3.818581810103662E-6    6.629508482051607E-1   -7.465998919299699E-1
 6.381825523429711E8     6.685536550279998E-1   -7.509305579765299E-1    7.746973766652995E-6   -8.051361300069247E-6   -2.878748885809972E-6    8.863780420729334E-6    6.538337291922101E-1   -7.555279953858857E-1
 6.481525922233300E8     6.595746283239392E-1   -7.593644826285341E-1    4.314403213785440E-6    3.265227338777733E-6   -1.399229665398415E-6    7.391650362550385E-6    6.447551220259838E-1   -7.639335332257264E-1
 6.581226321036890E8     6.498397111815937E-1   -7.682577115815789E-1   -6.289794862856146E-6    6.708392199863646E-6    3.119443190508946E-6   -1.458157577369285E-5    6.346972600585815E-1   -7.723466962496588E-1
 6.680926719840479E8     6.399181478415195E-1   -7.770435946721294E-1   -3.097984448113949E-6   -9.394862130325599E-6   -1.319563345566434E-6   -2.064423436839528E-6    6.240323776426867E-1   -7.803244257133601E-1
 6.780627118644068E8     6.302358121725824E-1   -7.852688996434025E-1    2.592083281579341E-5    7.654456492043397E-8   -8.932862708959275E-8   -6.042831892962063E-6    6.131164367029647E-1   -7.883031930250126E-1
 6.880327517447658E8     6.197433787737465E-1   -7.934871265623932E-1   -8.862735455317602E-6   -1.798227185537344E-6   -4.528961684154121E-8   -6.456557266725502E-7    6.017371512496703E-1   -7.958835797403943E-1
 6.980027916251246E8     6.087524130192070E-1   -8.016207878513532E-1    2.979764239256781E-5    2.371509605411338E-5    8.955509568373657E-6   -3.100978228347537E-6    5.901059655354391E-1   -8.035230590048051E-1
 7.079728315054835E8     5.974078483524504E-1   -8.100175466416958E-1    6.320263041025535E-6    4.122055248336305E-6   -1.115342118081779E-5   -1.261399487542454E-5    5.786452311955752E-1   -8.114800864187479E-1
 7.179428713858424E8     5.862771681140413E-1   -8.185582812177742E-1   -3.225181382438667E-6   -2.814136699473774E-6    1.336427635009603E-6   -1.042131490432607E-5    5.673104769137528E-1   -8.200740589330997E-1
 7.279129112662014E8     5.752594729091981E-1   -8.268951307508342E-1   -7.385782740468613E-6   -7.467089543163396E-7   -1.602119654224123E-5   -2.402647320947346E-6    5.560403055926046E-1   -8.288069926771883E-1
 7.378829511465603E8     5.640586041718159E-1   -8.356843308904918E-1    1.135475076431469E-5   -5.686710866163410E-6   -3.567300442371749E-6    2.862395877407252E-6    5.447726289214119E-1   -8.369701412401810E-1
 7.478529910269192E8     5.520736837897011E-1   -8.442005856153995E-1    3.825258530147872E-6   -8.647607104757064E-7    9.720994113872849E-6   -6.616099241108197E-6    5.337318016489428E-1   -8.446678116283534E-1
 7.578230309072782E8     5.394634231759869E-1   -8.512731937339675E-1   -1.312315456439973E-5   -3.746872104261882E-6   -1.222765234268005E-5    2.759868407636216E-6    5.226225354304451E-1   -8.517238536776079E-1
 7.677930707876371E8     5.290088673605383E-1   -8.567998678013158E-1    1.826389763472026E-5    4.296109393649094E-6    1.969605546842034E-5   -1.438202638922511E-5    5.112192543853536E-1   -8.581722462096449E-1
 7.777631106679960E8     5.194400175779689E-1   -8.637934453300823E-1   -4.879212911721276E-6   -9.628763269257814E-6    5.713730016743766E-6   -2.792157441642480E-6    4.996978154869661E-1   -8.646445784385420E-1
 7.877331505483550E8     5.091068642553330E-1   -8.706796929895572E-1    2.528206230556423E-6    5.713086987794408E-6    1.880216433026136E-6   -1.866098064142964E-5    4.878486275951177E-1   -8.714486253442283E-1
 7.977031904287138E8     4.978580744872396E-1   -8.770223720038741E-1   -2.278718794501919E-7    1.151884010092103E-5    1.083130929170965E-5   -3.230030439744437E-7    4.751322698773812E-1   -8.776513033714168E-1
 8.076732303090727E8     4.861740143472947E-1   -8.827630779288953E-1    2.147738558725596E-6    2.209458795067960E-5    1.520670173669631E-5    3.555665972246833E-6    4.622793203001419E-1   -8.838532629878119E-1
 8.176432701894317E8     4.742060386247834E-1   -8.889379204295349E-1   -8.715146470226229E-6    2.021431824903756E-7   -5.575381319794428E-7    1.901080706589805E-5    4.494405097486406E-1   -8.902802463822344E-1
 8.276133100697906E8     4.619373753783934E-1   -8.952999619727894E-1    9.532476835635889E-6    8.065742157568938E-6   -9.245070719983936E-6   -2.511582880201736E-6    4.368556717880674E-1   -8.970408940281024E-1
 8.375833499501495E8     4.493010405898161E-1   -9.017286401831254E-1   -6.745987949994993E-7   -1.101634580445090E-5   -1.194021403058502E-5    3.354202178640680E-6    4.247180448468745E-1   -9.036294507429784E-1
 8.475533898305085E8     4.364842884617142E-1   -9.080570218444532E-1    7.183948552374455E-6   -2.812160762429079E-6    9.402972016169498E-6   -2.961313802857458E-6    4.128448518786871E-1   -9.096903977841044E-1
 8.575234297108674E8     4.237395638092125E-1   -9.145341540533951E-1    1.093798308544363E-6    7.813715405595302E-6    1.444545946665881E-5   -2.455585169042376E-6    4.011238385020955E-1   -9.149903987406582E-1
 8.674934695912263E8     4.109284022669094E-1   -9.212725038493623E-1    3.811135202866675E-6   -5.057393993570179E-6    4.811112287884030E-7   -1.127336088307965E-5    3.890618347335216E-1   -9.198661698684791E-1
 8.774635094715853E8     3.977721849870479E-1   -9.278076816885716E-1   -1.619434595742644E-5    1.107165194055672E-5    4.219711675659883E-6   -5.003784871814798E-6    3.764351556585415E-1   -9.244417855121413E-1
 8.874335493519442E8     3.846812843483081E-1   -9.324009261547290E-1    1.722066979497624E-5    3.929277571492864E-6   -5.022049838698652E-6   -1.757015577035541E-6    3.632736818675683E-1   -9.287919678035362E-1
 8.974035892323031E8     3.734295257196995E-1   -9.360710216443903E-1    3.445795581053323E-6   -5.448843751934793E-6    1.002800434320760E-5   -1.174428215933223E-6    3.498536188547240E-1   -9.333121381320024E-1
