#  HZ   S   RI   R     50.00 
! Rohde & Schwarz Vector Network Analyzer 
! Rohde-Schwarz,ZNB20-2Port,1311601062102128,3.60
! Created: UTC 4/29/2024, 3:44:33 PM
! freq[Hz]                re:S11                  im:S11                  re:S21                  im:S21                  re:S12                  im:S12                  re:S22                  im:S22
 1.000000000000000E5     9.962093672420618E-1    4.582977439370302E-3    9.725429718769968E-5    8.892146920624247E-6   -2.307881170253107E-4    3.865557851134104E-6    1.011115408695217      -1.112075217460840E-2
 1.007003988035892E7     9.974756450120181E-1   -1.381883085525106E-2   -3.881357721103005E-7    1.236504666378964E-5   -1.608026533983762E-5    9.807972563684695E-7    9.956509492727148E-1   -1.458715326169287E-2
 2.004007976071785E7     9.998551209162817E-1   -2.731433846639263E-2    8.608117532762930E-6    2.548712067367189E-6    8.478530986630005E-6    1.709855309633434E-6    9.986963651512373E-1   -2.763514876476680E-2
 3.001011964107677E7     9.977308370703230E-1   -4.100256620679276E-2   -8.043110324135824E-6    3.035549415364242E-6   -4.200585360792373E-6    1.231205105054658E-6    9.974392292286687E-1   -4.205070762265473E-2
 3.998015952143569E7     9.976532223469032E-1   -5.306901751386223E-2   -1.058783554199946E-5    1.375959091650506E-6    7.154619082599170E-6   -3.609921134951664E-6    9.976949082027767E-1   -5.676970064581773E-2
 4.995019940179461E7     9.961326571183630E-1   -6.601507083547202E-2   -2.087020652212428E-6   -2.938217130522758E-6   -1.236245332752743E-6    1.182593297807785E-5    9.965180647018692E-1   -6.924696457438358E-2
 5.992023928215354E7     9.942094188861631E-1   -7.876146326185755E-2   -1.091902483810152E-5    4.528993244265671E-6   -5.918279734197646E-6    7.775435410404186E-6    9.945747984813577E-1   -8.207852783039168E-2
 6.989027916251247E7     9.930144606584067E-1   -9.172626431346963E-2   -5.559111430294722E-6    1.552287309198939E-5    1.177905017364841E-5   -8.445721616961887E-6    9.933007176006383E-1   -9.480986953187794E-2
 7.986031904287139E7     9.923031266288772E-1   -1.051235465406767E-1   -1.005100687627529E-5   -4.906217719861104E-7   -3.547873037065503E-6   -6.011755717881220E-6    9.922595895611338E-1   -1.080847188810989E-1
 8.983035892323031E7     9.913111940955153E-1   -1.186762837860389E-1   -8.657105141436290E-6    1.563552583478939E-6   -1.488559862934702E-6    1.232646244641409E-6    9.906601577197639E-1   -1.212663824442175E-1
 9.980039880358922E7     9.893450614459716E-1   -1.322197849575390E-1    6.668600470301781E-6   -1.016989658301173E-5   -8.444125464419667E-6   -1.345766372414330E-5    9.886739080911672E-1   -1.346538453570564E-1
 1.097704386839482E8     9.865432224849799E-1   -1.454536698972551E-1   -1.187670111007390E-5    6.620704711925975E-6    7.756185948278978E-6    4.068680053700845E-6    9.860776077371471E-1   -1.479340371575505E-1
 1.197404785643071E8     9.847267585229833E-1   -1.588591176389012E-1   -7.418030706696188E-6   -8.805626590198643E-6    6.236472802416731E-6    4.192719547996109E-6    9.842151005718606E-1   -1.612533109962749E-1
 1.297105184446660E8     9.830462233601334E-1   -1.716577401629160E-1    6.164945428546417E-6    7.277247610841642E-7    9.162096622112171E-6    1.258778920993289E-5    9.828116394759671E-1   -1.745172593028853E-1
 1.396805583250249E8     9.814980682096586E-1   -1.845421516709033E-1   -1.554756354658438E-6    5.388937525620232E-6    8.717602850919338E-6    1.110033047173646E-6    9.808454317199817E-1   -1.875802514409114E-1
 1.496505982053838E8     9.789562652326775E-1   -1.970386614784591E-1    1.545811854213097E-5   -4.902390028710737E-6   -5.384673281631934E-6   -1.118457126917114E-5    9.784431324012288E-1   -2.004875566965184E-1
 1.596206380857428E8     9.760854551075884E-1   -2.094098753206428E-1    1.368145189570913E-5   -7.955949162723261E-7    2.342211618837845E-6    3.642415149961959E-6    9.756456373254255E-1   -2.133201417467166E-1
 1.695906779661017E8     9.731723366916301E-1   -2.222238037898106E-1    6.775257394601755E-6   -5.708462205321803E-6   -7.977349832947124E-6    1.141374864471717E-6    9.727204767067869E-1   -2.261623899054616E-1
 1.795607178464606E8     9.707827894298561E-1   -2.347637953113824E-1    1.883649797107658E-5    4.138481059783934E-6   -3.996160726617226E-6    2.031761160769387E-5    9.701140203593286E-1   -2.379831329654505E-1
 1.895307577268195E8     9.676659618732735E-1   -2.469338729164540E-1    8.171923970334405E-6    5.805391751466004E-6    1.454820459259130E-6   -1.775021226432927E-5    9.668151907633282E-1   -2.506852817744969E-1
 1.995007976071784E8     9.637599701085600E-1   -2.593811838827181E-1   -1.283648161601161E-5   -1.027009088188500E-5    9.108903534913660E-7    1.656535484206355E-5    9.626322909660140E-1   -2.632494003172449E-1
 2.094708374875374E8     9.602556007668629E-1   -2.722010679846380E-1   -8.723106577138344E-6   -7.163363146591499E-8   -1.409714458247504E-5    7.327203232341988E-6    9.587517615416190E-1   -2.763133434517022E-1
 2.194408773678963E8     9.573282597912494E-1   -2.849995369474753E-1   -9.031637411312453E-6    6.041166972473823E-6   -2.917356167982764E-6    3.543234180276717E-6    9.550906499285349E-1   -2.892105897616821E-1
 2.294109172482552E8     9.537665447464757E-1   -2.972966541548769E-1   -6.001427310837609E-6   -9.593983626082690E-6    7.499341385325793E-6    4.190516621966362E-6    9.510977541417230E-1   -3.019362471578279E-1
 2.393809571286142E8     9.505193931521708E-1   -3.093363145388581E-1   -7.677476682636547E-6   -3.307385018948446E-6    1.426761748697644E-5   -1.567270826814801E-5    9.468679893871671E-1   -3.140992637041286E-1
 2.493509970089731E8     9.467814295083571E-1   -3.231738930724357E-1    2.035099844432954E-5   -6.724328617535794E-7    5.862281438331522E-6    1.255546140334809E-6    9.440297500214724E-1   -3.277591349454513E-1
 2.593210368893320E8     9.426672986240233E-1   -3.352236980177215E-1   -7.269061156937694E-6    2.365823209832984E-6   -7.389180887204910E-6   -3.999264417965750E-6    9.398183242083972E-1   -3.408748369943907E-1
 2.692910767696909E8     9.386203761078297E-1   -3.466386245118615E-1    1.203837529845262E-5    4.939584858023816E-6    1.801316980984927E-5   -1.681181086581631E-5    9.354789342828330E-1   -3.528724701927432E-1
 2.792611166500499E8     9.337649422802344E-1   -3.582248636468647E-1    3.742061873627302E-7    1.826013572188207E-6    2.312260073347450E-5    1.549583277102474E-5    9.309262202818369E-1   -3.646793355788846E-1
 2.892311565304088E8     9.288899129329895E-1   -3.701545548221808E-1    1.140500022550428E-5   -3.101275672911985E-6    9.590778030724554E-6   -4.122329151695496E-6    9.261293973682450E-1   -3.768645660480938E-1
 2.992011964107677E8     9.241055602941397E-1   -3.824463209209483E-1    2.318497483004050E-6   -1.799081186814374E-6   -6.980553338918391E-6    5.738914416225440E-6    9.212809976418586E-1   -3.886220017395218E-1
 3.091712362911266E8     9.189143076392404E-1   -3.946875238074182E-1   -3.801930138385015E-6   -6.730567154339965E-7    3.671636092779295E-6    1.467984197297936E-5    9.157244014166006E-1   -4.001133245628822E-1
 3.191412761714855E8     9.133714252373357E-1   -4.071059701308017E-1   -1.116345296712289E-5   -1.144102552264951E-6    1.131753742938543E-5    2.031700429886239E-7    9.097465762735160E-1   -4.119217516855014E-1
 3.291113160518445E8     9.076489346608255E-1   -4.197556535994112E-1   -1.945524019437518E-6   -4.862238099096138E-6   -6.309066635430953E-6    4.565117144103462E-7    9.033337241756828E-1   -4.243824232071550E-1
 3.390813559322034E8     9.020719759040301E-1   -4.325941593198682E-1    1.044584797548634E-5   -3.448614899631837E-6   -9.330446328053070E-7   -8.962002044962366E-6    8.967234101870022E-1   -4.369209404595130E-1
 3.490513958125623E8     8.967240798332634E-1   -4.451997815772633E-1    2.209346188047038E-6   -1.042314974328324E-5    1.416960209831791E-5    1.029175414618477E-5    8.905858685029762E-1   -4.495148141390237E-1
 3.590214356929212E8     8.913135713563044E-1   -4.576599720730604E-1   -9.544189084240753E-6    9.488664892746342E-6   -3.384902953800942E-6    7.502080385983886E-6    8.844983158423920E-1   -4.621481310335032E-1
 3.689914755732802E8     8.859784413538714E-1   -4.698893771918202E-1   -8.777559302749384E-6   -6.738687042015201E-6    1.789303135016368E-6   -3.781546808413864E-6    8.790313737658924E-1   -4.747397490040438E-1
 3.789615154536391E8     8.798389507266019E-1   -4.810998480759834E-1   -3.811405902784032E-6    2.816296019824867E-6    8.556757890896940E-6   -1.900263545820833E-6    8.737894413953534E-1   -4.868085412950989E-1
 3.889315553339980E8     8.742113880927709E-1   -4.917774804959834E-1   -1.195905947160906E-6    3.479967968342738E-6   -1.309482405324840E-5    2.116713149141082E-6    8.679876598859795E-1   -4.988298762211261E-1
 3.989015952143569E8     8.674989203508324E-1   -5.025291221598364E-1   -4.766222168410414E-6    1.184225775679734E-5   -6.040516180082691E-6    2.586257226019809E-6    8.611572336992530E-1   -5.095963704820946E-1
 4.088716350947158E8     8.602610663880406E-1   -5.133256341649532E-1    1.249221584975322E-7   -3.453397423092479E-6   -3.579180386009362E-6   -2.412998455074359E-6    8.542877638472357E-1   -5.207101019755048E-1
 4.188416749750748E8     8.532321281545827E-1   -5.248094605060083E-1   -1.848839033964428E-5    9.071666846074550E-6   -5.145472500567424E-6   -6.862898637720939E-7    8.475994948945710E-1   -5.315419080789530E-1
 4.288117148554337E8     8.461088813949016E-1   -5.365957386955997E-1   -3.586068185729290E-8   -2.271495119835767E-6    1.725732653326454E-5   -8.760354255214377E-7    8.405800189152651E-1   -5.417919292310953E-1
 4.387817547357926E8     8.381936109259552E-1   -5.479677932363824E-1   -1.141208694231332E-6   -1.359190410939863E-6   -1.367167360326968E-6    1.921571002607204E-6    8.326652764978912E-1   -5.523533755567497E-1
 4.487517946161516E8     8.306233921066338E-1   -5.598198221144725E-1   -7.054869489025130E-6    1.075508177534460E-6   -4.913219051874729E-6   -1.777876601919807E-5    8.241366534129109E-1   -5.634487821134624E-1
 4.587218344965104E8     8.236644031794846E-1   -5.718076934255617E-1   -1.906750438265377E-6   -5.330672085495925E-6    2.555295309011817E-5   -6.348533219414619E-7    8.160314438142316E-1   -5.752384866282757E-1
 4.686918743768694E8     8.170308049075633E-1   -5.832047517944340E-1   -1.179219391226512E-5    7.924239705280530E-7    1.270724872689785E-5    8.835292960005461E-7    8.078264383171422E-1   -5.867104521702956E-1
 4.786619142572283E8     8.099337484855725E-1   -5.940220800947935E-1    4.470380157846679E-6   -9.257775745972313E-6    6.408073223348261E-6    1.830918492433835E-5    7.992678559023184E-1   -5.980454877645418E-1
 4.886319541375872E8     8.023715615144504E-1   -6.043576988154815E-1    1.302506850093539E-5   -1.224273910894238E-6   -3.691715061122711E-6    8.224101423209325E-6    7.905193195990828E-1   -6.089487869853496E-1
 4.986019940179462E8     7.941721115703886E-1   -6.150406194664132E-1    1.650699990301248E-5    4.713084542852320E-6   -2.031994941298210E-5   -2.086102772998899E-5    7.823817226637808E-1   -6.197590192989118E-1
 5.085720338983051E8     7.857660673295286E-1   -6.242217673736208E-1   -2.698015668133354E-6    3.218830215439414E-7    2.524412136595636E-6    1.218265381094159E-5    7.747226667381170E-1   -6.302052283618981E-1
 5.185420737786640E8     7.784193351947724E-1   -6.333209824103151E-1   -2.556779106884093E-6    5.489486670524174E-6   -3.037376943781566E-6    3.705994644063025E-6    7.669675082527121E-1   -6.400786248821539E-1
 5.285121136590229E8     7.701549828723185E-1   -6.429035084061843E-1   -6.744360525757916E-6   -1.617540710313658E-6    1.237953347259799E-5    9.591268769736641E-7    7.590381318781154E-1   -6.497170645091040E-1
 5.384821535393819E8     7.615007283837881E-1   -6.529348996405866E-1    7.262346479839925E-6   -4.809346718021311E-6   -1.560676608790220E-6   -5.306671096625634E-6    7.510565110273649E-1   -6.593698540065341E-1
 5.484521934197408E8     7.533229925951200E-1   -6.635727216075894E-1   -2.130597132382613E-6   -2.535337622982378E-7    9.200876795675400E-6    5.083473913692063E-6    7.425132969902694E-1   -6.691478290190993E-1
 5.584222333000997E8     7.448162271491906E-1   -6.745015638095433E-1   -1.270828381401073E-6   -4.897439894164228E-6   -6.822039513814889E-6   -1.805551455287052E-5    7.333383564488821E-1   -6.790944732827098E-1
 5.683922731804587E8     7.355988098696531E-1   -6.849048209083020E-1    1.206120680591908E-5    8.153021486292657E-6   -1.055462596314124E-5    1.241854275414846E-5    7.232126381804423E-1   -6.890820378849378E-1
 5.783623130608176E8     7.264399279793028E-1   -6.949400736961772E-1    3.577835703646056E-6   -5.265226731209193E-6    1.995056178054340E-5    2.715805116755405E-7    7.127528947825383E-1   -6.988873008923523E-1
 5.883323529411764E8     7.171532363911239E-1   -7.048851406521437E-1   -1.373697257921570E-5    1.469844553003896E-5    1.024268342264403E-5   -9.227670590448274E-6    7.023099962885954E-1   -7.087082629762920E-1
 5.983023928215353E8     7.079758801893656E-1   -7.149259079256465E-1    3.748748933013874E-6   -6.781580268195170E-6   -1.297766544757132E-5    3.587398196555389E-6    6.918253204693754E-1   -7.180993150372528E-1
 6.082724327018943E8     6.985582570840192E-1   -7.246623874405994E-1    8.293122755173549E-6    6.380409350633032E-6   -8.043546261498150E-6    1.364329801816392E-6    6.817142583298864E-1   -7.275102739681381E-1
 6.182424725822532E8     6.886788406225294E-1   -7.343542242643948E-1   -8.907746482540430E-6   -1.053231382917468E-5    1.426117243349511E-5   -3.375554926837065E-6    6.717546429962813E-1   -7.370511070477650E-1
 6.282125124626122E8     6.782580872208145E-1   -7.438164379421252E-1    1.720778325892677E-7   -6.925205622311654E-6    1.847049111613805E-5   -6.425677437556005E-6    6.629360880648589E-1   -7.466416941912092E-1
 6.381825523429711E8     6.685399213270871E-1   -7.508893612232944E-1   -6.847347737565718E-6    5.128110678438562E-6    4.101676386635475E-6   -1.505299919231530E-6    6.539315253542538E-1   -7.555156073827167E-1
 6.481525922233300E8     6.594802106008086E-1   -7.594104100200048E-1   -8.544042399549153E-6   -3.451126386935963E-7   -1.647522653838140E-5    2.742653636712940E-6    6.447593316369473E-1   -7.639154708337031E-1
 6.581226321036890E8     6.498158301947070E-1   -7.683558856964678E-1   -1.148092063109053E-5   -5.268926282757732E-6   -8.002257154286537E-6   -1.007979133127941E-5    6.346834060013798E-1   -7.722867139352837E-1
 6.680926719840479E8     6.398889253687283E-1   -7.771169879972369E-1   -1.212010405265851E-6   -5.940484791829300E-6   -9.773874288416311E-6   -1.212647204725672E-5    6.240858478716949E-1   -7.803040134365111E-1
 6.780627118644068E8     6.301501874181129E-1   -7.853412179763658E-1    8.186298028120331E-6    4.078834209240082E-6   -5.428934200626604E-6    1.078215872432726E-6    6.131386388249402E-1   -7.882825203100540E-1
 6.880327517447658E8     6.196824149372526E-1   -7.935569835833547E-1    4.115683205797854E-6    4.082959980547297E-6    8.896021253058442E-6   -5.160089264104454E-7    6.017526701960285E-1   -7.959473830384726E-1
 6.980027916251246E8     6.086846501362114E-1   -8.016476697191619E-1    2.231281350011109E-6    1.090140899051105E-5    1.476111699736306E-5    2.677233562506347E-5    5.901189990931199E-1   -8.035245087874365E-1
 7.079728315054835E8     5.974352187692580E-1   -8.100937792711860E-1    9.449990486306432E-7    2.435719042295491E-6   -9.749685136266003E-6    2.630957247966595E-6    5.785405818793617E-1   -8.114235171478232E-1
 7.179428713858424E8     5.862473066621731E-1   -8.186470939614440E-1    2.025921749861444E-6   -4.448444792469778E-6    1.236279625283806E-6   -1.298435675120502E-5    5.674162421025358E-1   -8.201162308890122E-1
 7.279129112662014E8     5.753257756629839E-1   -8.270172618403946E-1    2.583848848616827E-6   -6.297229350248107E-6    4.569148450521732E-6   -2.007067177854050E-5    5.560603108111656E-1   -8.287620254585499E-1
 7.378829511465603E8     5.639558253241785E-1   -8.356398082585150E-1   -3.977373169599790E-6    5.145489074667742E-6   -1.399219203731746E-5    1.834062091079139E-5    5.447874705343501E-1   -8.368838403361896E-1
 7.478529910269192E8     5.519519029069710E-1   -8.441325955660155E-1    2.721256139555365E-6   -3.545294447040095E-8    4.559939230238256E-6    3.074029628756619E-6    5.336604613937248E-1   -8.446324648720034E-1
 7.578230309072782E8     5.393538018848559E-1   -8.514928357112928E-1   -6.264792328077818E-6   -4.566201481699542E-6   -2.203009565001822E-6    2.616968093571986E-5    5.225282196688762E-1   -8.516120774492877E-1
 7.677930707876371E8     5.291234066055440E-1   -8.568878652816371E-1   -1.117917985623862E-5   -7.560390461334878E-6    5.642371766762855E-6    3.710603368406790E-6    5.112962930824174E-1   -8.580936331775462E-1
 7.777631106679960E8     5.194316677561736E-1   -8.637788941294281E-1   -1.946333491941909E-6   -2.088746276830192E-6    1.592580741015821E-5   -1.080177466829428E-5    4.997381648419488E-1   -8.646595303808047E-1
 7.877331505483550E8     5.089771067188985E-1   -8.705380322842969E-1   -8.643285453535872E-6   -4.397589226432025E-6   -3.714076538698263E-6    1.164006077023138E-5    4.879253157256032E-1   -8.712739714668731E-1
 7.977031904287138E8     4.978360754083013E-1   -8.769113706443636E-1    9.719691795375740E-6   -8.261776953578734E-6    3.626261139015398E-6    1.112629486365193E-5    4.751754956518146E-1   -8.777097430240416E-1
 8.076732303090727E8     4.862195858774054E-1   -8.829635005022746E-1   -4.420561506087441E-6    4.538333069142512E-6   -4.415388823552376E-6   -7.426791818876507E-6    4.624324785484097E-1   -8.839975826250962E-1
 8.176432701894317E8     4.742556592108755E-1   -8.890816362735581E-1    5.529315239360498E-6    6.982836894573061E-6   -1.387087203755138E-5    8.355446650156812E-6    4.495118976384618E-1   -8.904091455030504E-1
 8.276133100697906E8     4.619654084541212E-1   -8.954452421321124E-1    1.144856448760775E-5    9.363727780752767E-7   -1.496200517415443E-6    2.714199090912014E-6    4.368084541356180E-1   -8.969052367338511E-1
 8.375833499501495E8     4.492602561340278E-1   -9.017177290742259E-1    6.022498252033802E-7   -1.607627172868737E-6   -2.974582916902966E-6    1.774884738303712E-6    4.246404341479994E-1   -9.035551387162644E-1
 8.475533898305085E8     4.363955185109168E-1   -9.081059537632205E-1   -4.092494089946815E-6   -1.868480573306467E-6   -9.906601541027855E-6    8.886080913649818E-6    4.128261700992137E-1   -9.096330073010890E-1
 8.575234297108674E8     4.235961217749184E-1   -9.146104538614760E-1   -6.977685965905431E-6   -8.061438080436635E-6   -9.065854318777407E-6    1.915890683791628E-6    4.011381030540044E-1   -9.150589367173693E-1
 8.674934695912263E8     4.108471173257054E-1   -9.213710509229854E-1   -6.617636342630708E-6   -8.353364406879978E-6    9.384688633614643E-6    1.998322522092338E-5    3.891090473527172E-1   -9.199183554763155E-1
 8.774635094715853E8     3.977808587105690E-1   -9.278977953563796E-1   -3.750573042247483E-7    3.738080995788340E-6    6.695728301035675E-6   -4.093329124980606E-6    3.763808269609895E-1   -9.244971999129951E-1
 8.874335493519442E8     3.846722175432484E-1   -9.325136219306071E-1   -7.640017206046578E-6   -1.500052332651074E-5   -3.777298894789549E-6   -3.484522168028060E-6    3.632240524689446E-1   -9.288277279914414E-1
 8.974035892323031E8     3.733642135263201E-1   -9.361785086895309E-1    3.894629995900077E-6    3.993090860859241E-6   -1.490638085749331E-6   -8.231925647525989E-7    3.497459339778595E-1   -9.332558848771997E-1
