#  HZ   S   RI   R     50.00 
! Rohde & Schwarz Vector Network Analyzer 
! Rohde-Schwarz,ZNB20-2Port,1311601062102128,3.60
! Created: UTC 4/29/2024, 3:44:41 PM
! freq[Hz]                re:S11                  im:S11                  re:S21                  im:S21                  re:S12                  im:S12                  re:S22                  im:S22
 1.000000000000000E5     9.963070213496980E-1    4.571328347802481E-3   -1.460377948737565E-4    1.437319278470945E-4   -1.254065708169801E-4    4.329185123040649E-5    1.010920677377170      -1.101896749947277E-2
 1.007003988035892E7     9.976773330435875E-1   -1.390124167291142E-2    1.029951236118727E-5   -3.114320679122655E-6   -5.869642009796097E-6   -6.664425584703905E-6    9.956740302396688E-1   -1.450376375746650E-2
 2.004007976071785E7     9.997551362807426E-1   -2.733543928318189E-2    1.693414059987794E-5    3.525512010264698E-6   -1.834497499495175E-5    7.171932094721762E-6    9.986908816265424E-1   -2.762931574380456E-2
 3.001011964107677E7     9.977629179095365E-1   -4.115523776261371E-2   -8.679013831131609E-7    4.660340626908089E-6    1.543340197507481E-5   -1.391367616542897E-6    9.975710061961037E-1   -4.200096567692563E-2
 3.998015952143569E7     9.975871151920053E-1   -5.296928688530615E-2    1.333862283193909E-5    6.815981723725169E-6    2.925711896166948E-5   -8.449226417265035E-6    9.976384278256200E-1   -5.673817249311860E-2
 4.995019940179461E7     9.960649830748382E-1   -6.590410185639478E-2   -5.922484753473475E-7   -1.148645231793614E-5    1.440709364117301E-5   -4.315890730776577E-6    9.966452378552514E-1   -6.922264933299720E-2
 5.992023928215354E7     9.941887434352963E-1   -7.873924033877329E-2    5.239329680419372E-6   -1.032741606104550E-5   -4.721748410434869E-6    1.774927500757507E-5    9.946623634256605E-1   -8.198095032838694E-2
 6.989027916251247E7     9.930075344808423E-1   -9.166986371150573E-2    1.733183856197675E-5   -1.681013374961069E-5    5.006648365633500E-6   -1.290995375242226E-5    9.933708263565389E-1   -9.487620788132328E-2
 7.986031904287139E7     9.923048534484329E-1   -1.050719716568235E-1   -4.673490799937008E-6   -8.523268717783152E-6   -9.110873241694694E-6   -9.454247228184059E-6    9.922822204540690E-1   -1.081281677405883E-1
 8.983035892323031E7     9.913207145513170E-1   -1.186527365196717E-1   -7.007132482408570E-6    2.361303491840005E-7    3.408328580945636E-6    1.981283228384366E-5    9.908079456453605E-1   -1.212593804993056E-1
 9.980039880358922E7     9.893131662152834E-1   -1.321937015632354E-1   -9.161901571205583E-6    8.180424722231847E-6    1.261325397809092E-5   -1.888502422531757E-5    9.884717741848276E-1   -1.345855917192866E-1
 1.097704386839482E8     9.864660925721142E-1   -1.454639752929383E-1   -5.596624164839142E-6    5.142039600147742E-8    1.667912167627351E-5    9.325144401177708E-6    9.860180747401031E-1   -1.479315003748807E-1
 1.197404785643071E8     9.846740414361426E-1   -1.588174724482921E-1   -6.133365888731448E-6   -5.940606268554080E-6   -1.050436703260334E-5    8.683053029715148E-7    9.842711424187242E-1   -1.613446433525877E-1
 1.297105184446660E8     9.829466324462329E-1   -1.716274530650383E-1    7.963910292462602E-6   -7.774263547802338E-6    5.607126345342158E-6    1.499326574501166E-5    9.828778381484213E-1   -1.745052085875000E-1
 1.396805583250249E8     9.815257890731446E-1   -1.845517676095211E-1   -4.894254468865913E-6   -1.409188859545731E-6   -8.439585866340298E-6   -1.259742546528453E-6    9.808655112660571E-1   -1.875547347801975E-1
 1.496505982053838E8     9.789906302049817E-1   -1.969497464647364E-1   -1.868359382672040E-5    3.540300118422755E-6    9.457796700401711E-7   -8.903560582017437E-7    9.783784718320776E-1   -2.005240178566438E-1
 1.596206380857428E8     9.761767530785014E-1   -2.093372641254874E-1   -7.407511909436760E-6    7.759453044119492E-6    9.150321328436516E-6   -2.940675604471887E-6    9.756694264436089E-1   -2.133468749969988E-1
 1.695906779661017E8     9.731709787977934E-1   -2.222935056695351E-1    8.245293307641961E-6   -1.660532055554580E-5    1.921995831115780E-6   -1.652631370378372E-5    9.727730761524099E-1   -2.262643661594750E-1
 1.795607178464606E8     9.705600240209544E-1   -2.346445944518714E-1    6.599458301414884E-6    1.794098335020109E-6    2.369651332522675E-6   -1.379905537836451E-5    9.700870862312062E-1   -2.381649847793945E-1
 1.895307577268195E8     9.676689639970487E-1   -2.468686619455612E-1    9.740681591038038E-6    1.386644365767013E-5    2.216528672161436E-6   -7.200794520564726E-6    9.666621699418511E-1   -2.506223093530214E-1
 1.995007976071784E8     9.638490145145399E-1   -2.593864454317746E-1   -7.463650985342929E-6   -7.579665862192404E-6   -2.712022547330282E-6   -4.036130626958056E-6    9.627388916259678E-1   -2.632201894117933E-1
 2.094708374875374E8     9.604008663139637E-1   -2.721510997355708E-1   -1.574049235839587E-6    3.034469390023088E-6    8.326826066831968E-6    1.001579994279652E-5    9.589710453883473E-1   -2.763436269720329E-1
 2.194408773678963E8     9.572760844584064E-1   -2.848670249370431E-1   -3.472249300759428E-6   -1.058309779480349E-5   -3.546084894375973E-6    1.886034443405247E-6    9.550089402192229E-1   -2.892546311176791E-1
 2.294109172482552E8     9.536677674921141E-1   -2.972839657683916E-1   -1.890836246144420E-6   -1.035654339696678E-5   -7.267103577269609E-6    4.190883577140357E-6    9.508231786009419E-1   -3.018738040785468E-1
 2.393809571286142E8     9.506351985943409E-1   -3.093653940917996E-1   -4.557551830112349E-6    3.972082546851535E-6   -3.748254096647549E-6    1.777589422439093E-5    9.470503539728570E-1   -3.141325049820933E-1
 2.493509970089731E8     9.468933679089934E-1   -3.231588215946187E-1   -1.291888490186065E-6   -1.606173967300886E-8    1.355801832992342E-5   -6.170694693675150E-6    9.440302281014500E-1   -3.276889311251343E-1
 2.593210368893320E8     9.425979712482030E-1   -3.351870734246110E-1    7.799876606429116E-7    1.619805738213160E-5   -2.816996739205413E-6    2.706323404026259E-6    9.397609513001612E-1   -3.408104398160083E-1
 2.692910767696909E8     9.385500201226855E-1   -3.465687154516329E-1   -3.855128470533585E-6   -2.810275087927605E-6   -7.956769766172063E-6   -3.597500262065662E-6    9.355013989956273E-1   -3.528732036490444E-1
 2.792611166500499E8     9.339380117563720E-1   -3.581835244355661E-1   -6.276070880515769E-6   -5.359161311992109E-9    1.823993298657095E-6    1.283020515659344E-6    9.310924255524111E-1   -3.647192149803171E-1
 2.892311565304088E8     9.289385414274253E-1   -3.701665117833186E-1   -1.001150677561143E-5   -2.875326050464767E-7   -4.235187246113787E-6    1.035135641763746E-5    9.261089781803893E-1   -3.768589088190615E-1
 2.992011964107677E8     9.241198619519195E-1   -3.822472739999793E-1    6.583582163738912E-6    4.402310191751165E-6    7.612791541091730E-7    4.136547299804224E-6    9.211536438076016E-1   -3.886237136842879E-1
 3.091712362911266E8     9.189391030856946E-1   -3.947292508319953E-1   -5.287352821826588E-6    5.766556071361899E-6    3.243452324834712E-5   -4.605039982246022E-6    9.157436090119218E-1   -4.002029159394125E-1
 3.191412761714855E8     9.135298950338763E-1   -4.071602582309806E-1   -3.214174407003320E-6    2.991845050057314E-6    3.765432081502617E-6    1.268736270285901E-5    9.098579818232188E-1   -4.119185169989815E-1
 3.291113160518445E8     9.077478282190421E-1   -4.197766920753520E-1    6.205783670027489E-7    4.100760197815680E-6   -1.478184478894555E-5   -3.657882581834114E-6    9.033328576724738E-1   -4.243585868915044E-1
 3.390813559322034E8     9.019612939998792E-1   -4.325166918516805E-1   -1.968778717327702E-5    9.465192561378154E-6    1.208279751860219E-5   -1.583449472425647E-5    8.966960322615195E-1   -4.368388346440565E-1
 3.490513958125623E8     8.967165304430926E-1   -4.450956000065182E-1    1.409468369397923E-6    1.120163363908274E-5   -2.605333196890792E-6    7.992579384269539E-6    8.905373886243176E-1   -4.494620131584935E-1
 3.590214356929212E8     8.915712780704104E-1   -4.577029372140797E-1    2.567502882851989E-6    3.898796560545045E-6    7.294505738377469E-6   -2.450143125438546E-6    8.846147889074312E-1   -4.621157012563938E-1
 3.689914755732802E8     8.861742897167953E-1   -4.699076988497434E-1    1.694847819062915E-6   -1.822109156286869E-6    1.158143045612896E-5    1.149419522338977E-5    8.790506543840709E-1   -4.748112619723249E-1
 3.789615154536391E8     8.798362633485424E-1   -4.810145730217576E-1   -3.265073009774498E-6    1.340952156630338E-5   -2.828916824142127E-6   -2.445114474899976E-6    8.737397599164789E-1   -4.867287589506754E-1
 3.889315553339980E8     8.740389414187588E-1   -4.916561459603767E-1    6.248841663009069E-6    3.695737025041965E-6    3.187320441414022E-6   -1.372889081283761E-5    8.678630591641161E-1   -4.987742802921934E-1
 3.989015952143569E8     8.673900160872491E-1   -5.025244543363180E-1   -2.633325025803053E-6    8.033658678087199E-6    5.388837630215610E-6   -6.822236591807103E-6    8.611233506985885E-1   -5.097168128125634E-1
 4.088716350947158E8     8.604845765699403E-1   -5.133443322530209E-1   -5.757321430252908E-6   -1.125744435700813E-5   -9.061383710491059E-7   -7.963648142346574E-6    8.543505156507751E-1   -5.206442121352013E-1
 4.188416749750748E8     8.533598838822366E-1   -5.249063569636943E-1   -1.718420670879875E-5    6.034125312263663E-6    2.493587892502117E-6    3.875207374133863E-6    8.476895353637741E-1   -5.314464438961815E-1
 4.288117148554337E8     8.460540639509437E-1   -5.364903346218767E-1    6.216359577080177E-7   -4.374519505432490E-6   -1.406038460174758E-5   -3.309514238786754E-7    8.406190541570915E-1   -5.418204653006446E-1
 4.387817547357926E8     8.382741601339311E-1   -5.479923991046285E-1    7.778669987489883E-6   -2.830283216562373E-6    6.753553282077188E-6    1.428831494363391E-6    8.326799804621763E-1   -5.522495250632672E-1
 4.487517946161516E8     8.307628477699801E-1   -5.599143723757111E-1    2.850108144390345E-6    1.872161528217883E-6   -1.353907038482582E-5    1.201755542107970E-5    8.242955831694478E-1   -5.634561948736225E-1
 4.587218344965104E8     8.237045885830080E-1   -5.718975484079357E-1    7.435324537376715E-6   -8.484570435735345E-6   -2.417187490626120E-6    6.131410925792587E-6    8.160867598025880E-1   -5.752705352080967E-1
 4.686918743768694E8     8.170155184331990E-1   -5.831523973562150E-1    1.055624864159995E-5   -3.283435721339731E-6    2.185723411083304E-6   -8.488559531310162E-6    8.078128657776492E-1   -5.867603658122746E-1
 4.786619142572283E8     8.099368339669418E-1   -5.939413892547716E-1    9.595047331040882E-6   -7.091539440190397E-6   -6.816657350899873E-6    1.133540408309762E-5    7.992301453438563E-1   -5.980303589564732E-1
 4.886319541375872E8     8.025651135246468E-1   -6.045316147765549E-1   -6.768509301065091E-6    4.936349241877367E-6    1.179303735331527E-5   -1.302566532297445E-5    7.905108428901109E-1   -6.088672955059341E-1
 4.986019940179462E8     7.942486221200272E-1   -6.152052715872043E-1    3.003432943276443E-6    3.066130075552731E-6    3.715276386839038E-7   -6.598547191870023E-6    7.824651760509075E-1   -6.197554543739124E-1
 5.085720338983051E8     7.857814959476148E-1   -6.242974742434924E-1    5.062090705668871E-6   -9.591916355512382E-6    8.005724712400759E-6   -1.556473781902197E-6    7.746244961466752E-1   -6.302348801340302E-1
 5.185420737786640E8     7.783282580179829E-1   -6.332728202954478E-1    9.752540487690474E-6   -5.510860369331048E-6   -3.477063690282499E-6    1.768532338827591E-5    7.668962670974653E-1   -6.399911647196850E-1
 5.285121136590229E8     7.701858956442654E-1   -6.428774666849598E-1    1.182701749091512E-6   -6.377253850774033E-6    1.407812160730369E-5   -1.970159243901032E-6    7.590329544982436E-1   -6.496238519766645E-1
 5.384821535393819E8     7.616748730519101E-1   -6.530648800538097E-1   -1.492555203743951E-6   -2.742902477513486E-6   -1.764682698565256E-5   -4.648268280639516E-6    7.510258493068027E-1   -6.593349337465687E-1
 5.484521934197408E8     7.533821506513438E-1   -6.635646990366730E-1    1.900370054869550E-6    8.232905499160118E-6   -7.927247146307231E-6   -7.675295507181817E-7    7.425651477610951E-1   -6.692347640730897E-1
 5.584222333000997E8     7.448543082666518E-1   -6.744309561481453E-1    3.575123770587323E-6   -1.358168673862079E-6   -4.868904062295010E-6    5.251126850469876E-6    7.333935902946216E-1   -6.790622959440461E-1
 5.683922731804587E8     7.356823103672633E-1   -6.849807048127581E-1   -4.511062326148243E-6   -1.586369097070154E-5    4.438821981845892E-6   -5.976130658643628E-6    7.232018129786152E-1   -6.890801429813810E-1
 5.783623130608176E8     7.264748143150376E-1   -6.949103110766371E-1    5.577835070848777E-6    1.261640802498985E-6    2.830261968234642E-6    6.228506908645220E-6    7.127060741200095E-1   -6.988206086556897E-1
 5.883323529411764E8     7.173350698983501E-1   -7.050178907181389E-1   -9.169427791681641E-6   -1.876917806484654E-5   -1.761660828505725E-5   -9.205307875789474E-6    7.023684978252768E-1   -7.086477072249557E-1
 5.983023928215353E8     7.080594083415745E-1   -7.149285734734472E-1    2.154096884583442E-5    1.619034657573428E-5   -1.465479947526139E-6   -1.255080840587027E-5    6.919295772040571E-1   -7.181611640809856E-1
 6.082724327018943E8     6.985654874265131E-1   -7.246260270468710E-1   -7.943464504402936E-6    2.629228450676983E-6   -1.961050256028746E-6    8.279721714542824E-6    6.816498362617597E-1   -7.275636378421754E-1
 6.182424725822532E8     6.888799539767980E-1   -7.343281389307218E-1    3.036287671675220E-6   -1.919146662792048E-5   -4.299409643224592E-6   -4.350797323857960E-6    6.717462290548225E-1   -7.369368469174314E-1
 6.282125124626122E8     6.783617256380033E-1   -7.438626719424721E-1    9.260739071038894E-6    3.081486115075339E-6   -2.059215336580148E-5    1.959643056595616E-5    6.627955488913223E-1   -7.467124942058646E-1
 6.381825523429711E8     6.685309723951168E-1   -7.509285238051009E-1   -2.870548691021342E-6   -5.349181177582788E-6   -2.402974672525405E-6   -1.136901510221077E-5    6.539498268917840E-1   -7.555157478644166E-1
 6.481525922233300E8     6.595391461875899E-1   -7.594232683259688E-1   -2.910415742455433E-6    3.940428181084271E-6    6.667387538981688E-6   -1.436707744411433E-5    6.447287414898363E-1   -7.638941069100047E-1
 6.581226321036890E8     6.497549640394871E-1   -7.683129694313214E-1   -6.289489116067202E-6   -6.143271914711030E-6    1.517726363057503E-5   -2.005688536878430E-6    6.347185581323824E-1   -7.723756308916884E-1
 6.680926719840479E8     6.398553469335059E-1   -7.771492056918934E-1   -9.173370247936897E-6   -2.479520235964294E-7   -6.517168033752994E-6   -5.209355829576073E-6    6.241514149347517E-1   -7.804245596761640E-1
 6.780627118644068E8     6.302539733583433E-1   -7.853823432311164E-1   -1.222359118533697E-5    1.672301230211034E-5   -7.764502199974970E-6   -9.643950645864072E-6    6.131829387291609E-1   -7.883363780420103E-1
 6.880327517447658E8     6.198113979594092E-1   -7.935786163770512E-1   -9.476325160216276E-6   -2.928273221809044E-6    7.894319708909308E-6    1.046971905508493E-5    6.016460265557902E-1   -7.958089080260310E-1
 6.980027916251246E8     6.086119257299035E-1   -8.015857214746530E-1    1.504831004315714E-6   -4.110170247603781E-6    2.059448013865541E-6    3.034605852069766E-6    5.901330973072041E-1   -8.034563173354625E-1
 7.079728315054835E8     5.973946752727072E-1   -8.100093529338236E-1   -1.235998114333850E-6   -1.187822995507132E-5    1.404107124354954E-5   -1.363174883100233E-5    5.787147154654392E-1   -8.115915867043576E-1
 7.179428713858424E8     5.862377311930810E-1   -8.185483413374719E-1   -7.324185570102255E-6   -1.749239552310253E-6   -1.478236147150192E-6   -4.684636945874266E-6    5.674490270211786E-1   -8.200951423062893E-1
 7.279129112662014E8     5.752833013105140E-1   -8.269376581204192E-1    5.082028319511082E-6    1.565771396794304E-5   -8.762927846047109E-6    4.808690602052885E-6    5.560706518202535E-1   -8.287451016030555E-1
 7.378829511465603E8     5.639688262175029E-1   -8.355846562956379E-1    2.881696645107791E-6   -5.960663410731434E-6    4.858715414684344E-6   -4.900031752280133E-6    5.448499702542421E-1   -8.370750473112718E-1
 7.478529910269192E8     5.519534895683216E-1   -8.441705927878738E-1    2.012105712322046E-5    1.014009507443687E-5   -5.036304671469576E-6    9.879600326637202E-6    5.336798413228917E-1   -8.447269464892536E-1
 7.578230309072782E8     5.394698155347413E-1   -8.513884690352951E-1    1.057606305586395E-5   -5.497920984580133E-6    2.221110158858305E-5    3.032064772372786E-6    5.226173843758355E-1   -8.517064925788813E-1
 7.677930707876371E8     5.289605403769575E-1   -8.567881029697273E-1   -1.093385800781988E-5    6.099590556424335E-6   -1.607200647746426E-7   -1.326007381908536E-5    5.113889642623308E-1   -8.580916295391723E-1
 7.777631106679960E8     5.194022459590683E-1   -8.636957192679330E-1   -2.221946695047117E-6   -6.743968523227452E-6   -5.503992093495275E-6    2.662682918621429E-6    4.997139403033231E-1   -8.645992394142391E-1
 7.877331505483550E8     5.091096597030421E-1   -8.706647239126978E-1    3.569582025515311E-6    7.617717750592880E-6   -7.549586716613540E-6   -1.264150201448217E-5    4.878761366162395E-1   -8.713576899725830E-1
 7.977031904287138E8     4.978405926960132E-1   -8.770668706127075E-1   -1.106622732499759E-5   -3.004128713379364E-6    1.106408596952064E-5    1.126086589588503E-5    4.752901903728876E-1   -8.778714245594308E-1
 8.076732303090727E8     4.861704321529106E-1   -8.829049114573209E-1    4.538304183900214E-6   -4.822883273543010E-6   -6.830687199136500E-7   -1.937747229496808E-6    4.622891595101683E-1   -8.839578200484870E-1
 8.176432701894317E8     4.741253704996143E-1   -8.889766615610366E-1   -9.648534327865907E-6   -3.756579139322724E-6   -1.397906944054055E-5    5.323163699092631E-6    4.494411176210855E-1   -8.903309519232582E-1
 8.276133100697906E8     4.619197149306117E-1   -8.953913833719430E-1   -9.449354060663487E-6    6.094029521736229E-6    7.300368688198655E-6    4.217011150851145E-6    4.368958613710344E-1   -8.969043607404140E-1
 8.375833499501495E8     4.493568639445453E-1   -9.017583295504915E-1   -4.538518566568785E-6    6.679167466444699E-7   -1.611022964803870E-5    3.034547070706765E-6    4.246176075388018E-1   -9.036320637573082E-1
 8.475533898305085E8     4.364782509008428E-1   -9.082167858024239E-1    3.819197889970674E-6    1.362121705141948E-6    2.045705994792421E-6    5.654200036643836E-6    4.128283123650910E-1   -9.096536768691251E-1
 8.575234297108674E8     4.237698162697608E-1   -9.145897171612846E-1    2.950997984923303E-6   -2.507735341985212E-6    6.223180433667734E-6   -2.678321772153521E-6    4.011137840792436E-1   -9.149852148568470E-1
 8.674934695912263E8     4.109173315065167E-1   -9.213311359698846E-1    1.773659388709839E-5    5.547232949932295E-6    8.197843716186879E-6    2.425736342486406E-6    3.890687775867641E-1   -9.199381585980680E-1
 8.774635094715853E8     3.977830554028616E-1   -9.278407008015386E-1    3.277131058126236E-6    5.710229358375383E-6    3.020355676391359E-6    1.170534842300084E-5    3.764518589802062E-1   -9.245627387415231E-1
 8.874335493519442E8     3.846827767445227E-1   -9.324291352223445E-1   -1.411121673586097E-5    1.884136138051186E-5    1.708991957196065E-5    3.550901140909685E-6    3.632347252587893E-1   -9.288808554233891E-1
 8.974035892323031E8     3.734505238077501E-1   -9.361224260822835E-1   -5.773778019405514E-6   -1.277015419964174E-5    1.309181921816597E-6   -5.557938408551457E-6    3.496955695772148E-1   -9.332878969138595E-1
