#  HZ   S   RI   R     50.00 
! Rohde & Schwarz Vector Network Analyzer 
! Rohde-Schwarz,ZNB20-2Port,1311601062102128,3.60
! Created: UTC 4/29/2024, 3:48:32 PM
! freq[Hz]                re:S11                  im:S11                  re:S21                  im:S21                  re:S12                  im:S12                  re:S22                  im:S22
 1.000000000000000E5     9.960742427131603E-1    4.620084413152705E-3    5.335686831543186E-5   -1.131576429546042E-5   -7.186088604456733E-5   -9.210009476078571E-6    1.011028917037645      -1.120784469832088E-2
 1.007003988035892E7     9.975463850311443E-1   -1.396314785560344E-2    5.911306694251460E-6   -6.534469583159303E-6    1.373735684313273E-5   -2.325326577497910E-5    9.958163905674762E-1   -1.450314774817993E-2
 2.004007976071785E7     9.998480523490283E-1   -2.722546737422081E-2    2.019365158818903E-5    5.617846590630015E-6   -1.109425332627078E-5   -9.702660765766875E-6    9.989417255832818E-1   -2.764730138578974E-2
 3.001011964107677E7     9.977400969817668E-1   -4.097117976142606E-2   -1.448839565983108E-5   -1.584281407868826E-6   -2.414211594194797E-7    1.539387931709889E-5    9.975888829673224E-1   -4.202194084202467E-2
 3.998015952143569E7     9.976490255169069E-1   -5.300038181884948E-2   -1.936066341172272E-5   -1.303437541535490E-5    4.308092869917195E-7    1.942097482695565E-5    9.977325967977460E-1   -5.681114146032067E-2
 4.995019940179461E7     9.959164780323695E-1   -6.601226745889602E-2    7.817999515649907E-7    6.680127273139228E-6    2.109640893595992E-6    6.126747802655520E-6    9.964138276581287E-1   -6.911062204351563E-2
 5.992023928215354E7     9.940765799375249E-1   -7.878083474856570E-2   -1.259043926009783E-6    9.936083129385739E-6   -6.628220763897741E-6   -8.045931882877107E-6    9.946337693775742E-1   -8.208329332789767E-2
 6.989027916251247E7     9.930112625690605E-1   -9.177622112017325E-2    2.429257244875663E-7    8.870740600163612E-6   -3.404760899924849E-6    2.753633528194971E-6    9.934815412995602E-1   -9.500847000875629E-2
 7.986031904287139E7     9.924265086565158E-1   -1.051175697893434E-1    1.399812933120670E-5    1.698402402198716E-5    3.755667611653172E-6   -8.951860055260064E-6    9.924487985230617E-1   -1.081263512655324E-1
 8.983035892323031E7     9.913690200316685E-1   -1.186955431460920E-1    2.491464112080159E-6    2.132056755234752E-6    1.273795836983545E-5    7.327153518165104E-6    9.908313459294358E-1   -1.213171195697117E-1
 9.980039880358922E7     9.893285635450556E-1   -1.323004532794177E-1    9.952527058090773E-7    5.919996043887572E-6    1.097089168311379E-5    5.963789820553246E-6    9.884678375186171E-1   -1.345922730712678E-1
 1.097704386839482E8     9.864204671623505E-1   -1.455216386171983E-1   -6.180499930939976E-6   -6.822167297736346E-6   -1.957451053185495E-5    1.039313034086437E-5    9.860324131631879E-1   -1.478440367541980E-1
 1.197404785643071E8     9.847374674899420E-1   -1.588890859644785E-1    8.279176412088706E-6    7.006186368209213E-6   -7.505881125032581E-6   -2.864405926338583E-6    9.843635976760328E-1   -1.612996219940664E-1
 1.297105184446660E8     9.829118385684663E-1   -1.716970215623465E-1   -6.796102137237744E-6    5.255582488335037E-7    7.404775899983961E-6    5.715335664522781E-6    9.828306374295841E-1   -1.745899143253199E-1
 1.396805583250249E8     9.815563307261230E-1   -1.845861869805501E-1   -1.202757116229070E-6   -2.833639296116011E-6   -1.338706142912562E-5   -1.026946725195488E-5    9.808244051212081E-1   -1.876535820243094E-1
 1.496505982053838E8     9.789299095421222E-1   -1.970382245490554E-1   -4.492315191840533E-6   -1.652450460643950E-6    5.304804643087169E-6   -2.005566423992118E-7    9.784319519899926E-1   -2.005003936658984E-1
 1.596206380857428E8     9.759740163122178E-1   -2.093767133276039E-1   -3.952953715742926E-7   -1.893148819800983E-5   -4.142216191577601E-6   -8.068401328637792E-6    9.756860580126391E-1   -2.133386292123768E-1
 1.695906779661017E8     9.730378262022619E-1   -2.222030722012480E-1    5.635362715960574E-6    8.855811052082480E-6   -4.760590244311754E-6    3.902679401154208E-6    9.728893236743532E-1   -2.262047420685652E-1
 1.795607178464606E8     9.707235581714634E-1   -2.346611970859012E-1    4.806563239312140E-6    3.421786831767710E-6    1.245598790655907E-5   -2.780256246123841E-6    9.702337980404444E-1   -2.382117653683479E-1
 1.895307577268195E8     9.675593356179089E-1   -2.469594737991304E-1   -1.269892280794500E-6   -4.786767805977925E-7   -1.558068979676918E-7   -5.887496944699104E-6    9.666738607328841E-1   -2.506770689138516E-1
 1.995007976071784E8     9.637506715868450E-1   -2.593828818407627E-1   -4.009947922410021E-6    1.696366081042616E-6    9.952410486416055E-6   -6.042999033189502E-7    9.628394835312012E-1   -2.632755733334547E-1
 2.094708374875374E8     9.603126950659641E-1   -2.721936488987757E-1   -6.309334790025549E-6   -1.727187197306142E-5    6.565127421848929E-6   -2.068480728589163E-6    9.587142819421216E-1   -2.762859219482319E-1
 2.194408773678963E8     9.571871963104289E-1   -2.849518499777260E-1   -1.829075274399889E-5    2.070516653248265E-6   -5.286279474255796E-6   -5.759632742844692E-6    9.550982811231449E-1   -2.892484135495125E-1
 2.294109172482552E8     9.537214413742920E-1   -2.973272509470473E-1    8.537551521921360E-7    7.521449025862248E-6    1.575581483082390E-5   -1.550784273964240E-5    9.508727957681309E-1   -3.018342052331239E-1
 2.393809571286142E8     9.504600720594440E-1   -3.093264066007423E-1   -7.053321748003841E-7    9.097809797747279E-6    2.111004455841386E-6    1.405468411923359E-5    9.468312261483062E-1   -3.140762269187347E-1
 2.493509970089731E8     9.465905935293429E-1   -3.232146647066843E-1   -1.833409083315100E-6   -3.153972208160316E-6    1.996380115524075E-6    1.358390475841163E-5    9.439887357643120E-1   -3.276427604128130E-1
 2.593210368893320E8     9.428302011023105E-1   -3.351894179394109E-1    4.142192174480619E-6    1.527599262645261E-5    1.508520150339166E-5    3.908245120869821E-6    9.397750350710654E-1   -3.408944088078092E-1
 2.692910767696909E8     9.385837813468313E-1   -3.466186685770936E-1    1.395191778131008E-6   -7.759597381792240E-7    1.772241418887849E-5    1.841109674723170E-5    9.355602754519874E-1   -3.529685215787730E-1
 2.792611166500499E8     9.335820027987871E-1   -3.581777275284052E-1   -1.240788620071563E-6    2.744731700574396E-6    3.183894314970811E-6   -2.658876149771839E-6    9.309965936061873E-1   -3.647621579028059E-1
 2.892311565304088E8     9.288080441137154E-1   -3.702273241132489E-1   -7.471480237880526E-6   -7.652688621374826E-6   -1.315315748595121E-5    4.512508127947057E-6    9.261699851032074E-1   -3.769459502441807E-1
 2.992011964107677E8     9.241404462528126E-1   -3.824874637777264E-1    1.088243104470431E-5    5.837658217616640E-6   -7.100782728013162E-6   -1.642187412810640E-5    9.211996351724459E-1   -3.887734151147857E-1
 3.091712362911266E8     9.189827917775678E-1   -3.947090581500011E-1    1.171546037881180E-6   -3.485452696461302E-6    1.421633869436330E-5   -1.878584278263600E-5    9.157180633573673E-1   -4.002445707482545E-1
 3.191412761714855E8     9.134250034222974E-1   -4.070615574968486E-1   -2.208799777337430E-5    5.517941440434364E-6    6.910394180605746E-6    1.333348645696920E-7    9.097891921617522E-1   -4.120073381366766E-1
 3.291113160518445E8     9.075609765208265E-1   -4.197161102624864E-1   -1.216485022877378E-5    1.194315635999451E-5   -1.097140593706676E-5    1.743046913601235E-5    9.033337551324233E-1   -4.244337872202772E-1
 3.390813559322034E8     9.019811879907415E-1   -4.325548207452466E-1   -1.363963640793114E-5    1.023223870477484E-5    3.349035348861354E-6   -6.395387551467847E-7    8.966761337882811E-1   -4.369454615747924E-1
 3.490513958125623E8     8.967356073159271E-1   -4.452014304626931E-1   -1.009725954621670E-5    2.408264529744533E-6   -6.045937101618264E-6    9.810967741409841E-6    8.903656774281253E-1   -4.494373170801553E-1
 3.590214356929212E8     8.914245072951779E-1   -4.576607325687700E-1   -1.964632811802056E-5    1.224855467599276E-5    9.337824800924530E-6   -1.297636496954054E-6    8.845476122472151E-1   -4.621615895277528E-1
 3.689914755732802E8     8.859764378394074E-1   -4.698349904948959E-1   -2.775697999482040E-6   -7.828089779869649E-6   -1.890085790469724E-6    1.890815149818189E-5    8.790709864635035E-1   -4.748082628805298E-1
 3.789615154536391E8     8.797162591968681E-1   -4.810320526724603E-1   -4.841346594009251E-6   -1.454987828306865E-5   -2.250364394195042E-5    2.716659001477668E-5    8.737917163349103E-1   -4.867942012296124E-1
 3.889315553339980E8     8.740940822415217E-1   -4.917567788043753E-1    1.101282894695549E-6   -3.684973047252778E-7    8.574102667553442E-7   -6.631174412964076E-6    8.679726026371478E-1   -4.988374666517562E-1
 3.989015952143569E8     8.674649470988400E-1   -5.025071969557411E-1   -2.101725070514597E-6   -4.519718371869623E-6    4.003757717281425E-6    4.855561159844083E-6    8.610780702096540E-1   -5.097074742149851E-1
 4.088716350947158E8     8.602777055466262E-1   -5.132941616117045E-1   -4.703446864762528E-6   -1.717190927880633E-6   -1.375895924188216E-7   -1.522450550680047E-5    8.543601598662319E-1   -5.207093039410718E-1
 4.188416749750748E8     8.533002932223755E-1   -5.248810748177678E-1    9.864846753817898E-6   -3.740284407529046E-6    1.128244231478454E-5   -1.087106598110895E-5    8.475278207732586E-1   -5.314344512311711E-1
 4.288117148554337E8     8.460479920223852E-1   -5.365685947570238E-1   -5.367823172265296E-6    6.557519525029992E-6    1.824881079718302E-5    1.048390981123665E-5    8.406062491068899E-1   -5.417884473456430E-1
 4.387817547357926E8     8.382124428552196E-1   -5.479497097513447E-1    9.239763349333686E-7    3.189445872251301E-6   -2.307681965123694E-6   -8.548070874438629E-6    8.327257441962285E-1   -5.523137467770259E-1
 4.487517946161516E8     8.305382377672437E-1   -5.598669105472639E-1    1.672034935604260E-5    5.408443933864493E-6   -3.594967499623494E-6    2.251370080120903E-5    8.241753958903770E-1   -5.634714886736265E-1
 4.587218344965104E8     8.236850536005351E-1   -5.717470804370977E-1   -7.418528530641506E-6    4.548214591259888E-6    1.104628742774414E-5   -1.178877792654178E-5    8.159173488419328E-1   -5.752335637566469E-1
 4.686918743768694E8     8.170750588803398E-1   -5.831094775763023E-1    5.536023805732217E-6   -2.663387505285393E-6    1.072127485913153E-5   -1.158772217764746E-6    8.078919354279439E-1   -5.868152026243727E-1
 4.786619142572283E8     8.099198150613824E-1   -5.939569599997708E-1   -1.278670067397839E-6    4.092399981546007E-6    1.314596725122252E-5   -4.952924963400134E-6    7.992961432754672E-1   -5.980929545698238E-1
 4.886319541375872E8     8.022728583086798E-1   -6.043815051120945E-1    6.821735585007168E-6   -6.291092113875317E-6   -2.201194371726289E-7   -2.195977555690176E-6    7.904896606496997E-1   -6.088804814538298E-1
 4.986019940179462E8     7.941490149587934E-1   -6.151246228203197E-1    1.076950481328333E-5   -4.165200300958294E-6    4.162980014098539E-6   -5.138271909536791E-6    7.821362254257384E-1   -6.195733244567043E-1
 5.085720338983051E8     7.858513438077159E-1   -6.243496238984036E-1   -7.099575484968289E-6   -1.287262668459527E-5    1.902531796561454E-6    7.819458904798890E-6    7.746297935095962E-1   -6.302312205838677E-1
 5.185420737786640E8     7.782670993959048E-1   -6.332847481996335E-1   -9.373050452861049E-6    1.819100215348678E-6    7.429822816743697E-7    4.463949553015397E-6    7.669520514702880E-1   -6.401314069163223E-1
 5.285121136590229E8     7.701603692507606E-1   -6.428411818178525E-1    3.762697083106354E-6    3.385399522254157E-6    1.774009545069383E-5    1.038958780439580E-5    7.589976587920272E-1   -6.497216544266756E-1
 5.384821535393819E8     7.615354524364720E-1   -6.530684518289759E-1   -2.652160146212647E-7   -1.041287087417075E-5    7.574972295666049E-6    2.580632177105837E-6    7.508291739113985E-1   -6.593431385182695E-1
 5.484521934197408E8     7.533640804329897E-1   -6.635674864720656E-1   -1.285777601208440E-5    2.094587984350063E-7    7.465652680943324E-6    3.489717894414520E-6    7.425505925196040E-1   -6.692193846606752E-1
 5.584222333000997E8     7.448180535920327E-1   -6.744986623736238E-1    8.380490523809794E-6   -7.387253670977629E-6   -1.077847673425424E-5    4.494747530779940E-6    7.334351759963972E-1   -6.792696948274961E-1
 5.683922731804587E8     7.357248986622664E-1   -6.849500301709175E-1    5.200345914066084E-6    6.028098349056454E-6   -8.968235115871201E-7   -1.551282661182390E-5    7.231309416370157E-1   -6.891587762748596E-1
 5.783623130608176E8     7.263542683976587E-1   -6.948532376270350E-1    6.232746438217134E-6   -2.949080891621091E-6    6.882404404047427E-6   -5.582803555145543E-6    7.126714002794822E-1   -6.988952110825238E-1
 5.883323529411764E8     7.171524112307480E-1   -7.049028119726842E-1    1.640743267285648E-5    4.659588182476107E-6   -1.050678400912654E-5    1.457876498971957E-5    7.022228676458402E-1   -7.086382849674822E-1
 5.983023928215353E8     7.081118445678017E-1   -7.150780554751789E-1    1.369996158109836E-6    1.463685835260320E-5   -1.416841641548508E-5    1.658221579508784E-5    6.919266188537531E-1   -7.182335128183367E-1
 6.082724327018943E8     6.986802289873301E-1   -7.247839914108573E-1   -4.586575695120717E-6   -4.168466521184358E-6    6.676407835548841E-6   -8.213956479727448E-6    6.816744987247512E-1   -7.275758078778708E-1
 6.182424725822532E8     6.887231339468293E-1   -7.343256955254774E-1    5.918338771645991E-6    6.925103565699981E-6    4.169389175239613E-6   -6.404104461103063E-7    6.717637235390973E-1   -7.370450307765395E-1
 6.282125124626122E8     6.782279530864465E-1   -7.436140637434066E-1   -1.915950628346636E-5   -1.158382493267838E-5    2.728979678461263E-6    1.694950811045632E-5    6.628098753116121E-1   -7.466464054746487E-1
 6.381825523429711E8     6.686052270263600E-1   -7.508979453909150E-1    4.570163252524065E-7    5.587893244751849E-6    6.536918654111067E-6   -6.016503979626832E-6    6.537986691940617E-1   -7.554889363961225E-1
 6.481525922233300E8     6.595906583714988E-1   -7.594825472889007E-1   -7.352257934536655E-7   -2.464739469489493E-6   -5.353843156544974E-6    1.445461364709522E-6    6.446945573309500E-1   -7.640450045790719E-1
 6.581226321036890E8     6.498333345994803E-1   -7.683711112357001E-1   -8.347053051510770E-6   -1.279234443262900E-5    7.684952724610741E-6   -2.351438529574796E-8    6.347341638098336E-1   -7.724423863223610E-1
 6.680926719840479E8     6.399128670952767E-1   -7.769862560590627E-1    2.463434494414608E-6    2.259188226636506E-6   -1.051815839638757E-5    1.331912020376456E-5    6.240440991865671E-1   -7.802939882505912E-1
 6.780627118644068E8     6.300500333828351E-1   -7.850561497812665E-1    1.555511377643723E-5    1.254157515487950E-5   -1.156096497264234E-5   -1.866681893619217E-5    6.129936360340167E-1   -7.882988598745423E-1
 6.880327517447658E8     6.198594276165567E-1   -7.935352689356630E-1    5.150649487132916E-6    1.196659257536369E-5   -9.959268939839729E-6    9.309046086811749E-6    6.017151702414741E-1   -7.959291230171355E-1
 6.980027916251246E8     6.089346587898237E-1   -8.017628411263574E-1    7.306565626788923E-7   -2.500736201052272E-6   -1.432900073416120E-5    1.102410792389642E-5    5.899616086507578E-1   -8.035730997375645E-1
 7.079728315054835E8     5.973618616441373E-1   -8.098764314978056E-1   -3.758357883764577E-6   -1.788847575316038E-6    3.154659598050752E-6    2.785895709118061E-6    5.785709532220579E-1   -8.115727197654345E-1
 7.179428713858424E8     5.862396334019984E-1   -8.183954713882584E-1   -8.986040193376339E-7   -9.601251757421298E-6    8.125266023827449E-6   -5.148550993859643E-6    5.672213136752327E-1   -8.199515088041970E-1
 7.279129112662014E8     5.752191980327759E-1   -8.269464567791602E-1   -3.454926289901010E-6    3.824670585729257E-7   -3.889509114145615E-6    1.809443307251854E-5    5.559570451485381E-1   -8.286019981008260E-1
 7.378829511465603E8     5.640410855439698E-1   -8.357204540934637E-1   -1.295068265225545E-5   -1.381941674271516E-5   -3.387610449228885E-6   -8.670949295383410E-6    5.448177150280754E-1   -8.370768814378070E-1
 7.478529910269192E8     5.520293834059968E-1   -8.441744458123513E-1    1.527003798602417E-5    4.233359979917655E-6   -1.861217212029350E-6    1.676901319448594E-5    5.337433646810706E-1   -8.448417740738684E-1
 7.578230309072782E8     5.393705485020269E-1   -8.512468773613725E-1    5.500779431149384E-7    1.008668769594623E-6   -2.295818860871984E-5   -1.491491393964038E-5    5.224747702946845E-1   -8.516565580150033E-1
 7.677930707876371E8     5.290571520414227E-1   -8.566731002500442E-1    2.259911610418042E-6    3.084093219707391E-6    4.351376510705920E-6    9.482971810467490E-6    5.111443209358424E-1   -8.580704495198053E-1
 7.777631106679960E8     5.193925041962787E-1   -8.636184348578997E-1    6.842584737717089E-6    8.505838034030711E-6   -2.395275476023340E-6   -7.663816209803705E-6    4.995974910803276E-1   -8.645997438345846E-1
 7.877331505483550E8     5.091882915642625E-1   -8.706550428728567E-1   -1.314615979553848E-6   -9.108195475293910E-6   -7.985267698840531E-6   -1.286497556440065E-7    4.879403682862458E-1   -8.714766725582747E-1
 7.977031904287138E8     4.978897699893282E-1   -8.769654443853114E-1    1.906549742042953E-6   -5.640782734584440E-6   -1.810007236871250E-5    8.565298175948698E-6    4.751913875737414E-1   -8.778502940149221E-1
 8.076732303090727E8     4.861427511230657E-1   -8.829153432574492E-1    1.877115123815629E-5    6.026281583187504E-6    7.724332863490268E-7    9.119265639731668E-6    4.622529617047853E-1   -8.838774998030636E-1
 8.176432701894317E8     4.741830874301668E-1   -8.889472971490164E-1    5.963531209464366E-7    9.426156719626667E-6    8.597485022564078E-6    9.559328271868167E-6    4.493313065867826E-1   -8.901946252614493E-1
 8.276133100697906E8     4.619346189141888E-1   -8.954193891304086E-1   -9.078067767301617E-6   -1.193883484909423E-5    5.189844406336800E-7    3.499978635318767E-6    4.368046247622553E-1   -8.969764243261876E-1
 8.375833499501495E8     4.493073387851277E-1   -9.018080818002508E-1   -4.181911606458007E-6   -1.249891511464293E-5   -4.751413261941599E-6    2.966515338669674E-6    4.246968368575740E-1   -9.036861279013874E-1
 8.475533898305085E8     4.365064493927116E-1   -9.081961887221920E-1    4.553091795784317E-6    7.740604749785673E-6   -8.924793473949888E-6   -3.258829802551926E-6    4.127591805962988E-1   -9.096660162599534E-1
 8.575234297108674E8     4.236957573906586E-1   -9.145243853771043E-1    3.733232028332239E-6   -2.503393861646552E-6    1.403781317335305E-5   -1.745608912472019E-5    4.010811054340095E-1   -9.149654317332716E-1
 8.674934695912263E8     4.108959359607660E-1   -9.212768117286630E-1    8.749549036873580E-7   -9.571044803691231E-6   -1.101964064680458E-6   -9.760628334878996E-6    3.889549404361851E-1   -9.197644166743253E-1
 8.774635094715853E8     3.978832304887057E-1   -9.279088325304283E-1    6.862822475626920E-6    1.260410444620147E-5   -1.189821728903051E-5    7.818971888238586E-6    3.763266420625524E-1   -9.246071719323801E-1
 8.874335493519442E8     3.846851974809108E-1   -9.324441586314610E-1    4.631923757627240E-7   -5.835639842588074E-6    1.476086392765308E-6    1.296285266551362E-5    3.632700073114887E-1   -9.290096249397705E-1
 8.974035892323031E8     3.732895059187284E-1   -9.360260373918299E-1    9.708945563462142E-7    5.206378000742839E-6    1.757408949604407E-6   -8.536670906895878E-6    3.496563544646920E-1   -9.333204727992690E-1
