#  HZ   S   RI   R     50.00 
! Rohde & Schwarz Vector Network Analyzer 
! Rohde-Schwarz,ZNB20-2Port,1311601062102128,3.60
! Created: UTC 4/29/2024, 3:56:16 PM
! freq[Hz]                re:S11                  im:S11                  re:S21                  im:S21                  re:S12                  im:S12                  re:S22                  im:S22
 1.000000000000000E5     9.959433378496048E-1    4.791064261091372E-3    1.560866752740044E-5    4.583543022278638E-5   -1.534963646275969E-4   -3.267458609421994E-5    1.011063551158078      -1.098999794193050E-2
 1.007003988035892E7     9.978261578093873E-1   -1.413468506197393E-2   -4.727202535096046E-6    9.157167628714029E-6    6.910976756828379E-6   -5.085236409026269E-6    9.958163637753058E-1   -1.458379621350878E-2
 2.004007976071785E7     9.996158435396763E-1   -2.733675546081245E-2    1.919447312842573E-6   -1.225196237828419E-5   -1.131741838930594E-5    6.373680516307497E-6    9.986482769537792E-1   -2.771959699260355E-2
 3.001011964107677E7     9.981860487963056E-1   -4.104288888905362E-2   -1.753577994874719E-5   -9.545434952087636E-6    1.199580460356638E-5    2.814788803792139E-6    9.975552196512827E-1   -4.195136648034198E-2
 3.998015952143569E7     9.978148052227723E-1   -5.302094292334118E-2   -1.983246422518589E-5    1.424870861738387E-5    1.409391855560681E-5   -1.110220785206376E-6    9.976676703570444E-1   -5.678013989782087E-2
 4.995019940179461E7     9.960512919685862E-1   -6.587737522744101E-2    1.751171013466252E-5    1.074761081975486E-5   -6.537916501464012E-6    1.415934592378014E-5    9.966466208531768E-1   -6.920973901870714E-2
 5.992023928215354E7     9.941328504285066E-1   -7.860268958922215E-2    1.728635600018917E-5   -4.255315280116235E-6    5.564578192428644E-7   -1.569317810704281E-5    9.946718729484965E-1   -8.197996167386162E-2
 6.989027916251247E7     9.930877187645695E-1   -9.170038103823720E-2   -1.521667765258710E-6    2.805714533742425E-6   -6.476098249466060E-6    2.227651169060038E-5    9.934237073792873E-1   -9.481728081844008E-2
 7.986031904287139E7     9.926342857826280E-1   -1.050886363438969E-1    1.073607970793808E-6   -1.020383500665511E-5   -8.613904921159706E-6   -1.757594282523565E-5    9.922914741228482E-1   -1.080452506276608E-1
 8.983035892323031E7     9.917442754374821E-1   -1.187004382054591E-1    1.045831546981892E-5   -1.106642427179346E-5    1.025228566735243E-5    9.859197084164487E-6    9.907743833865609E-1   -1.212964059296428E-1
 9.980039880358922E7     9.895137201697504E-1   -1.322314979544110E-1   -9.745575818548503E-6   -7.680837686546855E-6    1.093681464379698E-5    1.400056455002285E-6    9.885770730937136E-1   -1.347096439193063E-1
 1.097704386839482E8     9.864124839072101E-1   -1.454145188784505E-1   -3.936330938069609E-6    1.244166754869037E-5   -1.149050142280808E-5    3.731608753756396E-6    9.860634204221239E-1   -1.479996889725467E-1
 1.197404785643071E8     9.847265986312861E-1   -1.588193150565377E-1    9.966085419839514E-6   -1.269759472580114E-5   -9.225364452387049E-6   -2.374522336409540E-5    9.842218930502952E-1   -1.613224121423943E-1
 1.297105184446660E8     9.831005646227943E-1   -1.716379432101011E-1    2.944586768122911E-6   -8.034477424083607E-6    1.342389159020642E-5    1.554966690178205E-6    9.828246401483244E-1   -1.744497547501451E-1
 1.396805583250249E8     9.816201410390250E-1   -1.845505189450648E-1    4.860031147685315E-6    7.935055989910693E-6    2.830126414816397E-6    6.278157407688976E-6    9.807930646008105E-1   -1.876131916532132E-1
 1.496505982053838E8     9.791052269950390E-1   -1.970139828594195E-1    1.289221681045979E-5   -5.727988832014429E-6    4.576398690098717E-7    3.407758320795610E-6    9.785594238163697E-1   -2.005011564143825E-1
 1.596206380857428E8     9.762232211682031E-1   -2.093015607974275E-1   -4.982058623211449E-6    5.452535722393278E-6   -1.753721212545543E-6    6.461169804627342E-6    9.759105022906872E-1   -2.134238105146152E-1
 1.695906779661017E8     9.731343968837477E-1   -2.221800475669584E-1   -8.903498669200467E-6    1.910399379174496E-6   -7.338395196825743E-6   -5.211524547605669E-6    9.728479655812122E-1   -2.261617347503390E-1
 1.795607178464606E8     9.707578969107508E-1   -2.346333836194202E-1   -1.092095856733903E-6    1.112031829701795E-5    6.677174668013307E-6    5.678273279329246E-6    9.701487952746908E-1   -2.380427190092067E-1
 1.895307577268195E8     9.678252917723975E-1   -2.469572232864564E-1   -1.098584059216565E-5    1.008309374015607E-5    4.076969435799250E-6   -1.119250347896832E-5    9.668899936015297E-1   -2.505756791901844E-1
 1.995007976071784E8     9.638698328978001E-1   -2.592451724967046E-1   -1.332116305549684E-5    4.819026954483951E-6    1.403070157614810E-5   -8.601570880579396E-7    9.628407715778043E-1   -2.633025145033849E-1
 2.094708374875374E8     9.605569279485250E-1   -2.721812044511005E-1    3.355939795909575E-6    4.671024614696154E-7    5.086933314030069E-6   -2.083025404569019E-6    9.587872897886920E-1   -2.763783932151688E-1
 2.194408773678963E8     9.574287732062639E-1   -2.848951424180973E-1    1.268654151230297E-5   -6.386439947283721E-7   -9.644732317235454E-6    1.233935325468696E-6    9.550558989950911E-1   -2.891930542937384E-1
 2.294109172482552E8     9.539309121995468E-1   -2.972843181944642E-1   -3.058197534815178E-6    1.457907592823193E-5   -1.599171901257778E-5    8.941498779485210E-7    9.509451056485150E-1   -3.019290757882271E-1
 2.393809571286142E8     9.507079568066078E-1   -3.093378945099530E-1    4.424397304690699E-6    5.861153874531479E-6   -3.338845548769997E-6   -2.731135694016730E-6    9.470680920142158E-1   -3.141638887043962E-1
 2.493509970089731E8     9.468267377857018E-1   -3.230961052122145E-1    1.328241499593583E-6   -3.553315817023119E-6    2.382520634066694E-6    1.444618637398678E-5    9.440716450854737E-1   -3.276967670161625E-1
 2.593210368893320E8     9.427328295963517E-1   -3.350941848036466E-1    9.545996593274938E-6    1.020324456350478E-6   -6.697254209973232E-6   -5.568413687597070E-6    9.397330846120709E-1   -3.409191750308132E-1
 2.692910767696909E8     9.386948185546531E-1   -3.466039035039370E-1   -9.990171936144903E-6   -2.665406597613177E-6   -5.359922546511290E-6   -9.374400010233677E-6    9.355493560155523E-1   -3.528679973012907E-1
 2.792611166500499E8     9.339782880912286E-1   -3.581780048465034E-1    1.348825891380668E-5    1.242208517742911E-5    5.681147483116747E-6    1.160708395359874E-5    9.311199830698386E-1   -3.647162241850573E-1
 2.892311565304088E8     9.290813133617511E-1   -3.701881231376868E-1    8.953984157497617E-6   -5.642407240941282E-6   -8.186065327916241E-6   -6.869087648137668E-6    9.262073678603477E-1   -3.768373210460058E-1
 2.992011964107677E8     9.242334373722312E-1   -3.823215002747624E-1   -7.746560075333262E-6   -7.729184912465534E-7    5.240080996905025E-6    2.056128960254238E-5    9.211022623571654E-1   -3.886149981049779E-1
 3.091712362911266E8     9.189798660812813E-1   -3.946717083628132E-1    8.264484445084677E-6    7.765278110134664E-6    5.614918405557686E-6   -6.202179001531993E-7    9.158179366213450E-1   -4.001312530351581E-1
 3.191412761714855E8     9.135305928044470E-1   -4.071010480136378E-1    5.435834952309846E-6    8.485339338969959E-7   -2.828433789148364E-5   -2.816509905287214E-6    9.099468014829412E-1   -4.119742056276591E-1
 3.291113160518445E8     9.078118073205552E-1   -4.197353071322476E-1   -2.411077383326854E-6   -6.548179507179950E-6   -1.938170487220208E-6    1.013198805935095E-5    9.034364566600042E-1   -4.243915990799894E-1
 3.390813559322034E8     9.020881890931491E-1   -4.326343478661033E-1   -3.939310540126982E-6   -6.616733238028860E-6    5.350774370218232E-7    5.835922112013386E-6    8.967455258378860E-1   -4.369254340240785E-1
 3.490513958125623E8     8.968761377404953E-1   -4.451785864722592E-1    7.338091801390516E-6    1.266499553255938E-5    1.255820537647391E-5    4.785388084636258E-6    8.904218100708244E-1   -4.493989592957705E-1
 3.590214356929212E8     8.915378595630641E-1   -4.577476542815906E-1    6.411133476807492E-6    2.720825409630248E-6   -7.571922762209858E-8   -1.514725774968674E-6    8.845464637856344E-1   -4.622120771176935E-1
 3.689914755732802E8     8.860944218003894E-1   -4.698757545932774E-1   -7.194365997201957E-6    1.106205787733392E-6    6.735425890039670E-6   -7.161645830484494E-6    8.790695527061512E-1   -4.748608605493174E-1
 3.789615154536391E8     8.799027594109654E-1   -4.810602442909718E-1    6.500712309472257E-6    6.519328685163520E-6    7.753303614073927E-6    1.854565117690521E-6    8.738189526173461E-1   -4.867563108211247E-1
 3.889315553339980E8     8.742591953801616E-1   -4.917489249627587E-1   -4.907029178432114E-6    9.031994555253869E-6   -3.269955449751612E-6    7.128146812182251E-6    8.679142365767146E-1   -4.988748268038534E-1
 3.989015952143569E8     8.675572339848424E-1   -5.024084172972110E-1   -6.800196418645523E-6   -1.852943576741031E-6    2.129709769960071E-6    1.354495481038152E-5    8.611849722173959E-1   -5.097432255406049E-1
 4.088716350947158E8     8.604637029956176E-1   -5.133633244490329E-1   -5.414534403860179E-6    6.260806087710436E-6    2.630897269830244E-6    9.679345582349287E-6    8.543672016062909E-1   -5.207249781326113E-1
 4.188416749750748E8     8.533926130469125E-1   -5.248982906295655E-1   -1.781115353830058E-6   -9.882577545212743E-6    3.277422475021003E-6   -1.516190719617906E-5    8.476955852589240E-1   -5.314600286113251E-1
 4.288117148554337E8     8.461800973849182E-1   -5.365449451378941E-1   -1.650895236846289E-5   -1.391720045652321E-5    4.817587197339635E-6   -7.584398914468071E-6    8.407256597799421E-1   -5.418599639613356E-1
 4.387817547357926E8     8.383993113979550E-1   -5.479940885136800E-1    7.194366377790005E-6    1.192443633064791E-6   -1.931897908177272E-5   -9.738014127226543E-6    8.327342263510186E-1   -5.522915818691981E-1
 4.487517946161516E8     8.306616630027049E-1   -5.599486373836192E-1   -1.494567276592569E-5    1.112915278092001E-6   -8.450290567278474E-6   -1.362840742388325E-5    8.243553494862123E-1   -5.635375780316588E-1
 4.587218344965104E8     8.237945563887773E-1   -5.718749620812823E-1    1.305887030213325E-5   -1.058851845012407E-6   -3.451218876113873E-6   -1.846396880799093E-6    8.160701215295558E-1   -5.751242324412752E-1
 4.686918743768694E8     8.170584545285022E-1   -5.832519879997639E-1    3.741704947581179E-6    2.717776016264083E-6    4.825357074145419E-6    1.018377990346639E-5    8.078814007066647E-1   -5.868033939220730E-1
 4.786619142572283E8     8.099548151704357E-1   -5.939601081862822E-1    1.165681919001602E-6   -2.628081406390895E-6    3.464072541746037E-6    2.824551113319511E-6    7.993026247075347E-1   -5.980511476420125E-1
 4.886319541375872E8     8.024934407971975E-1   -6.043826933301284E-1   -2.323030802348606E-6    1.210273368012888E-5   -8.443545631953765E-6    2.672873509708549E-5    7.905665795403247E-1   -6.089255956727799E-1
 4.986019940179462E8     7.942675487586732E-1   -6.151078945499987E-1   -8.326681061398085E-6   -1.135862713624986E-6   -8.399830594172039E-6   -1.243169963540898E-5    7.823444897652910E-1   -6.197940666517031E-1
 5.085720338983051E8     7.858779996803226E-1   -6.243264614443009E-1    6.110054417485811E-6   -9.161268439073906E-6   -8.708761330706316E-7    4.324245156045189E-6    7.746110059373894E-1   -6.302640888147822E-1
 5.185420737786640E8     7.784474883327526E-1   -6.333781785169954E-1    1.243825582505985E-5   -1.599311406540144E-6    4.241388123286554E-7   -8.748448189657616E-7    7.670542435361789E-1   -6.401345448715423E-1
 5.285121136590229E8     7.701733501136573E-1   -6.429514906973792E-1    2.539389452248672E-6    1.494011097413262E-5   -4.688083078851092E-6    3.329161039205352E-6    7.590603698510169E-1   -6.497269915201580E-1
 5.384821535393819E8     7.616247290376371E-1   -6.530777717099798E-1    1.568481039208849E-6   -5.707338810679422E-6    1.575493163588396E-6    8.735885883882998E-6    7.509959598787510E-1   -6.593167049711571E-1
 5.484521934197408E8     7.534699652802813E-1   -6.636579302297496E-1    1.660725218810271E-6    9.366355372986813E-7    7.844609868522898E-7    1.409510631408119E-5    7.425230160862079E-1   -6.692275300844653E-1
 5.584222333000997E8     7.449394500559854E-1   -6.745233586032328E-1    1.428506320501096E-8   -2.633022021905692E-6    7.608543533610233E-6    1.256243738826259E-5    7.334669142681691E-1   -6.791488997435760E-1
 5.683922731804587E8     7.357066036722300E-1   -6.849001079619007E-1   -9.342725063886484E-6   -5.153186699511359E-6   -7.220035857078812E-6   -1.939882886084397E-5    7.231833232855239E-1   -6.890980754676135E-1
 5.783623130608176E8     7.264774303999254E-1   -6.948685767239851E-1   -1.477022919677822E-5    4.181410208643145E-6   -7.131985537414711E-6    9.837337411692455E-6    7.126052331862889E-1   -6.988446472810015E-1
 5.883323529411764E8     7.173682435163629E-1   -7.050140362645885E-1    8.738468324012119E-6    3.275427510103973E-6   -1.817872390701320E-5    6.148307066381623E-6    7.022883779201107E-1   -7.085698562974875E-1
 5.983023928215353E8     7.081208464626909E-1   -7.150090789676642E-1   -1.383123649041395E-5   -1.260440774112881E-5    4.473078558915497E-6    6.159681252958577E-6    6.919856389922530E-1   -7.182410388975179E-1
 6.082724327018943E8     6.986607907709156E-1   -7.246742047022231E-1   -5.200542567969122E-7   -3.334829346478260E-7    7.233960007181709E-6    8.447420697850638E-6    6.817851165137729E-1   -7.276790478171158E-1
 6.182424725822532E8     6.888773940353922E-1   -7.343005875550372E-1    3.521293727657424E-6   -7.394669413707885E-6   -7.913043824743930E-6    1.231873822122623E-5    6.717421777775132E-1   -7.370749760282055E-1
 6.282125124626122E8     6.782243041561854E-1   -7.436433489626829E-1   -8.390642221108233E-6    7.170725517786497E-6   -1.910657355855059E-5   -1.162585314808935E-5    6.628350799674076E-1   -7.467081821822160E-1
 6.381825523429711E8     6.686046931154183E-1   -7.509432933463002E-1   -6.791505317289751E-6    8.192741755923172E-6   -6.178104629785122E-6    6.291624088001116E-6    6.539105187070442E-1   -7.555628827567773E-1
 6.481525922233300E8     6.595713372727297E-1   -7.595063352522304E-1    1.090309972186438E-5    7.437660999931168E-6    1.783609278528355E-5   -1.225696977251020E-5    6.448690237410735E-1   -7.639537615706010E-1
 6.581226321036890E8     6.499705794907530E-1   -7.684015684778167E-1    1.177898543133028E-5   -1.054140629567077E-5   -2.366578613831105E-6   -1.325534645815807E-5    6.347654617126592E-1   -7.724193771903953E-1
 6.680926719840479E8     6.398646289951506E-1   -7.769945057336839E-1   -1.873514338698639E-5    5.942982214657253E-6    1.268328776376516E-6    2.645249043141303E-5    6.242771983799019E-1   -7.803702307119933E-1
 6.780627118644068E8     6.300820987787189E-1   -7.852434167340395E-1    1.476623199923786E-6    1.080129420977306E-5    5.253824401361359E-6    1.230245141270342E-5    6.130992439296385E-1   -7.883058027718955E-1
 6.880327517447658E8     6.198066343902053E-1   -7.935430874181086E-1    2.515115932050732E-6   -3.807941958333463E-7    1.747697395503932E-6    2.119820662816168E-6    6.017904002601461E-1   -7.958270847674261E-1
 6.980027916251246E8     6.087495545227702E-1   -8.017153770270903E-1    1.257339132978489E-5   -1.230975919324683E-5    4.308058655210489E-6   -1.452661473206629E-6    5.901338947389039E-1   -8.035348269494595E-1
 7.079728315054835E8     5.974203277883261E-1   -8.100368543178573E-1    2.849828893566596E-6   -1.211311219359457E-5   -2.347073517126417E-5    6.709487698476024E-6    5.786558565065443E-1   -8.115675675866516E-1
 7.179428713858424E8     5.861182792619363E-1   -8.184744618989027E-1    2.996219879505206E-6   -4.501561345126661E-6    3.221654267363148E-8   -4.579248706251749E-6    5.673955258635726E-1   -8.201473925336006E-1
 7.279129112662014E8     5.752092106011329E-1   -8.269027893375650E-1    1.584394622269142E-5    7.230221266341431E-6   -1.159702108196725E-5   -6.643371771764540E-6    5.560018923923947E-1   -8.287021739826376E-1
 7.378829511465603E8     5.640361257780625E-1   -8.356250848842833E-1   -1.721057273710064E-5    7.711007780618954E-7    2.388052591920774E-6    4.311225063356794E-6    5.448149928185159E-1   -8.370381923980920E-1
 7.478529910269192E8     5.519974927283254E-1   -8.442011204533512E-1    9.640341635457833E-7   -1.937632957997084E-5    1.517593905151915E-6    1.130919290499321E-5    5.336269620680500E-1   -8.446988653641356E-1
 7.578230309072782E8     5.393525864089512E-1   -8.513182470219226E-1    1.383716337659803E-5   -1.396341264182859E-5    2.608122235123583E-5   -8.702005278749138E-7    5.226044024625174E-1   -8.516960799755523E-1
 7.677930707876371E8     5.289643487709876E-1   -8.567579692713581E-1    7.137014633356612E-6   -9.149141777050600E-6    4.712301869564711E-6    1.886041931354184E-6    5.113189397755892E-1   -8.581449584715315E-1
 7.777631106679960E8     5.193643100401533E-1   -8.637096636777181E-1   -5.994208514764439E-6   -6.170234203764599E-6    1.210708164653773E-5   -1.846136537248451E-6    4.998126461452773E-1   -8.646930275973390E-1
 7.877331505483550E8     5.091221662671241E-1   -8.707054192790226E-1   -2.811657168339892E-7    6.036655443303100E-6    1.780780336978704E-6   -1.351159204934706E-5    4.878716116024881E-1   -8.713510447038793E-1
 7.977031904287138E8     4.978544703641072E-1   -8.770979226615617E-1    7.191208596278905E-6    1.036804954286888E-5   -1.192951587884008E-6    2.570849571208020E-6    4.751496089061373E-1   -8.776787533284213E-1
 8.076732303090727E8     4.860682998725342E-1   -8.828723244529637E-1   -7.862411982456569E-6   -6.629660457384615E-6    2.259496585361839E-5    1.272760798108189E-5    4.624155038370806E-1   -8.840166380441032E-1
 8.176432701894317E8     4.741381017412727E-1   -8.889004454899149E-1    7.844058455755734E-6   -1.689626100433564E-6    2.848311925108553E-7    1.043886215993744E-6    4.494585250819012E-1   -8.904380752912077E-1
 8.276133100697906E8     4.618795684162643E-1   -8.954157909292205E-1   -2.075519055858494E-6   -9.117473991400201E-6    1.267971853344504E-5   -8.420002636931164E-6    4.369645290885462E-1   -8.969017913540942E-1
 8.375833499501495E8     4.493983333371430E-1   -9.018628923576508E-1    9.622973458344183E-6   -2.968444607171108E-6    1.503007134907373E-6   -3.995497125426834E-6    4.246697747140933E-1   -9.035769982310377E-1
 8.475533898305085E8     4.365093392266333E-1   -9.082049469543139E-1   -4.775330688058468E-6    2.762046133805609E-6    2.154879597210743E-5    6.970530569071255E-6    4.128820348973615E-1   -9.097325693994903E-1
 8.575234297108674E8     4.236833807293761E-1   -9.145672401769387E-1   -5.498844213268500E-6    3.322080663961185E-6    1.088312881175374E-6   -1.169017241122638E-5    4.011419282487106E-1   -9.151977251177875E-1
 8.674934695912263E8     4.108850438569975E-1   -9.213508974461729E-1    2.923810967304634E-6   -2.004686925078225E-6    1.549176990756777E-6    7.824020374856990E-6    3.890789190365426E-1   -9.198987877467183E-1
 8.774635094715853E8     3.977893183233834E-1   -9.279328927558897E-1    8.170395763955881E-6    1.566682311684795E-5   -6.956014407449627E-6    8.072180558345248E-6    3.763316670188172E-1   -9.244693502567243E-1
 8.874335493519442E8     3.847191919900126E-1   -9.324611061833633E-1    4.314647200425638E-6   -2.217105066400570E-6    1.495159957613080E-5    1.968008882742868E-5    3.633321724344370E-1   -9.289150758402218E-1
 8.974035892323031E8     3.734048143257864E-1   -9.360379624685244E-1    3.892769358277267E-6    1.383820430028745E-5   -3.429911230174694E-6   -3.655464368757087E-6    3.497965066693249E-1   -9.333478064239985E-1
