#  HZ   S   RI   R     50.00 
! Rohde & Schwarz Vector Network Analyzer 
! Rohde-Schwarz,ZNB20-2Port,1311601062102128,3.60
! Created: UTC 4/29/2024, 3:56:33 PM
! freq[Hz]                re:S11                  im:S11                  re:S21                  im:S21                  re:S12                  im:S12                  re:S22                  im:S22
 1.000000000000000E5     9.962318776848605E-1    4.957507332143451E-3   -1.578732742930658E-4    5.359227995615040E-5    5.174554193767478E-5   -1.033482588983324E-4    1.010881678646054      -1.082075359965616E-2
 1.007003988035892E7     9.975585114325657E-1   -1.433083012994125E-2   -2.259700530892103E-5    7.460119938801802E-6    6.632642106639558E-8    1.097350348550558E-5    9.957085829903856E-1   -1.455710385350775E-2
 2.004007976071785E7     9.995024609363942E-1   -2.748716556963881E-2    1.913779624255166E-5   -1.487479872563349E-5    1.072565012263854E-5   -1.366255764321654E-5    9.986149466749886E-1   -2.772582100703162E-2
 3.001011964107677E7     9.975944024621086E-1   -4.104801299436227E-2   -2.191957733104679E-6    5.042332984298183E-6    1.655284753035096E-5    1.772763018066060E-5    9.975185656214333E-1   -4.209171703046777E-2
 3.998015952143569E7     9.976301537241324E-1   -5.293985978966863E-2   -3.321943455419796E-6    7.923359630157499E-6   -1.143851176170275E-5   -1.405604695050544E-5    9.976712242117338E-1   -5.671640050347291E-2
 4.995019940179461E7     9.962042674854260E-1   -6.575263939902061E-2    4.431977726170819E-6    1.662529116501921E-5   -9.460538758709867E-6   -8.021493373968148E-7    9.966074404596438E-1   -6.924015230446079E-2
 5.992023928215354E7     9.943335551366680E-1   -7.874380609254542E-2   -5.496185731014915E-6    2.517343042384553E-5   -3.519503448932240E-6   -5.360890657898495E-6    9.947018257768354E-1   -8.202411343684850E-2
 6.989027916251247E7     9.930307548149511E-1   -9.169685247349356E-2   -1.613412945853682E-6    2.701942607658294E-6   -9.279593502468324E-7   -1.034149742436009E-5    9.933896407472795E-1   -9.490499295624248E-2
 7.986031904287139E7     9.922851395890472E-1   -1.049230332258635E-1   -1.227910390502259E-5    8.641223797780220E-6   -5.678792274901265E-6   -1.115835571418473E-5    9.923595010996784E-1   -1.081366414119885E-1
 8.983035892323031E7     9.913734042286506E-1   -1.185543164716573E-1    3.214793069386248E-6   -1.316642321241661E-6    8.704254273851021E-7    5.276208419253507E-6    9.908691231433742E-1   -1.212534385661018E-1
 9.980039880358922E7     9.893621979590501E-1   -1.320997849404852E-1    2.115640035763066E-6    1.276387853805138E-6   -2.389417070705904E-5   -7.231933331325710E-6    9.886622075584844E-1   -1.346920750627727E-1
 1.097704386839482E8     9.865693484612147E-1   -1.453218392881579E-1    1.602998821709672E-5    1.110751441994512E-5   -3.392619890395469E-6   -4.462889212978097E-6    9.861906219623610E-1   -1.479071941756940E-1
 1.197404785643071E8     9.848653874457308E-1   -1.587532342326388E-1   -2.638663382607547E-6   -7.818547528028335E-6   -1.616666159250380E-5   -5.570354991592649E-8    9.842124897021562E-1   -1.612558877603583E-1
 1.297105184446660E8     9.830393532001819E-1   -1.715730384747473E-1   -1.467558367800274E-6    1.368890307872845E-5    1.633190609844255E-5    7.166537401879981E-7    9.828757431208132E-1   -1.744934610575231E-1
 1.396805583250249E8     9.816182365939371E-1   -1.845178965733085E-1   -1.725021105473903E-7   -8.531807968800667E-6   -9.289954725289891E-7   -1.655091568915497E-6    9.809871648031221E-1   -1.876888288575555E-1
 1.496505982053838E8     9.788227193754686E-1   -1.968845227043059E-1   -4.624264248556966E-6   -9.825718709974223E-6    1.250237872858735E-6   -1.292590499072479E-5    9.784423135406596E-1   -2.004290979274055E-1
 1.596206380857428E8     9.761441859326589E-1   -2.093639393701269E-1    3.132079088263290E-6   -9.483574524159381E-6    7.067622190457110E-6   -2.947591910639333E-6    9.757200598924067E-1   -2.132477654335488E-1
 1.695906779661017E8     9.732509799044954E-1   -2.221446689889026E-1   -3.584727713660512E-6   -1.470439758598247E-5   -8.306982487462160E-6   -1.008814156517938E-5    9.727764825212745E-1   -2.261513834131137E-1
 1.795607178464606E8     9.707786088800691E-1   -2.346044390347408E-1    3.171936130994061E-6   -5.319042659032800E-6   -1.375323676898584E-5    1.558795452255004E-5    9.703418949768385E-1   -2.381707275076277E-1
 1.895307577268195E8     9.677699983765077E-1   -2.468182471513372E-1   -2.073197631403847E-6   -8.201040913675602E-6    2.819300353542055E-6    8.233170843495203E-6    9.667434786861721E-1   -2.505564555821267E-1
 1.995007976071784E8     9.638775736836672E-1   -2.593127735213153E-1   -1.273798969925953E-6    6.072836502691047E-6   -1.133080732188447E-6   -1.060715618775131E-5    9.627248725825170E-1   -2.632849070139882E-1
 2.094708374875374E8     9.604383862760910E-1   -2.721499131700533E-1   -2.802418937635771E-7    1.790870662536348E-6   -2.401325679794147E-6   -7.686482787336239E-6    9.589349426442673E-1   -2.762137038158894E-1
 2.194408773678963E8     9.574675398840677E-1   -2.848626306578511E-1   -7.052918660081874E-6   -1.336721153356584E-5    1.095810181592255E-5    1.425460607332946E-5    9.551675806939843E-1   -2.892321353169655E-1
 2.294109172482552E8     9.537486767938855E-1   -2.971709174116968E-1   -9.727649643983836E-6   -4.653067167092028E-6   -3.099901225500603E-6    1.278384705309351E-5    9.510181466771075E-1   -3.019297765352107E-1
 2.393809571286142E8     9.506367644624939E-1   -3.092623208058424E-1    4.373235865276465E-6    1.901473246536432E-5    9.732386106796791E-6    3.328855026492258E-6    9.469048998861032E-1   -3.141304586418929E-1
 2.493509970089731E8     9.468390505010795E-1   -3.230687525867269E-1    8.704793855129606E-6    5.787871153087671E-6   -1.075795003227685E-5    1.226879919219514E-5    9.441595910144270E-1   -3.277333349722313E-1
 2.593210368893320E8     9.427269402577524E-1   -3.350529754530760E-1    1.216601718575742E-6    3.187339421181450E-6    1.426601468942132E-5   -9.155489276921703E-6    9.398552086080798E-1   -3.408812406961697E-1
 2.692910767696909E8     9.385702501579001E-1   -3.465084406807047E-1    1.173782514649387E-5    5.963726603884850E-6    1.198539289232661E-5    1.356067438793159E-5    9.355984811019006E-1   -3.528977183408340E-1
 2.792611166500499E8     9.339160655890352E-1   -3.581867003536711E-1    2.385256423839180E-6   -4.970110688372231E-7    2.295501140739229E-5    1.440321356942089E-5    9.310208346795209E-1   -3.647047277532499E-1
 2.892311565304088E8     9.290792232475484E-1   -3.701526887779208E-1   -5.181315635140701E-6    1.590546231194712E-5   -1.482477676372144E-6    1.118598882773334E-5    9.262806507802732E-1   -3.768558685330355E-1
 2.992011964107677E8     9.242007976488287E-1   -3.822133830913951E-1    6.012408443507304E-6    7.419227437772339E-6   -7.907631407716373E-6   -6.485022766787896E-6    9.211947842985646E-1   -3.886234677668826E-1
 3.091712362911266E8     9.189748152808884E-1   -3.947424106941000E-1   -1.226897716231168E-6    1.094869772715599E-6   -1.758751699035596E-5   -2.184090844475975E-5    9.157649241510312E-1   -4.001799611291136E-1
 3.191412761714855E8     9.134587440659506E-1   -4.069920642211902E-1    1.341296653467319E-5   -1.362707104183715E-6    1.669088857681151E-5   -1.111463477757171E-5    9.099022730077450E-1   -4.119660642332264E-1
 3.291113160518445E8     9.078998748360831E-1   -4.197852846241263E-1    9.722787688072233E-6    4.908485833768204E-6   -8.080486929295847E-7    1.924671914843207E-6    9.035181507932185E-1   -4.244485115265986E-1
 3.390813559322034E8     9.021046007757579E-1   -4.325717537097952E-1   -8.645063672987152E-6   -6.152697991318783E-7    3.023246367220485E-6    1.824381879342057E-5    8.968982972400212E-1   -4.369669183055468E-1
 3.490513958125623E8     8.967638667135176E-1   -4.451126299786106E-1   -4.698927694600263E-6   -1.668010244236841E-7    9.272972857905868E-6    5.993897934468164E-6    8.903775201232739E-1   -4.494546045705644E-1
 3.590214356929212E8     8.915155336092769E-1   -4.576588208803971E-1    1.111949511681588E-5    4.583496711525736E-6    6.487742328588079E-6   -1.988157681987699E-5    8.845472100176143E-1   -4.621596660360621E-1
 3.689914755732802E8     8.862562750962680E-1   -4.698912670098743E-1   -9.210050658666738E-6   -9.719114515189372E-6    1.627712026277704E-5   -8.914375113338014E-7    8.791250034222855E-1   -4.748229591438374E-1
 3.789615154536391E8     8.799524539123141E-1   -4.809374462677286E-1    1.016121909559760E-5    3.675918249086504E-6    5.675225760319852E-6   -3.330936077563876E-6    8.738378893179179E-1   -4.868726704360439E-1
 3.889315553339980E8     8.741583928062251E-1   -4.916792375455828E-1    1.082477238593863E-5   -2.217265328451898E-6   -5.826715744251688E-6    3.028608826757568E-6    8.679660585885602E-1   -4.987934276537097E-1
 3.989015952143569E8     8.675301645675937E-1   -5.024388791000772E-1   -3.198272298562103E-6   -1.654219795609324E-5    3.345887689651541E-6    1.298105044941023E-5    8.611217610517803E-1   -5.096962993897111E-1
 4.088716350947158E8     8.604470200457774E-1   -5.133617352836746E-1   -1.228324421160177E-6    1.318809632301586E-6    2.057466217702541E-5    4.561315910218529E-6    8.543419926033600E-1   -5.206129706438903E-1
 4.188416749750748E8     8.534903778452803E-1   -5.248705016460015E-1   -1.175972833179593E-5   -1.381135708976140E-6   -4.855591222591472E-6    5.680038418583496E-6    8.477219983058522E-1   -5.315077297020456E-1
 4.288117148554337E8     8.461100137059139E-1   -5.364770317483235E-1   -3.392383439716133E-6    4.678261479851664E-6    5.580108947030023E-6   -1.193818369142065E-5    8.406562608266758E-1   -5.417463303528437E-1
 4.387817547357926E8     8.382442963991201E-1   -5.478232550987947E-1   -8.202935958075688E-7   -2.000118586178745E-6   -1.388618260873096E-5    5.973783008150711E-6    8.326571521174538E-1   -5.521973149589824E-1
 4.487517946161516E8     8.307363143655123E-1   -5.598146056878619E-1    9.157922124135077E-6   -1.744484971251220E-5    1.088133600216499E-5    7.451901452300191E-6    8.242176279063833E-1   -5.634204623035733E-1
 4.587218344965104E8     8.238938708615392E-1   -5.718862852066793E-1   -2.062468632490279E-5    1.447675689692538E-5    3.515373090711909E-6    9.088753332251237E-6    8.161523620448635E-1   -5.753404214036960E-1
 4.686918743768694E8     8.172441261167013E-1   -5.831379884485544E-1   -3.049625833825023E-6   -6.396875885753447E-6   -9.176508226557999E-6    5.799074237406709E-6    8.078334839558979E-1   -5.868237664138949E-1
 4.786619142572283E8     8.098462635695624E-1   -5.937449623419309E-1   -6.997996150497914E-6   -8.181208371774218E-6   -2.984374478032505E-6    3.714664767139173E-6    7.991911086061492E-1   -5.980163976013958E-1
 4.886319541375872E8     8.023916528325096E-1   -6.042378872475893E-1    2.862285992091247E-6    1.021660745999343E-6    6.452610670968592E-6   -1.174744574528311E-6    7.905107981723691E-1   -6.088819279741701E-1
 4.986019940179462E8     7.942964990510549E-1   -6.150362625325383E-1    2.015108366633344E-5    2.460609005553042E-6    6.896461279402639E-6   -2.053286645994754E-5    7.823574987437212E-1   -6.196975910693898E-1
 5.085720338983051E8     7.860584643356098E-1   -6.243068119515899E-1   -1.244484961651826E-5   -5.498073464156296E-6    1.205907586137173E-5    3.334743540543580E-7    7.746790257811563E-1   -6.302615894465867E-1
 5.185420737786640E8     7.785295017077632E-1   -6.332917075695944E-1    1.924478290657831E-5    7.212739067315272E-6    8.070873464852702E-6    6.663345623514721E-6    7.670022115483451E-1   -6.400442062622972E-1
 5.285121136590229E8     7.700334234550709E-1   -6.427202456899196E-1   -2.630810420573908E-6   -5.736564276838553E-6    3.337633341437953E-6   -1.170706687044624E-5    7.590107545448037E-1   -6.497380062627004E-1
 5.384821535393819E8     7.615911639797960E-1   -6.529559002053570E-1   -1.378727684405131E-5   -1.692747033242322E-6    1.712414378696172E-6   -8.172227355990406E-6    7.509694272725426E-1   -6.592980904607799E-1
 5.484521934197408E8     7.534935747505483E-1   -6.636856925894591E-1    9.912727890067227E-7   -1.500380405372821E-6    6.753139044826589E-6    6.176587954468455E-6    7.425196451481361E-1   -6.692142836924621E-1
 5.584222333000997E8     7.449573591356531E-1   -6.745550016265176E-1   -3.217383121391062E-6   -1.425979958042772E-5    5.379523257932233E-6   -1.505974838300123E-5    7.334251109562299E-1   -6.791385524285815E-1
 5.683922731804587E8     7.356678395643258E-1   -6.848419888783467E-1    1.104041649879452E-5    7.529010618143807E-6   -1.311540099013606E-6   -6.943444208476979E-7    7.232570410074005E-1   -6.891444272197862E-1
 5.783623130608176E8     7.263836106379313E-1   -6.947301096222946E-1    5.011205492778687E-6    6.817943271766297E-6    4.941338132159178E-6   -3.449863880708896E-6    7.126555455836490E-1   -6.989089661692789E-1
 5.883323529411764E8     7.172725741284603E-1   -7.048435855666496E-1    5.618387202780991E-6   -4.765571248265947E-6   -5.457407429799802E-6    2.704968216784266E-6    7.023062461528466E-1   -7.085675579816509E-1
 5.983023928215353E8     7.082307557226304E-1   -7.149429046008851E-1   -8.671204457245111E-6    1.219791257364661E-5    5.033098904792235E-6    3.876178829417180E-6    6.919201002336794E-1   -7.182107730410757E-1
 6.082724327018943E8     6.987390222701131E-1   -7.246017091827757E-1    1.374003057890884E-5    1.350200264469535E-5   -5.767499820533260E-6   -3.569063463368739E-6    6.816967544079436E-1   -7.276949036676911E-1
 6.182424725822532E8     6.888107803895098E-1   -7.342452567940254E-1   -1.691886006166066E-5    5.643021651229836E-7    9.222666198333465E-6    1.668478859481596E-5    6.718368104383204E-1   -7.370155143440372E-1
 6.282125124626122E8     6.782279054914591E-1   -7.436446373962581E-1   -2.025296864726303E-6    3.555179082099699E-7   -3.217857987941167E-6    7.456443446699639E-6    6.628838210952031E-1   -7.466802585304994E-1
 6.381825523429711E8     6.685347835835252E-1   -7.508773817212447E-1   -1.918980288003162E-5    6.676835785604980E-6   -6.528437135812764E-6    1.476764803029237E-6    6.539001420910454E-1   -7.554693711406933E-1
 6.481525922233300E8     6.596534471625650E-1   -7.594525879816058E-1   -5.983920847019205E-7   -6.400898425596255E-6   -1.488484699407257E-5    2.208812358295596E-6    6.449075156209085E-1   -7.639966246005945E-1
 6.581226321036890E8     6.499244256756443E-1   -7.683816612636620E-1   -1.941557079703384E-5   -7.016706020028782E-6    1.400066482144427E-5    4.828597144274694E-6    6.347445217793340E-1   -7.722811746307828E-1
 6.680926719840479E8     6.398616001142532E-1   -7.769942147928097E-1    4.323543815294477E-6   -7.953739465101016E-6    1.423536560282728E-6   -2.440215331532514E-6    6.241472297611362E-1   -7.803782725392431E-1
 6.780627118644068E8     6.299971320703160E-1   -7.851243359252430E-1   -1.362088744223463E-5   -1.293666498432111E-5   -2.365223152447986E-6   -6.928903135128562E-6    6.131419311672103E-1   -7.882889545685878E-1
 6.880327517447658E8     6.197580382132106E-1   -7.935430264022493E-1    1.088221966763580E-6    8.701228597769390E-6    5.823289791796529E-6    1.620232414566695E-5    6.017979050280949E-1   -7.958870206539764E-1
 6.980027916251246E8     6.088912179497799E-1   -8.018007927015103E-1    1.659785947669021E-5   -7.445829819242656E-6    7.491415050877273E-6   -8.754843367100826E-6    5.901056197528377E-1   -8.034712142530873E-1
 7.079728315054835E8     5.973565074011462E-1   -8.099773117546886E-1   -1.742961104703002E-6   -3.139460282244299E-6   -5.705710831333227E-7   -2.475831919377284E-5    5.786114294613327E-1   -8.114323301265205E-1
 7.179428713858424E8     5.861779244795821E-1   -8.184139437517398E-1    2.988594853159241E-6    9.022429639622967E-7    4.723616831395866E-6   -2.118825844143138E-6    5.674351782617253E-1   -8.200948107580426E-1
 7.279129112662014E8     5.752075902919538E-1   -8.268346848280480E-1   -9.549688320725036E-6   -2.347353931977458E-5    1.078253959630889E-6   -7.400642604574159E-7    5.561397219380482E-1   -8.287652391978622E-1
 7.378829511465603E8     5.640567749438685E-1   -8.355911061597522E-1    5.872844386439564E-6   -8.935827587030787E-6    1.255021734031602E-5   -8.863825907151881E-6    5.448009963944239E-1   -8.370973652021436E-1
 7.478529910269192E8     5.519925153587721E-1   -8.441448083560148E-1   -4.255035920180547E-6    4.905233478569004E-6   -2.834953901787398E-6    1.500269715008727E-5    5.335658188932048E-1   -8.446993311635871E-1
 7.578230309072782E8     5.394130002563303E-1   -8.513396221154852E-1   -9.137194728886233E-7    8.507590554845360E-6   -3.997227814531356E-6   -7.801730622189456E-6    5.225767365093156E-1   -8.515876667295142E-1
 7.677930707876371E8     5.290037560934953E-1   -8.567491170133920E-1   -4.538622843503890E-6    5.954929518291097E-6   -2.101737187503749E-6    4.473072801913435E-6    5.112886865644507E-1   -8.581889791144940E-1
 7.777631106679960E8     5.193894953030718E-1   -8.636278123409123E-1   -9.619529138792616E-6    7.490998957429969E-6   -5.349251302052319E-7    1.613031432888770E-6    4.996979550286710E-1   -8.648157149487194E-1
 7.877331505483550E8     5.090221762917996E-1   -8.705625686178461E-1    1.479608796506328E-6   -3.953649392300751E-6    2.007686904068897E-5    1.019460668752266E-5    4.879862095663411E-1   -8.713105167819615E-1
 7.977031904287138E8     4.979014440482858E-1   -8.770534925411069E-1    1.435356148812633E-6   -3.028507921206170E-6    1.465367527646994E-5    1.235050386404590E-6    4.751293888680116E-1   -8.776774914206985E-1
 8.076732303090727E8     4.861520950014587E-1   -8.828661862331419E-1   -7.867958685663376E-6    4.998685677950517E-7    4.310030385956955E-6    1.718817289958749E-5    4.623197753431491E-1   -8.838340158159731E-1
 8.176432701894317E8     4.741850270939800E-1   -8.889406079026850E-1   -5.648737319385062E-6    3.570124849471058E-6   -1.275519894596712E-7    6.996997071569960E-6    4.495840316551586E-1   -8.903399062435333E-1
 8.276133100697906E8     4.619078173752981E-1   -8.952759790350105E-1   -7.787736400282355E-6    3.229935684983371E-6   -9.879347001899049E-6   -2.601597837554121E-6    4.368680099559522E-1   -8.969387156660621E-1
 8.375833499501495E8     4.492991331009771E-1   -9.017980483637316E-1    4.843663332531326E-6   -6.811226359502735E-6    3.955089210173070E-6   -1.982781237154773E-6    4.246685810774017E-1   -9.035462129499441E-1
 8.475533898305085E8     4.365456806824795E-1   -9.082567464123078E-1   -9.895486297911353E-7   -8.407240088375339E-6   -5.610701151099231E-6    4.144375806978055E-7    4.128397863021082E-1   -9.096140019638850E-1
 8.575234297108674E8     4.236525095819532E-1   -9.145141593471507E-1    1.380849260638661E-6   -1.609700860397545E-6   -1.417234955897933E-6    5.159317185675082E-6    4.010799699905694E-1   -9.150019726211248E-1
 8.674934695912263E8     4.108758813077919E-1   -9.213739157168074E-1    1.934817669390145E-5    1.062173843491276E-5   -9.769863430243408E-6   -2.889418306857824E-6    3.891185850831674E-1   -9.198403948623719E-1
 8.774635094715853E8     3.977586341672615E-1   -9.277792980923190E-1   -1.213586432320308E-5    8.539625031436195E-6   -5.179490566874691E-6    4.659589279048596E-6    3.764238123880330E-1   -9.245310009227777E-1
 8.874335493519442E8     3.846985193737668E-1   -9.324538353588654E-1    1.532303870805382E-5    6.493669009805186E-6   -1.356981287742766E-5    1.792310660723916E-6    3.633214972716521E-1   -9.289873094334210E-1
 8.974035892323031E8     3.733517221181018E-1   -9.360784705406402E-1   -9.288497160408217E-7    1.585835712994851E-7   -1.002083000161245E-5    1.172347743700285E-6    3.497773014135306E-1   -9.332752684705501E-1
