#  HZ   S   RI   R     50.00 
! Rohde & Schwarz Vector Network Analyzer 
! Rohde-Schwarz,ZNB20-2Port,1311601062102128,3.60
! Created: UTC 4/29/2024, 3:56:30 PM
! freq[Hz]                re:S11                  im:S11                  re:S21                  im:S21                  re:S12                  im:S12                  re:S22                  im:S22
 1.000000000000000E5     9.963733592469539E-1    4.687147162640836E-3    2.014965124017188E-4    2.935679305187566E-5    3.537821299247361E-5   -8.449199710226717E-5    1.010941440876483      -1.098255207601581E-2
 1.007003988035892E7     9.974642905503885E-1   -1.396810177239582E-2   -5.183405202060673E-6   -3.306264307651769E-5    4.673584435675675E-6    1.258616838367890E-5    9.958818650710065E-1   -1.450550003935751E-2
 2.004007976071785E7     9.998125858505292E-1   -2.733239188221410E-2   -2.478103851625586E-6    1.284119660660122E-5   -1.666029969943884E-5    1.350560510154262E-5    9.986804800962807E-1   -2.781548908032882E-2
 3.001011964107677E7     9.978588070605151E-1   -4.096369167344940E-2    2.288624582176467E-6    2.562177802152624E-6   -1.222050912936461E-5    1.784034234849519E-5    9.975698687526895E-1   -4.208517026690659E-2
 3.998015952143569E7     9.975963885869559E-1   -5.299231669885046E-2   -3.115036600331380E-6    7.886027841391573E-6   -7.533884008988217E-7   -2.237126341331835E-5    9.977802606927110E-1   -5.675679285484714E-2
 4.995019940179461E7     9.960882667000975E-1   -6.587412104506549E-2    1.780657588646141E-5    1.393872787967856E-6   -4.470162817761255E-6   -3.508872172939013E-6    9.965121529706188E-1   -6.917005889033412E-2
 5.992023928215354E7     9.941656747684102E-1   -7.864558204400186E-2    1.010552644387317E-5    4.266199789914723E-6    2.095173551596160E-5   -1.907071804925426E-5    9.946260996047922E-1   -8.197437366571407E-2
 6.989027916251247E7     9.928826262612327E-1   -9.168351402501383E-2    1.075812382348111E-5   -6.488556437029299E-6    3.293180486223390E-6    4.482388425096765E-6    9.935192094789225E-1   -9.489863697594883E-2
 7.986031904287139E7     9.922150739309606E-1   -1.050600014588898E-1   -4.548067106913669E-6    1.168796540294322E-5    3.451064172035534E-6   -2.219616176996657E-5    9.924470785875719E-1   -1.080704931696343E-1
 8.983035892323031E7     9.913432644018181E-1   -1.186545878487797E-1   -4.517913775772658E-6    5.215465121592515E-6   -7.544056868134797E-6   -4.950510801480819E-6    9.907462429083845E-1   -1.212806258860925E-1
 9.980039880358922E7     9.893935155994462E-1   -1.321669861392836E-1   -1.155125653003912E-5   -5.201029000428125E-6   -6.846766485463545E-6   -6.383538195335810E-6    9.885270376706423E-1   -1.346832861854960E-1
 1.097704386839482E8     9.863730747804628E-1   -1.453631425115414E-1    1.694483517380276E-6    9.184672208855215E-6   -9.456370558668364E-6    4.921543429709160E-6    9.859249398574138E-1   -1.479594613881139E-1
 1.197404785643071E8     9.846629409115851E-1   -1.587661324549877E-1   -8.905615183510880E-6    5.816350660415007E-6    2.764360411155966E-6   -1.923235353776972E-5    9.841699789900468E-1   -1.613174179496356E-1
 1.297105184446660E8     9.828263842907503E-1   -1.716114450855696E-1   -1.117666832922632E-5   -1.766740812592230E-6   -5.265849882090854E-6   -6.229737555857924E-6    9.827776493637692E-1   -1.746082050859872E-1
 1.396805583250249E8     9.814178799661424E-1   -1.846100928221815E-1   -3.232217516083179E-6   -6.576090584768247E-7    9.321497595482059E-6    2.880998988144861E-6    9.809606038519194E-1   -1.876311561557757E-1
 1.496505982053838E8     9.790724350940379E-1   -1.969498177668064E-1   -6.273786959152683E-6   -6.922388954303764E-7    9.115171939670977E-6    1.410351370040129E-6    9.783993910853371E-1   -2.004499963269856E-1
 1.596206380857428E8     9.761909141710593E-1   -2.094240619197618E-1    9.519519458678273E-7   -1.851255750389697E-6   -4.830607813901433E-6   -3.724322575764177E-6    9.755527364760977E-1   -2.133165830998431E-1
 1.695906779661017E8     9.730440101639428E-1   -2.221567374690914E-1   -1.827711060876438E-5   -1.175833295508349E-6   -4.332041884917859E-6    3.321122091255308E-7    9.727915715802438E-1   -2.261174179084569E-1
 1.795607178464606E8     9.706118396025525E-1   -2.346534449577583E-1   -2.476857676129866E-6    2.746409576626093E-6    5.591670241681884E-6    3.296985970991237E-6    9.702428323748740E-1   -2.380978789375898E-1
 1.895307577268195E8     9.676688721141649E-1   -2.468765373874074E-1    1.999077365183166E-7    2.249344725863741E-6   -5.805566126869802E-6   -1.007070012124566E-5    9.668629968063422E-1   -2.505081967121803E-1
 1.995007976071784E8     9.638692023005107E-1   -2.593579500664042E-1    1.338846330796257E-6    4.199655708414244E-6    3.867631367499088E-6   -9.123216346688728E-6    9.626334629466150E-1   -2.631363343085663E-1
 2.094708374875374E8     9.602635814712993E-1   -2.721189645205956E-1    6.661688016294299E-6    8.910447967179581E-6   -1.169649403522977E-6   -7.930583949559589E-6    9.588294192147260E-1   -2.761824827519024E-1
 2.194408773678963E8     9.572754822619505E-1   -2.849098299256832E-1   -2.402097757838131E-6    3.135201704445023E-6   -1.461732532259056E-6    3.769310082329990E-6    9.552037323214609E-1   -2.892978347669844E-1
 2.294109172482552E8     9.538268111238473E-1   -2.972686063907269E-1   -5.811951161488798E-6   -8.572161918154584E-6   -1.659203824878575E-5    5.077392168033059E-7    9.509014665022819E-1   -3.019618359472305E-1
 2.393809571286142E8     9.506678538883705E-1   -3.094032291920121E-1   -7.686803254296722E-6    4.098043946111871E-6   -5.646683863542707E-6    1.692234012474130E-6    9.469398031618886E-1   -3.141009076005367E-1
 2.493509970089731E8     9.466939386543143E-1   -3.231411117535977E-1    1.204171921473271E-5    3.804282798074214E-6   -1.137225923181539E-5    1.467087121296254E-5    9.440320395749959E-1   -3.276700861666730E-1
 2.593210368893320E8     9.425393560014226E-1   -3.351609064776621E-1   -5.355015193084975E-6   -5.811800816792730E-6   -8.613690753189152E-6    1.075144976988587E-5    9.398296253247085E-1   -3.410107152397730E-1
 2.692910767696909E8     9.385364446958587E-1   -3.466295221245904E-1    1.726797245157593E-5   -9.272538165915203E-6    1.704790525163782E-6    5.091027195059330E-6    9.356082451365720E-1   -3.529552285384874E-1
 2.792611166500499E8     9.338945577591347E-1   -3.582163702629296E-1   -8.371862179559490E-6   -4.698815895612505E-6   -5.162557681095874E-6   -2.819241420067683E-6    9.308424312672804E-1   -3.645972867245510E-1
 2.892311565304088E8     9.288868642199389E-1   -3.701906019144616E-1   -2.628737758120742E-6   -1.747807749572472E-5    1.533299839040597E-5   -5.871467456534210E-6    9.260962392908585E-1   -3.768367282350957E-1
 2.992011964107677E8     9.240585943699735E-1   -3.822940899400928E-1   -6.115620986254439E-6   -7.385154154260582E-7   -6.786667581815081E-6    3.682803179778105E-6    9.213084982420414E-1   -3.886052916025668E-1
 3.091712362911266E8     9.189087074592777E-1   -3.946552539750388E-1    1.295890911613253E-5    7.898542284461870E-6   -8.345118902954887E-6   -1.533446070698110E-5    9.157959585713077E-1   -4.001159841013339E-1
 3.191412761714855E8     9.135064764670908E-1   -4.072035147650807E-1   -5.147306866219315E-6   -1.519840652732621E-5   -1.906352495344827E-6   -9.998519691223139E-6    9.099146288803239E-1   -4.119688577236311E-1
 3.291113160518445E8     9.078696499604637E-1   -4.198819147801318E-1    2.132448501394809E-8    1.003807292164569E-5    1.331302032966699E-5   -1.799026122206182E-5    9.034274856281888E-1   -4.243317639248356E-1
 3.390813559322034E8     9.020402163510942E-1   -4.325862759644765E-1    7.352269991799992E-6    1.155483629465567E-6   -7.614093407947380E-6    4.765229156537793E-6    8.967637901967074E-1   -4.368727935245003E-1
 3.490513958125623E8     8.966375084568280E-1   -4.450916273611961E-1    7.762788553043158E-6    4.252200559629816E-6    4.927857594929664E-6   -1.567446894672374E-5    8.906177699648123E-1   -4.494871879030282E-1
 3.590214356929212E8     8.914245020088037E-1   -4.576892910835568E-1   -6.460921530367705E-6   -8.299393114624393E-6    1.263604999661010E-5    4.168410356833700E-6    8.846155384925088E-1   -4.622090998379599E-1
 3.689914755732802E8     8.862763342521922E-1   -4.700316649320786E-1    2.600446230460061E-7    8.644900339108513E-6   -7.540957877094602E-7    7.884524116975793E-6    8.790012930448978E-1   -4.747655017565554E-1
 3.789615154536391E8     8.799632357466953E-1   -4.810760971462431E-1    4.993764152840471E-6   -8.186280503400119E-6   -6.948222213635969E-6   -1.312343278307149E-5    8.737263669645632E-1   -4.868070793206687E-1
 3.889315553339980E8     8.741045811031436E-1   -4.917213166805819E-1    5.443197924137282E-6    7.078397343733963E-6    2.245170059665698E-6    7.293295230288577E-6    8.679841556668306E-1   -4.988137702142557E-1
 3.989015952143569E8     8.673899235554379E-1   -5.024821019957953E-1    5.413714766242243E-6   -1.385690311222092E-6    1.715435996176199E-5    1.126629487953831E-5    8.612776957442642E-1   -5.096542968622467E-1
 4.088716350947158E8     8.603879029162036E-1   -5.134166539490489E-1    4.427276757688076E-6    2.152910665266978E-6    1.184465559339438E-5   -1.115958837904544E-5    8.542895958000940E-1   -5.205990671156731E-1
 4.188416749750748E8     8.534632871224905E-1   -5.249051884156276E-1   -1.245701425100512E-5   -8.903131936928636E-6   -1.774426135652483E-5   -1.729264496960771E-5    8.476884340846126E-1   -5.313673753047299E-1
 4.288117148554337E8     8.460602824438238E-1   -5.364226016754929E-1   -1.794032683789608E-6   -4.903544577900322E-6    9.732015974006193E-6    1.395649411350518E-5    8.406982249690925E-1   -5.418379408494809E-1
 4.387817547357926E8     8.382112962920003E-1   -5.479421328461616E-1    2.265115101611403E-6    2.048409033406601E-6    8.471806850042917E-6   -6.151337729353551E-6    8.328428155603579E-1   -5.522880128005430E-1
 4.487517946161516E8     8.306371719602222E-1   -5.598942342115137E-1    1.017791452584324E-6   -5.000547158798290E-7   -8.533034631442893E-6    1.087801414488358E-5    8.242526006229143E-1   -5.633871240122060E-1
 4.587218344965104E8     8.237615946332216E-1   -5.718838678277666E-1   -6.182881905186819E-6    6.321140434716195E-6   -1.020569779900185E-6    1.673687861728164E-6    8.159535548654321E-1   -5.751030910691096E-1
 4.686918743768694E8     8.170711799797263E-1   -5.832501847473104E-1    4.593668381387133E-7    7.830096873569865E-6    1.645616339635191E-5    1.241820257593926E-5    8.078812297392155E-1   -5.868432890488329E-1
 4.786619142572283E8     8.099288191266307E-1   -5.939873790296533E-1   -4.143173649607610E-6   -6.873275101058267E-6   -5.366401945168215E-6    1.295461940356232E-5    7.992974566753703E-1   -5.980452803437784E-1
 4.886319541375872E8     8.025035530616481E-1   -6.044228546847538E-1    7.707615001567565E-6    8.805463517052866E-6   -2.932042466134982E-6   -3.825628330828870E-5    7.906070569573613E-1   -6.089551467506809E-1
 4.986019940179462E8     7.942117386872143E-1   -6.151275327121001E-1   -1.086755177702671E-5   -8.961071863683191E-6    2.673662378555834E-7   -9.491686574658901E-6    7.822590831426517E-1   -6.196735331537527E-1
 5.085720338983051E8     7.857105633328305E-1   -6.241121106871403E-1    1.094589102300878E-6   -5.682699369413176E-7   -2.186419093698559E-5    8.404442919110898E-6    7.745862173598501E-1   -6.301722613374675E-1
 5.185420737786640E8     7.783643158854303E-1   -6.332478138181974E-1   -1.583467561225355E-6   -9.907818692199434E-7   -1.446190428669724E-5    2.247079708590916E-5    7.669973378344224E-1   -6.401288289466694E-1
 5.285121136590229E8     7.702626637158367E-1   -6.429741591057340E-1    2.670847041361483E-6    9.250485793917522E-6    5.774015571164547E-6    4.787227562363953E-6    7.591218790703311E-1   -6.497533347853581E-1
 5.384821535393819E8     7.616559217073697E-1   -6.531391765364259E-1    1.035837938519232E-6    1.174644724759149E-5    1.367926197090233E-5    1.183909798853484E-5    7.510283236262622E-1   -6.593784411536950E-1
 5.484521934197408E8     7.533079182184020E-1   -6.636029352758284E-1    2.967648934377465E-6    3.707660164586854E-6   -9.292912507541130E-7   -3.591144239268625E-6    7.424907725644815E-1   -6.692268648527376E-1
 5.584222333000997E8     7.446792123214698E-1   -6.743519714820997E-1    3.653780754409455E-6   -6.632567537904561E-7    1.041824061474498E-5   -1.727507602795978E-5    7.333241044753508E-1   -6.790910694839568E-1
 5.683922731804587E8     7.356647631296265E-1   -6.849390040479503E-1   -1.251706873769266E-5   -7.873413264679401E-6   -1.842419906471982E-6    1.116211914615858E-5    7.232612184446647E-1   -6.891554872861897E-1
 5.783623130608176E8     7.264650489112945E-1   -6.950255774542250E-1    3.069445093634325E-6   -6.081123760017647E-6    1.218791509655521E-5   -2.886435561296781E-5    7.127638753786740E-1   -6.988733297567695E-1
 5.883323529411764E8     7.173310365087627E-1   -7.050321066976580E-1   -5.997705338162907E-6   -3.254515087939837E-6   -4.737387272125644E-6    1.429382013020762E-5    7.021578559493948E-1   -7.085378888677214E-1
 5.983023928215353E8     7.078703210938702E-1   -7.148539914692896E-1   -2.043445287706590E-5    1.652768584764003E-5    8.838953728725268E-6    1.218651759078672E-5    6.917911348823410E-1   -7.181919741001774E-1
 6.082724327018943E8     6.985949142338181E-1   -7.245717495377946E-1    4.229051773282142E-6   -1.490593702084310E-5    5.274651426750191E-6   -3.277402644372162E-7    6.817063844994328E-1   -7.275991014546943E-1
 6.182424725822532E8     6.889233395231835E-1   -7.343723921454418E-1   -1.150532376472519E-5   -7.871391973885399E-6    1.132920766035578E-5   -1.193677213441498E-6    6.718698877430561E-1   -7.371630291166837E-1
 6.282125124626122E8     6.782723877866598E-1   -7.437509420091727E-1   -2.705649144069005E-6   -3.210134452136857E-6   -5.845323404617054E-6    1.751188676697490E-5    6.628886400572011E-1   -7.467604568252773E-1
 6.381825523429711E8     6.686055166177183E-1   -7.507472655961250E-1   -2.176885753270510E-5   -7.800641567643768E-6    5.449538257819901E-6    6.370876985529895E-7    6.538503064276870E-1   -7.554763224476488E-1
 6.481525922233300E8     6.595853647874006E-1   -7.593778698192392E-1    5.747354362542529E-6    7.211835365246410E-6    6.705168476569951E-6    7.730126084802632E-6    6.448347149318877E-1   -7.639645269719176E-1
 6.581226321036890E8     6.498936572369899E-1   -7.683558132950656E-1    1.383320379411949E-5    1.064214932447019E-5   -1.658241010974342E-6    6.388036593268585E-6    6.348179927622867E-1   -7.723325871002986E-1
 6.680926719840479E8     6.399819307487008E-1   -7.770127787891393E-1   -8.366618345625004E-6    1.210080312060227E-5   -4.578147493157981E-7   -8.346589440981695E-7    6.241424887709126E-1   -7.803434567438950E-1
 6.780627118644068E8     6.301724228769724E-1   -7.852297000137830E-1    3.918779549372427E-6   -6.654701600506508E-6   -1.887009701018118E-5   -3.399938630825947E-6    6.130600075188994E-1   -7.882836581464893E-1
 6.880327517447658E8     6.197633261910053E-1   -7.934681980049663E-1   -7.591096389669463E-6    8.716837697449669E-6    7.230739814539470E-6    1.361471699481092E-5    6.017307464781380E-1   -7.957388464121490E-1
 6.980027916251246E8     6.087690550092105E-1   -8.016096252283186E-1    4.256980014174927E-6    8.477031015894487E-7   -7.178522046335890E-6   -1.309831901429706E-5    5.901460384517875E-1   -8.034555045968813E-1
 7.079728315054835E8     5.973879611530530E-1   -8.100506305951561E-1   -9.127782198488614E-6   -1.000618850363719E-5   -1.172992717771903E-5    8.942676376695612E-7    5.786633567189233E-1   -8.116217675471673E-1
 7.179428713858424E8     5.863061301703821E-1   -8.186030796257965E-1   -4.485904129722579E-6    1.615863620567731E-5   -1.890621785042800E-5    7.501527365210408E-6    5.674935420387546E-1   -8.201518342753052E-1
 7.279129112662014E8     5.752317424752219E-1   -8.268264523069175E-1   -8.667095390573001E-6    2.931271317413627E-6    5.947270265088448E-6   -5.489614397820428E-6    5.559712059556379E-1   -8.287201883125487E-1
 7.378829511465603E8     5.639200273204023E-1   -8.355979473814106E-1    1.052052406837952E-6   -2.415687990164557E-6    4.309104453383778E-6   -5.257202552650411E-6    5.447165957420443E-1   -8.368835783360747E-1
 7.478529910269192E8     5.520991404495127E-1   -8.441619283103685E-1    8.606359827687176E-6    1.091355562767445E-5    6.403426293313486E-6   -7.953693496481012E-6    5.336589577925360E-1   -8.447050180550699E-1
 7.578230309072782E8     5.394158983845683E-1   -8.513080650370973E-1    9.893607775598631E-6    9.339679376317439E-6    4.039885398725288E-6   -2.314450609984913E-6    5.225813910806395E-1   -8.517117506099976E-1
 7.677930707876371E8     5.289661418176103E-1   -8.567623678534966E-1    1.470828664399137E-5    1.381086012489615E-5    7.205347278488949E-6   -1.215815116023376E-5    5.113088029606042E-1   -8.581220053831683E-1
 7.777631106679960E8     5.193439604139768E-1   -8.636814170997322E-1    1.811996046130504E-5   -1.118980061533003E-5    4.540185119722566E-7   -8.376284133347016E-6    4.997630199527076E-1   -8.645949849029397E-1
 7.877331505483550E8     5.090375772996758E-1   -8.706016595956305E-1   -8.941209338302081E-6    6.150785137448634E-6    1.322322137308785E-7    1.613401564824992E-6    4.879869402743881E-1   -8.713611902587877E-1
 7.977031904287138E8     4.978769137729660E-1   -8.770727046101312E-1    3.298053905197197E-6   -6.627155384143561E-6   -2.391824865987416E-5    1.781188195235406E-5    4.750707839144084E-1   -8.777750573534407E-1
 8.076732303090727E8     4.861893755636901E-1   -8.829746042895190E-1   -1.801911806283559E-6    1.290664655666152E-5    1.420378494314621E-5   -8.801700292590822E-6    4.623657048322564E-1   -8.839275682492419E-1
 8.176432701894317E8     4.742161014601040E-1   -8.889507966444008E-1   -6.788210987110448E-6   -1.520621167305500E-5   -8.834709401367863E-7   -1.035350883463827E-5    4.494338572868584E-1   -8.901581449523441E-1
 8.276133100697906E8     4.619175171940961E-1   -8.952410242755828E-1    1.155970217417700E-5    1.345359414101502E-7    1.469431091688499E-5    1.770225020774626E-6    4.368095149168058E-1   -8.969495964737860E-1
 8.375833499501495E8     4.493322288921829E-1   -9.018260199026928E-1   -5.087085197595476E-6   -1.271108043600112E-5   -1.311129986195765E-5    2.241025871436170E-6    4.247834892961489E-1   -9.036628809434953E-1
 8.475533898305085E8     4.365662483986981E-1   -9.083308943571962E-1    6.667214279913387E-6   -3.952101642432882E-6   -6.308309942062845E-6   -9.204959968947057E-6    4.128524093590364E-1   -9.097604142484361E-1
 8.575234297108674E8     4.237691112392694E-1   -9.146120437193525E-1   -2.931389031407267E-6    2.666726256381731E-6   -3.811338710171085E-6   -3.456641727720696E-6    4.011064465087730E-1   -9.149861345228330E-1
 8.674934695912263E8     4.107746486355568E-1   -9.211130807019975E-1    1.043601965816957E-5    9.046544771763454E-6   -7.262793405862918E-6   -6.802901919886686E-6    3.890460337681904E-1   -9.199548305870282E-1
 8.774635094715853E8     3.977392717366471E-1   -9.277647465666430E-1   -1.369490191458392E-6   -1.675209701618378E-6   -4.159811501642061E-6   -9.059701004481912E-6    3.764279335797671E-1   -9.246113984839366E-1
 8.874335493519442E8     3.847140730530011E-1   -9.324667127108318E-1    2.064354009624995E-6   -4.104389894832973E-6    1.532050180746048E-6   -8.633360818082872E-6    3.633240117164643E-1   -9.290180610262072E-1
 8.974035892323031E8     3.734504880473574E-1   -9.362483983747620E-1    5.635560385879276E-6   -6.518416732720436E-6   -4.725398278959218E-6    6.754477254392333E-6    3.497038869984473E-1   -9.333512163843400E-1
