#  HZ   S   RI   R     50.00 
! Rohde & Schwarz Vector Network Analyzer 
! Rohde-Schwarz,ZNB20-2Port,1311601062102128,3.60
! Created: UTC 4/29/2024, 3:48:29 PM
! freq[Hz]                re:S11                  im:S11                  re:S21                  im:S21                  re:S12                  im:S12                  re:S22                  im:S22
 1.000000000000000E5     9.963851334882877E-1    4.718349297477031E-3    5.261347168322855E-5   -8.631574634065898E-5    1.947296342242037E-5    2.561686436072922E-5    1.010808412542578      -1.096176743253497E-2
 1.007003988035892E7     9.974658952784736E-1   -1.370120793668154E-2   -3.969924958909178E-7    1.243261421789073E-5   -6.499428153441917E-6   -1.512711149358452E-5    9.958927125106110E-1   -1.444655909239262E-2
 2.004007976071785E7     9.999128020358340E-1   -2.721459384328708E-2    1.346328286611967E-5   -5.156878959699469E-6    1.310587889960732E-5   -8.085211156775023E-6    9.986646108931378E-1   -2.780423548545936E-2
 3.001011964107677E7     9.978345962664381E-1   -4.105006898519320E-2   -2.024246906732907E-5    7.181772201871710E-6   -2.626472425997613E-6    1.303577423588755E-5    9.977185360799246E-1   -4.205845389581987E-2
 3.998015952143569E7     9.975273502341598E-1   -5.302801736289944E-2    3.708330982673255E-7    2.004143014488379E-5   -4.577753933294966E-6    1.168846672635715E-5    9.977104152360377E-1   -5.678046840305236E-2
 4.995019940179461E7     9.959364720473548E-1   -6.596755064844116E-2    2.800447395507297E-5   -6.446419154765001E-6    3.385272318785843E-6    5.057997135739473E-6    9.964990807707000E-1   -6.912040349287528E-2
 5.992023928215354E7     9.941162926533673E-1   -7.870972292001771E-2   -9.664564896830262E-6    2.372320241862817E-6    3.154085839137314E-6    3.513584492661433E-6    9.947022501665533E-1   -8.207609163144909E-2
 6.989027916251247E7     9.929401322949803E-1   -9.171903402882080E-2    1.444646595918557E-5   -8.635283651801415E-7    4.693965072111741E-6    5.005373520056648E-6    9.934491338379579E-1   -9.483976450029266E-2
 7.986031904287139E7     9.923456982943580E-1   -1.051272268320338E-1   -1.918665939373807E-5   -7.439818555664154E-6    2.108476577980730E-5   -1.222981790384699E-5    9.924395888365377E-1   -1.080672620537740E-1
 8.983035892323031E7     9.912993836805899E-1   -1.186286445875883E-1    1.642704125962042E-6   -1.708612075638181E-5   -3.115017860105056E-6   -6.525799924128539E-6    9.908337396694539E-1   -1.212809638620853E-1
 9.980039880358922E7     9.891782283692825E-1   -1.322589823614966E-1   -1.451873651639569E-5   -4.447566216102248E-6    1.464258983870853E-5   -6.777671870905453E-6    9.885685668759240E-1   -1.345256738980317E-1
 1.097704386839482E8     9.863896907690753E-1   -1.453581393816182E-1   -9.103616028460913E-6    6.620654673413380E-6    1.217276015633515E-6    1.210264824068163E-5    9.859725966750247E-1   -1.479324990992227E-1
 1.197404785643071E8     9.847934113347130E-1   -1.588251088695032E-1    4.208451732734884E-6    1.070288581348372E-5    8.366846224001964E-6   -3.151414565444091E-6    9.843029994734080E-1   -1.611248798619467E-1
 1.297105184446660E8     9.828467346848497E-1   -1.715685658688281E-1   -2.123905269622555E-5    4.992454930018750E-6    1.111478601362482E-5    2.560577970247193E-6    9.828705183538617E-1   -1.746371877533550E-1
 1.396805583250249E8     9.815031422206126E-1   -1.845572733337576E-1    2.307289461272017E-6    1.683812559799919E-6    1.266027855699132E-6   -6.927768536388206E-6    9.809131117224295E-1   -1.876158963750173E-1
 1.496505982053838E8     9.789451358603567E-1   -1.969765240740993E-1   -1.196067143634987E-5   -4.851224817436724E-6    2.467188122348325E-6   -1.009891597638169E-5    9.784524473963462E-1   -2.005289894264662E-1
 1.596206380857428E8     9.761405363641652E-1   -2.093224049748763E-1   -5.467260991332881E-6    4.341992768997990E-6   -1.496012375748137E-6    4.299439514047033E-6    9.757311142690558E-1   -2.133812775981876E-1
 1.695906779661017E8     9.730473701334239E-1   -2.222969885458333E-1    6.018744496153397E-6   -7.983200763377725E-6   -8.966013353845521E-6    7.664020835038052E-6    9.728214463937451E-1   -2.261974145157560E-1
 1.795607178464606E8     9.705898480042178E-1   -2.346050228493480E-1   -1.352336640744484E-5    4.297954930916141E-6   -5.280989188269128E-6    5.559330065339897E-6    9.702524147377602E-1   -2.381620174320196E-1
 1.895307577268195E8     9.676219945887565E-1   -2.468421694540127E-1    7.914574850102021E-6    2.343653718697042E-6    3.928132365861092E-6    1.988638251852046E-5    9.667673905361122E-1   -2.505486873772140E-1
 1.995007976071784E8     9.638315925792776E-1   -2.592630936977841E-1   -6.392926717228884E-6    1.298054258452248E-5    1.053898010132735E-5    9.742158675435290E-6    9.626467996615337E-1   -2.633414243884864E-1
 2.094708374875374E8     9.603583262011753E-1   -2.720989371784547E-1   -8.200958549153996E-6   -1.382364964874740E-6    2.797325084809864E-6   -2.120556797304874E-5    9.588884528872494E-1   -2.762717410427808E-1
 2.194408773678963E8     9.572594309764282E-1   -2.848762616908998E-1    1.006680769494069E-5    6.567514370734628E-6    1.799461792158516E-5    2.849789048400783E-6    9.551175818685971E-1   -2.892910592764801E-1
 2.294109172482552E8     9.537132163192030E-1   -2.972399670747676E-1   -2.216450956636650E-5   -1.599774495786830E-5    7.370059590660862E-6   -3.392377818264452E-6    9.508964855707036E-1   -3.018350180502704E-1
 2.393809571286142E8     9.505270299908704E-1   -3.093280489033574E-1   -4.884463681051810E-6    3.148700549255156E-6    4.463220758248031E-6    8.484231906515703E-6    9.468639388611161E-1   -3.140928432548170E-1
 2.493509970089731E8     9.466822042523515E-1   -3.230490010714765E-1    5.192657329808704E-7   -1.164102202314549E-5   -8.189592363052587E-6    1.259485312448329E-5    9.441011192597721E-1   -3.277030743239742E-1
 2.593210368893320E8     9.426161312524642E-1   -3.351971983011910E-1   -7.238318979870377E-6   -6.671809800673462E-6    1.913355844560607E-5   -9.045683525517562E-6    9.398733282536587E-1   -3.409587994289760E-1
 2.692910767696909E8     9.386479991486666E-1   -3.466338944224335E-1    1.692156519106097E-6    5.740603795108180E-6   -1.813894284660574E-5    7.944844649602301E-6    9.355529801748944E-1   -3.528891192254778E-1
 2.792611166500499E8     9.338686012982604E-1   -3.581463044705896E-1   -6.064478575958274E-6    9.499591666479371E-7    6.148564557065195E-6    1.098102870282248E-5    9.309298496230939E-1   -3.647246457538164E-1
 2.892311565304088E8     9.288752808177146E-1   -3.702224814804548E-1   -4.913467285933042E-6    1.147770351628624E-5   -4.973586347254979E-6   -4.687066856867579E-7    9.262042792978553E-1   -3.768984152685304E-1
 2.992011964107677E8     9.239700521713244E-1   -3.822084853568497E-1   -3.023315339974711E-6    5.676282233172500E-6   -3.976650754004243E-8    4.039476842023667E-6    9.212874885536747E-1   -3.886798948371608E-1
 3.091712362911266E8     9.189598663202886E-1   -3.945747344756382E-1   -1.493937662427587E-6    1.221273671844285E-5   -1.850569955045358E-5    4.299766486003632E-6    9.156698857503572E-1   -4.001779882012534E-1
 3.191412761714855E8     9.134961122460679E-1   -4.071134937780454E-1   -5.403068653844060E-6    6.375118141128806E-6    1.255003859975743E-5    5.504766666450859E-6    9.097201900240388E-1   -4.118940473388347E-1
 3.291113160518445E8     9.076690414007631E-1   -4.197292621148624E-1    4.033642471764571E-6   -5.525452123458490E-6    2.037224330592614E-5   -2.421640982636477E-6    9.033283121863457E-1   -4.244979986977204E-1
 3.390813559322034E8     9.019495056819631E-1   -4.324260149489654E-1    6.830703247461443E-6    5.569833836148752E-6    5.136529177499845E-6    9.164599343875230E-6    8.968991512569966E-1   -4.370566391647802E-1
 3.490513958125623E8     8.967609911152963E-1   -4.450339744762195E-1    1.230077402381843E-5   -1.283385854703150E-6   -6.076802667371065E-6   -2.642322271600799E-6    8.904596806879758E-1   -4.494491111406718E-1
 3.590214356929212E8     8.914311663412626E-1   -4.576673173478588E-1    1.084680561421612E-6    5.352067342580357E-7    1.043289167763767E-5    1.448858036888997E-5    8.845032249444874E-1   -4.620939209974445E-1
 3.689914755732802E8     8.860913971347648E-1   -4.697879289023282E-1    3.228293989746794E-6    5.659841114527868E-7    8.297642638198050E-6   -1.821594799328185E-5    8.790483003537252E-1   -4.748081030294836E-1
 3.789615154536391E8     8.798473575331205E-1   -4.810874147968359E-1    2.203314622869082E-6    4.813843572528952E-6   -6.852707227678844E-7   -1.266250186595971E-5    8.738459856645935E-1   -4.868326103829480E-1
 3.889315553339980E8     8.740843509699160E-1   -4.917054962825664E-1    5.857338460190497E-6    2.552245763437530E-6    2.129945116255045E-5    1.154564475979177E-5    8.679643590266940E-1   -4.987970703903373E-1
 3.989015952143569E8     8.673826989303584E-1   -5.024047250819980E-1   -1.443001726835164E-5   -1.028608197374932E-5   -7.219727025348234E-6   -6.889172876871053E-6    8.610590584873752E-1   -5.096685649433276E-1
 4.088716350947158E8     8.603616577648241E-1   -5.133329880917924E-1    1.076475299187434E-5    2.639279844767344E-7    7.798637935246565E-6    8.448668881528096E-6    8.541884337704504E-1   -5.206736499482135E-1
 4.188416749750748E8     8.533657535788322E-1   -5.248634533807640E-1   -1.153940301722758E-5   -3.206583837625222E-6   -9.853671196218011E-6    1.106747730460503E-5    8.476268265027895E-1   -5.314201041702524E-1
 4.288117148554337E8     8.459846697422654E-1   -5.365280685816940E-1    9.180061953164473E-6   -7.749911425155579E-6    1.112742017646361E-6    1.695757364230724E-5    8.406768708781595E-1   -5.419437344972404E-1
 4.387817547357926E8     8.382034870222268E-1   -5.478605351728748E-1    1.073139822473274E-5    1.293975291239516E-6   -3.170252185124500E-6    1.496732451746147E-5    8.326907666719623E-1   -5.523584109209349E-1
 4.487517946161516E8     8.306041721868482E-1   -5.598438448428817E-1    6.044179376294436E-6    1.376772971515807E-5   -8.787258873354242E-6   -6.245645355531581E-6    8.241743377516551E-1   -5.634579733291841E-1
 4.587218344965104E8     8.237235528380742E-1   -5.718018427958492E-1   -5.952901395985560E-6   -6.770431161032429E-7    4.120697917299010E-6   -2.298904114078539E-6    8.158941087854394E-1   -5.751634363114712E-1
 4.686918743768694E8     8.170781500649952E-1   -5.831138167902158E-1    8.676800274781028E-6    5.274958763540654E-6   -4.556488450700303E-6    1.837247661495944E-5    8.079389502825016E-1   -5.868588091552123E-1
 4.786619142572283E8     8.098391033639055E-1   -5.938644090155821E-1   -1.147858315818042E-5    3.038222268238563E-6   -1.354679890519138E-6    5.131054188386439E-6    7.993793653233258E-1   -5.979748244456792E-1
 4.886319541375872E8     8.023186646831243E-1   -6.043327004391251E-1    3.527977201243948E-6    7.317821686056801E-6    1.762054407105756E-5   -1.108237063664388E-5    7.904339260445425E-1   -6.088908016365041E-1
 4.986019940179462E8     7.941776349397934E-1   -6.150044697364341E-1   -1.030173108995875E-5    5.800183375682127E-6    7.383625280563577E-6    5.869460253584429E-6    7.823190357772165E-1   -6.197503333270860E-1
 5.085720338983051E8     7.857350685724050E-1   -6.241889636377027E-1    1.154135951194977E-5    1.210346982888790E-5   -2.645005556662769E-7   -2.226144567159974E-5    7.746509348221767E-1   -6.303366064473314E-1
 5.185420737786640E8     7.784345047713921E-1   -6.332683553072077E-1   -1.228252973423494E-5    3.235439051426685E-6    2.582496109885242E-5   -1.598810506317290E-5    7.668943979389682E-1   -6.399994166744726E-1
 5.285121136590229E8     7.702029734839980E-1   -6.428838856672742E-1   -1.276691860927156E-6   -6.250866315781650E-6   -1.433300529577544E-5   -2.128718947073126E-6    7.590318275498789E-1   -6.496554743337656E-1
 5.384821535393819E8     7.615386923807264E-1   -6.529054481876403E-1    8.112432995631017E-6    4.044282293126335E-6   -1.245781220765720E-5    4.541129327159743E-6    7.509534684969595E-1   -6.594039847957047E-1
 5.484521934197408E8     7.533558445565315E-1   -6.635202215103502E-1    7.488134728003115E-6   -3.816257705092788E-6    2.784566796651356E-6    1.281372164663974E-6    7.424827637021174E-1   -6.692365058249938E-1
 5.584222333000997E8     7.448730653700121E-1   -6.744810290847055E-1    6.169024571135750E-6   -3.656067913745230E-6    3.166380120561122E-6    1.955412136940735E-6    7.332683470019309E-1   -6.791718896453361E-1
 5.683922731804587E8     7.357168321867261E-1   -6.848616491276897E-1   -1.936929476673366E-6    2.708663348281757E-6    4.313661107021008E-6    3.306940247360592E-6    7.231953767644892E-1   -6.891375906272645E-1
 5.783623130608176E8     7.264252148212798E-1   -6.948351324599089E-1    1.456832334160590E-6    1.277514846809832E-5   -1.570060530864071E-5    6.883555161862359E-6    7.127025609008765E-1   -6.988407215675781E-1
 5.883323529411764E8     7.172367941907668E-1   -7.048451324799619E-1    2.654088864803989E-6   -7.151256154514697E-7    3.876100956612946E-6   -5.877223111337083E-6    7.023252312450704E-1   -7.085820261922545E-1
 5.983023928215353E8     7.080453761810299E-1   -7.149385662470523E-1   -8.974142848827169E-6   -9.773693801218919E-7   -2.780525344855466E-5    1.054822490605308E-5    6.919210001869678E-1   -7.181896684481553E-1
 6.082724327018943E8     6.986500198302896E-1   -7.246098404087742E-1   -1.742146298008941E-5    4.486514978841925E-6    7.267288252840939E-6   -1.700618632819997E-5    6.815991916572419E-1   -7.275988594778124E-1
 6.182424725822532E8     6.888101288670118E-1   -7.342140117485646E-1    9.680046981096046E-6   -6.117241302185220E-6   -2.636283023980684E-6   -2.292352320984367E-5    6.717700809651017E-1   -7.370615331048972E-1
 6.282125124626122E8     6.782413798569901E-1   -7.436992746217845E-1    3.620834313573687E-6    1.253911171039132E-5   -3.747352752681117E-6    1.119268860571958E-5    6.628346144485249E-1   -7.466797250978779E-1
 6.381825523429711E8     6.685959447652620E-1   -7.509470986704748E-1    6.996675355849558E-6   -1.747798014241927E-5    5.805590389719936E-6   -1.150138633770718E-5    6.538604899807595E-1   -7.555944768654552E-1
 6.481525922233300E8     6.595392719168883E-1   -7.594108420586136E-1    2.364586518470321E-6   -7.552729136892407E-6   -7.784200854918588E-6    7.895832627189206E-6    6.446563569863635E-1   -7.639811059624069E-1
 6.581226321036890E8     6.498485419267183E-1   -7.683211431193263E-1   -9.696603599383145E-9    1.240044894245835E-6    2.946184260130268E-6    2.577694148923478E-6    6.346684543643905E-1   -7.723313220259220E-1
 6.680926719840479E8     6.399058621018622E-1   -7.770813035923274E-1   -1.889346430354966E-5   -1.524970050446875E-5   -2.561423652700632E-6    1.229065432462105E-5    6.240434584373910E-1   -7.803404044084195E-1
 6.780627118644068E8     6.301713084636287E-1   -7.852268410104083E-1    3.434094923348100E-6    5.288456682929253E-6   -1.315044525003864E-6   -1.049141427153644E-6    6.131084909809258E-1   -7.882947216895846E-1
 6.880327517447658E8     6.197311236701321E-1   -7.935304299226283E-1    1.990187558317393E-6   -1.183807251919220E-5   -1.751102305707043E-5    2.102559454282063E-5    6.017195847249064E-1   -7.960204829987391E-1
 6.980027916251246E8     6.087762304328215E-1   -8.017026394691702E-1    1.080565699650470E-6    7.436981758724213E-6   -1.419463303818651E-5   -1.866324429690010E-5    5.901802593821858E-1   -8.036566032902169E-1
 7.079728315054835E8     5.974059970056166E-1   -8.100160723056102E-1   -6.379749551963148E-6   -9.349887383980113E-6   -1.410434669045423E-5    8.152035839997158E-6    5.785324004646851E-1   -8.114996837457144E-1
 7.179428713858424E8     5.862314900215695E-1   -8.184516315771349E-1   -8.001058363869862E-7   -9.413532582742777E-6   -5.532761306647504E-6   -1.406695264251716E-6    5.672740714758487E-1   -8.200467658501238E-1
 7.279129112662014E8     5.752664376314981E-1   -8.269422155630737E-1   -1.065890441953139E-5   -9.421067190076496E-6    6.762191920705148E-8    1.985995994266291E-5    5.560566004949973E-1   -8.287167681615012E-1
 7.378829511465603E8     5.640939210926897E-1   -8.356495757807650E-1    6.720364381763775E-6   -1.128190661283410E-5    4.210207380967782E-6    4.318067268215803E-6    5.448988237672322E-1   -8.370927577306759E-1
 7.478529910269192E8     5.519816139797323E-1   -8.441510465268064E-1   -9.429760319414920E-6    6.474756522949446E-6    3.805477721484656E-6    1.384031295513368E-5    5.336671094040980E-1   -8.447154521521424E-1
 7.578230309072782E8     5.394090065788164E-1   -8.513066817683739E-1    1.254709352150774E-5    5.272396549304293E-6   -9.358927161278063E-6   -4.002132101740215E-6    5.224969090476782E-1   -8.516805266505231E-1
 7.677930707876371E8     5.290229431761322E-1   -8.568105025199092E-1   -1.035110644991270E-5    1.235863153393367E-5   -1.949776560494046E-5    2.637131067891548E-6    5.112480357729317E-1   -8.581510970272392E-1
 7.777631106679960E8     5.193915412740114E-1   -8.635612738721308E-1    6.025580326057224E-6   -5.460223991444262E-6    1.636194216319668E-5   -3.514323851552147E-6    4.996788475524722E-1   -8.646772809153990E-1
 7.877331505483550E8     5.090361874605025E-1   -8.705776567330608E-1    6.138027861596607E-7   -6.767943698337619E-6   -9.347739286749940E-6    1.292684717186450E-6    4.878669449624621E-1   -8.713990432591302E-1
 7.977031904287138E8     4.979455259896344E-1   -8.770824632010206E-1   -2.014807546390344E-6    1.077853852851893E-5    1.145354615571708E-5    2.022100218691764E-6    4.751824178288208E-1   -8.778850224763930E-1
 8.076732303090727E8     4.862426648204255E-1   -8.828188720551402E-1    1.647101505218768E-6   -4.593858948453105E-6    2.102309742748037E-6    8.916568489162748E-6    4.622971543649995E-1   -8.840453876132051E-1
 8.176432701894317E8     4.742114526068036E-1   -8.889312655714809E-1   -1.697807459555763E-6   -3.049962647835176E-6    2.365976247097778E-5   -1.335751644858953E-5    4.494145213071268E-1   -8.902628172697932E-1
 8.276133100697906E8     4.619419429388489E-1   -8.953424285945675E-1    3.866103827477002E-6    2.232464918043979E-6    1.116605355035321E-5    1.661263240117091E-5    4.368326870957633E-1   -8.970475400670126E-1
 8.375833499501495E8     4.492990411606814E-1   -9.016698542455289E-1    6.670743863551935E-6    4.445326603357846E-6   -2.663857493837324E-6    9.557910103319054E-6    4.245755424167793E-1   -9.036942256736796E-1
 8.475533898305085E8     4.364887054056987E-1   -9.082203847312298E-1    9.865277459842439E-6    1.015851704165064E-5    6.115774562475595E-6    1.037456813884764E-5    4.128607404857659E-1   -9.097283603924052E-1
 8.575234297108674E8     4.237250125575456E-1   -9.145501604087093E-1   -6.294018340098109E-6   -1.123066274414836E-5    1.586237074052979E-5   -6.339189805429709E-7    4.009445603884456E-1   -9.149251834258683E-1
 8.674934695912263E8     4.109202762328824E-1   -9.212854312915439E-1   -1.928602679474232E-6    3.960515763672305E-6   -3.195781531837541E-6    8.711598198848656E-6    3.889027184665405E-1   -9.198731186937105E-1
 8.774635094715853E8     3.977449752065622E-1   -9.277959491809112E-1    3.138620332774552E-6    4.615846280102707E-6    2.457706037324782E-6    1.023999929552385E-5    3.763912125786593E-1   -9.245922843863623E-1
 8.874335493519442E8     3.846772007266976E-1   -9.323601270890249E-1    9.136934954600530E-7   -1.732312764234145E-6   -4.668730373676742E-6   -1.291840847273189E-5    3.632122854993801E-1   -9.290476271140679E-1
 8.974035892323031E8     3.734449750799229E-1   -9.361437120603177E-1   -1.297546681963797E-5   -1.109586096598554E-5   -7.204341089024736E-6   -1.468623842699844E-5    3.496515354599600E-1   -9.334102290608762E-1
