#  HZ   S   RI   R     50.00 
! Rohde & Schwarz Vector Network Analyzer 
! Rohde-Schwarz,ZNB20-2Port,1311601062102128,3.60
! Created: UTC 4/29/2024, 3:56:02 PM
! freq[Hz]                re:S11                  im:S11                  re:S21                  im:S21                  re:S12                  im:S12                  re:S22                  im:S22
 1.000000000000000E5     9.963610598469099E-1    4.769395989066937E-3   -9.416398648763857E-5   -2.790930696814716E-5    1.312868283501068E-5    3.222452136363648E-6    1.010760219374679      -1.080090830774342E-2
 1.007003988035892E7     9.977343954110954E-1   -1.398266517364241E-2    1.490150521122407E-5    1.418419707010110E-5    1.281964933226468E-5    1.465637645812879E-5    9.957991323648008E-1   -1.445772440852919E-2
 2.004007976071785E7     9.997779980476846E-1   -2.721465110182132E-2   -2.905133381396304E-6   -1.248188794796584E-5   -5.890012259993840E-6    3.681696838463668E-6    9.987337058503390E-1   -2.783515682792626E-2
 3.001011964107677E7     9.978620645075944E-1   -4.100934070674814E-2    2.738991314460945E-6   -8.834381427794791E-6    5.657358318283228E-6    2.629145390415325E-7    9.974548140418870E-1   -4.191927852951934E-2
 3.998015952143569E7     9.976669502311059E-1   -5.300935730502351E-2    4.985470297122999E-7   -3.367722421953552E-5   -6.903744552329026E-6    2.939022748251331E-6    9.976549771167297E-1   -5.668894280800862E-2
 4.995019940179461E7     9.960910936018310E-1   -6.592650651785607E-2   -1.073926668338103E-5    1.672893282375515E-6    1.409876397657776E-5    1.068867640228089E-5    9.965310396819153E-1   -6.926108382616479E-2
 5.992023928215354E7     9.940685166720497E-1   -7.864906524765594E-2    9.615814937504455E-6    3.578877062619975E-6   -7.600327303018151E-7   -1.306772243877553E-5    9.946486227525582E-1   -8.201964346647669E-2
 6.989027916251247E7     9.930297566453705E-1   -9.171974871481989E-2   -9.053349908820681E-6    9.080217305445537E-6   -2.668609331682429E-5    1.272288576686558E-6    9.933327505547707E-1   -9.482294552094742E-2
 7.986031904287139E7     9.925329599873435E-1   -1.050834944775605E-1    3.890875719100605E-6    4.484273560087621E-6    4.650153905966187E-6    1.105590882340329E-5    9.922517870755906E-1   -1.081495997341040E-1
 8.983035892323031E7     9.914280496383077E-1   -1.187096621219227E-1    3.442802082563700E-6   -6.180685603104316E-6    7.533395930910799E-6   -9.321464139318678E-6    9.908112333062813E-1   -1.212466933951256E-1
 9.980039880358922E7     9.893914410319449E-1   -1.321774730507181E-1   -1.928139773921868E-5   -5.723420799811856E-6    9.607897673881461E-7   -2.522770166077531E-5    9.885143750549488E-1   -1.346566384145958E-1
 1.097704386839482E8     9.864884560386369E-1   -1.453918814837661E-1   -3.292477735378472E-6    7.013358407551539E-6   -2.342164583958645E-6   -5.844767970172627E-6    9.860889040451644E-1   -1.479142849765674E-1
 1.197404785643071E8     9.848756295612250E-1   -1.588307630940316E-1   -6.842890641914117E-6    2.218076797893494E-6   -1.854966892062291E-5   -1.403776013392096E-6    9.842287416743992E-1   -1.613348520745605E-1
 1.297105184446660E8     9.830894793249022E-1   -1.716017896859750E-1   -1.943528261430186E-8   -1.385756796708244E-5    9.207937852310401E-6   -2.287169619762330E-5    9.828572759833267E-1   -1.746028067428505E-1
 1.396805583250249E8     9.816133070487497E-1   -1.844695283312574E-1    1.418051613308289E-6   -2.889232626917735E-6    7.412719101408388E-6   -7.182697014929999E-7    9.808710149400256E-1   -1.876056209275009E-1
 1.496505982053838E8     9.789582949928571E-1   -1.969572610058333E-1    4.194717973999239E-6    9.147777042096922E-6   -5.980731752420750E-6    5.675679393117376E-6    9.785658006232801E-1   -2.003916293194806E-1
 1.596206380857428E8     9.762690113186854E-1   -2.093726209361257E-1    8.443505014164630E-6   -1.010715286053877E-5   -5.912926984922117E-7   -2.129123320763922E-5    9.759524626771477E-1   -2.134207481595602E-1
 1.695906779661017E8     9.732149024717998E-1   -2.222149103927408E-1    8.260192303835032E-6   -6.441051258552927E-8   -1.678884107481558E-5    2.036927741214631E-5    9.728810492527833E-1   -2.261353327071737E-1
 1.795607178464606E8     9.708728702076022E-1   -2.346239936479085E-1   -2.513524697987002E-6   -3.080421434930946E-6    1.211618237823983E-5   -8.713391588950799E-7    9.701049894583630E-1   -2.380180649049181E-1
 1.895307577268195E8     9.678718730135052E-1   -2.468678147137038E-1   -1.924209847764232E-5    2.219651099529852E-6    1.130168325107278E-5   -7.193263983025578E-6    9.668891766881911E-1   -2.504899189789333E-1
 1.995007976071784E8     9.639490884044769E-1   -2.593731127396411E-1   -2.089986371777131E-8    4.438245800859528E-6   -1.038318427865422E-5    1.748555796450077E-5    9.629124280504210E-1   -2.633047728064958E-1
 2.094708374875374E8     9.604499792779956E-1   -2.721907809688904E-1    3.474033980994865E-6    7.368273357578221E-6    4.377216308250610E-7   -4.476525482204332E-6    9.588721876593906E-1   -2.762815620854271E-1
 2.194408773678963E8     9.573664197753079E-1   -2.848952197836473E-1   -3.138771079272376E-6   -1.494185119577956E-6   -5.346777603718327E-6    8.127712145671618E-6    9.549859487854913E-1   -2.891346604685985E-1
 2.294109172482552E8     9.538306826975654E-1   -2.973058852159253E-1   -7.921430303238119E-6   -5.026702619259957E-6    4.331894700655649E-6   -1.164243189604432E-5    9.509263521155606E-1   -3.018677310530890E-1
 2.393809571286142E8     9.507470502161423E-1   -3.093806576392669E-1    8.504216302552745E-6    3.771696118959352E-7    9.068637767991266E-6   -5.643520928934053E-6    9.470648450023536E-1   -3.142182967073834E-1
 2.493509970089731E8     9.468868311094690E-1   -3.230890272136496E-1    4.213757814850274E-6   -8.073975838216379E-6    1.081951119484905E-5   -2.803603250856523E-6    9.440512133384897E-1   -3.277026855719734E-1
 2.593210368893320E8     9.426790842636491E-1   -3.350746838718476E-1   -1.516005304232367E-6   -2.259562548129342E-5    3.790671424193624E-6   -9.951985804819478E-6    9.396643620136386E-1   -3.409164940012736E-1
 2.692910767696909E8     9.386851628703140E-1   -3.465869249722530E-1   -1.039808778890436E-5    5.420406815060294E-6   -1.503767966597250E-5   -6.559042527615281E-6    9.355350938516663E-1   -3.528478799127009E-1
 2.792611166500499E8     9.340036200832239E-1   -3.581967421289319E-1    9.608311298881280E-6   -6.471036174645222E-7   -1.487738448421563E-5   -1.972611277536412E-5    9.311338308343925E-1   -3.648000061135654E-1
 2.892311565304088E8     9.290427046959885E-1   -3.702442006906263E-1   -1.163786679881192E-6   -5.421231872780804E-6   -3.480862043421896E-5   -1.234117664010294E-5    9.262473221339482E-1   -3.768680427127148E-1
 2.992011964107677E8     9.241156570644429E-1   -3.822205754395904E-1   -1.641026345082665E-5    5.314012685093780E-6    5.004198784577777E-6    8.789891739792953E-6    9.211156737224567E-1   -3.884767900467933E-1
 3.091712362911266E8     9.190787539390305E-1   -3.946419931188244E-1    2.140161177322645E-5   -6.291154854806979E-6    6.441597032015804E-6    1.690872390947667E-5    9.158354538644221E-1   -4.001334478474119E-1
 3.191412761714855E8     9.136200432799042E-1   -4.071503841010803E-1   -6.721497856689312E-6   -8.241287233514025E-6   -2.838351503880822E-5    1.194060087351436E-5    9.099025585763285E-1   -4.120836424592391E-1
 3.291113160518445E8     9.078323975739025E-1   -4.197166749168735E-1   -4.180856068049315E-6    2.882345952850052E-6   -1.490241842033640E-6   -1.077679911680342E-5    9.033574558331653E-1   -4.243605065036271E-1
 3.390813559322034E8     9.021072249071863E-1   -4.325434381056255E-1   -7.847136633488880E-6    6.037791345718217E-6   -1.117807032169025E-5    2.306552726351021E-5    8.966889276161591E-1   -4.369489283919958E-1
 3.490513958125623E8     8.969430388407919E-1   -4.452423538486958E-1    2.109159177788465E-7    6.346767404361946E-6   -2.877138981062159E-6   -5.687250122192554E-6    8.905443973368146E-1   -4.494024275386416E-1
 3.590214356929212E8     8.914280641864261E-1   -4.577094235197113E-1    1.969242647603679E-6    7.419940903153484E-8    3.288169508682822E-5   -1.171082553561906E-5    8.845441906707947E-1   -4.622149450889322E-1
 3.689914755732802E8     8.861476496171746E-1   -4.698585480618750E-1    6.899454753825657E-6    6.156203406608481E-6    7.340205060411620E-6    7.122258426322690E-7    8.789983497187497E-1   -4.747779867851993E-1
 3.789615154536391E8     8.800315238796065E-1   -4.810965475792187E-1    5.116430174047394E-6   -1.190167938054081E-5    5.921676768409719E-6   -8.206340133294792E-6    8.738014658437012E-1   -4.868366594643221E-1
 3.889315553339980E8     8.742863734478333E-1   -4.917715519421565E-1    5.732942693698935E-6    1.173547246787353E-5    4.561377301157564E-6   -1.484788294709266E-5    8.680476315842424E-1   -4.987408257768128E-1
 3.989015952143569E8     8.675977014324960E-1   -5.024544777266234E-1   -7.340676165515172E-7    2.472566928364608E-6    1.362773982315193E-5    4.544413014570879E-6    8.611325418621213E-1   -5.096478025244627E-1
 4.088716350947158E8     8.604810494616686E-1   -5.133829419246774E-1    2.957629211666710E-6   -2.787808999193288E-6    3.435892160645530E-6    3.539958485345072E-6    8.543488392150344E-1   -5.206464569293373E-1
 4.188416749750748E8     8.535082689539110E-1   -5.249077932288846E-1   -3.402135934189602E-7    7.205740220159481E-6    1.552760128896856E-5    1.474568623657024E-5    8.476132320726304E-1   -5.314096539286051E-1
 4.288117148554337E8     8.461848709561096E-1   -5.365526699430077E-1    8.789843901312771E-6   -5.858135438088063E-6   -3.285391019526797E-6   -7.876032960766536E-7    8.406928415956432E-1   -5.417368288942058E-1
 4.387817547357926E8     8.383667270330597E-1   -5.479479982030961E-1   -5.884951481999317E-6    5.435925777616060E-6    6.289501993521786E-8    1.059811222967051E-5    8.327219743566158E-1   -5.522776835507978E-1
 4.487517946161516E8     8.307130666887871E-1   -5.598577949480670E-1    2.385935903890408E-6    6.157855298767487E-6    2.151045628169448E-6   -4.919057406141344E-6    8.241980524183583E-1   -5.634412418709692E-1
 4.587218344965104E8     8.238406223905032E-1   -5.718197977831103E-1   -3.743994770728218E-6   -1.622930093779666E-6    6.220122925694060E-6   -1.601256033782015E-5    8.160035900942553E-1   -5.752487739788733E-1
 4.686918743768694E8     8.172851469263971E-1   -5.832710386406531E-1   -3.634675765967165E-6    8.720448153596984E-6    2.265855090284079E-7    1.599426465892515E-5    8.078631929634061E-1   -5.867850156121608E-1
 4.786619142572283E8     8.100869333761296E-1   -5.939095934054701E-1    7.854727147089524E-6    2.993095888147763E-6   -7.464179956073190E-6    1.891739023531242E-5    7.992454898584386E-1   -5.980794000859742E-1
 4.886319541375872E8     8.026213081178225E-1   -6.043583504544314E-1    1.290429507558727E-5    3.974008015730211E-6    4.362811837778702E-6    8.594467442950705E-6    7.905467688186523E-1   -6.088963646276844E-1
 4.986019940179462E8     7.943048452331668E-1   -6.151295490108664E-1    2.644304821206309E-5   -7.151472386943065E-7    8.709006873709095E-6    5.464104099682738E-7    7.823401750154461E-1   -6.196291750509311E-1
 5.085720338983051E8     7.859010577826527E-1   -6.242312102568482E-1   -1.264356197138014E-5    1.176979334866153E-5   -1.116378623931222E-6   -2.051524666626293E-5    7.747674126081578E-1   -6.302683425608885E-1
 5.185420737786640E8     7.785117120804343E-1   -6.331876019142091E-1   -3.006151832723045E-6    6.970971557800795E-6    7.859963458580312E-6    1.814021709227993E-5    7.670168204936694E-1   -6.400524872923868E-1
 5.285121136590229E8     7.702469611673515E-1   -6.429035294831700E-1   -1.945236424847166E-7    6.178661754674727E-6   -7.445888185684651E-6    1.667845611301276E-5    7.590115632281923E-1   -6.495755313639219E-1
 5.384821535393819E8     7.617021255103479E-1   -6.530502364344911E-1    1.012620670545116E-5   -2.718204110014404E-6   -5.425959374641198E-6   -2.317456287448852E-5    7.510246724070282E-1   -6.592865541272844E-1
 5.484521934197408E8     7.534335189482420E-1   -6.636659696140481E-1    4.995814322164227E-6   -8.877463199619329E-6   -6.330730068028651E-6   -4.321699780339317E-6    7.426458325045611E-1   -6.692588350266805E-1
 5.584222333000997E8     7.449056301966143E-1   -6.744645814605734E-1   -5.141610577828817E-6    4.107988708541356E-6   -3.122689195817937E-6    2.391120358435972E-5    7.334744777735855E-1   -6.791538422165303E-1
 5.683922731804587E8     7.358229508653932E-1   -6.848737007800413E-1   -1.429216849661448E-5    8.550250504796637E-6    1.124287424330021E-5    1.410567210701990E-5    7.231933025906456E-1   -6.890434991410712E-1
 5.783623130608176E8     7.265651505411808E-1   -6.948850155613718E-1    1.891223717262501E-6    1.444864273145790E-5   -2.022244319941118E-5   -1.293807641735606E-6    7.127367656028972E-1   -6.988653937664567E-1
 5.883323529411764E8     7.173423846234854E-1   -7.048407666715560E-1    4.647377974049174E-6    2.430416344697933E-5   -9.963223187399334E-6    2.418425988544315E-6    7.023474639279886E-1   -7.086198571502349E-1
 5.983023928215353E8     7.080926041580363E-1   -7.148843783815846E-1   -1.072617863742957E-5    7.797124037207483E-6   -5.037817617230136E-6    1.429985501119472E-5    6.919173556426715E-1   -7.182188878854169E-1
 6.082724327018943E8     6.985832259194340E-1   -7.245529436525200E-1   -1.031645082936475E-5   -4.244530152450695E-6    1.854333492902925E-6   -6.583540592033611E-6    6.816930630735805E-1   -7.277159034863054E-1
 6.182424725822532E8     6.888530051677565E-1   -7.343761469413326E-1    2.070681349902967E-5    1.296316446617032E-5   -1.535069404750246E-5    2.874188244837731E-5    6.717396578287790E-1   -7.370780136158883E-1
 6.282125124626122E8     6.783500583282531E-1   -7.438027883683331E-1    1.305481332991638E-5    5.392125726060495E-6   -1.448887321727274E-5    1.820926527928369E-7    6.628476659921240E-1   -7.465874245510229E-1
 6.381825523429711E8     6.686128739202856E-1   -7.509065208170297E-1   -5.927371480311693E-6   -9.257282739254963E-6    5.125257682220753E-6   -5.333928026035495E-6    6.539225506696487E-1   -7.554933470813839E-1
 6.481525922233300E8     6.596209248299434E-1   -7.594209282316613E-1   -4.342394195847966E-6   -4.701838940826477E-6   -1.134183079510969E-6   -3.731667215826439E-6    6.447602725758169E-1   -7.638902725411059E-1
 6.581226321036890E8     6.498215224774381E-1   -7.683673043802679E-1   -2.955009432776664E-6    2.951124016360427E-6    7.549147901819052E-9    1.929820778263565E-5    6.346551911894209E-1   -7.722797281901673E-1
 6.680926719840479E8     6.399667470169135E-1   -7.770672571449257E-1    3.163909550061980E-6   -3.481098893983185E-7    2.101363274004443E-5   -1.504157577240355E-6    6.242381174394730E-1   -7.803355420339582E-1
 6.780627118644068E8     6.301829689886287E-1   -7.851874206954880E-1    2.218605508137406E-6   -7.295473672135150E-7    6.558158967653648E-7    8.823921439466829E-6    6.130430649771288E-1   -7.882571174274328E-1
 6.880327517447658E8     6.198131325760347E-1   -7.934928198442900E-1   -2.295609074931371E-6    1.364498152452875E-5   -8.077514425100197E-6    1.575456982296532E-5    6.017697240570901E-1   -7.959170793580538E-1
 6.980027916251246E8     6.087725525638811E-1   -8.016414025729337E-1   -1.094162129915858E-5   -7.313656772072710E-6   -1.419837159134356E-5    2.698195764708612E-6    5.901141794591648E-1   -8.035559693244307E-1
 7.079728315054835E8     5.973409327680049E-1   -8.100135849461642E-1    7.800185970873653E-6    7.200669055833896E-6    2.095798228163658E-6    1.737138759372118E-6    5.786905816405749E-1   -8.115006079448928E-1
 7.179428713858424E8     5.863292806454983E-1   -8.186315258038253E-1    1.011364846778570E-5    1.198823099123525E-6    6.923032709238073E-6   -5.644926265634776E-7    5.673688721402498E-1   -8.200327871285896E-1
 7.279129112662014E8     5.753076588398447E-1   -8.268939913671448E-1   -2.154965139404397E-6   -1.280357896454236E-5   -4.604042579590505E-6   -5.108153597011652E-6    5.561352357072851E-1   -8.287385835723574E-1
 7.378829511465603E8     5.640102001074299E-1   -8.355273759003191E-1    1.010049639117504E-6   -1.220781619606984E-5   -7.076122937558501E-6   -9.991224469279752E-6    5.447998181057240E-1   -8.370290248270332E-1
 7.478529910269192E8     5.520742325427447E-1   -8.441437067450284E-1   -7.813085821796499E-6    2.958587368881927E-6    2.354406980013174E-7   -3.878874992759718E-6    5.337009175820019E-1   -8.447459654943484E-1
 7.578230309072782E8     5.394738549864171E-1   -8.513422948876410E-1   -1.522976175314128E-5    3.115058806417891E-6   -7.057558933171582E-6   -4.350205708294280E-6    5.225735907812817E-1   -8.516719474910225E-1
 7.677930707876371E8     5.290335814924434E-1   -8.568441237253674E-1   -7.624059754469282E-6    1.111874941361746E-6    1.152619985314112E-5    9.383382369567195E-6    5.113175390107283E-1   -8.580644943728338E-1
 7.777631106679960E8     5.195055721061779E-1   -8.637416464314025E-1   -2.719491576462824E-6   -9.692806260611583E-6   -8.708717046166255E-6    1.292220045783508E-5    4.998410606468511E-1   -8.646397197926220E-1
 7.877331505483550E8     5.090989729310766E-1   -8.706115341484596E-1   -5.425095079611051E-6    1.126939700362610E-5    1.097233485470707E-5   -5.485086138054382E-6    4.879807397219696E-1   -8.713567086155121E-1
 7.977031904287138E8     4.978236102153351E-1   -8.770110770643336E-1   -1.160461003514680E-5    6.203020963595964E-6    2.174746672524719E-5    7.204638213855514E-7    4.752743182463964E-1   -8.777715230168586E-1
 8.076732303090727E8     4.861625006822745E-1   -8.828753921294200E-1    1.685858070223993E-5   -1.569596220569817E-5    1.302904774682900E-5   -2.391283827814498E-6    4.624007502601185E-1   -8.838374810787799E-1
 8.176432701894317E8     4.741617662927835E-1   -8.889131168211969E-1    2.255093435840694E-6   -4.223229514543241E-6    3.238053481333904E-6    3.781237024326649E-6    4.495563283701235E-1   -8.901994545779147E-1
 8.276133100697906E8     4.619495902042701E-1   -8.953663818810920E-1   -1.344567348339937E-5    5.536365630517822E-6   -4.327811546980413E-6   -4.895944427586793E-7    4.368522073900522E-1   -8.969448129445520E-1
 8.375833499501495E8     4.493097166021637E-1   -9.018037836751904E-1   -9.265494325740669E-6    8.143571804644879E-6    1.563404386772033E-5    4.251842413780376E-6    4.247654524262445E-1   -9.035351500638895E-1
 8.475533898305085E8     4.365850520771395E-1   -9.082146375491844E-1   -5.812463544408535E-6    1.432169861445833E-6    4.556339104820237E-6   -8.387281849860685E-6    4.129740130273976E-1   -9.096929923053620E-1
 8.575234297108674E8     4.238075529730195E-1   -9.146362248021833E-1    2.454492568429023E-7   -1.668310920550143E-6    2.159315854711008E-5   -1.611476172306142E-6    4.011264211828365E-1   -9.150046432748876E-1
 8.674934695912263E8     4.109052128338503E-1   -9.212173801161155E-1   -1.067692925366275E-5   -1.580525698129027E-6   -3.130782959144171E-6    1.019455181484613E-6    3.890830461137622E-1   -9.198667766834624E-1
 8.774635094715853E8     3.978235916908636E-1   -9.278481892532179E-1    2.966327091979931E-6   -5.482906075828852E-6   -6.462845561961373E-6    3.710766129921410E-6    3.763850595653662E-1   -9.243387524965925E-1
 8.874335493519442E8     3.847215589338475E-1   -9.324443876978937E-1   -1.601736439721058E-6    1.249791820513430E-5    1.322283313530629E-6    9.364380399018324E-6    3.632618629215636E-1   -9.288636620999653E-1
 8.974035892323031E8     3.734159152674836E-1   -9.361965066360717E-1    1.466171529151200E-5    2.518385203492589E-6   -3.416902205816434E-6   -2.809299817785118E-6    3.498397750948474E-1   -9.333271680005948E-1
