#  HZ   S   RI   R     50.00 
! Rohde & Schwarz Vector Network Analyzer 
! Rohde-Schwarz,ZNB20-2Port,1311601062102128,3.60
! Created: UTC 4/29/2024, 3:48:52 PM
! freq[Hz]                re:S11                  im:S11                  re:S21                  im:S21                  re:S12                  im:S12                  re:S22                  im:S22
 1.000000000000000E5     9.959448958722391E-1    4.697617412823993E-3   -9.453238255391176E-5    5.770054898693177E-5   -8.135043756436063E-5   -1.534567236996089E-4    1.010939314842039      -1.090345684949761E-2
 1.007003988035892E7     9.986666611451512E-1   -1.449991666965139E-2   -7.972583840631535E-6   -1.054443926227611E-5    8.720163386936387E-6   -1.931873359529882E-5    9.960449614120215E-1   -1.454968504863034E-2
 2.004007976071785E7     9.995295195584696E-1   -2.742587610129442E-2    6.666389219116269E-6    9.314405520486571E-6   -1.989208240434799E-5    7.788933221477154E-7    9.988617605759486E-1   -2.773902594953597E-2
 3.001011964107677E7     9.982548238433101E-1   -4.108675343818632E-2    1.280449112332372E-5   -5.066929458236380E-6    1.086127047793987E-5    6.523464690867651E-6    9.976856596092907E-1   -4.202281127314064E-2
 3.998015952143569E7     9.973176064823827E-1   -5.292445496838308E-2    2.878883482190715E-6    8.387662871110990E-7    6.179967998829970E-6   -2.565385125116253E-7    9.977746624581608E-1   -5.677806214460425E-2
 4.995019940179461E7     9.954296180417412E-1   -6.574709641490141E-2   -7.330494931267835E-6    1.199274786299966E-6   -2.322797179867773E-5    1.105888007782535E-6    9.965911621320169E-1   -6.923425231576612E-2
 5.992023928215354E7     9.939601383064611E-1   -7.865357791318846E-2    2.365081090010432E-5    6.905228398638062E-6   -5.116494975580015E-6   -6.237118290810965E-7    9.946179535537343E-1   -8.210248690863968E-2
 6.989027916251247E7     9.934907781586373E-1   -9.169192990178798E-2   -8.248128462725985E-8    1.779040016975153E-5   -1.912213226642257E-5    6.093801544924566E-6    9.934132663424352E-1   -9.495977429159798E-2
 7.986031904287139E7     9.930125541797657E-1   -1.051438690433477E-1    4.272409497930028E-6    2.678807178291318E-6   -1.007994046655463E-5   -1.238700636558789E-5    9.922891959665504E-1   -1.079740753037253E-1
 8.983035892323031E7     9.916044709983726E-1   -1.186766252825757E-1    3.775920713615399E-6   -8.449186926216934E-7    1.364661556853612E-6    2.205034439831169E-6    9.906790814399756E-1   -1.212404176195041E-1
 9.980039880358922E7     9.889554134151962E-1   -1.322200906056567E-1   -1.196734400040356E-5    5.139753888257873E-6   -1.841976433232542E-5    1.538873983961405E-5    9.885706926020701E-1   -1.346195874418723E-1
 1.097704386839482E8     9.862710334464916E-1   -1.452587423473803E-1    2.619190755215818E-6    5.902060751013595E-6    5.787634745774068E-6    9.677591185984513E-8    9.861509229430158E-1   -1.478485110043307E-1
 1.197404785643071E8     9.849785383812018E-1   -1.587802229437805E-1    8.465298206999948E-7   -2.034399706398966E-6    8.182356263060293E-6    1.828981220402824E-6    9.843284048073458E-1   -1.612441841138698E-1
 1.297105184446660E8     9.831198025633554E-1   -1.716285133755940E-1   -5.700983930358721E-6   -2.177708310775043E-6    7.877961132218067E-6    3.515005241600962E-6    9.827992397705743E-1   -1.745349442538608E-1
 1.396805583250249E8     9.817931864727565E-1   -1.845520364171888E-1    3.004179197207940E-5   -3.186691964172409E-6    7.586382244501015E-6    8.029489973092675E-6    9.808421855782916E-1   -1.876953397230977E-1
 1.496505982053838E8     9.786826833377804E-1   -1.968661903799132E-1    1.382044630426201E-5    6.587871427265180E-6    1.787353246855933E-6    4.412584591507355E-6    9.786080995526866E-1   -2.004184772107934E-1
 1.596206380857428E8     9.760550816103644E-1   -2.093210633270729E-1    8.442538833816977E-7   -7.981974717941068E-6    4.419782234231045E-6   -1.163531148522761E-5    9.757095779666418E-1   -2.133305907563019E-1
 1.695906779661017E8     9.733971350622820E-1   -2.222071046842898E-1    1.319985863056960E-5    2.670294604351470E-6    7.433751702555752E-6   -3.143353507982862E-6    9.728088857883084E-1   -2.261658768113180E-1
 1.795607178464606E8     9.708698081938973E-1   -2.346513400035023E-1    1.005595226639083E-5    9.496358975293073E-6   -2.197658219143796E-6   -1.297257047394437E-5    9.701992064495416E-1   -2.381904135437225E-1
 1.895307577268195E8     9.676695406123104E-1   -2.467962262974031E-1    6.183559474879466E-6   -3.442852894487398E-6    9.162636530734615E-7    1.641878641061447E-5    9.667769458412957E-1   -2.505874933321375E-1
 1.995007976071784E8     9.637939361244344E-1   -2.592307030438417E-1    1.335998761997118E-5   -6.519220722342880E-6    1.094109119910739E-5   -1.100810573396307E-5    9.626485366924368E-1   -2.632333030668518E-1
 2.094708374875374E8     9.606599440973707E-1   -2.721452472733333E-1    7.507090148133547E-6   -3.773337928678947E-8   -1.585114154450791E-5    5.046568265381409E-6    9.588770303103384E-1   -2.761793606438080E-1
 2.194408773678963E8     9.574781321826353E-1   -2.849397224438519E-1   -3.033255073943190E-6    5.479519326092776E-7    3.016843814026199E-5   -3.835809341688647E-7    9.550751768153823E-1   -2.892294796475957E-1
 2.294109172482552E8     9.537798948878303E-1   -2.972379692043286E-1    6.780176222690347E-6   -1.220928140950172E-5    4.153945709940533E-6    6.352300313306182E-6    9.510002674841908E-1   -3.018333454927639E-1
 2.393809571286142E8     9.505100759941634E-1   -3.092216105383765E-1    5.927054841597270E-6    3.105199737378561E-6    7.882565950504084E-6   -2.171656634379587E-5    9.470342523882451E-1   -3.140766834958512E-1
 2.493509970089731E8     9.467431723494468E-1   -3.230300604975901E-1   -4.948119644389442E-6    5.144129821134982E-6    8.685574464402463E-6   -1.485384416046648E-5    9.439504306561904E-1   -3.276667313823239E-1
 2.593210368893320E8     9.427721418747972E-1   -3.350915392536592E-1   -6.903932523583571E-6   -4.020385786730070E-6   -8.005683564941023E-6   -3.170769296716521E-6    9.399042865138104E-1   -3.409413007841540E-1
 2.692910767696909E8     9.386477971164293E-1   -3.464715934018241E-1    6.947474721210528E-6    1.388572131232437E-5   -1.453184623127957E-5   -8.679138877217885E-6    9.356597867871310E-1   -3.529136114985088E-1
 2.792611166500499E8     9.338375620803647E-1   -3.581176931733501E-1   -1.313182010962743E-5   -7.674720774699243E-6    1.116347668440825E-5   -1.887642274239399E-5    9.309224564068250E-1   -3.645782011577435E-1
 2.892311565304088E8     9.290227338240058E-1   -3.701830720112144E-1    1.576828642453099E-7    3.492255968297489E-6   -6.440101099047619E-6   -7.384649089935017E-6    9.261639836667113E-1   -3.768868006896501E-1
 2.992011964107677E8     9.242413059487543E-1   -3.823858193194120E-1    3.031365797418252E-6    2.146645807258055E-6   -1.607636923954152E-5    1.506369408952196E-5    9.212347608785041E-1   -3.887089080088406E-1
 3.091712362911266E8     9.190580714610568E-1   -3.946030804094705E-1   -1.730508213986169E-5    3.888958235090248E-7   -7.108806893093678E-7   -4.515331509384695E-6    9.157962498128029E-1   -4.002115032832356E-1
 3.191412761714855E8     9.133586733047201E-1   -4.070629070701377E-1    1.113693957013914E-5    8.492598356103141E-6   -7.868181898710868E-6    5.894554827239787E-6    9.098169295326500E-1   -4.119603325412100E-1
 3.291113160518445E8     9.076453356476706E-1   -4.197105372652935E-1   -2.877973930285142E-7   -1.400810240294697E-6   -1.203177726099181E-6   -6.065531865843250E-6    9.034107705832932E-1   -4.243656262198604E-1
 3.390813559322034E8     9.022097193027832E-1   -4.325457694030450E-1   -3.830009770816210E-6   -4.949296176018631E-6   -1.318591118374370E-7   -1.830890720175204E-5    8.967784224920783E-1   -4.369012640241877E-1
 3.490513958125623E8     8.969751376619740E-1   -4.452000209948076E-1    9.844355873806482E-6   -7.400929886042660E-6   -1.804395481012798E-6   -2.712709636999358E-6    8.906390735982564E-1   -4.495275797086472E-1
 3.590214356929212E8     8.914265985797116E-1   -4.575533588455513E-1    1.940332270838617E-6   -3.061043806114241E-6   -3.768618408739585E-6    1.239288854326162E-5    8.846532532394586E-1   -4.621481037883126E-1
 3.689914755732802E8     8.860206847706528E-1   -4.697325121880674E-1    4.871260438154307E-6    1.939455677721349E-6   -7.460564879604297E-6    8.205959024850930E-6    8.790042981371528E-1   -4.747767309961695E-1
 3.789615154536391E8     8.799281702830717E-1   -4.809879567969713E-1    1.252307452945335E-6    2.118426647676761E-6    9.695633351407777E-6   -4.091549820897193E-6    8.736667019505135E-1   -4.867645523211317E-1
 3.889315553339980E8     8.743730855883346E-1   -4.916895482762529E-1   -6.316138107947106E-6    1.662666030432287E-5   -4.610343770959530E-6    9.433529186499338E-6    8.679812618212115E-1   -4.987329272776882E-1
 3.989015952143569E8     8.675694076576556E-1   -5.023740264363888E-1   -1.051955184905163E-5    1.069756205778482E-5   -7.731416640154805E-6   -7.101453582461913E-6    8.612705406285460E-1   -5.097900080156955E-1
 4.088716350947158E8     8.603295834417217E-1   -5.132485637184847E-1    6.058180919066870E-6    6.739484157658516E-6   -1.829241449088863E-6   -1.184374823019758E-5    8.542671031451704E-1   -5.207235998827719E-1
 4.188416749750748E8     8.534364462113140E-1   -5.247964494741713E-1    2.355025028380928E-6    5.373591873006264E-6    3.332050462083700E-6   -8.832262708807087E-6    8.475091854084048E-1   -5.314515433128211E-1
 4.288117148554337E8     8.462417156635310E-1   -5.365196861430279E-1    8.213671122321129E-7   -3.109172352310748E-6    8.730738222422219E-6    3.875398579126021E-7    8.406495118207881E-1   -5.417510586613203E-1
 4.387817547357926E8     8.384044867740451E-1   -5.479294090440484E-1    6.064486828188013E-6    4.045796428308450E-6    3.713320828077260E-7    2.460141680058346E-6    8.327122577931562E-1   -5.522603689824116E-1
 4.487517946161516E8     8.306440051706938E-1   -5.597550170749767E-1   -1.120999911021780E-5   -1.058589449339347E-5    1.904586415248971E-6   -1.928274526190018E-5    8.242678047579385E-1   -5.634924961364498E-1
 4.587218344965104E8     8.237069482367170E-1   -5.716425803271397E-1    5.934178531998528E-6   -4.497331873018023E-6    7.042607209107385E-6    6.921541096400446E-6    8.160443879151381E-1   -5.752373668509425E-1
 4.686918743768694E8     8.172987277341071E-1   -5.831068989404309E-1    2.584455290479742E-6   -4.417028104135496E-6    4.751855567036856E-7    1.400743726325546E-5    8.078501307932942E-1   -5.867924976179818E-1
 4.786619142572283E8     8.102127887814917E-1   -5.940068946574839E-1    1.817779935284330E-5    9.172099630956493E-6    1.440899320082496E-5    2.821944379762633E-6    7.994090844168312E-1   -5.980067256833217E-1
 4.886319541375872E8     8.025610481244124E-1   -6.043494474774738E-1   -9.152739431126709E-6    2.711890242853660E-6   -1.206806847274081E-5    8.171323531577563E-6    7.905585892966628E-1   -6.088908191367408E-1
 4.986019940179462E8     7.941109791296509E-1   -6.148260102370581E-1   -7.883443191024482E-6   -5.261389862622617E-6   -2.519598714084846E-6    1.675341559950498E-5    7.822771717280463E-1   -6.196810489957182E-1
 5.085720338983051E8     7.858612678194493E-1   -6.240473881707826E-1   -9.181803434251148E-6   -7.319805647324560E-6   -1.834618116298069E-6   -1.905372219983233E-5    7.746547815726746E-1   -6.302158181813627E-1
 5.185420737786640E8     7.785333487514216E-1   -6.332171293977417E-1    6.848468008684254E-6   -3.246880162872336E-6    1.333010018380640E-5   -2.665932155586600E-6    7.671057547982023E-1   -6.400284893601096E-1
 5.285121136590229E8     7.703737925677404E-1   -6.429594565564385E-1   -2.378867981225790E-6   -3.108410925395090E-6   -4.950284259026281E-6   -7.462537536537701E-8    7.590628347019951E-1   -6.497027351202898E-1
 5.384821535393819E8     7.616142098919851E-1   -6.529325821083962E-1    5.503885880074102E-7   -2.401094998588498E-7   -6.782720978777152E-6    1.138125632780801E-5    7.509161876631324E-1   -6.593357444498703E-1
 5.484521934197408E8     7.533855500602992E-1   -6.634949735187721E-1    2.629099569350291E-6   -3.934997187422108E-6   -2.144229312314092E-6    3.187623608497468E-6    7.424639110195833E-1   -6.692525234884954E-1
 5.584222333000997E8     7.448412547364655E-1   -6.744279147989386E-1   -3.561168784849841E-6    1.339847706651265E-5   -7.096759562166497E-6    4.441492140767237E-6    7.333116924184592E-1   -6.792272584631529E-1
 5.683922731804587E8     7.357500214902538E-1   -6.848540085639812E-1   -1.317963548296077E-6   -6.400072532832416E-6    9.727111705024723E-6    5.836319012347106E-6    7.231841373253370E-1   -6.891616062245784E-1
 5.783623130608176E8     7.265066334429022E-1   -6.948653668316949E-1   -1.011586008388883E-6   -1.081249554942228E-6   -3.090498164553293E-7    8.452854179271886E-6    7.127480919600759E-1   -6.988664504680635E-1
 5.883323529411764E8     7.171950883763883E-1   -7.047839526256282E-1    6.456743097896479E-6   -1.345730781517857E-5   -7.330553610209307E-6    1.578277555537654E-5    7.022823280074953E-1   -7.086521726689881E-1
 5.983023928215353E8     7.080644487921867E-1   -7.148834397405256E-1   -6.631554789768123E-6    1.220615277202463E-5    5.844301836717983E-6   -9.330266958674690E-6    6.918809847388081E-1   -7.181763141519628E-1
 6.082724327018943E8     6.986880399022061E-1   -7.245295657920168E-1   -8.819296643779160E-6    8.075478576842037E-7   -4.124364609445984E-6    1.388126496035705E-5    6.816170213559742E-1   -7.276091130264356E-1
 6.182424725822532E8     6.889378099398349E-1   -7.343053637141681E-1    3.412286962868741E-6   -2.355469829227306E-6   -2.656504971486510E-5    4.877505084296605E-6    6.717712597120660E-1   -7.371767214982363E-1
 6.282125124626122E8     6.782922285991390E-1   -7.436340966190328E-1    5.938350689923275E-6    6.716116503491176E-6   -6.456561117893577E-6    1.618696259702064E-5    6.628257568550282E-1   -7.466922454633740E-1
 6.381825523429711E8     6.685280250348477E-1   -7.507597597257757E-1    2.846339526846882E-6   -1.029025058434184E-5    8.324654515298878E-6   -1.755588648879063E-5    6.538205769120758E-1   -7.556163942900616E-1
 6.481525922233300E8     6.595576848005223E-1   -7.593520522833385E-1    6.080248096180213E-6    8.471389901340664E-6    3.348500046132262E-6   -5.589238485358964E-6    6.447272594031105E-1   -7.639697844996730E-1
 6.581226321036890E8     6.498446862265005E-1   -7.682771028502389E-1    7.558313727982820E-6   -5.126367385378883E-6    1.049444674325950E-5    1.350782011732642E-5    6.346951037518840E-1   -7.723544008055128E-1
 6.680926719840479E8     6.399435043002097E-1   -7.770849396719209E-1   -4.171451458437615E-6   -2.565504340565884E-6    4.388156339992015E-6    1.087664071500419E-5    6.240959865099722E-1   -7.803512116748614E-1
 6.780627118644068E8     6.301372837459291E-1   -7.850441432117055E-1   -1.272117669962326E-5    7.736617914225960E-6   -6.229209596995205E-6    1.029226732276698E-5    6.131837075904940E-1   -7.883271270843925E-1
 6.880327517447658E8     6.197082572698623E-1   -7.933997995858250E-1    1.092306754404506E-5   -2.118169068464098E-5    2.030204555976330E-5    7.714357204370078E-6    6.016333972494411E-1   -7.959428485464450E-1
 6.980027916251246E8     6.087864618433062E-1   -8.015164141572694E-1    2.589687078741931E-6   -1.102554925530987E-6   -2.548111662214182E-5   -8.274039231135211E-6    5.900861862934715E-1   -8.035427773299890E-1
 7.079728315054835E8     5.974697457048195E-1   -8.100067361609691E-1    4.900865767562925E-7   -3.292893066027534E-6    1.942027094501205E-6   -1.125127127356163E-5    5.786189865221406E-1   -8.116220773054978E-1
 7.179428713858424E8     5.862452282592724E-1   -8.183801909338408E-1   -8.843530790674607E-6    3.577731756825860E-6   -1.236561111027717E-6    3.969763596496942E-6    5.673899287760724E-1   -8.200886817767501E-1
 7.279129112662014E8     5.753062821748807E-1   -8.268165225877945E-1   -9.441926937304787E-6    1.604566773521965E-6   -1.183697025111607E-5    6.479161144120174E-6    5.560543869622573E-1   -8.287250439844469E-1
 7.378829511465603E8     5.640262101438732E-1   -8.355025620530149E-1    1.706830280751574E-6   -1.199356672990855E-5   -1.014685899888173E-5   -7.937872658446665E-6    5.446745113856222E-1   -8.370824949520164E-1
 7.478529910269192E8     5.519809680997358E-1   -8.440422418887974E-1    5.445743700768617E-6    1.648780064808745E-5    7.491360669702923E-6    6.966952480135861E-6    5.335941364776993E-1   -8.447898522073398E-1
 7.578230309072782E8     5.394655740164939E-1   -8.513503184612815E-1    1.214967896911222E-7    1.962816586526971E-5   -1.387851826593161E-7    2.935109317139417E-6    5.225852196760361E-1   -8.517484690163253E-1
 7.677930707876371E8     5.290350042186124E-1   -8.566960152578091E-1   -1.231809453555139E-5   -4.994707357482418E-6    4.828392442035435E-6    2.435742940327818E-5    5.111963301026525E-1   -8.581637500532704E-1
 7.777631106679960E8     5.193323431202883E-1   -8.635338229930967E-1    6.880434403255003E-6    1.247503605053037E-5   -4.492371415099253E-7   -5.424425510426132E-8    4.997109252033529E-1   -8.646526106953339E-1
 7.877331505483550E8     5.089644351093027E-1   -8.704645495408238E-1    6.776401168270338E-7   -9.803086538151737E-6   -7.787400735560494E-6    1.697864461876708E-6    4.878504402934576E-1   -8.713017832643120E-1
 7.977031904287138E8     4.979007970767069E-1   -8.769738758507541E-1   -1.727650837854173E-5    9.327167837236135E-6   -4.660249695582047E-6    8.428282232670145E-6    4.750802347216554E-1   -8.778034742868195E-1
 8.076732303090727E8     4.862269507862671E-1   -8.829949033831918E-1    1.815682728028340E-6    4.405460953379471E-6    8.519093491034314E-6    2.370926899363454E-6    4.623208163442448E-1   -8.838920851783988E-1
 8.176432701894317E8     4.741834921685950E-1   -8.888872771510420E-1   -5.124626398326110E-6    7.744399387826707E-6   -5.537041766457233E-6    1.012718874408798E-5    4.494244697244673E-1   -8.902586443621087E-1
 8.276133100697906E8     4.618765657838902E-1   -8.952053369952292E-1   -7.689668287447940E-6    2.034507462111655E-5    1.348122520421985E-5   -1.578309146625410E-6    4.367072727568420E-1   -8.970124047000575E-1
 8.375833499501495E8     4.492932467354067E-1   -9.016051367549951E-1   -1.716940193564110E-6   -1.738413761952282E-8    7.339199628503781E-6    7.155585673613489E-6    4.246841382323665E-1   -9.036907341812823E-1
 8.475533898305085E8     4.365453952340977E-1   -9.081638562017355E-1   -1.853243718486649E-6   -4.989188084671598E-6    5.024556391668907E-7   -4.688062632166079E-6    4.128524616175777E-1   -9.096491139724072E-1
 8.575234297108674E8     4.237426159788192E-1   -9.146141137730968E-1   -2.430818331960105E-8    6.312092904265227E-6    2.186644188955919E-6    7.567017846427567E-6    4.011257916152812E-1   -9.151065017100978E-1
 8.674934695912263E8     4.108662520569680E-1   -9.212243599935788E-1    6.199226796732363E-6   -1.193459384338104E-5   -1.261220968192100E-7    1.017797725082820E-6    3.889836132423102E-1   -9.198518954324370E-1
 8.774635094715853E8     3.977564247627532E-1   -9.277372324343937E-1    7.068884517143493E-6    5.305425445588785E-6    1.964860701118784E-6    2.051149512639889E-6    3.763582476075764E-1   -9.244882031697936E-1
 8.874335493519442E8     3.847499837398947E-1   -9.322710345490079E-1   -1.317138633169069E-5   -2.831836628359837E-6    2.337355819062806E-6    1.358988311487055E-6    3.632407699905090E-1   -9.289717675355851E-1
 8.974035892323031E8     3.733355088324227E-1   -9.359474123270153E-1    9.019445203867471E-6    5.656296616302121E-6   -6.524058715224787E-6   -5.151601506000247E-6    3.497526602508721E-1   -9.333292466576076E-1
