#  HZ   S   RI   R     50.00 
! Rohde & Schwarz Vector Network Analyzer 
! Rohde-Schwarz,ZNB20-2Port,1311601062102128,3.60
! Created: UTC 4/29/2024, 3:56:09 PM
! freq[Hz]                re:S11                  im:S11                  re:S21                  im:S21                  re:S12                  im:S12                  re:S22                  im:S22
 1.000000000000000E5     9.957112493428495E-1    4.822522492358755E-3   -1.196068568935302E-4   -8.202239408153541E-7    1.517811575723013E-4    1.907433240875240E-4    1.010943757015846      -1.082073151598057E-2
 1.007003988035892E7     9.982661409395713E-1   -1.396073084675992E-2   -3.108649714596871E-5    5.652361303487238E-6   -2.478795408205174E-6   -1.175772253497221E-6    9.957786419887920E-1   -1.458506335768942E-2
 2.004007976071785E7     1.000054107677151      -2.719208333739597E-2   -8.057599961923020E-6    1.038090304891232E-5   -1.534324910571754E-5    8.200597079089819E-6    9.986575242978825E-1   -2.770736859487720E-2
 3.001011964107677E7     9.982197520018761E-1   -4.104578150177265E-2    6.319179205104363E-6   -9.149543316135736E-6    1.204945096095981E-5   -2.928386055497559E-5    9.975266060102896E-1   -4.209373640731891E-2
 3.998015952143569E7     9.975710836908056E-1   -5.304930708648663E-2    5.466630819548921E-6   -2.753856265673361E-5    1.722279870391635E-6    5.571003368355819E-6    9.977115308549980E-1   -5.671880976770542E-2
 4.995019940179461E7     9.956574188220874E-1   -6.589379384372794E-2    9.440631468670977E-6    8.151531553581139E-6   -2.117026697059324E-6   -7.867578847645639E-6    9.965744881891163E-1   -6.913381765896109E-2
 5.992023928215354E7     9.939450992921317E-1   -7.879707382981155E-2    2.066220509063709E-5   -3.626481030878379E-6    2.711332581872634E-6    2.792814151440349E-6    9.946994955450961E-1   -8.200501057285624E-2
 6.989027916251247E7     9.930999724536881E-1   -9.171086303719138E-2    2.125482859525662E-6    1.443519419259534E-5    1.252403377497760E-5    1.633745169347137E-5    9.934873000821191E-1   -9.490550577086272E-2
 7.986031904287139E7     9.928050397330911E-1   -1.051343115902682E-1   -6.141972762092533E-6   -7.267003306454116E-6    1.609156312255206E-5    1.193397450027043E-5    9.924131104302808E-1   -1.080233029805109E-1
 8.983035892323031E7     9.915819066264401E-1   -1.186704910958519E-1    1.654181960897152E-5   -7.073883435855215E-6   -7.365580861633122E-6    1.094185956124991E-5    9.907844962091840E-1   -1.211841285472164E-1
 9.980039880358922E7     9.891016329908613E-1   -1.321389571727710E-1   -2.263071384400325E-6   -1.811583207346889E-6   -2.899417569866200E-5    2.775192706439999E-6    9.885160635678953E-1   -1.345881049568194E-1
 1.097704386839482E8     9.863038015785419E-1   -1.453460177011523E-1   -7.643657100903340E-7   -8.398364255097540E-6   -4.065096849511955E-6    1.181988714274880E-5    9.861074145037245E-1   -1.478641218687603E-1
 1.197404785643071E8     9.849276685991061E-1   -1.588893360595461E-1    1.316104820332124E-5   -1.741848448767249E-6   -1.693528497112031E-5   -1.537170055942562E-5    9.842858131834048E-1   -1.612958891587795E-1
 1.297105184446660E8     9.829627203783426E-1   -1.716451516214816E-1    1.617848283805773E-5   -3.247269839528032E-6   -2.399971893934831E-5   -6.274256673480733E-6    9.827508274100182E-1   -1.745071896636427E-1
 1.396805583250249E8     9.815472210125507E-1   -1.845501470989311E-1   -3.227639987826039E-5   -1.275890067291289E-5    9.089004412081429E-7    1.121086396309136E-5    9.809306300013422E-1   -1.876621384121201E-1
 1.496505982053838E8     9.787809203304516E-1   -1.969714461485793E-1   -1.001070280090571E-6    1.290781701768585E-5    3.475307945358707E-7    7.964023338311600E-6    9.785068665917874E-1   -2.004205142639967E-1
 1.596206380857428E8     9.759555653196003E-1   -2.093017049024228E-1    2.397531461212623E-6   -5.085065900394871E-6    5.041825021495004E-6    1.824910296386452E-6    9.756960430624140E-1   -2.132907320585897E-1
 1.695906779661017E8     9.732095916784982E-1   -2.221816650641573E-1   -9.365937995160391E-6   -2.425658468692197E-7   -1.033211243533333E-7    1.118899340156735E-5    9.729290772383971E-1   -2.262169485212884E-1
 1.795607178464606E8     9.706976740348914E-1   -2.345581932102864E-1    2.565812452639144E-6    1.782281233078018E-6   -7.202712779523074E-6    5.474597228618031E-6    9.701391969728481E-1   -2.380770105038602E-1
 1.895307577268195E8     9.676840990797457E-1   -2.468000459557186E-1   -1.155584648622912E-5    6.567213497785088E-6    6.412658532255151E-6    9.216557934512004E-6    9.667771607340001E-1   -2.505808368848098E-1
 1.995007976071784E8     9.637595948018629E-1   -2.592545110934789E-1   -7.093017540593922E-6   -1.485322304051549E-6   -7.114930040477101E-6    1.457427983405669E-5    9.627205542788985E-1   -2.632739104914682E-1
 2.094708374875374E8     9.603493598597920E-1   -2.720722606412615E-1    1.791061988363019E-5    9.893585723188799E-6    4.716998538969131E-6    6.920487777069553E-6    9.588826592828310E-1   -2.762159163307983E-1
 2.194408773678963E8     9.573135723175739E-1   -2.848608739557719E-1    4.646281954875063E-6    5.213540996919230E-6   -7.142742062609346E-6    6.374926713911968E-6    9.550607091165892E-1   -2.892098102188966E-1
 2.294109172482552E8     9.536452581221831E-1   -2.971814877330998E-1    1.264999644622759E-6    3.953671162059306E-6   -1.561683374906376E-5   -1.405684025943735E-5    9.509404448962568E-1   -3.018241049505195E-1
 2.393809571286142E8     9.505269908157131E-1   -3.092901922305067E-1   -5.029202437600744E-6   -7.868112050620493E-6    1.575543525833624E-5   -3.010579291418360E-6    9.469755693780763E-1   -3.141364292587491E-1
 2.493509970089731E8     9.466858150545141E-1   -3.231214587316804E-1   -1.014742324921787E-5   -1.649738274541924E-5    2.840837294535296E-6    3.838771976351923E-6    9.440580595446246E-1   -3.277680613952028E-1
 2.593210368893320E8     9.425543754110363E-1   -3.351033053422375E-1   -1.444466101541159E-5    1.123771684190560E-6    4.255576348648977E-6   -1.161389535449053E-5    9.398067245679693E-1   -3.409635550231445E-1
 2.692910767696909E8     9.385675542521088E-1   -3.465872028403321E-1    4.324342213362353E-6   -1.216737802378335E-5    1.121049880839126E-5    1.456954490397705E-5    9.355267415395263E-1   -3.529197075912413E-1
 2.792611166500499E8     9.338310577823957E-1   -3.581324202491549E-1   -1.442670770585114E-5    1.003969461199764E-5   -1.991779369258066E-5    5.999226054183078E-6    9.309933133370305E-1   -3.647048654636711E-1
 2.892311565304088E8     9.289311919975890E-1   -3.701547867806201E-1    1.311581768461079E-5    3.365534215700652E-6    4.281305238443084E-6    1.005117156925916E-5    9.262837717108932E-1   -3.768064415027244E-1
 2.992011964107677E8     9.240917047765174E-1   -3.823113117967400E-1    5.061017275045683E-6    7.846962913169219E-6    1.941193243930413E-6    1.110025855056479E-5    9.212885199216804E-1   -3.886060929696498E-1
 3.091712362911266E8     9.188018638825755E-1   -3.945476199680562E-1    1.561009393941583E-5   -2.995345216339597E-6    1.472440329536757E-5   -3.725273657963302E-6    9.156569293070301E-1   -4.001151767811426E-1
 3.191412761714855E8     9.133867510953642E-1   -4.070056243041948E-1   -4.825691887583297E-6   -1.003985712379426E-5    1.229480331086312E-5    5.201706095318776E-6    9.098348299346933E-1   -4.119235365544675E-1
 3.291113160518445E8     9.077433996799568E-1   -4.197415271215303E-1   -2.201455153486051E-5   -2.541321125042002E-6    1.799605056945206E-6    7.688916088435473E-6    9.034384642802902E-1   -4.244029823442609E-1
 3.390813559322034E8     9.021030906471591E-1   -4.326018607345703E-1    8.318103623659404E-6   -2.534555848012731E-6    2.307780445674040E-5    1.068501416336021E-5    8.967951445057016E-1   -4.369531327900898E-1
 3.490513958125623E8     8.967587042894002E-1   -4.451646267670322E-1    1.666761443140358E-7   -5.416233271539304E-6   -2.029103171178327E-5   -4.219630882063812E-6    8.903902856439226E-1   -4.494371913228822E-1
 3.590214356929212E8     8.912689315307688E-1   -4.575616864248176E-1    1.351014866489588E-6   -6.764922158279669E-6   -1.062420638268978E-5   -8.497136459631121E-6    8.845765236798468E-1   -4.621837875903661E-1
 3.689914755732802E8     8.859066830873912E-1   -4.698395470957499E-1   -2.642394182778849E-7    1.205653605558048E-5    8.143168149824541E-6   -3.117972259953674E-6    8.791836011290215E-1   -4.748585826698972E-1
 3.789615154536391E8     8.799711970339342E-1   -4.811592925688885E-1   -1.948292317648140E-5    7.666502216279730E-6    1.710974323878631E-5    6.637187429964667E-6    8.737953213972159E-1   -4.868089143517334E-1
 3.889315553339980E8     8.742363281178150E-1   -4.917354669759071E-1    4.510893428640006E-8   -1.448151614638175E-5    1.879558462764159E-5   -7.412258481306707E-6    8.677947081161074E-1   -4.987065572515741E-1
 3.989015952143569E8     8.674516301742977E-1   -5.024164614134912E-1    1.379360499224975E-5   -3.376930077203918E-6   -7.660250639179554E-6   -1.581797587389939E-5    8.611589598838897E-1   -5.097625385152121E-1
 4.088716350947158E8     8.603088401161818E-1   -5.132748452578213E-1   -1.124193994302127E-6    1.624266911850367E-6    6.216634795579566E-6   -7.356867756915776E-6    8.544360164395551E-1   -5.206383222166360E-1
 4.188416749750748E8     8.533722238215887E-1   -5.248545268004626E-1   -1.057448334216880E-5   -8.074828917598686E-7   -1.436859465224781E-5   -5.711895271568744E-6    8.476915719218036E-1   -5.314494889946266E-1
 4.288117148554337E8     8.461124488883199E-1   -5.365103362720236E-1   -3.004688533328709E-6   -3.357941348269665E-6    1.828512543561570E-5    3.213319534665322E-6    8.405114724202871E-1   -5.416514788731981E-1
 4.387817547357926E8     8.383719165460680E-1   -5.479083933480378E-1    3.179708411320735E-6    7.405349384647444E-6    1.661930970057105E-7    5.819139003287210E-6    8.326334745127182E-1   -5.523105110510711E-1
 4.487517946161516E8     8.306378578920887E-1   -5.597985371880235E-1    3.669907356632458E-6    1.013809179338392E-5   -8.093040112543372E-7   -1.006824378205514E-5    8.243528267989484E-1   -5.634846595108405E-1
 4.587218344965104E8     8.237402973383833E-1   -5.718175325902819E-1   -9.481988890928065E-8   -1.098808027560658E-6   -8.087357565885406E-6   -8.366951833241881E-6    8.161135341764629E-1   -5.752240950281318E-1
 4.686918743768694E8     8.171111577478712E-1   -5.831339815918943E-1   -8.409324384753085E-6   -2.986307152566084E-7    1.178932208893038E-6   -1.074120342697647E-5    8.078232794021799E-1   -5.868808458521452E-1
 4.786619142572283E8     8.099238221944607E-1   -5.938302326552076E-1   -4.546031995006223E-6    1.004075199643628E-5   -5.962357434418678E-6   -1.026875759294322E-6    7.991257811771501E-1   -5.979706065265198E-1
 4.886319541375872E8     8.023950600276324E-1   -6.043264702685968E-1    5.910604757573118E-6   -1.943027616547980E-5   -4.208975123911547E-6    2.201072866331417E-5    7.904858814489810E-1   -6.088295940598701E-1
 4.986019940179462E8     7.942378944145079E-1   -6.150344682563726E-1    2.427578005887569E-6   -8.782284383126717E-6    9.705537681721745E-6   -3.423984201763075E-6    7.824222236598795E-1   -6.198338005325810E-1
 5.085720338983051E8     7.858730558113868E-1   -6.242979849280623E-1    2.722427314213391E-6   -1.729406087715313E-6    1.478976278311376E-5   -4.597077063103419E-6    7.746394426022819E-1   -6.302202663928694E-1
 5.185420737786640E8     7.783768216563514E-1   -6.332038227166479E-1   -4.895923611913529E-6   -5.065955046233247E-6    1.222351265758283E-7    1.578967648168337E-5    7.669959331854787E-1   -6.400154373343913E-1
 5.285121136590229E8     7.700930178710174E-1   -6.427949377248154E-1   -5.202328975042539E-6   -7.443590725335060E-7   -6.842161708654933E-6   -3.308031314187944E-6    7.591819810071698E-1   -6.496869260631658E-1
 5.384821535393819E8     7.616294426040858E-1   -6.529940961983767E-1    2.556575517790668E-6   -4.322387549658208E-6   -1.448994278739130E-6   -5.400432299381255E-6    7.511160778512457E-1   -6.593773981438034E-1
 5.484521934197408E8     7.534842658938063E-1   -6.636823532966575E-1    1.023108889468430E-5   -1.000609746207918E-5    3.420594915833640E-5   -2.655629386442611E-6    7.425019790955099E-1   -6.690964313603388E-1
 5.584222333000997E8     7.448623746219911E-1   -6.744465719412205E-1   -1.364735499479805E-6    5.632126753109585E-6    3.616644222811752E-6   -8.496906011922165E-6    7.332976976942531E-1   -6.791556240627077E-1
 5.683922731804587E8     7.356467408589130E-1   -6.848375591228664E-1   -1.076239018072273E-5   -1.082433624385665E-5    5.709726696786472E-6   -1.387683641653988E-5    7.232613430813467E-1   -6.890622896702076E-1
 5.783623130608176E8     7.264560689920196E-1   -6.947855929104864E-1   -7.527631916494806E-6    2.047594643952152E-5   -1.438455202828517E-5   -6.226030622516702E-6    7.127786890015797E-1   -6.988455310418246E-1
 5.883323529411764E8     7.172308200395766E-1   -7.048765367701946E-1    4.645434686768441E-6    7.354148395398392E-6   -1.624668478330131E-6   -1.276056143286158E-5    7.023105850842162E-1   -7.086024967373761E-1
 5.983023928215353E8     7.081741366657289E-1   -7.150060525993668E-1    2.483027447682286E-7    2.354120948886758E-6   -7.295491087235943E-6    6.699549296867044E-6    6.919123932228337E-1   -7.181196771566440E-1
 6.082724327018943E8     6.985966557384202E-1   -7.245941530903953E-1   -1.286667586883872E-5   -3.784807469024067E-6   -4.763890902274618E-6   -1.113558469234753E-6    6.816111476194961E-1   -7.276264644154220E-1
 6.182424725822532E8     6.887716392692013E-1   -7.342702077665523E-1    3.279879225473150E-6   -7.133497928355900E-6    2.062515543983402E-6   -6.510265438664908E-6    6.717966888984570E-1   -7.368658790082713E-1
 6.282125124626122E8     6.783064505038126E-1   -7.437604168982335E-1    1.571525823127498E-5   -2.507416668507701E-7    1.850040085297952E-6   -7.808101295820407E-6    6.629120502341308E-1   -7.466303261311044E-1
 6.381825523429711E8     6.687236525281299E-1   -7.509702786108897E-1    7.791126255216955E-6    5.385825737227960E-6   -6.118253537517933E-6    2.257594381464726E-5    6.539817530324086E-1   -7.556036127178322E-1
 6.481525922233300E8     6.596554925551701E-1   -7.594706762451557E-1    5.132934176399893E-6    1.149362111512575E-5    3.624292189089063E-6    1.227063465562123E-5    6.447064015593770E-1   -7.639822318427600E-1
 6.581226321036890E8     6.498635277053687E-1   -7.683804524746504E-1    1.025776321872064E-6   -1.227410209424160E-6   -2.687137862588147E-6    7.646313196380112E-6    6.346933525103955E-1   -7.722436524573147E-1
 6.680926719840479E8     6.398954229807570E-1   -7.770559342742955E-1    1.311926743907884E-5    1.511398009043004E-6   -2.048964897430987E-5    1.410617114815015E-6    6.241001016399885E-1   -7.803016125315199E-1
 6.780627118644068E8     6.301996345324364E-1   -7.852890714943277E-1    4.420457688935679E-6   -1.348539000570852E-6    3.276973630969862E-6   -1.195997593354302E-5    6.131597062405149E-1   -7.882969545762302E-1
 6.880327517447658E8     6.197637705034921E-1   -7.935855478517543E-1   -1.268310074802476E-5   -1.649701580145457E-8    1.215718915866395E-5    1.914055716800972E-5    6.017961683840087E-1   -7.958722943065255E-1
 6.980027916251246E8     6.088172273751443E-1   -8.017766939217712E-1   -9.254629456261560E-6   -1.486667811598593E-5   -1.059580118021363E-5   -1.493813059991660E-7    5.901922146889844E-1   -8.035925398577299E-1
 7.079728315054835E8     5.974846962766851E-1   -8.101166424967441E-1   -5.420822496105286E-6   -4.691103207246364E-6   -2.446014858160049E-5   -5.095741427767656E-6    5.786876889639392E-1   -8.114810394574693E-1
 7.179428713858424E8     5.862677435097267E-1   -8.185735748515434E-1    1.719251488129483E-5   -5.825505700462772E-6    1.701027585643581E-5   -1.548092851423456E-5    5.673286313115042E-1   -8.200827786779777E-1
 7.279129112662014E8     5.753276797494384E-1   -8.269358236705288E-1   -3.527685302249607E-6   -7.214914714085143E-6   -2.290773419366230E-5    1.115460432407960E-5    5.560610064128055E-1   -8.286839165239593E-1
 7.378829511465603E8     5.640642644527817E-1   -8.356413033144867E-1    3.311052377581696E-6   -3.281832791679221E-6   -1.263851361516207E-6    1.024223310083546E-5    5.447513121532231E-1   -8.369998440103480E-1
 7.478529910269192E8     5.520958971801595E-1   -8.442150327387026E-1   -2.534163264081714E-6    2.049900078186609E-5   -1.759348790826183E-5    9.955706195634421E-6    5.335938517320318E-1   -8.446108995124328E-1
 7.578230309072782E8     5.394536833753230E-1   -8.514591451895595E-1    2.609991393355794E-6   -2.025716063525941E-6    1.134227922801227E-5    1.426479203966682E-5    5.226287143214490E-1   -8.516860282816890E-1
 7.677930707876371E8     5.290197393379377E-1   -8.567806363742360E-1    1.764282102883435E-6   -1.150917260277583E-5   -2.781025414992353E-6    1.225593600556559E-5    5.113571578333572E-1   -8.580768736333886E-1
 7.777631106679960E8     5.194344676808185E-1   -8.637285669791421E-1   -2.024459222043422E-5   -3.646519882640524E-6    1.295414189684652E-5    1.810849694923507E-5    4.997149817013010E-1   -8.646657979677029E-1
 7.877331505483550E8     5.092169914688919E-1   -8.707813250099201E-1    2.357978439420764E-5    4.138597378945441E-6    3.352301902956499E-6   -8.847933609838335E-6    4.879392528105963E-1   -8.712326861255821E-1
 7.977031904287138E8     4.979486617913768E-1   -8.771378378848167E-1   -1.329391626530398E-5   -9.335845435286882E-6    8.248763865622314E-6   -1.814018435801357E-5    4.751952251461938E-1   -8.777842359633158E-1
 8.076732303090727E8     4.861482278475344E-1   -8.829672135501521E-1    5.958372668197273E-6    3.775991762074803E-6   -7.183250788691093E-6   -1.223677304087741E-5    4.622928594910441E-1   -8.838505815269145E-1
 8.176432701894317E8     4.741245370975386E-1   -8.889401384188109E-1    9.582222767072174E-6    3.403409317511911E-7    6.292997566799883E-6    8.111023659085696E-6    4.494419019320463E-1   -8.902651208959929E-1
 8.276133100697906E8     4.619410568323298E-1   -8.954667742712008E-1   -2.979283744651719E-6    1.297437685099229E-5   -8.501138240569761E-6   -1.410603017405653E-5    4.368788041415945E-1   -8.968869373342464E-1
 8.375833499501495E8     4.494220127561783E-1   -9.018678859538861E-1   -7.516086579327291E-6   -2.867010321845836E-6   -1.570517119346475E-5    2.122746585844258E-7    4.246411112090169E-1   -9.036136356025355E-1
 8.475533898305085E8     4.365547517750696E-1   -9.083281939511144E-1   -7.857205819671273E-6   -6.505629613536220E-6    5.048537663806306E-6    5.501123220324930E-6    4.128636903841375E-1   -9.097115393307830E-1
 8.575234297108674E8     4.236772842997333E-1   -9.146798271726246E-1    8.003674685374801E-7    3.435449945800158E-6   -8.136252794850706E-6   -6.859656469109751E-6    4.011822738241463E-1   -9.150359056462847E-1
 8.674934695912263E8     4.108961872068793E-1   -9.213339072742970E-1    1.443177525676028E-6    7.767208174788961E-6    4.778760411630695E-6    6.571643551852977E-6    3.890742968232526E-1   -9.198215249133014E-1
 8.774635094715853E8     3.978427441544604E-1   -9.278784202434088E-1    1.320807741334343E-5    7.688892810629365E-6    2.025369984852370E-5    7.244951294972099E-6    3.764834024362954E-1   -9.245122274313506E-1
 8.874335493519442E8     3.847485517608776E-1   -9.325906644385251E-1    5.596490617769870E-7   -3.195610386905792E-6   -1.761484602716027E-6    6.489405296431168E-6    3.633949467662104E-1   -9.289414307969764E-1
 8.974035892323031E8     3.734693978560833E-1   -9.362646214107353E-1    9.971695863667849E-6    6.423398652625900E-7    4.474928042242520E-6    1.698041512719384E-6    3.497877942768124E-1   -9.333584665707726E-1
