#  HZ   S   RI   R     50.00 
! Rohde & Schwarz Vector Network Analyzer 
! Rohde-Schwarz,ZNB20-2Port,1311601062102128,3.60
! Created: UTC 4/29/2024, 3:48:49 PM
! freq[Hz]                re:S11                  im:S11                  re:S21                  im:S21                  re:S12                  im:S12                  re:S22                  im:S22
 1.000000000000000E5     9.962163770204436E-1    4.632959310775310E-3   -3.671047974339536E-5    1.966385651896914E-4    1.342672577557734E-5   -5.355713759103048E-5    1.010893308884621      -1.084703974228131E-2
 1.007003988035892E7     9.974841157700571E-1   -1.384521688219516E-2   -1.415161105524176E-5   -7.414790462378349E-6    5.619954998418723E-6   -1.196327260846047E-5    9.958707910922362E-1   -1.452722688197482E-2
 2.004007976071785E7     9.997427679729269E-1   -2.714950125578890E-2    3.194831422655414E-5   -1.273625524551277E-5    5.439346973541627E-6   -4.334164968639626E-6    9.987431033610565E-1   -2.764462171276583E-2
 3.001011964107677E7     9.978436660350021E-1   -4.103698736805222E-2   -1.653966366136267E-5    2.354985367341838E-5    2.167223909260065E-5    2.198659318872500E-5    9.975345141817854E-1   -4.204167539669230E-2
 3.998015952143569E7     9.975555794644713E-1   -5.302361129694073E-2    1.172875532563850E-5   -1.249208915407080E-5    1.260031928276940E-5   -9.255273568557373E-6    9.975538176987908E-1   -5.672782248159736E-2
 4.995019940179461E7     9.959245155069957E-1   -6.590954804473785E-2    8.747700211669796E-6   -1.009585531463829E-5   -3.081349196700110E-6   -1.461840302240255E-5    9.964962184787780E-1   -6.928164634888666E-2
 5.992023928215354E7     9.942071964461250E-1   -7.877458176502068E-2    2.847792256917589E-6   -4.516742258232553E-6   -4.555220129898600E-6   -5.048989431785917E-6    9.946763851462687E-1   -8.213505093058071E-2
 6.989027916251247E7     9.931246839549414E-1   -9.180884651317914E-2   -1.290214979635906E-5    3.094228624141372E-6    3.174831157692670E-6    8.287138168296945E-6    9.934134568332185E-1   -9.485877461799608E-2
 7.986031904287139E7     9.924967912915814E-1   -1.050962048275069E-1    1.025751474370642E-5    1.897630428515701E-5   -4.243205642396651E-6    2.480717829254682E-6    9.923744868257728E-1   -1.081028355256193E-1
 8.983035892323031E7     9.913892993610384E-1   -1.187139528576722E-1    2.595159796600341E-6   -3.325325627619869E-6   -7.560230504805178E-6    1.522873751005028E-5    9.908101317135720E-1   -1.211973199085936E-1
 9.980039880358922E7     9.893597848764469E-1   -1.321742463566154E-1   -3.575161259658931E-6    1.805985828672772E-5   -8.105514357663030E-6   -1.236858914739995E-5    9.884888023033157E-1   -1.346816021435885E-1
 1.097704386839482E8     9.864050882532059E-1   -1.454740959095489E-1   -1.054429660253084E-5   -4.586889882607671E-7    7.574033306373549E-6    1.537852963891111E-5    9.861518358129636E-1   -1.478585942357676E-1
 1.197404785643071E8     9.848693087379012E-1   -1.588615134017747E-1   -8.287169964868616E-6   -1.972362776031004E-5    3.342202251768659E-6   -5.663227676504335E-6    9.842438099105010E-1   -1.613366710004667E-1
 1.297105184446660E8     9.829475341085542E-1   -1.716129051120144E-1    2.744041287788958E-6   -3.320806945455119E-7    9.616815796244352E-6   -2.289301432713817E-6    9.828666183679932E-1   -1.745983360819741E-1
 1.396805583250249E8     9.815557616717072E-1   -1.845486501498059E-1   -6.715448846115112E-7    6.202772820632259E-6    3.254221789994661E-6    5.887348183221090E-7    9.808433947018613E-1   -1.876526936557150E-1
 1.496505982053838E8     9.787609245831468E-1   -1.969787107579591E-1    7.948584354759154E-7   -5.433588127960079E-7    2.276307521462240E-6    1.568318245878692E-5    9.785832558527737E-1   -2.004775429422823E-1
 1.596206380857428E8     9.759902220148166E-1   -2.093012981121042E-1    2.756093400159750E-6   -2.944307253503134E-6   -8.195920302702484E-6    1.393944873395007E-5    9.758412223705794E-1   -2.133363780662745E-1
 1.695906779661017E8     9.730799665216709E-1   -2.221854659160688E-1   -1.402877920725760E-5    5.977998179603663E-7    1.135679906034343E-5   -4.293865952529138E-6    9.728832320583207E-1   -2.262084841119302E-1
 1.795607178464606E8     9.706831460937115E-1   -2.347075079724684E-1   -4.184963241179229E-7    1.048356179323356E-5    1.029794249524419E-5    1.158796391269951E-5    9.701543159548967E-1   -2.381107687341880E-1
 1.895307577268195E8     9.677112671001384E-1   -2.468585427310267E-1    2.822005640711265E-6   -1.297481053927129E-6   -1.511857447809751E-5    2.076893027309091E-6    9.668008268458569E-1   -2.507530277206597E-1
 1.995007976071784E8     9.638722707181048E-1   -2.593372007258000E-1    1.101594053763517E-5    2.417662701934781E-6    1.253850413253747E-5    7.381162108126944E-6    9.628281901498208E-1   -2.632706701634895E-1
 2.094708374875374E8     9.603508152589041E-1   -2.721475775421172E-1    8.329860327642210E-6   -5.863947940322765E-6    4.543292390050982E-6    4.438989157157828E-6    9.589364776935082E-1   -2.762642936059637E-1
 2.194408773678963E8     9.572542452761584E-1   -2.849308481553574E-1   -8.577054042921354E-6    5.146735868544959E-6    4.765968795859040E-6    6.163650778218018E-6    9.550925193838627E-1   -2.891638675738298E-1
 2.294109172482552E8     9.537450221499294E-1   -2.972944789019787E-1    3.356672050332712E-6    3.946817660839541E-6   -9.411415706392592E-6   -1.022889986778097E-5    9.509069778616581E-1   -3.018763980145433E-1
 2.393809571286142E8     9.505510594590856E-1   -3.092966017182078E-1   -2.576855501544000E-6   -5.918837987898826E-6    1.157453148727561E-5    8.435093186011687E-6    9.469275131784420E-1   -3.140659337061405E-1
 2.493509970089731E8     9.467284160269285E-1   -3.230582381682512E-1    5.811458340622704E-6    7.493779894473144E-6    5.592478805610498E-6   -4.307678354670354E-6    9.439231566707229E-1   -3.277760506739754E-1
 2.593210368893320E8     9.426586620510642E-1   -3.351476526768578E-1    1.114556066060824E-5   -6.440880439068499E-6    3.112343217704757E-6   -2.998712523902169E-5    9.398375984147307E-1   -3.409217589450495E-1
 2.692910767696909E8     9.387106566695756E-1   -3.465590754743420E-1   -2.280280297646089E-6    4.905706895253642E-7   -4.520001587300504E-6   -1.084810533384979E-5    9.355816251207726E-1   -3.529283712819805E-1
 2.792611166500499E8     9.338370568674613E-1   -3.581153116786632E-1    3.399463472657150E-6    2.711907559289500E-6    5.868499239413699E-6    9.676109762768961E-6    9.309090661715722E-1   -3.646425829956231E-1
 2.892311565304088E8     9.290252114044214E-1   -3.701601708494913E-1   -1.223881634221835E-5   -2.131536910054960E-5   -1.335923336098290E-5    9.637890177558815E-6    9.261529825784338E-1   -3.768508458823952E-1
 2.992011964107677E8     9.240194830298515E-1   -3.822831247461995E-1    1.481396728625216E-5    5.800068493603597E-6    4.710313081935367E-6   -2.287861963115688E-6    9.212655832916739E-1   -3.887242144601157E-1
 3.091712362911266E8     9.189998013593564E-1   -3.945720519128467E-1    1.753384759732001E-6    7.982280690737554E-6   -1.313732784532485E-5    9.192153361418602E-6    9.156998784297226E-1   -4.002105221654695E-1
 3.191412761714855E8     9.134329616970679E-1   -4.070851379893731E-1    7.053359596896733E-6    1.017539580346107E-5    1.500205172699597E-6   -1.538486503333657E-5    9.097956019146992E-1   -4.119339815890548E-1
 3.291113160518445E8     9.076559831903079E-1   -4.197527585569669E-1   -1.545191406644171E-5    2.164632761092425E-6   -5.634376230850004E-6   -4.124144170508001E-7    9.034059665304898E-1   -4.243798799950783E-1
 3.390813559322034E8     9.019049029511270E-1   -4.325058858274033E-1    2.361608832146851E-6   -5.813521644006296E-6    3.639809406337767E-6    6.751044939542783E-7    8.969019294204248E-1   -4.369631319318610E-1
 3.490513958125623E8     8.968277744954541E-1   -4.451157407653231E-1    8.978540214429499E-6   -1.323712233817560E-7    8.062847821728985E-6   -1.934754866249847E-5    8.905514455424349E-1   -4.494784993897001E-1
 3.590214356929212E8     8.914781411754642E-1   -4.576532134512929E-1   -1.461646950661780E-6    5.881245206426027E-6   -5.718837986745362E-6   -1.266780228672225E-6    8.845945332005051E-1   -4.621644614565496E-1
 3.689914755732802E8     8.859894222051347E-1   -4.697298127684716E-1   -2.820526555470037E-6   -2.836562909859769E-6   -8.373134908888809E-7    8.485447213410936E-6    8.790497718940831E-1   -4.747303844319868E-1
 3.789615154536391E8     8.797736365530924E-1   -4.810118175761473E-1   -5.278621988825703E-6    6.466833689023388E-6   -8.777917598434885E-6   -8.338383951292780E-7    8.738209754303611E-1   -4.868449483615283E-1
 3.889315553339980E8     8.741384898175677E-1   -4.916824925315640E-1    2.637858826296099E-6    1.056144445523688E-5    8.079626994064499E-7   -2.947166561965113E-6    8.679463010714084E-1   -4.988541122849396E-1
 3.989015952143569E8     8.676132476154327E-1   -5.024857417088671E-1   -9.328919536599988E-6    6.097337272087815E-7   -4.806063401626862E-6    5.972743293905190E-6    8.612618340472623E-1   -5.098655380002854E-1
 4.088716350947158E8     8.603358927293812E-1   -5.132336370008087E-1   -5.578517310556430E-6   -1.534802179891049E-6    1.791268446775619E-5   -2.747519769261003E-6    8.542111716940612E-1   -5.207085777555926E-1
 4.188416749750748E8     8.532356780127006E-1   -5.247601177280570E-1   -3.239082623282132E-6   -6.327041335175976E-6   -6.372525426084995E-6   -6.181753790747489E-6    8.476456928468106E-1   -5.314160758431068E-1
 4.288117148554337E8     8.459617636572706E-1   -5.363995198245324E-1   -4.634338375536140E-6   -7.816613744170204E-6    3.145909367264135E-6   -1.126620673533103E-5    8.406351111592755E-1   -5.418379430516673E-1
 4.387817547357926E8     8.383228046968116E-1   -5.480547618449708E-1    1.136267878328848E-6   -3.089248670090542E-6   -3.050816956585546E-6    1.586908872900446E-5    8.325752742109097E-1   -5.523422668499127E-1
 4.487517946161516E8     8.307451159334485E-1   -5.599318765179186E-1   -3.847342397932582E-6    5.217393760367434E-6    2.196521153157966E-5    5.355541259080271E-6    8.242376606581632E-1   -5.634373081970790E-1
 4.587218344965104E8     8.236466594097874E-1   -5.717202300104924E-1   -3.863532303422068E-6    1.384238231123999E-6    4.395958884705702E-6   -8.876535080962485E-6    8.159984531427644E-1   -5.752925236369925E-1
 4.686918743768694E8     8.168958935114585E-1   -5.830908917365001E-1   -2.534657968828547E-6    1.497475209815231E-5   -2.167758605219969E-6    5.034002322509003E-6    8.077997813183544E-1   -5.868148145877994E-1
 4.786619142572283E8     8.098763507545652E-1   -5.939551950023186E-1   -7.806525128804071E-6   -2.386325485026357E-6   -1.349571323414595E-5   -7.337963945213191E-7    7.993621340892331E-1   -5.980331397755639E-1
 4.886319541375872E8     8.025863046905670E-1   -6.043735961136713E-1   -1.965886968560403E-6    1.114733340689418E-5   -1.762489819623957E-5   -7.794675198536430E-6    7.904881331492120E-1   -6.088699352796691E-1
 4.986019940179462E8     7.942657207313392E-1   -6.150931443513336E-1   -7.173575991971951E-6   -3.053771409657380E-6    1.807058312072252E-5    1.445410526638967E-5    7.822430284277772E-1   -6.195850464675650E-1
 5.085720338983051E8     7.857830472305106E-1   -6.240598128734774E-1    1.126701008996861E-5   -4.026308463218245E-6    9.140952796477626E-6   -3.493192656387597E-6    7.746680559147711E-1   -6.301310543554322E-1
 5.185420737786640E8     7.782967779370756E-1   -6.331320582119404E-1    6.590518417157179E-6   -4.251668429238738E-6   -7.918850391608124E-6   -1.504057279403974E-5    7.670260071743764E-1   -6.400806895529093E-1
 5.285121136590229E8     7.702249886449477E-1   -6.428283315449353E-1    9.415505584985308E-7   -3.546107779377668E-6    1.080086828689465E-5    1.135986639863637E-7    7.591073609102614E-1   -6.496920066802028E-1
 5.384821535393819E8     7.616228988481966E-1   -6.530325146513533E-1    3.654018480269186E-6   -1.157842111870405E-6   -6.438077733573463E-6   -1.552737844092352E-5    7.508694913260722E-1   -6.592552079717768E-1
 5.484521934197408E8     7.533859294228085E-1   -6.634733163443796E-1   -1.180540674408782E-5    1.856611933822579E-6    4.266826957322814E-7   -1.521136396824289E-5    7.424091576267134E-1   -6.690624015115063E-1
 5.584222333000997E8     7.448526207809004E-1   -6.743903013821074E-1    2.170912856971634E-6   -3.142153049298690E-6    7.888951544586704E-6    1.557910914471790E-6    7.333638255667481E-1   -6.792627063506446E-1
 5.683922731804587E8     7.356671123921511E-1   -6.848776891623474E-1   -5.635219554734449E-6    6.191540639620771E-6    3.216180996483731E-6   -1.850619833175405E-7    7.233115790544870E-1   -6.892089832229378E-1
 5.783623130608176E8     7.264910846770066E-1   -6.949447314783399E-1   -1.419525822034383E-5   -2.921508224999299E-6    8.528967423596087E-6    2.690598881112834E-5    7.125750908893169E-1   -6.988171088863879E-1
 5.883323529411764E8     7.172716768479768E-1   -7.048655262969010E-1    6.536875479322541E-6    1.726840662682255E-5    3.053033246214604E-6    4.696632858251049E-6    7.022000470687605E-1   -7.085148274070560E-1
 5.983023928215353E8     7.080171379191579E-1   -7.147732177737531E-1   -9.031278103371532E-6    2.767203755625829E-5    8.908134072350309E-7   -1.049762314520282E-5    6.919489077339236E-1   -7.182595953937591E-1
 6.082724327018943E8     6.985974302094965E-1   -7.246484662263444E-1    1.804046185150920E-5    3.738070729181281E-6   -1.497402753496955E-5    6.485532393452141E-7    6.816388091340156E-1   -7.276564821044891E-1
 6.182424725822532E8     6.888491924817444E-1   -7.343749399464623E-1   -8.337652255544365E-6    1.716390185193082E-5   -2.867792923546121E-5    1.474630265066040E-5    6.718316846189597E-1   -7.370409876823930E-1
 6.282125124626122E8     6.782653321987886E-1   -7.437365251953818E-1   -7.631707468301458E-6    2.273821396921426E-6    1.497775319123265E-6   -5.709059488659834E-6    6.627711526089172E-1   -7.466077701895204E-1
 6.381825523429711E8     6.685481770393981E-1   -7.508566382355560E-1   -1.866250953462536E-6   -5.230887361035695E-6    9.071483164263653E-7    1.711499351285262E-6    6.539530864377427E-1   -7.555134113159924E-1
 6.481525922233300E8     6.595910813268010E-1   -7.594539017691482E-1   -4.202096343357912E-6    8.077033329007247E-6   -1.744470899748439E-6    1.350609710853244E-6    6.447513397025350E-1   -7.640373466564608E-1
 6.581226321036890E8     6.499127833149542E-1   -7.683953282513940E-1   -4.083440398601320E-6   -2.725184423389570E-6   -7.545026312468240E-6   -1.002964290013131E-5    6.346016394682457E-1   -7.723335724455348E-1
 6.680926719840479E8     6.399477658491823E-1   -7.770502781496773E-1   -9.388152069079358E-7   -6.545892431328388E-6    1.824473277480051E-5   -1.953944307828239E-5    6.241657725028260E-1   -7.803645048556984E-1
 6.780627118644068E8     6.300771206797539E-1   -7.852602481946054E-1    1.632404268830432E-5   -2.025406978964902E-6   -6.424809856597439E-6   -5.306881914297246E-6    6.130344130144960E-1   -7.882876820564527E-1
 6.880327517447658E8     6.197387830408307E-1   -7.935417564428421E-1    3.429841895886180E-6   -3.060280450590562E-6   -6.257356418317935E-6    1.291923589562712E-5    6.016639104725295E-1   -7.959889721874380E-1
 6.980027916251246E8     6.088207194064646E-1   -8.017997422490403E-1    4.578402303531311E-6    1.097912831239982E-5   -1.722813671900833E-5    6.567477285253607E-6    5.901750754385353E-1   -8.035696030507339E-1
 7.079728315054835E8     5.974303753003343E-1   -8.100014577713377E-1    8.641151837307578E-6   -7.578578462192362E-6   -2.154744838248401E-5   -3.843528234899609E-5    5.786211765593012E-1   -8.115938431890255E-1
 7.179428713858424E8     5.862900988279479E-1   -8.184852917385186E-1   -1.053429108052180E-5   -4.401581017808091E-6    3.489364057490067E-6   -7.376891467131349E-6    5.673273644190613E-1   -8.200527184196490E-1
 7.279129112662014E8     5.753424253145991E-1   -8.269956300744083E-1    5.416965388865449E-6   -1.402216283707819E-5   -7.920105070485959E-6   -1.177886412071988E-5    5.560903139797810E-1   -8.286915800564332E-1
 7.378829511465603E8     5.639576821663150E-1   -8.356594548920737E-1    3.854850258890848E-6    1.633515426944362E-5    1.036585418406456E-6    9.456301529010597E-7    5.447950716013357E-1   -8.370828119914390E-1
 7.478529910269192E8     5.520791098741881E-1   -8.441624146963101E-1    1.418452845866027E-6   -1.518486004247049E-5   -6.500431726181121E-6    2.984591173645487E-6    5.336772019943780E-1   -8.447735260251810E-1
 7.578230309072782E8     5.394422403586000E-1   -8.513669493952843E-1    3.028239199549477E-6    1.846407398693596E-5    7.284364590754563E-6   -1.566007279812876E-6    5.225050065113220E-1   -8.517070049869604E-1
 7.677930707876371E8     5.290366007365802E-1   -8.567856573217574E-1    6.094950934312548E-7   -3.951527244998711E-6   -7.744588724343915E-6   -1.116063292171084E-5    5.112517005632845E-1   -8.581711886675392E-1
 7.777631106679960E8     5.194659429737056E-1   -8.636575101999543E-1    1.253663550119414E-5   -8.719308498616922E-6   -1.016537479020020E-5    8.684508961913962E-6    4.996837499801216E-1   -8.646455662362890E-1
 7.877331505483550E8     5.090950188242013E-1   -8.705835478242894E-1   -8.313816415112127E-6    8.533342260414955E-6   -8.786538819293872E-6   -7.489553224838898E-6    4.878885779916214E-1   -8.713163629682658E-1
 7.977031904287138E8     4.980405740393335E-1   -8.771157212379831E-1    8.818326698758698E-6   -8.508668927401969E-6   -2.036947745329721E-6   -1.156044573613273E-5    4.751299499921651E-1   -8.779788796553180E-1
 8.076732303090727E8     4.862098251689610E-1   -8.828748699746662E-1    5.858341479835089E-6   -3.559952988849610E-6   -2.949323668409961E-6   -5.426392933924767E-6    4.622698236441882E-1   -8.838907898692296E-1
 8.176432701894317E8     4.741761062640898E-1   -8.889023845235993E-1    1.275822331732650E-5    1.898366299148432E-7   -8.748245520533737E-6   -8.539327196865687E-6    4.494615974479680E-1   -8.903040043762130E-1
 8.276133100697906E8     4.619170312188292E-1   -8.953907909170005E-1    4.106390025948991E-6    9.162985826158096E-7    1.226924558821250E-5   -1.754451698205647E-6    4.367063350897571E-1   -8.969081655153976E-1
 8.375833499501495E8     4.493367925574570E-1   -9.018656563884384E-1   -1.313309758100798E-5   -3.778478119653078E-6   -1.103439735534143E-5    8.949807658232410E-6    4.246400399085536E-1   -9.036111093012451E-1
 8.475533898305085E8     4.365231259654013E-1   -9.082418015876719E-1   -2.751539763731510E-6   -6.335489641444942E-6    5.579943888246895E-6   -5.633735882897260E-6    4.129076285491109E-1   -9.097037675715887E-1
 8.575234297108674E8     4.237371309321397E-1   -9.145121305805651E-1   -3.050085535766548E-6   -1.825837256643787E-6    6.351357623008119E-7   -5.706376066714340E-6    4.010977301885604E-1   -9.150305801091441E-1
 8.674934695912263E8     4.108803629690762E-1   -9.212465087331121E-1   -1.125663218697947E-5   -1.567406018674416E-5    1.354703062194211E-5   -4.940821392450484E-6    3.890447304592647E-1   -9.199907968454397E-1
 8.774635094715853E8     3.977892217688182E-1   -9.279313296854359E-1   -7.388111340696345E-6   -7.225169396040255E-6   -1.416437040661053E-7   -1.123507087622035E-5    3.763056507209644E-1   -9.245154050682923E-1
 8.874335493519442E8     3.846295154510662E-1   -9.324794153515348E-1    5.203623035410432E-6    6.705515982333786E-6   -1.708047644235253E-6   -2.560612210113554E-7    3.633359487400485E-1   -9.289733347096218E-1
 8.974035892323031E8     3.733764872057270E-1   -9.360447268457767E-1    3.174533404326083E-6    4.403560036920380E-6    5.332910314536789E-6    7.705146240135032E-6    3.497279070144124E-1   -9.333533380859621E-1
