#  HZ   S   RI   R     50.00 
! Rohde & Schwarz Vector Network Analyzer 
! Rohde-Schwarz,ZNB20-2Port,1311601062102128,3.60
! Created: UTC 4/29/2024, 3:56:21 PM
! freq[Hz]                re:S11                  im:S11                  re:S21                  im:S21                  re:S12                  im:S12                  re:S22                  im:S22
 1.000000000000000E5     9.958593817292489E-1    4.875135837750026E-3    8.267828395385505E-5   -6.935090789547564E-5    1.828515498945767E-5   -1.473166810066336E-4    1.010994534075261      -1.075339717636873E-2
 1.007003988035892E7     9.981176439854422E-1   -1.387563105651627E-2   -1.672593067542638E-6    1.242619039708802E-5    8.971573200892153E-6   -8.259276766535722E-6    9.957639289066617E-1   -1.460030763227847E-2
 2.004007976071785E7     9.998932763579621E-1   -2.705066177960991E-2   -1.223899939195351E-5   -2.636840969912728E-5    1.541009409159265E-6   -3.570487660433665E-6    9.987327324292202E-1   -2.781117898128697E-2
 3.001011964107677E7     9.981328590038583E-1   -4.101192807563129E-2    4.896483808087383E-6   -4.387501752823577E-6   -2.083428489361951E-6    1.680925481628422E-5    9.976212230294201E-1   -4.206496249230455E-2
 3.998015952143569E7     9.976017678733561E-1   -5.295949482104681E-2   -7.253509307469135E-6   -1.400431008989320E-5   -8.397572275631290E-6    1.315686062014989E-5    9.975654949692324E-1   -5.681760327628688E-2
 4.995019940179461E7     9.958110332558654E-1   -6.597501691313122E-2    1.075673811782034E-5    2.492788804400623E-5   -6.786058077817582E-6   -5.890776795300090E-6    9.965560344138855E-1   -6.915921407497921E-2
 5.992023928215354E7     9.939240234128977E-1   -7.881366739556915E-2    8.653092676548551E-6    1.918891079525977E-5    9.605012924178365E-6    1.125297046188763E-6    9.946946517934517E-1   -8.189991386359151E-2
 6.989027916251247E7     9.931611319060957E-1   -9.178167231977866E-2   -3.552244429356167E-5    2.068223943887221E-6    5.405445792911874E-6    8.570453330077938E-6    9.934456307888099E-1   -9.497935285270245E-2
 7.986031904287139E7     9.927184601336057E-1   -1.052271320978392E-1   -3.147631734835556E-6    3.292629122308223E-7    1.893899593845988E-6    1.151160767830757E-5    9.923190956477432E-1   -1.080625641949739E-1
 8.983035892323031E7     9.915781520231669E-1   -1.187078925891681E-1   -2.794201246568507E-6   -2.288558448388443E-6   -1.288066508685568E-5   -3.868487494088979E-7    9.906538661963701E-1   -1.212051992764941E-1
 9.980039880358922E7     9.893120190101604E-1   -1.322285592685069E-1   -1.921653591757507E-7    1.329150185175136E-5   -1.172975571254811E-5   -6.915015300335980E-6    9.885276818900247E-1   -1.345922550239951E-1
 1.097704386839482E8     9.862681111302454E-1   -1.454021777710462E-1   -1.147855509233244E-5    2.267727701369279E-6    1.096177364834693E-6    1.414094984731783E-6    9.862041929457155E-1   -1.478979373738071E-1
 1.197404785643071E8     9.848318597267760E-1   -1.588482899393249E-1    8.313293272759662E-6    1.334087352081370E-5    1.102028631712895E-6   -2.453342742372293E-6    9.843271870267513E-1   -1.613493413699431E-1
 1.297105184446660E8     9.830703978606407E-1   -1.716987904635582E-1    3.952928195926008E-6   -1.575949540308404E-6   -1.314389523650879E-5   -1.628665011558765E-6    9.828153786014766E-1   -1.744969586346449E-1
 1.396805583250249E8     9.816278242873259E-1   -1.845662270375968E-1   -5.425988479815232E-6    9.233506488538076E-7    2.650127116946767E-6   -1.198196675591513E-5    9.808890661749773E-1   -1.876580271377742E-1
 1.496505982053838E8     9.787710752921003E-1   -1.969556119535002E-1   -9.325778407839291E-6    1.621812729280330E-5   -5.622066828667470E-6    7.520947531746532E-6    9.784494972045185E-1   -2.004745407007739E-1
 1.596206380857428E8     9.760494530642185E-1   -2.093109633738433E-1    1.285395269009453E-5   -1.332897025157122E-6   -1.383183851422114E-5   -3.408365689497001E-7    9.757556363715046E-1   -2.133418999010730E-1
 1.695906779661017E8     9.732930357374771E-1   -2.222347443111919E-1   -4.974870533974767E-6   -9.171062084899578E-6   -3.011581170423051E-6   -2.831918065095981E-7    9.729600097781714E-1   -2.261674877036396E-1
 1.795607178464606E8     9.707817056394288E-1   -2.346898490159505E-1    1.327766182568306E-5   -2.896562540551046E-6    3.901178549320170E-6   -1.317584224351379E-5    9.701962027460852E-1   -2.380842468699536E-1
 1.895307577268195E8     9.676593907135721E-1   -2.468300460194899E-1    1.013356078039850E-5   -5.384088993533542E-7   -1.395942854354690E-5   -3.204239659032915E-6    9.667284624272773E-1   -2.504671090770932E-1
 1.995007976071784E8     9.638178956836480E-1   -2.593309059106155E-1    7.636453457082694E-6   -4.257770740808123E-6    3.875459779637676E-6   -1.844575455036483E-5    9.627671007513742E-1   -2.632479951060928E-1
 2.094708374875374E8     9.603917414788665E-1   -2.721884089406901E-1   -1.189075611943754E-5    8.298943399277139E-6   -7.502592339011775E-6    1.091707875537998E-5    9.589924065610679E-1   -2.762340403760814E-1
 2.194408773678963E8     9.574637487586961E-1   -2.849742206761010E-1    1.252461042420551E-5    3.201574327272552E-6   -3.287262486606038E-6    4.614396420365557E-6    9.550616686270856E-1   -2.891806124386779E-1
 2.294109172482552E8     9.538230695288779E-1   -2.973438250676958E-1    1.256916926706606E-6    2.505253852126259E-5   -5.317817931586017E-6    1.262409138411671E-5    9.509582836641621E-1   -3.019057505460153E-1
 2.393809571286142E8     9.504993748871341E-1   -3.093986810164141E-1    1.044323971782355E-6    2.964096279233869E-6   -2.786264837645780E-5    1.947742063602743E-8    9.470607839713968E-1   -3.141811612074408E-1
 2.493509970089731E8     9.466695227832705E-1   -3.230897486784129E-1    4.062382421357257E-6   -2.712399127095740E-7    2.414446666771419E-5   -5.892348856394373E-6    9.439990346348720E-1   -3.277149456641026E-1
 2.593210368893320E8     9.427021858157778E-1   -3.351670082077504E-1   -6.940056785802484E-6   -3.215503137520643E-6    1.087418391569111E-6   -1.214713652668320E-6    9.397759486881614E-1   -3.409220713452643E-1
 2.692910767696909E8     9.385981753080906E-1   -3.466893765165695E-1   -7.009166992597130E-6    8.651626475033806E-7    1.034948613262341E-5    2.201787317634498E-5    9.356658208589380E-1   -3.528982654470336E-1
 2.792611166500499E8     9.338393144405498E-1   -3.581140359800185E-1   -4.996252792370350E-6    5.756132751081696E-6    8.861771749265475E-6   -2.185362924419925E-5    9.309622046152397E-1   -3.647519531152276E-1
 2.892311565304088E8     9.288225886262187E-1   -3.701848557203026E-1   -7.317209920785054E-6    4.422765986853727E-6   -4.614297757316373E-6    8.539314390232876E-6    9.261586402006614E-1   -3.767627051203160E-1
 2.992011964107677E8     9.241564695078486E-1   -3.824167876537945E-1   -1.945205336637335E-6   -8.323780360952523E-6    8.132447705237315E-6   -1.062669328694746E-5    9.213399407179754E-1   -3.885659894720755E-1
 3.091712362911266E8     9.189887829385327E-1   -3.947523137559810E-1   -1.061755397147869E-5    6.880661396181005E-6    8.189344290011455E-6    1.303418077042353E-5    9.158308162640191E-1   -4.002163041306256E-1
 3.191412761714855E8     9.133553160226558E-1   -4.070977188982317E-1    1.719659370431913E-6    9.971924299749926E-6    7.073998222251621E-6    1.063011016277226E-6    9.097924679381408E-1   -4.118737297792383E-1
 3.291113160518445E8     9.076073133213653E-1   -4.196868580465347E-1   -1.063116039314539E-5    1.694401848639189E-6   -7.211307457620405E-6    1.848137362599459E-5    9.034716169003145E-1   -4.244066025034948E-1
 3.390813559322034E8     9.020589402129784E-1   -4.325493020262803E-1    3.679578904502999E-6   -6.785234598807182E-6    6.426024912631473E-6    2.067719816450198E-6    8.968093632507794E-1   -4.369622197343894E-1
 3.490513958125623E8     8.967848080511005E-1   -4.451914478980372E-1   -1.860351344417202E-6   -2.811411501269516E-6   -7.986422212112002E-6    7.597410496309981E-6    8.904640712499314E-1   -4.495078355806904E-1
 3.590214356929212E8     8.914062848419930E-1   -4.576776000792698E-1   -1.612821325922060E-5   -3.611833341619825E-6   -2.461673227770645E-5   -1.839995548043900E-5    8.844840963773941E-1   -4.621301121755311E-1
 3.689914755732802E8     8.859740212544709E-1   -4.698321201389440E-1   -3.262441327212911E-6    5.806326509631144E-6    5.612180167610044E-6    1.352009808009600E-5    8.790370586115751E-1   -4.748283798613598E-1
 3.789615154536391E8     8.798230882216223E-1   -4.810496028358691E-1   -4.479973035013626E-7   -7.731138730617178E-6    1.758764113959265E-7    1.796785354954446E-5    8.738721798478223E-1   -4.869216890241708E-1
 3.889315553339980E8     8.741005199155917E-1   -4.916913068246602E-1   -1.094825671865873E-5    1.354898775448005E-5   -2.147483480338792E-6   -3.432106320140633E-6    8.679354381567370E-1   -4.987721426083802E-1
 3.989015952143569E8     8.675660501038363E-1   -5.024341757160364E-1   -1.348450549528665E-5   -8.593482722430424E-6   -2.033207030641966E-5    8.005483281084841E-6    8.612965404676874E-1   -5.097530836248764E-1
 4.088716350947158E8     8.603012692732938E-1   -5.134008495362228E-1   -4.803432565497190E-6    2.210099527886077E-6   -1.425282383985908E-6    5.271552524926671E-6    8.543791118155282E-1   -5.207075496419926E-1
 4.188416749750748E8     8.532601143743666E-1   -5.247430983982306E-1    4.512842017298349E-6    8.322955311343670E-6    1.959591158737308E-6    2.197059129733936E-5    8.477191585929295E-1   -5.314479086240416E-1
 4.288117148554337E8     8.460726197239632E-1   -5.365503686712020E-1   -1.782464335157195E-5   -1.428240785843392E-5    1.430232723801022E-5   -7.266532176575343E-6    8.406503465950104E-1   -5.416900225881520E-1
 4.387817547357926E8     8.383404196114206E-1   -5.479741731563706E-1   -5.258537263141300E-6    3.372751624885836E-6   -9.360790402338593E-6   -6.021257635118182E-6    8.327678036236749E-1   -5.522900738802300E-1
 4.487517946161516E8     8.306028909897101E-1   -5.598679359207815E-1    9.633960338632792E-6   -1.478103351554899E-5   -7.356092594968694E-6    7.178850738851049E-6    8.242471973975197E-1   -5.634643628883003E-1
 4.587218344965104E8     8.237025048568346E-1   -5.718403266634305E-1   -4.104851221972128E-6   -6.263511613987076E-6    1.930695890209512E-5    6.431414649240518E-6    8.161286550161254E-1   -5.752591535752715E-1
 4.686918743768694E8     8.170903185081883E-1   -5.831579697568102E-1    2.284149043641220E-6    1.077156010241465E-6   -6.761203616386620E-6   -1.242955790366870E-6    8.079074610341423E-1   -5.867991136460508E-1
 4.786619142572283E8     8.099281457689205E-1   -5.939425863895251E-1    3.848921872736681E-6   -2.792925591232811E-6    6.500713115197781E-6   -1.261518990896542E-5    7.993005013573256E-1   -5.979707536819850E-1
 4.886319541375872E8     8.024791508283404E-1   -6.044297014558140E-1    1.023564141561117E-5    3.894989879229160E-6   -9.204403275752029E-6   -3.559618888190378E-6    7.904552830603536E-1   -6.087526480731132E-1
 4.986019940179462E8     7.942223378498843E-1   -6.151600400383003E-1    1.237249676082959E-5   -3.586192380446689E-6   -1.040158730225417E-5   -7.236276756423460E-6    7.823887095573331E-1   -6.197686418781981E-1
 5.085720338983051E8     7.858255372057151E-1   -6.241993839956738E-1   -2.966932711609675E-6    6.422271313688382E-7    1.105565733393430E-5    7.439896065149058E-6    7.747108090284546E-1   -6.302723704810461E-1
 5.185420737786640E8     7.784513257522397E-1   -6.333665917672063E-1   -1.116616825550037E-6    7.178435516558811E-6    1.679455470398965E-5   -1.597780572826384E-6    7.669176757218817E-1   -6.399840931655653E-1
 5.285121136590229E8     7.702840262101279E-1   -6.429877712433855E-1    1.424127486996149E-5   -2.418486208311930E-7    5.947476348119427E-7   -3.304799439869806E-6    7.590203122691898E-1   -6.496424600545806E-1
 5.384821535393819E8     7.616163078175600E-1   -6.530081871781052E-1    8.160422839512498E-6    4.318411074000811E-6    8.430012831141037E-6    1.372245785610956E-5    7.509584950955173E-1   -6.594017123373573E-1
 5.484521934197408E8     7.533851209652659E-1   -6.635671666966484E-1    6.246644163788148E-6   -1.080073764864294E-5   -6.672575440239154E-6    9.274114609181106E-6    7.426055827504926E-1   -6.692546688386720E-1
 5.584222333000997E8     7.448645521113695E-1   -6.744317376542656E-1    6.239180978163176E-6    3.177776605339603E-6    1.512944832821811E-5   -1.920569166246635E-5    7.333351310250600E-1   -6.790906124295154E-1
 5.683922731804587E8     7.357358069926286E-1   -6.849729429435314E-1   -8.252450201182112E-6    1.403794901041428E-6    1.106922584601579E-5   -1.302049787330731E-5    7.232105063987632E-1   -6.891236315092253E-1
 5.783623130608176E8     7.264544208737345E-1   -6.949435996463708E-1    3.290240870320414E-6    6.509438250885757E-6    2.703748313963220E-6    1.359167382983530E-5    7.127797494084408E-1   -6.989028698468628E-1
 5.883323529411764E8     7.172455534639745E-1   -7.048867443744380E-1   -1.408782229700642E-5   -3.600354709871933E-6    1.759619423773453E-5   -5.751398852051370E-6    7.023360977435685E-1   -7.084939911557201E-1
 5.983023928215353E8     7.080589705328360E-1   -7.149428097302705E-1   -4.151079628903624E-7    1.581849979206991E-6   -8.153926534580063E-6    4.014135364473167E-6    6.918556167473251E-1   -7.181952839620482E-1
 6.082724327018943E8     6.987164005656132E-1   -7.247789925044479E-1    5.766216876139851E-7   -1.538384178387003E-6    5.706162632559814E-6   -1.232222800864476E-5    6.816634819278986E-1   -7.276259975976039E-1
 6.182424725822532E8     6.888532372069708E-1   -7.344985584886836E-1    3.913962875787699E-6   -1.797363316862238E-5   -2.801713214980169E-6   -7.787693243159618E-6    6.718868241124215E-1   -7.371048989615397E-1
 6.282125124626122E8     6.782887437599241E-1   -7.436844501359762E-1   -7.745342503355234E-7   -2.105697851930898E-6   -3.962857791194989E-6    7.673377566678378E-6    6.628844875015044E-1   -7.467264398562516E-1
 6.381825523429711E8     6.686206519773308E-1   -7.509472996119295E-1    5.411688790581621E-6   -3.589834684708868E-6   -1.978726820174289E-6   -1.112803087729208E-5    6.539467655897807E-1   -7.554897468086222E-1
 6.481525922233300E8     6.595272957338837E-1   -7.594555559411361E-1    3.467169077932979E-6   -3.531535151868377E-6    3.368003283913426E-6   -1.328532517916438E-6    6.447452248184582E-1   -7.639531460835701E-1
 6.581226321036890E8     6.499013435882862E-1   -7.683778853579372E-1   -1.316051539213371E-5   -1.750694629090145E-6    4.927415743837310E-7   -6.028660788859133E-6    6.346930352504296E-1   -7.722983297532797E-1
 6.680926719840479E8     6.398798224370600E-1   -7.770476299408650E-1    7.021290860456209E-6   -9.928586477594240E-6   -3.817520110426603E-6   -1.411949937447399E-5    6.241497918088533E-1   -7.803575277848920E-1
 6.780627118644068E8     6.301521557565661E-1   -7.852649337334655E-1   -1.384388151459173E-5   -5.529155021648399E-6   -2.202655712891400E-5   -1.113131796374063E-5    6.131708665172945E-1   -7.883414783139840E-1
 6.880327517447658E8     6.198214638715064E-1   -7.935411910612263E-1    1.174247231658889E-6   -8.052689989157893E-6   -3.971660999660383E-6    7.382469887432462E-6    6.017833916351032E-1   -7.958766375646296E-1
 6.980027916251246E8     6.088079383777778E-1   -8.018343586994656E-1    4.086876195752919E-6   -8.907680140577596E-6   -2.277388245960189E-6    8.928712231024666E-6    5.902213245441155E-1   -8.035664435743823E-1
 7.079728315054835E8     5.974204570467760E-1   -8.100580720304444E-1   -4.230837929590302E-6    8.678957691430106E-7    1.022232760351008E-5    5.223523159979877E-6    5.786558251317349E-1   -8.114966237865888E-1
 7.179428713858424E8     5.862571553661456E-1   -8.185787095631496E-1    1.078853546460789E-5    1.052437970847366E-5    2.677266929740631E-5    9.122955571952088E-6    5.673568959365662E-1   -8.200733677278156E-1
 7.279129112662014E8     5.753102686160478E-1   -8.269214032317123E-1   -1.556236224564160E-5   -1.466686320036714E-5    1.907236043318130E-6   -1.608550018650445E-5    5.561273713912278E-1   -8.287813919450119E-1
 7.378829511465603E8     5.639689783788581E-1   -8.356811230783890E-1    2.410381346935263E-6    5.779437404476375E-6   -7.631396232737493E-6    1.670780458628475E-7    5.447860675451479E-1   -8.370309382997194E-1
 7.478529910269192E8     5.520195722146397E-1   -8.441835107531488E-1    8.220913147834583E-6   -5.933565467365538E-6   -1.700371509685865E-5   -9.151100158110647E-6    5.336577252505292E-1   -8.447250064814982E-1
 7.578230309072782E8     5.394708339062119E-1   -8.513816015791064E-1   -4.604904028662471E-7   -9.429113881417025E-6    1.219269573598645E-5    6.533271797851157E-6    5.226624003775487E-1   -8.517600815200462E-1
 7.677930707876371E8     5.290937923525970E-1   -8.567545602193362E-1   -1.445107963499355E-5   -8.959699264977773E-6    1.292178649153259E-5    9.403605368465515E-6    5.113568002555674E-1   -8.581914137203128E-1
 7.777631106679960E8     5.194586902866990E-1   -8.637324300089112E-1   -9.939646503158106E-6    1.679795166952025E-6    5.605563510484023E-6    1.223215826037799E-5    4.998050396448608E-1   -8.646611526873923E-1
 7.877331505483550E8     5.091192915004302E-1   -8.706424473771821E-1    1.578992759029594E-5    3.386660491939203E-7    1.182330683409123E-5   -4.641936531679801E-7    4.880134582279015E-1   -8.714235925523550E-1
 7.977031904287138E8     4.980291204054446E-1   -8.771081315059113E-1   -9.485161823961296E-6   -3.024414064897860E-6   -7.456501493479600E-6    1.372245462118953E-6    4.752082274383019E-1   -8.777248808338965E-1
 8.076732303090727E8     4.861629765072074E-1   -8.829264951367097E-1    3.999943678186705E-6    1.860816220900605E-6   -6.938073296630185E-6   -6.873136347620880E-6    4.624117957766773E-1   -8.839721194383742E-1
 8.176432701894317E8     4.741803837175019E-1   -8.889645096218852E-1    4.121289412827881E-6   -8.339892085032515E-6    5.799157733782837E-6   -1.717306670149038E-5    4.495341978272807E-1   -8.903520427042255E-1
 8.276133100697906E8     4.618667134188461E-1   -8.951792414400249E-1   -3.199270916604524E-6    8.336086378802997E-6   -9.372117646245194E-6   -7.869792216772769E-6    4.368576786743133E-1   -8.969579975801771E-1
 8.375833499501495E8     4.492931172841806E-1   -9.017177151304501E-1    1.641241077929027E-5    1.408335073180564E-5   -6.573683507697291E-6   -4.850131428856766E-6    4.247216521854045E-1   -9.036115408702253E-1
 8.475533898305085E8     4.365671868166290E-1   -9.083841320825158E-1    1.648474512996465E-6   -2.540570121970292E-6   -1.081345622497022E-5    6.012793519852770E-6    4.129185817208627E-1   -9.095784456067120E-1
 8.575234297108674E8     4.238091484409424E-1   -9.146827253400034E-1   -4.844816074736799E-6    1.910056080478898E-6   -3.879880494012643E-8    6.702109355027027E-6    4.011640953313272E-1   -9.149915647788744E-1
 8.674934695912263E8     4.108875238633327E-1   -9.211524217401481E-1    7.952141912029329E-6   -1.318029240282332E-5    3.781130456390549E-6   -3.165434011544363E-6    3.892401231649915E-1   -9.199164982015053E-1
 8.774635094715853E8     3.977335980342298E-1   -9.277596079594044E-1    8.536304042492227E-6   -4.769534403096842E-6   -1.420468616051478E-7   -1.493875556619736E-6    3.764260989865826E-1   -9.246259023267986E-1
 8.874335493519442E8     3.847161956922444E-1   -9.325199004593094E-1    8.578720404364047E-6    2.368591228932693E-6   -8.129483169220726E-6   -7.355564939480935E-6    3.633072467663293E-1   -9.288465410278441E-1
 8.974035892323031E8     3.735389598478377E-1   -9.362090276005569E-1    2.048744957900303E-7   -1.080723131916853E-5   -2.797683626384297E-6   -9.073107754501576E-6    3.499008079068235E-1   -9.332686817494960E-1
