#  HZ   S   RI   R     50.00 
! Rohde & Schwarz Vector Network Analyzer 
! Rohde-Schwarz,ZNB20-2Port,1311601062102128,3.60
! Created: UTC 4/29/2024, 3:49:58 PM
! freq[Hz]                re:S11                  im:S11                  re:S21                  im:S21                  re:S12                  im:S12                  re:S22                  im:S22
 1.000000000000000E5     9.961856625426304E-1    4.312736994433665E-3    3.526769661297068E-5   -1.012160882405751E-4    3.846791588833529E-5    3.994377558860611E-5    1.011147342142971      -1.121253629823325E-2
 1.007003988035892E7     9.975194548152435E-1   -1.388785308709903E-2   -2.897409616681048E-7    3.208519667945592E-7   -6.615742272650606E-6   -1.999865849468307E-5    9.958854844917228E-1   -1.443683348872058E-2
 2.004007976071785E7     9.999151243383407E-1   -2.735482554297182E-2   -2.362240644435166E-6   -6.204777325183450E-6   -4.530793544582121E-6    3.556868382972806E-6    9.986336576048995E-1   -2.786215830877459E-2
 3.001011964107677E7     9.978570757339481E-1   -4.107310132009746E-2   -2.557119549767008E-6   -4.742345064109349E-6    1.617640885094659E-5   -1.007355329874831E-5    9.975891944764840E-1   -4.203434738586186E-2
 3.998015952143569E7     9.975987453344696E-1   -5.308668489524471E-2   -5.793162295346419E-6   -1.327387920515291E-5    2.144881822076891E-6   -1.048153178965488E-6    9.976611243074411E-1   -5.677940243407108E-2
 4.995019940179461E7     9.960021965719776E-1   -6.587949951930060E-2   -8.088999279227446E-6   -1.168235749035438E-5   -1.354048560255410E-5    1.034864337535313E-5    9.964951903686438E-1   -6.917845642823092E-2
 5.992023928215354E7     9.943112896093537E-1   -7.877466199822049E-2   -4.254140215393821E-6   -1.315269703213029E-5    3.759270946117084E-6   -1.083761017900380E-5    9.946628777180427E-1   -8.203804278130422E-2
 6.989027916251247E7     9.932247000305681E-1   -9.173276993722324E-2    1.633936111012073E-5    1.556826436618196E-5    3.509246599128639E-6   -1.097816520174862E-5    9.936235217755801E-1   -9.479046277067879E-2
 7.986031904287139E7     9.924681431884790E-1   -1.050632435218185E-1   -3.421840051398848E-6   -1.134881369113850E-5   -7.570674575676372E-6   -9.346706335090267E-6    9.923995012582195E-1   -1.081193276012243E-1
 8.983035892323031E7     9.913615384531252E-1   -1.186614494329963E-1    6.275120423014222E-6    1.749984545146679E-5    2.625532443342404E-6   -1.810130256481653E-6    9.908135615628164E-1   -1.211893811451044E-1
 9.980039880358922E7     9.892576919216380E-1   -1.322669335540122E-1   -1.108053407917081E-5   -1.167459916107314E-5   -7.076222054890554E-6   -1.146392859857005E-5    9.885133660225154E-1   -1.345258496700225E-1
 1.097704386839482E8     9.864705531244198E-1   -1.455232803028384E-1    3.870050407575385E-6   -5.769173025976482E-6   -5.302112224845807E-6   -9.356561280328654E-6    9.861370820390324E-1   -1.479096497636774E-1
 1.197404785643071E8     9.849287654826705E-1   -1.588410278281856E-1    1.887513130463350E-6   -2.636563834646681E-6   -2.321655126233663E-6   -6.715793755233005E-6    9.843558155145687E-1   -1.613365202598368E-1
 1.297105184446660E8     9.830764564812271E-1   -1.717029682961889E-1    1.199444272258141E-5   -6.605810457168769E-6    3.999793839670234E-6    5.945173210122606E-6    9.829087833576425E-1   -1.745760820793408E-1
 1.396805583250249E8     9.814621080040855E-1   -1.845439511817666E-1    3.402406650307560E-6   -2.287031791851762E-7    5.562894096544412E-6    4.249578041954859E-6    9.810176151653007E-1   -1.875995997905824E-1
 1.496505982053838E8     9.787668993952353E-1   -1.969426819235403E-1   -9.327515768587469E-6   -8.195472356358202E-6    1.425784241105917E-5   -5.739577009667066E-6    9.784694491391085E-1   -2.005347476898277E-1
 1.596206380857428E8     9.760864996810795E-1   -2.093400743645574E-1    1.248352395948614E-5   -9.950364432295769E-6    5.757232030260843E-6    8.225859173109955E-6    9.756877965315309E-1   -2.133355004352970E-1
 1.695906779661017E8     9.731936326396560E-1   -2.222487241850836E-1    8.409412121368377E-6   -1.367868442077528E-5   -2.316248720924786E-6    1.294245449940290E-6    9.729572401390256E-1   -2.262641870470054E-1
 1.795607178464606E8     9.708152177444218E-1   -2.347188458154644E-1   -1.205538862076144E-5    1.458645064051447E-5    4.841092884942528E-7    1.464128342261380E-6    9.702567236622831E-1   -2.380959353662752E-1
 1.895307577268195E8     9.676598058511106E-1   -2.468754742632746E-1   -1.347760562895402E-6   -4.203586789906481E-6   -6.802581559410464E-6   -6.719071211828146E-7    9.668399547040764E-1   -2.505809974533902E-1
 1.995007976071784E8     9.637271346261153E-1   -2.593346433746264E-1    1.546994463096870E-6    2.779234871819093E-6    2.699260970287764E-6   -1.033048418608993E-5    9.626892061043181E-1   -2.632261718022942E-1
 2.094708374875374E8     9.604702765019351E-1   -2.723129229456986E-1   -4.259672576070145E-6   -1.597104171781592E-6    1.318965199778132E-5    1.074649907160234E-5    9.588962396541946E-1   -2.761998027826167E-1
 2.194408773678963E8     9.573587328428335E-1   -2.850038032530994E-1   -1.349243318311103E-5    1.125673929753131E-5   -6.346776389780881E-6   -1.940424604692779E-5    9.551425019540495E-1   -2.892575454958733E-1
 2.294109172482552E8     9.537060295650615E-1   -2.972518788476704E-1    6.550601410760216E-6   -1.953108679926330E-6   -8.449914382486442E-6    8.095898275898498E-6    9.509422827751566E-1   -3.018835826887076E-1
 2.393809571286142E8     9.505416050463037E-1   -3.093762331432803E-1    5.555176778314529E-7    7.387647429761038E-6   -1.084685129993922E-6    8.085121150080429E-7    9.469750992794304E-1   -3.141585079633165E-1
 2.493509970089731E8     9.467816006079771E-1   -3.230738947167432E-1    1.314315113428457E-5    3.920257850426416E-6    3.259640230984518E-6    4.576063036752026E-6    9.440068709359124E-1   -3.276778042671710E-1
 2.593210368893320E8     9.426432794242466E-1   -3.351076900627997E-1    5.291692273706430E-7    1.416507645314953E-5   -1.749244130888542E-6   -5.380436408187442E-6    9.397643964182381E-1   -3.409360954276456E-1
 2.692910767696909E8     9.385021277050429E-1   -3.465824627898496E-1    5.091321705636815E-6    6.544031943683075E-6   -6.288720869100002E-7   -7.100655757571635E-6    9.356782899061296E-1   -3.529823604788936E-1
 2.792611166500499E8     9.338449292073319E-1   -3.582215689663585E-1   -2.575288266767313E-6   -4.302703376942456E-7    9.622622456306781E-6    2.464507481365101E-7    9.311416028028113E-1   -3.647421993671734E-1
 2.892311565304088E8     9.288424085038252E-1   -3.702158474495930E-1    5.835535781260820E-6   -8.099330144351025E-6    8.034347951818735E-6    7.771082303981063E-6    9.261554629885619E-1   -3.768209823726585E-1
 2.992011964107677E8     9.239972723612583E-1   -3.823863131322109E-1   -8.935112466213314E-6    4.891375111684891E-7   -4.977887937623476E-6   -4.256468820558364E-8    9.211793807734662E-1   -3.886903111441679E-1
 3.091712362911266E8     9.188717737255673E-1   -3.946504817391204E-1    1.212304731285065E-6    2.902170563396137E-6   -1.446485816315886E-5    1.651273442605822E-5    9.157397724186211E-1   -4.002550147143563E-1
 3.191412761714855E8     9.133895482563024E-1   -4.070573674958939E-1   -1.863541451099104E-5   -1.119253642138667E-5   -4.029745628420923E-6   -8.381676342871992E-6    9.098471516748761E-1   -4.120148191284688E-1
 3.291113160518445E8     9.077075474538273E-1   -4.197087334226954E-1   -4.965060782032242E-6   -9.814803368771224E-6   -4.621358589578273E-6   -2.503238313201715E-6    9.034457720538275E-1   -4.244539090773861E-1
 3.390813559322034E8     9.019866230864139E-1   -4.324897031332082E-1   -6.655437035274166E-6   -1.026162436701641E-5   -1.035904314726679E-5   -6.487221275401459E-6    8.967760443708853E-1   -4.368852079642389E-1
 3.490513958125623E8     8.967270950896565E-1   -4.451025836661269E-1    4.804120503973231E-6    2.822188890696850E-6    6.348393844760191E-6    9.932014103298342E-6    8.905341791440354E-1   -4.495024919092591E-1
 3.590214356929212E8     8.914363359917518E-1   -4.576044681086404E-1    4.082955554338326E-6    5.031563116308535E-6    4.813387977127861E-6   -6.070330499666826E-6    8.845544830918191E-1   -4.622132404402307E-1
 3.689914755732802E8     8.859106043617566E-1   -4.698275978159094E-1   -1.201468950831072E-5    2.080587897484384E-6    1.320090725277559E-6    5.636167875836287E-6    8.790332322788620E-1   -4.748482525197659E-1
 3.789615154536391E8     8.797925248609204E-1   -4.809639940042066E-1    5.328920368850765E-7   -2.659088922103259E-6   -1.570244820498413E-6    9.626491864531832E-6    8.738410757966303E-1   -4.868340201959397E-1
 3.889315553339980E8     8.742696226882357E-1   -4.917399931844397E-1    1.426677348586680E-8   -1.297109928549075E-6   -1.962173956145334E-6   -1.042650935443860E-5    8.679303342352919E-1   -4.988884316307521E-1
 3.989015952143569E8     8.674786517755497E-1   -5.024971267203976E-1   -3.052565298449132E-6   -6.262484274078129E-6    1.508064484094840E-5    1.577418082374846E-6    8.612191170114015E-1   -5.098160140547510E-1
 4.088716350947158E8     8.602641652193342E-1   -5.131846108388461E-1   -4.202451058449623E-6    2.969005551728748E-6   -7.376513871584395E-6    8.417852720925659E-6    8.543465417926280E-1   -5.207141502587127E-1
 4.188416749750748E8     8.533144866261432E-1   -5.248445970096777E-1   -8.957872953643358E-6   -1.588208761067797E-6   -1.679709766987137E-5    1.225854767136358E-6    8.476524842669856E-1   -5.315156124633265E-1
 4.288117148554337E8     8.461712170426285E-1   -5.365045244698060E-1   -5.182301563483321E-6   -1.037827972107580E-6   -9.121653745405398E-6   -1.121363626866248E-5    8.406323104524693E-1   -5.418348183320694E-1
 4.387817547357926E8     8.383175322822114E-1   -5.479271399211461E-1    4.228101932117844E-6   -1.713137087574778E-5   -1.459541765900236E-5   -2.154182559670420E-6    8.327257041420808E-1   -5.524174961315891E-1
 4.487517946161516E8     8.305095930610393E-1   -5.597336900066101E-1   -5.003285310552395E-6   -1.385723245767326E-6    8.437507317380578E-6   -1.420892091800100E-5    8.242429924404727E-1   -5.635501969534803E-1
 4.587218344965104E8     8.236362639877043E-1   -5.717343777624651E-1    7.584404739299917E-6    1.470688744185344E-7    1.058162945139414E-5   -5.998324345003676E-6    8.160486666660092E-1   -5.753059201805405E-1
 4.686918743768694E8     8.171763677528562E-1   -5.831479774914078E-1    1.721691354441513E-5   -6.146847682479198E-6    3.996737890691468E-6    1.472624834123957E-6    8.078852201240352E-1   -5.868410615304298E-1
 4.786619142572283E8     8.099144819086185E-1   -5.938057095350600E-1    4.004539082770988E-6    2.494003739141833E-7   -3.337762589471616E-6   -6.203180826907278E-7    7.993986815033389E-1   -5.981673539423463E-1
 4.886319541375872E8     8.023313104468609E-1   -6.043285083861185E-1    1.511832983033101E-5   -1.431217228855463E-6    2.924563726017294E-5   -1.145992401221712E-6    7.906540307285140E-1   -6.088728418246777E-1
 4.986019940179462E8     7.941647637671611E-1   -6.149690649099696E-1   -5.024301504822799E-6    4.830448379994944E-7    3.714899040049569E-7    1.474425821853993E-5    7.822445197725725E-1   -6.196029239376877E-1
 5.085720338983051E8     7.858213395597389E-1   -6.241361213329631E-1   -6.156333270394125E-6   -1.034555090755478E-6    9.546096786419274E-6    8.082687560068205E-8    7.746277213166712E-1   -6.302959286119926E-1
 5.185420737786640E8     7.784616607709319E-1   -6.332862149621157E-1   -1.599983819434618E-5   -5.279380809054291E-6   -1.980602052508015E-5   -7.981502696507385E-6    7.670999358231252E-1   -6.401225498923615E-1
 5.285121136590229E8     7.702293097667451E-1   -6.428242385610701E-1   -1.220228412787306E-5   -9.387830446446181E-6    9.874738882723966E-6   -1.026430313946552E-5    7.590336650340529E-1   -6.497565041472082E-1
 5.384821535393819E8     7.614921840906357E-1   -6.528613405426261E-1    1.239214636538041E-5    3.218579566738505E-6   -3.853524074337228E-7    1.137930673997198E-5    7.508907029416461E-1   -6.594193033862769E-1
 5.484521934197408E8     7.533817203272604E-1   -6.634600435245591E-1    7.879573267250263E-6    5.695843588489269E-6   -2.226664126874147E-6    8.004109445189522E-6    7.424415006477141E-1   -6.692802839541900E-1
 5.584222333000997E8     7.449454455607118E-1   -6.744694626539867E-1    2.334259509906601E-6    7.204091306599928E-6   -8.548563875526457E-6   -1.460671605880828E-6    7.333599756243844E-1   -6.793153185207638E-1
 5.683922731804587E8     7.357773785106652E-1   -6.848759885870870E-1    4.963539609945385E-6    1.041493539086099E-5    9.606911754289644E-6   -9.087254857489690E-6    7.232218377421481E-1   -6.892434382794564E-1
 5.783623130608176E8     7.263540110957434E-1   -6.948006987213089E-1   -4.699946376751437E-6   -1.153865637478595E-6   -1.355206425077288E-5   -1.037268639128703E-5    7.126850094053596E-1   -6.989312620686025E-1
 5.883323529411764E8     7.171936123496998E-1   -7.047433052855702E-1   -4.451238122846242E-6   -1.373618265842856E-5    6.372625701484336E-6   -2.288099170483359E-5    7.021468757336230E-1   -7.085410796052581E-1
 5.983023928215353E8     7.080791110286181E-1   -7.149210337812741E-1    2.156186659788412E-5    1.369096439533666E-5   -4.078057167780560E-6    4.293538117077853E-8    6.919078503068412E-1   -7.182622751044804E-1
 6.082724327018943E8     6.986973141397150E-1   -7.246749029304133E-1   -1.611607160549771E-5   -1.219719132297480E-5    1.156477375507298E-6   -4.640604122686030E-6    6.817185631193541E-1   -7.277436262500396E-1
 6.182424725822532E8     6.888585497981211E-1   -7.342956542635020E-1   -1.002125195080852E-5    1.429748499052677E-5   -1.567738121250515E-7   -2.518390005440190E-6    6.717466597994329E-1   -7.370915466175877E-1
 6.282125124626122E8     6.782375204800913E-1   -7.436486271080867E-1    7.484262079463762E-6    1.103895714007216E-5   -2.067983800857630E-7   -1.129853015449914E-5    6.627251066951241E-1   -7.465891495144102E-1
 6.381825523429711E8     6.684749037910709E-1   -7.508698332224151E-1   -1.182935514995481E-6   -1.686818277058960E-5    2.828431433906082E-6    5.717902111076517E-6    6.538500327182483E-1   -7.555688061388862E-1
 6.481525922233300E8     6.595383093373375E-1   -7.593260962047177E-1    1.105173131645362E-5    5.346600691945852E-6    8.613406276857970E-7   -1.519158370990631E-6    6.448008672487943E-1   -7.641020334325023E-1
 6.581226321036890E8     6.499028035188321E-1   -7.683752301855379E-1   -2.135630964249126E-6    5.168585093025260E-6   -1.937156767548502E-5   -1.467621475629601E-5    6.346603908272793E-1   -7.723899544348501E-1
 6.680926719840479E8     6.398984232664500E-1   -7.768923365320630E-1    5.767271542906840E-6   -2.595172097900239E-6   -1.679136047920411E-5   -6.418539646476188E-6    6.240449636576327E-1   -7.803921273173292E-1
 6.780627118644068E8     6.300627415458674E-1   -7.850676124033029E-1    3.232172164939048E-6    8.846222363381424E-6    2.296876483610823E-5   -1.074282834657365E-5    6.130213365374140E-1   -7.882446437903294E-1
 6.880327517447658E8     6.197883206489877E-1   -7.934260403456018E-1   -2.982001487301809E-6   -3.068862376088452E-6    8.330336442294177E-6   -7.430342819289923E-6    6.017001510646012E-1   -7.958784588599482E-1
 6.980027916251246E8     6.088637577338062E-1   -8.016219487781708E-1   -2.679671683415899E-6   -9.962884105167365E-6   -4.204448821225843E-6    1.678082917177459E-6    5.901069773709730E-1   -8.037470459538784E-1
 7.079728315054835E8     5.974989465486816E-1   -8.100094086560626E-1    4.272275830624624E-6   -3.790483069796288E-6    2.171376035934536E-5    4.580573602783082E-6    5.787186754692861E-1   -8.115994799099762E-1
 7.179428713858424E8     5.862521771939166E-1   -8.182654604170455E-1    5.659087083679749E-6    1.813578673626554E-5   -2.007400253726964E-5    3.609754371206050E-6    5.672706055142052E-1   -8.200786137060511E-1
 7.279129112662014E8     5.752485847645631E-1   -8.268518638157157E-1    4.892043380946003E-6   -9.891851378434541E-6    5.881046068190180E-6   -9.812226966182443E-6    5.559542357729972E-1   -8.287202765595797E-1
 7.378829511465603E8     5.639978495615203E-1   -8.355665818928255E-1    5.591491323177795E-6   -8.816979328601444E-7    5.747578246311864E-6   -1.659012483376333E-6    5.447725685477509E-1   -8.371012382127190E-1
 7.478529910269192E8     5.520475762840770E-1   -8.441601256186468E-1   -5.172894062666692E-6   -8.039794994527095E-6   -7.728911974234709E-6   -4.309966910957290E-7    5.336221145327509E-1   -8.448350629749356E-1
 7.578230309072782E8     5.394140306502716E-1   -8.513067522656608E-1    1.238172127749836E-5    1.216333383431406E-6   -4.614729975396460E-6   -1.354225774961689E-5    5.224957890705811E-1   -8.516400854037237E-1
 7.677930707876371E8     5.289507180378623E-1   -8.567479330193009E-1   -4.458858066843862E-6    7.684954864773089E-6   -2.180773758741226E-7   -7.924796554947278E-6    5.111864006727695E-1   -8.580462749807192E-1
 7.777631106679960E8     5.193576237854604E-1   -8.636003177053398E-1   -4.398810176644955E-6   -1.042841910845460E-6   -1.884833596593919E-5   -3.077119910087165E-5    4.997873434769025E-1   -8.646848824310298E-1
 7.877331505483550E8     5.090989619403998E-1   -8.705337532799944E-1   -1.932270711609553E-6    1.148877641754757E-5    7.753298777336243E-6   -1.340874784180555E-6    4.879625225957844E-1   -8.714406414441667E-1
 7.977031904287138E8     4.979093869818904E-1   -8.769479937785616E-1   -6.959493149602443E-6   -5.386205747672476E-6   -4.432575957896365E-6    5.220057367008654E-6    4.751031518296255E-1   -8.778047723616368E-1
 8.076732303090727E8     4.861257412037400E-1   -8.828136797635934E-1   -8.871671574426621E-6   -1.617777276597766E-5   -1.416549932251026E-6    7.415685897380698E-6    4.622933830948764E-1   -8.839044207854326E-1
 8.176432701894317E8     4.742886548325340E-1   -8.888003037295454E-1    1.246114335598646E-5   -3.467482967137357E-6    2.849448876876818E-6    6.518058676980162E-6    4.493847026637890E-1   -8.902788005996785E-1
 8.276133100697906E8     4.619156070130223E-1   -8.953609187317086E-1   -6.757741955238923E-6    4.620888858484783E-7    3.290985961302414E-6   -5.187802412894460E-6    4.367835321789490E-1   -8.970140251249782E-1
 8.375833499501495E8     4.493131590757582E-1   -9.017233620584204E-1   -3.660285029392372E-6   -3.519393135025161E-6    7.987520375121499E-6    1.052083649515829E-5    4.247012087869939E-1   -9.036228969321497E-1
 8.475533898305085E8     4.364965599528401E-1   -9.080838876772214E-1   -1.022379848606847E-5    3.901130088832386E-6    1.705601669777484E-5    5.160476151645732E-6    4.128507082782951E-1   -9.098059155480351E-1
 8.575234297108674E8     4.236412118682898E-1   -9.144578391152217E-1   -8.368712591965111E-6    1.175005262250085E-5    7.546778010435272E-6   -1.065385921779064E-5    4.009767125165035E-1   -9.150326285501603E-1
 8.674934695912263E8     4.108623297739065E-1   -9.212541177821791E-1   -4.530452879621412E-6    7.010615566827540E-6   -6.089526119678233E-6   -1.341544625936922E-5    3.889585767204029E-1   -9.197938406204348E-1
 8.774635094715853E8     3.978436052650955E-1   -9.279448512952253E-1    5.132836760874636E-6    2.968871103760912E-6   -8.793913918619747E-6    1.289435896338435E-6    3.764082755921223E-1   -9.245549554841406E-1
 8.874335493519442E8     3.847760918089841E-1   -9.324379320970403E-1   -6.797298672621771E-6   -4.028348443301609E-6   -2.314832162565945E-6    2.404820294465809E-6    3.631886782353621E-1   -9.291108302542278E-1
 8.974035892323031E8     3.733620407555384E-1   -9.360106891126297E-1    4.846279115750878E-6   -2.530684468607047E-6    2.278379277639217E-6   -3.981301933654061E-6    3.497063415775080E-1   -9.334173024355183E-1
