#  HZ   S   RI   R     50.00 
! Rohde & Schwarz Vector Network Analyzer 
! Rohde-Schwarz,ZNB20-2Port,1311601062102128,3.60
! Created: UTC 4/29/2024, 3:49:53 PM
! freq[Hz]                re:S11                  im:S11                  re:S21                  im:S21                  re:S12                  im:S12                  re:S22                  im:S22
 1.000000000000000E5     9.966388885809445E-1    4.526630090622452E-3    5.529335846918468E-5   -3.661537167166658E-5   -1.199003036718841E-4    3.805602171006080E-5    1.010988141732028      -1.116515499188934E-2
 1.007003988035892E7     9.993888347120226E-1   -1.399019271717451E-2   -1.269016814304135E-5    7.944978762041279E-6   -1.288984913579080E-6    6.832655624562774E-6    9.957647328975133E-1   -1.457847131337824E-2
 2.004007976071785E7     9.987934146677518E-1   -2.739800385436465E-2    1.371145942727726E-5   -2.786887164301716E-5    8.007796731271477E-6    1.288324896124803E-5    9.989593614932953E-1   -2.769024762668429E-2
 3.001011964107677E7     9.979897494897737E-1   -4.118941716529174E-2   -8.346280699814132E-6   -7.497694257351409E-6    7.925253491737407E-9    3.197301819112601E-8    9.976409083992154E-1   -4.203276465669046E-2
 3.998015952143569E7     9.968450691976710E-1   -5.294783464133027E-2   -8.811474253655811E-6    2.272825986991099E-6    2.344647646733679E-5   -3.810928852085395E-6    9.977173812816732E-1   -5.674806624865391E-2
 4.995019940179461E7     9.952236402982667E-1   -6.587766281329371E-2    6.357710469664408E-6    1.992293050996999E-5   -1.187487339433408E-6    2.020520373166980E-6    9.966764067509386E-1   -6.919626519690013E-2
 5.992023928215354E7     9.941951187625251E-1   -7.875511115444908E-2    2.891874258691979E-6    4.798017971797198E-6   -2.359714140754340E-5    9.906427577593614E-6    9.946829067116869E-1   -8.206651109120064E-2
 6.989027916251247E7     9.937274374111854E-1   -9.176740650987456E-2   -1.380044182158697E-5    1.413357750101659E-5   -2.091197617570485E-5    1.652234726261953E-6    9.934815981984377E-1   -9.496436054024802E-2
 7.986031904287139E7     9.930871803807182E-1   -1.051076316469609E-1    1.031551049979714E-5   -3.114727551958586E-6   -2.330319845152737E-5    2.023580368472557E-6    9.924146744198201E-1   -1.080768192003601E-1
 8.983035892323031E7     9.911866997781034E-1   -1.186295875493246E-1    8.866781312572582E-6    5.016271733906893E-6   -3.973014266035208E-6    6.821658342279472E-6    9.909286224851429E-1   -1.213050563482083E-1
 9.980039880358922E7     9.885799640851732E-1   -1.320622142458570E-1   -3.080303263683408E-6   -1.186610518506722E-5   -1.921195702141973E-5   -7.427795039772260E-7    9.885725708122635E-1   -1.345097582108470E-1
 1.097704386839482E8     9.862700240079031E-1   -1.453675009558900E-1   -1.692081670543969E-7    7.406435071949374E-6    4.192054582130224E-6    4.153388792507929E-7    9.860828305157924E-1   -1.479539974379356E-1
 1.197404785643071E8     9.852608424068807E-1   -1.588204635025876E-1   -3.182329592470812E-5   -4.620102208411297E-6    1.693239300868706E-5    3.177959654258999E-6    9.844696172200630E-1   -1.612691927872699E-1
 1.297105184446660E8     9.833613637015236E-1   -1.717502483953925E-1   -5.084886798308801E-6   -2.588779165464575E-6    4.194734456386388E-10   1.080164669457145E-5    9.829935160766152E-1   -1.745462275332872E-1
 1.396805583250249E8     9.816877150778996E-1   -1.846037679463035E-1   -4.977614944026382E-6   -5.460405093937948E-6   -7.927020197051521E-6    9.476129779835469E-6    9.809100824246206E-1   -1.876625420381091E-1
 1.496505982053838E8     9.784000108295987E-1   -1.969094715461616E-1    2.449924352827103E-6   -1.212095699133314E-5    1.051809836356097E-5    9.088289534296422E-6    9.785141569059611E-1   -2.004914339320931E-1
 1.596206380857428E8     9.759216344641196E-1   -2.093153664878878E-1    1.848741235899011E-6   -9.252773332073050E-6    1.552608156178454E-5    5.939021753271797E-6    9.757399573976315E-1   -2.134116785301662E-1
 1.695906779661017E8     9.734827143887010E-1   -2.222376965119590E-1   -1.159528715283623E-5    1.807709111344038E-5   -5.483050741901770E-6   -9.656446171738109E-6    9.728365460760721E-1   -2.262145723869964E-1
 1.795607178464606E8     9.707515678718139E-1   -2.345663054453798E-1    2.261852578557796E-5    6.181397570524053E-6   -3.881597623471252E-6   -1.345353809916869E-5    9.702140270814720E-1   -2.380820854408366E-1
 1.895307577268195E8     9.673661566022603E-1   -2.467872327445673E-1    1.372119906791788E-6   -5.321875385114698E-7   -5.056419930289626E-6    2.084362945016733E-5    9.666934228889397E-1   -2.506192420797584E-1
 1.995007976071784E8     9.637883453289154E-1   -2.593015354017423E-1   -3.435560655956420E-6    7.664163050483351E-6   -8.024938755043945E-6    1.176077180869596E-5    9.627972044582518E-1   -2.633249376761649E-1
 2.094708374875374E8     9.606459973294963E-1   -2.722284327125375E-1   -2.556320143924489E-6   -8.752701774837174E-6   -2.817227405434781E-6    5.703587179976935E-7    9.589452375516785E-1   -2.762300801363355E-1
 2.194408773678963E8     9.573273065573300E-1   -2.849780578428691E-1    6.617515638647087E-6    1.168938739773042E-5    1.443627379721266E-5   -7.240560048839597E-6    9.550381474171991E-1   -2.892716480116071E-1
 2.294109172482552E8     9.535004395761304E-1   -2.971968696873223E-1   -2.108992651851977E-5    1.490332772067643E-5   -1.369080552278322E-5   -8.198766538217124E-6    9.508781958649117E-1   -3.018294088799630E-1
 2.393809571286142E8     9.505002421122325E-1   -3.093123075001537E-1    1.832009432075937E-6   -3.195071372632410E-6    8.286188113217157E-6   -1.376188291921590E-6    9.469926924219205E-1   -3.141846014745039E-1
 2.493509970089731E8     9.468143174218817E-1   -3.231217050780558E-1    7.030608235138502E-6   -4.471195658492086E-6    9.187425259521940E-6    1.319017236734502E-5    9.441212506974493E-1   -3.278198596736578E-1
 2.593210368893320E8     9.427256330114010E-1   -3.351806575478385E-1   -5.605844063649956E-6    3.025059079959233E-6   -1.837775037246730E-6    8.732976515113189E-6    9.397832908299911E-1   -3.409271166153725E-1
 2.692910767696909E8     9.383918783095013E-1   -3.464739647807291E-1   -1.178598719712295E-6    4.667601594880505E-6   -1.397453796967032E-6   -2.161097236777504E-6    9.355867846704444E-1   -3.528931390257011E-1
 2.792611166500499E8     9.338310156889229E-1   -3.580758605811901E-1   -1.432350800877578E-5    6.919065739582876E-6    5.676532171099416E-7    1.062153169595754E-5    9.311041960159873E-1   -3.647428499733413E-1
 2.892311565304088E8     9.289456570827322E-1   -3.701787186215340E-1    1.298762504748949E-6    8.130977532576076E-6    2.146976682106833E-5    7.663583539682730E-6    9.262760304581915E-1   -3.768969313994913E-1
 2.992011964107677E8     9.241549817296140E-1   -3.823662085172463E-1   -5.189490350653418E-6   -7.487565907950101E-7   -1.841372890439162E-5   -5.527826265240516E-6    9.213294858967015E-1   -3.886711205300894E-1
 3.091712362911266E8     9.188416863803708E-1   -3.945752468072232E-1    1.574334945027818E-5   -9.613578192314323E-6    8.194277836073709E-6   -1.608494505553509E-5    9.157882576605609E-1   -4.002243644653458E-1
 3.191412761714855E8     9.132834462108301E-1   -4.069771415283154E-1   -1.123884773610047E-5   -3.446316974192068E-6    5.226039575735500E-6    5.095219699401637E-6    9.098278041270652E-1   -4.119675625655339E-1
 3.291113160518445E8     9.076720510925402E-1   -4.196853668237093E-1    6.343197898779769E-6    1.368334564660000E-6   -6.753116209239029E-7    4.600263569188921E-6    9.035013840717065E-1   -4.244831901620593E-1
 3.390813559322034E8     9.021311081895483E-1   -4.326420062680718E-1    4.809771171986376E-6   -2.122848633886849E-6   -1.511508404622973E-5    1.757612159104657E-6    8.969223728679780E-1   -4.370783306981093E-1
 3.490513958125623E8     8.967136486016468E-1   -4.451247233147944E-1    1.036833048414563E-5    5.843051383244075E-6   -1.741756216318556E-5    7.602171522827272E-6    8.904277495298764E-1   -4.494132147749836E-1
 3.590214356929212E8     8.912407481966682E-1   -4.575658290184396E-1    9.380738881325742E-7   -6.310079558256635E-6   -3.703558315560998E-6    1.560023812070928E-6    8.844358001478542E-1   -4.621066745429898E-1
 3.689914755732802E8     8.859057241394137E-1   -4.697921469435417E-1   -8.127779205102850E-7   -2.361468285649419E-7    8.765697957271243E-6   -2.111216916092028E-6    8.791431966593067E-1   -4.748070733525081E-1
 3.789615154536391E8     8.799689295136028E-1   -4.810970003666726E-1    1.707308624185487E-6   -3.935986107291371E-6   -1.014653787130800E-5   -5.689395226392628E-6    8.739087156393895E-1   -4.868490108620624E-1
 3.889315553339980E8     8.742644093848488E-1   -4.917344306877300E-1    5.317500626897905E-6   -5.037520754202699E-6    4.657016123167498E-6   -9.750858508336161E-6    8.679192074228397E-1   -4.988211814658116E-1
 3.989015952143569E8     8.673680142862416E-1   -5.024518293489123E-1   -3.450692505221478E-6    1.705235071505433E-5   -1.405730767836504E-5    6.883226872653423E-6    8.611251744561261E-1   -5.097321487749754E-1
 4.088716350947158E8     8.601848477568891E-1   -5.132957964636121E-1    3.375030124989817E-6   -2.140508409326247E-5   -7.278933282434706E-6   -1.149686376153056E-5    8.544184531611193E-1   -5.208231005554713E-1
 4.188416749750748E8     8.533907167985311E-1   -5.248568504331943E-1   -4.931165747259028E-6    5.404863051063185E-6   -5.090482603655634E-6   -1.858395649097488E-6    8.477186083440299E-1   -5.316538506632523E-1
 4.288117148554337E8     8.461107356851963E-1   -5.365852391525148E-1   -1.166534993269787E-5    8.222798115047698E-6    8.786158358561338E-7    3.580546427314265E-6    8.406336435912295E-1   -5.418331980592137E-1
 4.387817547357926E8     8.383447087638045E-1   -5.479691695504207E-1    6.038326054425339E-6   -1.722017285721422E-6    2.369956964815424E-5   -1.189859949737429E-6    8.327377217177734E-1   -5.523290915637239E-1
 4.487517946161516E8     8.304690938215358E-1   -5.597441798083320E-1    5.370394711627276E-6    2.097439216648326E-5   -4.457161867953756E-6   -1.631266596397809E-5    8.241146547315296E-1   -5.634637208293209E-1
 4.587218344965104E8     8.235626777874969E-1   -5.717353639563933E-1   -1.019181276920778E-6    3.235452546740749E-6    7.852151495222619E-6   -4.830224246324294E-6    8.160173995542331E-1   -5.753060468541228E-1
 4.686918743768694E8     8.170399536992560E-1   -5.831148900424465E-1    1.164781333423642E-5    3.044611115737298E-6    5.334231586170888E-6    1.098828484740121E-5    8.078636984855834E-1   -5.868596714274835E-1
 4.786619142572283E8     8.100230944545340E-1   -5.939856776624002E-1   -1.768133176240601E-6   -6.130212030215548E-6    2.671741749838698E-6    5.351717712705494E-6    7.993224274055662E-1   -5.980227351570684E-1
 4.886319541375872E8     8.023730392883588E-1   -6.043743469557225E-1   -9.478964231137444E-7   -2.455579491439794E-6    3.721678303324092E-7   -4.578715452532611E-6    7.905027510838789E-1   -6.089103018017534E-1
 4.986019940179462E8     7.941349451620912E-1   -6.150238733063963E-1   -4.680007520753126E-6   -6.593125404924323E-7    3.401382562264787E-6   -9.032560357787668E-6    7.822850361643436E-1   -6.196903600749081E-1
 5.085720338983051E8     7.857204214219107E-1   -6.241602964015004E-1   -2.244864337518988E-6    3.543157229734043E-7   -1.407130271750566E-5    5.914682192587151E-6    7.746432946572872E-1   -6.303240083620630E-1
 5.185420737786640E8     7.785103266154564E-1   -6.333090803917313E-1   -5.111535755506111E-6   -1.077265148702395E-5   -2.628417292979916E-6    3.830616284866044E-6    7.670276667716929E-1   -6.401415688466886E-1
 5.285121136590229E8     7.702076942888861E-1   -6.429013088683316E-1    5.349779015278619E-7    4.820697006544915E-6    1.109058112466634E-5    1.644008898423644E-5    7.590106915397614E-1   -6.497125455808268E-1
 5.384821535393819E8     7.615090472330156E-1   -6.529553773251524E-1   -1.062212710410994E-5   -1.616723593297774E-6    6.033307884335383E-6    2.591966537793101E-5    7.508332972721056E-1   -6.593096943145428E-1
 5.484521934197408E8     7.533455220646427E-1   -6.635420594704542E-1   -9.838045703715146E-7    9.801870677910254E-6   -1.823020622165535E-6   -1.671637385002814E-5    7.424985811742512E-1   -6.692742477965090E-1
 5.584222333000997E8     7.448259123946596E-1   -6.744160615145572E-1    4.113487795320141E-6    9.315897762638240E-6   -6.190203191859829E-6    5.110572428840806E-7    7.332984896450960E-1   -6.792549594899349E-1
 5.683922731804587E8     7.356887390496543E-1   -6.848981150965235E-1   -5.357118140028259E-6    3.826906854472284E-6   -7.138806299087701E-6    1.839543941768385E-5    7.231501502715790E-1   -6.891731310196104E-1
 5.783623130608176E8     7.264371454240127E-1   -6.949281726367639E-1    1.770579099368880E-5    5.953790033486903E-6    1.491099448007719E-5    1.201201303455788E-5    7.126380266816080E-1   -6.988448334432561E-1
 5.883323529411764E8     7.171401547071734E-1   -7.048065168309474E-1    2.209072224242860E-6   -2.028658594069673E-5    3.477536658657898E-6   -1.970092478087183E-6    7.021975211099457E-1   -7.086674361366913E-1
 5.983023928215353E8     7.079926861952494E-1   -7.149443509249873E-1   -4.155264904827795E-6    6.102513541294418E-6    4.766628084060431E-7    2.023383238785873E-5    6.918285868553566E-1   -7.183071782247462E-1
 6.082724327018943E8     6.986941884134167E-1   -7.247008641335282E-1    7.377883361495290E-7   -4.531722936514668E-6    1.279552167883840E-5    1.554506021101816E-7    6.817472424311829E-1   -7.276462705524810E-1
 6.182424725822532E8     6.888625416739624E-1   -7.343425780728517E-1    4.482359150984769E-6    9.953308689536304E-6   -7.076503008721340E-6    9.580285054650292E-6    6.717846455900283E-1   -7.372592249179263E-1
 6.282125124626122E8     6.782752344178691E-1   -7.437311664047606E-1   -6.061061004894739E-6    3.670065262450284E-6   -1.040748168088500E-5   -2.641949113759062E-6    6.627976583613930E-1   -7.466614455955979E-1
 6.381825523429711E8     6.685910767028409E-1   -7.508602951848907E-1   -5.086578606408113E-7    3.437927820132969E-7   -1.865073008540916E-5    4.298349586955602E-6    6.539063162952815E-1   -7.555093547481014E-1
 6.481525922233300E8     6.595987461261692E-1   -7.594300646737822E-1   -3.556824405077824E-6   -7.098334130922277E-6   -8.622852723406927E-7    6.972642479833367E-6    6.447237345696764E-1   -7.639536746705174E-1
 6.581226321036890E8     6.498955320683990E-1   -7.682649042200311E-1    2.427147566765427E-6    7.841689686577932E-6    1.136570334270117E-5    3.144252884166781E-6    6.347264589175611E-1   -7.724244841678873E-1
 6.680926719840479E8     6.399612132978982E-1   -7.770490345166056E-1    3.325952405304450E-6    7.134597546742360E-6   -4.494449797941347E-6   -2.854680904374237E-5    6.241152213419232E-1   -7.804801993416203E-1
 6.780627118644068E8     6.300933877459267E-1   -7.851581210720102E-1    2.259168359249824E-6   -2.532305186596603E-6   -1.845901649184516E-5    4.890222743342346E-6    6.129415417290479E-1   -7.882479336807094E-1
 6.880327517447658E8     6.196791474549094E-1   -7.933675736245326E-1    1.179818613157168E-6   -1.109910958047106E-5    3.574651275010855E-6    3.782085741931826E-6    6.017265245754061E-1   -7.958890588110280E-1
 6.980027916251246E8     6.087456383043429E-1   -8.015921054186854E-1    8.569947413146699E-6    3.062359578193087E-6    5.340130531630270E-6   -2.369174831324483E-6    5.901127215454682E-1   -8.035926124501804E-1
 7.079728315054835E8     5.974400773606494E-1   -8.100450153982857E-1   -2.151192594369623E-6   -4.579892683894162E-6   -1.691680625376454E-6    9.642884581837463E-6    5.786240749673041E-1   -8.116437979322205E-1
 7.179428713858424E8     5.862759142597814E-1   -8.185255464590181E-1   -1.804989749812150E-6   -6.491762008951095E-6   -2.863104284289311E-6    6.811678552798891E-6    5.673413223887663E-1   -8.201432301866343E-1
 7.279129112662014E8     5.753389918694056E-1   -8.268998317021098E-1    2.652663267999449E-6    3.424276048155402E-6   -3.573555672648278E-7   -6.290155794922437E-7    5.560502917926249E-1   -8.287820177068488E-1
 7.378829511465603E8     5.640496853247492E-1   -8.355281138584445E-1   -7.676354237378538E-6    1.488802545031351E-5    1.629769199673439E-7   -3.787917333764809E-6    5.447146862602478E-1   -8.371133082537493E-1
 7.478529910269192E8     5.520383675220253E-1   -8.441584137205350E-1    7.291380608193885E-7    4.775595468186482E-6    3.231485373131900E-6    1.657062246773585E-5    5.335889592525223E-1   -8.447362653399118E-1
 7.578230309072782E8     5.394440732685375E-1   -8.513666753104803E-1    2.492231729686693E-7   -7.738889678284693E-6   -2.432272316889232E-6   -6.824844816443100E-6    5.224986129966394E-1   -8.517782683913737E-1
 7.677930707876371E8     5.290197188169253E-1   -8.567207969499020E-1    1.040938132583159E-5    5.090011504377981E-6   -7.204161480647211E-6   -1.163982254399185E-5    5.112549660145249E-1   -8.582050348220962E-1
 7.777631106679960E8     5.193214503923254E-1   -8.636302172724554E-1   -6.758689267865975E-6   -3.347659018018258E-6   -1.654242529905917E-5   -4.850143110220317E-6    4.996271222537642E-1   -8.646371423238747E-1
 7.877331505483550E8     5.091139426384480E-1   -8.705140090086083E-1    4.004432121615916E-6    1.914788527753966E-7    6.629253341384036E-6   -1.176757570931498E-5    4.877759393581672E-1   -8.713067906861394E-1
 7.977031904287138E8     4.979913606322563E-1   -8.770203901430509E-1   -1.134024904096708E-5    2.158850953293630E-5    4.198687849932951E-6   -2.573867976787872E-7    4.751739222391633E-1   -8.778518827404733E-1
 8.076732303090727E8     4.862058578415189E-1   -8.828836345312545E-1   -1.530058084539186E-5    6.762340268600349E-6    3.193929610157574E-6    4.164225627370861E-6    4.622637593528611E-1   -8.840134815354462E-1
 8.176432701894317E8     4.742073191872743E-1   -8.888554073785202E-1   -1.710732797994023E-6    3.597298226901777E-7   -1.014461404289621E-5   -6.111202828142803E-6    4.493925924725195E-1   -8.903413159085223E-1
 8.276133100697906E8     4.619462007651189E-1   -8.953031068991463E-1    1.387980966852762E-6   -2.886299707267494E-6   -8.813078126833403E-6   -5.539340617183477E-6    4.367764575992857E-1   -8.969873930688351E-1
 8.375833499501495E8     4.493450749115246E-1   -9.018243241198920E-1    2.204367313750322E-6    1.490657530707343E-5    6.328145160561493E-6   -1.382163297553822E-5    4.245872819508202E-1   -9.036198015967936E-1
 8.475533898305085E8     4.365233134257099E-1   -9.081773034839485E-1    8.494159099362996E-6   -3.914619114746572E-6    1.165532824314456E-5   -7.556086375587285E-6    4.128108083959801E-1   -9.098237730242379E-1
 8.575234297108674E8     4.236501595616236E-1   -9.144808570867428E-1    8.337960880687448E-6   -1.070016399842305E-5    5.490744279550821E-6   -2.014791270834360E-7    4.010922933225256E-1   -9.151280455412873E-1
 8.674934695912263E8     4.108842874750894E-1   -9.211575789550069E-1   -6.527011302981571E-6    1.452195412905934E-7   -9.617292238846615E-6   -7.272657957937709E-6    3.889470945803887E-1   -9.199403322508485E-1
 8.774635094715853E8     3.977831674211344E-1   -9.277967701565821E-1   -1.540785709615540E-6    7.500910787733233E-6    8.609928819401439E-7    6.653106223790382E-6    3.763140714122566E-1   -9.245585321336146E-1
 8.874335493519442E8     3.846187368336752E-1   -9.324350590494782E-1   -1.109018386726583E-5    4.883594768202777E-6    6.817560672483803E-6   -2.252055601853455E-6    3.632317392490019E-1   -9.290250941548749E-1
 8.974035892323031E8     3.734392642671058E-1   -9.360712489255609E-1    1.648234365763095E-5   -1.303887999786289E-6    1.411127251102777E-5    1.521665561977964E-6    3.496416985524597E-1   -9.334187972956054E-1
