#  HZ   S   RI   R     50.00 
! Rohde & Schwarz Vector Network Analyzer 
! Rohde-Schwarz,ZNB20-2Port,1311601062102128,3.60
! Created: UTC 4/29/2024, 3:50:01 PM
! freq[Hz]                re:S11                  im:S11                  re:S21                  im:S21                  re:S12                  im:S12                  re:S22                  im:S22
 1.000000000000000E5     9.964522813744755E-1    4.440550763324144E-3    4.539981460250757E-5    7.919119217766437E-5    1.040480758505973E-4    2.957985632611878E-5    1.011292750122802      -1.111130951871284E-2
 1.007003988035892E7     9.975903153685409E-1   -1.382481686465194E-2   -1.034848233656400E-5   -3.349153037094650E-6   -5.163997941170743E-6   -1.624281316588289E-5    9.959714412346846E-1   -1.461471789495042E-2
 2.004007976071785E7     9.998012657017659E-1   -2.701964610149019E-2   -2.733759988365006E-6   -1.097249824558119E-5   -2.290622407384138E-5   -1.689161818864095E-6    9.987984716917000E-1   -2.774133998966484E-2
 3.001011964107677E7     9.978078125332666E-1   -4.096799181555164E-2    3.686845560858507E-6    5.936809125349901E-6    9.108552910509909E-8    3.033957393663206E-6    9.976249984755067E-1   -4.203404432717444E-2
 3.998015952143569E7     9.975079338167963E-1   -5.296299867912146E-2   -1.073848953659979E-5    3.564324191744104E-6   -1.218340890088093E-5    1.092213625583297E-5    9.977415206751947E-1   -5.679325991980077E-2
 4.995019940179461E7     9.961483913758497E-1   -6.596243674582845E-2    9.670676674207426E-6    1.596729008267319E-6    3.741270930218880E-7    6.508268940717079E-6    9.965940222788345E-1   -6.917214768122897E-2
 5.992023928215354E7     9.942575910685362E-1   -7.871252289062386E-2   -2.867560166248129E-7   -9.339336311997013E-6   -7.805167375841687E-6    4.081913838935581E-6    9.946463007677180E-1   -8.208893195327265E-2
 6.989027916251247E7     9.930667742777946E-1   -9.172145540982024E-2    6.821888600650218E-6    1.663232697410140E-5    1.744908006791969E-6    7.168258316090719E-6    9.934662183987052E-1   -9.496720615447307E-2
 7.986031904287139E7     9.924433385053149E-1   -1.050636016503344E-1   -7.744163508470341E-6   -1.588894168637851E-5   -1.918339874697566E-5    7.845746656149340E-6    9.923975689523404E-1   -1.079833097409579E-1
 8.983035892323031E7     9.913618082295912E-1   -1.186119120564586E-1    2.690912188568184E-6   -6.624210217618937E-6   -3.314584020137666E-7    3.300032806595921E-6    9.907657078693545E-1   -1.212201970147268E-1
 9.980039880358922E7     9.893480641939892E-1   -1.323243131427042E-1    4.655448364197901E-7    1.964816004865591E-6   -4.482452446337088E-6   -5.937434062615683E-6    9.885754465346424E-1   -1.345656096658892E-1
 1.097704386839482E8     9.865580490395941E-1   -1.454519706502106E-1   -1.203245739805317E-5    3.212950149849510E-6    1.994896773168437E-6    1.200481610098779E-5    9.862947795241779E-1   -1.479392020118546E-1
 1.197404785643071E8     9.848011460609719E-1   -1.588352156650058E-1    2.112322901755739E-6    1.752814858686361E-5   -2.264547355095730E-6   -2.908143715450251E-6    9.842901927092417E-1   -1.613032071136755E-1
 1.297105184446660E8     9.829946781292288E-1   -1.716242225264892E-1    5.289097846313311E-6    5.928016190570919E-6    5.632525817654861E-6   -8.131178122369079E-6    9.829086084236990E-1   -1.745804968206703E-1
 1.396805583250249E8     9.814557549043109E-1   -1.845262975217194E-1    1.010089431208475E-6    9.175386697599673E-6    1.201239260215836E-5   -4.050419381823774E-6    9.810145791614381E-1   -1.876924209793911E-1
 1.496505982053838E8     9.789713311487980E-1   -1.969704971305419E-1   -2.101286721129097E-6    7.791232689002991E-6    6.336104628376976E-6    1.717669601204651E-6    9.785598101292079E-1   -2.004976589048713E-1
 1.596206380857428E8     9.761461074164258E-1   -2.093621499592796E-1   -2.611053758071460E-6    1.500776334820343E-5   -6.547824774929141E-6   -1.445894184932874E-5    9.757199916966686E-1   -2.133532780548366E-1
 1.695906779661017E8     9.731373175846304E-1   -2.221608981309864E-1    4.373393413352361E-7   -6.268760729119565E-7    2.326012891927154E-6    3.852085002573438E-6    9.728225356107576E-1   -2.262133533498047E-1
 1.795607178464606E8     9.707162818721972E-1   -2.347084772286450E-1   -1.017850661685055E-5   -7.724726275305337E-6    2.275413515831412E-7    6.258653280929484E-6    9.701787877607931E-1   -2.380983568915216E-1
 1.895307577268195E8     9.676907260782347E-1   -2.468115409573169E-1   -6.446311803981487E-6    5.354468332797821E-6    2.385419938368820E-6   -1.572462559521156E-7    9.666919790201587E-1   -2.506187280798690E-1
 1.995007976071784E8     9.638850624162256E-1   -2.592676901468196E-1    6.241238690341589E-7    7.977062050138648E-7    6.880011947516686E-6   -3.306439640540842E-6    9.627447159285467E-1   -2.633411973012781E-1
 2.094708374875374E8     9.604268073403120E-1   -2.721175967227894E-1   -3.406675907707876E-6    9.948733980471842E-6    1.393076758549629E-5   -2.028681766542114E-5    9.588232226168943E-1   -2.762925210489025E-1
 2.194408773678963E8     9.573899221856665E-1   -2.848909161015873E-1   -8.078268141254683E-6    3.308737822099840E-6   -7.978272309835084E-6   -1.381792340916684E-5    9.551153301550716E-1   -2.892346937274350E-1
 2.294109172482552E8     9.537562185788053E-1   -2.972160276277279E-1    1.315583610205936E-5   -9.767984276707451E-6    1.478365899233869E-5    9.321352663697539E-6    9.508124834971694E-1   -3.018711124678257E-1
 2.393809571286142E8     9.506173469121292E-1   -3.093040979494985E-1    8.422755906632834E-6    1.440066575078128E-5    6.270604774916304E-6    9.137416077566954E-6    9.469796602602120E-1   -3.141853700221378E-1
 2.493509970089731E8     9.466939065147337E-1   -3.231006097777559E-1    7.107138270222164E-6    2.395809167212624E-6    9.965819180261097E-6    3.379678259610414E-6    9.441660372765722E-1   -3.277632873183657E-1
 2.593210368893320E8     9.425687353391349E-1   -3.350528964426766E-1   -5.763231444375101E-6   -1.901975223848962E-6    1.859614604981544E-6    3.146899193895253E-6    9.398002656750839E-1   -3.409861112689335E-1
 2.692910767696909E8     9.384590747197146E-1   -3.465481190009952E-1   -7.298293601651122E-6    1.489660443843548E-7   -1.746117109116536E-6   -8.042729851716396E-7    9.355728245595879E-1   -3.530037282661744E-1
 2.792611166500499E8     9.339230098894419E-1   -3.582071396843869E-1    3.698281604860554E-6    1.601233249140576E-6    1.214936126583058E-5   -2.227048833998097E-6    9.309341590673950E-1   -3.646906224282696E-1
 2.892311565304088E8     9.289675268540907E-1   -3.701082655431789E-1   -6.730244922704097E-6   -6.680919139957950E-6    1.476298704061871E-6   -5.482250896284586E-6    9.262979639489408E-1   -3.768721367360023E-1
 2.992011964107677E8     9.240023614404748E-1   -3.822786116255459E-1   -1.899317239113399E-6    1.440913773849835E-5   -1.177451734393883E-5    1.110300929723807E-5    9.213026029590112E-1   -3.886865086828921E-1
 3.091712362911266E8     9.190088147570278E-1   -3.946203641824398E-1    5.718080729197168E-6   -8.175268335345030E-6   -1.479033039737791E-6   -1.294204442967748E-5    9.157275038536328E-1   -4.001669021012271E-1
 3.191412761714855E8     9.134724724807928E-1   -4.070725088224967E-1    5.351190832515710E-7   -2.573036466405572E-5   -7.911670741726119E-6    1.634174938205085E-5    9.099035040429041E-1   -4.120677057323818E-1
 3.291113160518445E8     9.077029170513239E-1   -4.197470451055886E-1   -9.387705577075055E-6    1.534506561507834E-6   -3.964784187793790E-6   -2.376510433116607E-6    9.034278242177840E-1   -4.244979178733027E-1
 3.390813559322034E8     9.020493448885324E-1   -4.325590185983369E-1   -4.540344943308045E-6    9.680175542378346E-7   -7.477972131424595E-6    7.414069426634022E-6    8.968038406214506E-1   -4.369641612053821E-1
 3.490513958125623E8     8.967633173387763E-1   -4.451577052496202E-1   -1.591087978369557E-5   -1.911896395745752E-6   -4.946184570339758E-7   -4.978586481373261E-6    8.905132881334477E-1   -4.493809376908138E-1
 3.590214356929212E8     8.913395942136990E-1   -4.576334085003990E-1   -1.261165297602477E-5   -3.744675333928421E-6    5.352977508030433E-6   -2.850103548959685E-6    8.845576304206025E-1   -4.621423032711491E-1
 3.689914755732802E8     8.860558090532168E-1   -4.698649681162660E-1   -9.713500041543906E-6   -2.710102446986942E-6   -9.265709225191495E-6    4.161819299703908E-6    8.790854744555376E-1   -4.748477876171320E-1
 3.789615154536391E8     8.798402436833284E-1   -4.809751774349889E-1   -9.734390762069333E-7   -9.671686137836185E-6   -1.065656961588144E-7   -4.821745804990057E-6    8.737889868063021E-1   -4.868177265674025E-1
 3.889315553339980E8     8.741152063133251E-1   -4.917141362077972E-1    1.267659177791211E-5    2.887619175804862E-6   -4.472264632411280E-6   -6.901920941040109E-7    8.680489114167368E-1   -4.987514053986780E-1
 3.989015952143569E8     8.674935873573177E-1   -5.024734354118283E-1   -2.233056342633662E-7    6.549351338526438E-6   -6.862569979601415E-6   -2.169315248412804E-6    8.611723658002806E-1   -5.097653184093239E-1
 4.088716350947158E8     8.603046707155083E-1   -5.133230601292897E-1    2.040235186372148E-6    3.593573740800983E-6    1.100072079276021E-5    5.685236728433616E-6    8.543320732145195E-1   -5.207526459180702E-1
 4.188416749750748E8     8.533438046530458E-1   -5.247838486089388E-1   -4.869783561936445E-6    6.574735061602768E-6   -8.967513912344975E-6   -3.941108878259434E-6    8.476629273870042E-1   -5.315026976188632E-1
 4.288117148554337E8     8.459855875465039E-1   -5.364491380597789E-1    3.892982221787589E-6   -1.022223001918125E-5    3.827606012414052E-6   -2.108198391608802E-5    8.407026769819886E-1   -5.419128277752343E-1
 4.387817547357926E8     8.382536940998579E-1   -5.479545135397956E-1   -4.896716920560729E-6    3.191859394768633E-6   -3.408019057025249E-6   -8.551979356416252E-7    8.326796580825896E-1   -5.523096331805035E-1
 4.487517946161516E8     8.307395892625742E-1   -5.598919752828814E-1   -6.351249947307190E-6   -8.307816115049858E-6   -2.586415066090131E-6   -1.247887402353151E-5    8.241458981258026E-1   -5.634502618771805E-1
 4.587218344965104E8     8.236587743375583E-1   -5.717951674071083E-1   -5.030621213490540E-6    3.590185027566284E-6   -6.625621303637039E-6    5.292088698961646E-6    8.160602215025272E-1   -5.752491404161089E-1
 4.686918743768694E8     8.169574269469662E-1   -5.831250718499638E-1    8.985584733175050E-7    1.306354968556372E-5   -2.585253366208344E-5   -5.697793863242635E-6    8.079289082768505E-1   -5.868121361641485E-1
 4.786619142572283E8     8.098979152679204E-1   -5.939650647493165E-1   -8.999761392792915E-6   -6.206301320044675E-6    1.477642007237614E-5    2.119551725176041E-5    7.993787633676190E-1   -5.980974327427737E-1
 4.886319541375872E8     8.024114259595259E-1   -6.043501307096162E-1    7.141379927799251E-6   -1.231518513460701E-6    3.665974203373478E-6   -4.313280849540069E-6    7.905672265814038E-1   -6.088916139171773E-1
 4.986019940179462E8     7.941873665611773E-1   -6.151160155834939E-1    5.516994242285024E-6   -3.162368683652905E-6   -1.547343119701457E-5   -1.649860415792406E-6    7.822737881257651E-1   -6.197593645962979E-1
 5.085720338983051E8     7.856846992852907E-1   -6.242326256165656E-1   -5.229346448674410E-6   -3.500725397331032E-6   -3.579775606279113E-6   -8.004705451434546E-6    7.746049763504524E-1   -6.303430159484309E-1
 5.185420737786640E8     7.783105674111835E-1   -6.331685349391791E-1   -4.847876259161222E-6   -7.134568171515385E-6   -1.969253018697486E-5   -1.252651510626826E-7    7.670221763344763E-1   -6.401006749498337E-1
 5.285121136590229E8     7.701587382815858E-1   -6.428170182783526E-1   -1.737564723553120E-5    8.714581242651806E-6    8.293659980844335E-6   -7.482119848266768E-6    7.590279815196412E-1   -6.497636457466637E-1
 5.384821535393819E8     7.615842355748079E-1   -6.530016193448316E-1    1.742671032350863E-6    2.218601154795861E-6   -5.672818426906890E-7    1.428647783747277E-5    7.509802363569507E-1   -6.594416326094238E-1
 5.484521934197408E8     7.533392341045019E-1   -6.635637473753143E-1   -2.520110946185775E-6   -2.088120112101641E-6    6.986691186207649E-6    7.019513769085458E-6    7.425382379624543E-1   -6.692469610397124E-1
 5.584222333000997E8     7.448489837963189E-1   -6.744838561969289E-1    1.318183940629909E-5    3.352966117336306E-7   -7.750537306446137E-6    1.160227329770552E-7    7.333010795054002E-1   -6.792306811184069E-1
 5.683922731804587E8     7.356252532410998E-1   -6.848817651871378E-1   -2.118147142719799E-6   -1.262777900092601E-5   -9.967691442629340E-6    1.641803731938800E-5    7.231441065052659E-1   -6.891569745035052E-1
 5.783623130608176E8     7.264131094414109E-1   -6.948187137380732E-1   -8.707973950693014E-6   -4.413740107550070E-6   -1.992233068953193E-5   -7.432681442249906E-6    7.126458758553528E-1   -6.990059317726346E-1
 5.883323529411764E8     7.171438510684895E-1   -7.048417638013111E-1   -2.367282005554325E-6   -3.753613294921612E-6   -1.149937262013275E-5   -1.610600860393160E-5    7.021713995565666E-1   -7.086212508213244E-1
 5.983023928215353E8     7.080183601190924E-1   -7.148580424611313E-1    8.200222880243324E-6   -7.867370293117012E-6   -4.766466976227180E-6    2.804953847320848E-6    6.918923841847683E-1   -7.182099109463925E-1
 6.082724327018943E8     6.985473628621570E-1   -7.245987825365764E-1    5.225397958314767E-6   -8.826115825756956E-6    7.485847949238326E-6    4.643853640238801E-6    6.817242823414725E-1   -7.277636806113564E-1
 6.182424725822532E8     6.887709906871319E-1   -7.343556520022789E-1   -5.238339400672691E-6   -4.062873797527774E-6    1.191436994977083E-5   -4.575017243244080E-6    6.718578947764378E-1   -7.371855410370807E-1
 6.282125124626122E8     6.782639348459679E-1   -7.436629210514366E-1   -2.626639602297408E-7   -1.312847329241955E-5    3.006172047223261E-5   -2.337764776323339E-6    6.628204997344204E-1   -7.466958917251811E-1
 6.381825523429711E8     6.686316747161523E-1   -7.509058487629804E-1    3.475280386948526E-6   -6.332970809468308E-6   -1.976937412777763E-5   -1.654564150253277E-5    6.538352874033257E-1   -7.555109480763037E-1
 6.481525922233300E8     6.596199207813710E-1   -7.594326745980189E-1   -5.632866364499554E-6   -1.053224098422156E-6   -2.324126852667852E-5   -8.016033545177233E-6    6.447522658044197E-1   -7.641461331088150E-1
 6.581226321036890E8     6.498474906710859E-1   -7.682989347396009E-1   -3.606978886026476E-6    3.805502393623504E-6    3.751096934024613E-6   -4.462187203540615E-6    6.346831274730329E-1   -7.724369344459082E-1
 6.680926719840479E8     6.398376183237708E-1   -7.770457318904808E-1   -6.247340271381281E-6    9.433652398612173E-6    1.941170223655533E-6   -2.509140531175926E-5    6.241301590582699E-1   -7.804289078630806E-1
 6.780627118644068E8     6.300953704775192E-1   -7.852717205432236E-1   -8.457974293368138E-8   -2.889963241119824E-6    2.143010489841633E-5   -8.067521663577625E-6    6.131000406718360E-1   -7.883426190357781E-1
 6.880327517447658E8     6.197985268406347E-1   -7.934130935236740E-1    1.865358155502097E-6   -1.216785844068649E-5   -3.013296991813955E-8    1.673152401698163E-5    6.017568346066657E-1   -7.959202889647672E-1
 6.980027916251246E8     6.087634757912552E-1   -8.016147337273403E-1   -1.355608706271089E-6    1.258099880547471E-5    8.385180366929952E-6   -1.344098464029829E-5    5.901300467977414E-1   -8.036198805928491E-1
 7.079728315054835E8     5.974350098114113E-1   -8.100977601733191E-1    8.782531478882243E-6   -1.429010928687294E-5   -1.170877293583401E-6   -1.716289908162373E-5    5.786318450021574E-1   -8.115178123289011E-1
 7.179428713858424E8     5.862555220613471E-1   -8.184889550345500E-1    2.635337911230147E-6   -8.176734495245150E-6   -2.165051912339430E-5    1.872289227980278E-5    5.673621151869424E-1   -8.201555221533275E-1
 7.279129112662014E8     5.752517096401447E-1   -8.268649347318036E-1    4.305334155730261E-6   -4.912128714808252E-6   -1.919914696614817E-5   -5.086963372270496E-6    5.560446130580893E-1   -8.288694149560369E-1
 7.378829511465603E8     5.639100218626514E-1   -8.356107449333268E-1    5.422838315282899E-7    8.464551343490044E-6   -8.758629170978666E-6    5.456175439884022E-6    5.448059045804339E-1   -8.371837304993771E-1
 7.478529910269192E8     5.520055240551720E-1   -8.440758350735991E-1   -5.624666634033132E-6    4.589827246559086E-7   -9.435594913363147E-6    3.266747322217628E-6    5.336230662487861E-1   -8.448183230627767E-1
 7.578230309072782E8     5.393390910326686E-1   -8.512510835038919E-1   -8.758213315219014E-6    4.453443689918402E-7    1.099398319221689E-5   -3.712506338762551E-6    5.225151426044292E-1   -8.516990486683558E-1
 7.677930707876371E8     5.290338839927936E-1   -8.567646033162291E-1   -5.449310086768546E-7   -6.563009133731099E-6    4.307842668885797E-6   -6.907146422487027E-6    5.112788921616040E-1   -8.582257715140790E-1
 7.777631106679960E8     5.194223819203687E-1   -8.637121999610425E-1   -3.302045631124705E-6   -3.763670657555223E-6   -9.296685526398232E-7    8.489585257068943E-6    4.997738090511403E-1   -8.647344365159066E-1
 7.877331505483550E8     5.089991292147908E-1   -8.705680720208303E-1   -3.440495786789302E-6   -2.287853355424224E-6   -3.300138302763706E-6   -8.251786717686916E-6    4.878233301266951E-1   -8.712313546603805E-1
 7.977031904287138E8     4.977885940867094E-1   -8.768988222953287E-1   -1.185493050873557E-6    6.165262341306588E-6    8.971065876109246E-6   -2.832154824481010E-6    4.751264927837401E-1   -8.778228128317905E-1
 8.076732303090727E8     4.861403071060790E-1   -8.828201969816154E-1    9.039327771971939E-6   -2.240440204033594E-6   -1.252736294523496E-5    1.164830989269572E-5    4.622308634091259E-1   -8.839808233491891E-1
 8.176432701894317E8     4.741284698964636E-1   -8.889142876802416E-1   -1.019318290937705E-5    1.270264906926693E-5   -8.760183681968911E-6   -3.366832351386741E-6    4.494210135389917E-1   -8.903819702307805E-1
 8.276133100697906E8     4.619391846011482E-1   -8.953149151837703E-1   -9.523883783599742E-7   -3.126371617099571E-6   -8.679146588425596E-6   -1.482166880569346E-5    4.367132705141214E-1   -8.970667820432259E-1
 8.375833499501495E8     4.492627554149082E-1   -9.016737399417420E-1    2.487648497571926E-6   -3.293044176072756E-6    3.029296123327797E-6    9.933493963111318E-7    4.245740199742428E-1   -9.036859209485812E-1
 8.475533898305085E8     4.364359767677263E-1   -9.082077949400744E-1   -3.455262341861667E-6   -1.810877550205224E-6   -1.341141404394522E-6    1.088942884065674E-6    4.128449883734481E-1   -9.098744595375274E-1
 8.575234297108674E8     4.236181428653172E-1   -9.145491857516572E-1    1.017191355717810E-6   -1.393719298637758E-5    1.070956523951809E-5    8.532197493310230E-6    4.010793934781037E-1   -9.150535904848220E-1
 8.674934695912263E8     4.107819069240361E-1   -9.212200959424582E-1    6.079887202421863E-8    1.463794503881914E-5   -9.229202198718770E-6    5.947493855041033E-6    3.889592299469831E-1   -9.199850672333360E-1
 8.774635094715853E8     3.977521847065538E-1   -9.277403450700823E-1   -5.913689444947189E-6    3.227676774810344E-6    1.101568696673537E-6   -9.807591204747673E-6    3.763834491225459E-1   -9.244735211751040E-1
 8.874335493519442E8     3.846274870027589E-1   -9.323304900628270E-1   -3.075122953959018E-6   -1.000356187257177E-6   -1.841496280836714E-5   -4.058296370206081E-6    3.633249790452153E-1   -9.289842404898956E-1
 8.974035892323031E8     3.733695485925703E-1   -9.361054313139507E-1    3.568858374660954E-6   -9.964824071653460E-6   -3.420864954277109E-6   -6.121106047160254E-6    3.497362973333770E-1   -9.333991480908647E-1
