#  HZ   S   RI   R     50.00 
! Rohde & Schwarz Vector Network Analyzer 
! Rohde-Schwarz,ZNB20-2Port,1311601062102128,3.60
! Created: UTC 4/29/2024, 3:49:55 PM
! freq[Hz]                re:S11                  im:S11                  re:S21                  im:S21                  re:S12                  im:S12                  re:S22                  im:S22
 1.000000000000000E5     9.969198766862446E-1    4.498945486693961E-3    2.705948529307607E-5    5.673640103141132E-5    1.563931453694694E-4   -7.719058221484598E-5    1.011129558339252      -1.119411329215703E-2
 1.007003988035892E7     9.993459225883374E-1   -1.432443862305935E-2   -9.793141422966326E-7    7.794620308336245E-6    7.239050065914777E-6    1.788320455570731E-5    9.958427439851861E-1   -1.452590302479500E-2
 2.004007976071785E7     9.983036556614290E-1   -2.731785698194494E-2   -1.571659873174275E-5    9.642686637429163E-6   -1.071850391334062E-5   -1.464174321153033E-5    9.989404749012302E-1   -2.763661113025420E-2
 3.001011964107677E7     9.980682937354419E-1   -4.109196021110523E-2   -2.497680154200568E-6   -5.135131586394058E-6   -1.152987854976925E-5   -7.494332181854303E-7    9.976010353107294E-1   -4.207289523897645E-2
 3.998015952143569E7     9.966408373225062E-1   -5.292788284546909E-2   -4.460168984784619E-6    1.008433423999610E-5    9.638189912946617E-6    1.545534785819701E-5    9.976012460087095E-1   -5.677439727414467E-2
 4.995019940179461E7     9.952589362793457E-1   -6.580075452547272E-2   -1.208789983909602E-5   -2.397644126463584E-6    1.213084780381058E-5    4.962371448377496E-6    9.966052068950607E-1   -6.927886454557544E-2
 5.992023928215354E7     9.943606712148348E-1   -7.871770319438245E-2   -2.853067427289362E-6   -9.040940063072729E-9   -5.261623580990230E-6   -5.373957055615547E-6    9.946978608711815E-1   -8.199396238149803E-2
 6.989027916251247E7     9.940163739065691E-1   -9.187024681523023E-2   -6.393379473835203E-6   -1.693549881009808E-5   -1.234314112918681E-6    7.670140838150442E-8    9.934970779818185E-1   -9.489082201822642E-2
 7.986031904287139E7     9.932089355500517E-1   -1.050797083790340E-1    5.469663490692601E-6    1.409588563998765E-5    1.142209729855729E-6    1.525051079975788E-5    9.924455147168582E-1   -1.080397146716471E-1
 8.983035892323031E7     9.911662837292716E-1   -1.185668002891656E-1   -2.243339451202251E-6   -6.067918283262768E-6   -5.514771605566635E-6    1.257405894597162E-5    9.908687926901715E-1   -1.213168622214019E-1
 9.980039880358922E7     9.885196904356235E-1   -1.319489465715241E-1   -7.091456947971192E-6   -1.431292135773672E-5   -1.103442062405593E-5   -3.641619417137231E-6    9.886762862514610E-1   -1.345383855359797E-1
 1.097704386839482E8     9.864757333428343E-1   -1.454246126820727E-1   -1.170273618190463E-5    1.110675360921324E-5    5.386473019199867E-7    4.868108307196862E-6    9.861403664166168E-1   -1.478639635346484E-1
 1.197404785643071E8     9.855454178078985E-1   -1.589181123896195E-1   -1.013666443462137E-5   -1.338912223699367E-5    1.361604529025595E-5   -2.829175366629400E-6    9.843104707080259E-1   -1.612568426802893E-1
 1.297105184446660E8     9.835573657288439E-1   -1.717488637729798E-1   -8.131965863704047E-7    9.947141192687503E-8    4.792369484669335E-6    1.122843546329458E-5    9.829123662669444E-1   -1.744933495474085E-1
 1.396805583250249E8     9.816025987518771E-1   -1.845477290404941E-1   -5.639191337198761E-6    2.598638654752872E-6   -5.961620108225918E-6    3.255231291820742E-6    9.810941387072138E-1   -1.877029050040122E-1
 1.496505982053838E8     9.784533761773476E-1   -1.968202867674383E-1    1.588270061154642E-5   -5.065853862601690E-6    9.648580296354570E-6   -1.255074207595676E-5    9.785188912005698E-1   -2.004855942659534E-1
 1.596206380857428E8     9.762507072073352E-1   -2.092970207804311E-1   -4.581907000035786E-6   -7.128851590239316E-6   -7.292627254155837E-6    1.766311515612029E-5    9.757115371433875E-1   -2.133789674866721E-1
 1.695906779661017E8     9.736018797260211E-1   -2.222272089299064E-1   -5.274041711538102E-6   -4.870069409752715E-6   -1.416406368470447E-5    1.572298461842303E-5    9.729633924892467E-1   -2.262286372548908E-1
 1.795607178464606E8     9.707999580201786E-1   -2.346056404355503E-1   -1.349521953408715E-5    5.671697260371016E-6    3.426047548556003E-6    1.540460344366034E-5    9.702957245053397E-1   -2.381486557403662E-1
 1.895307577268195E8     9.673680559325634E-1   -2.467410505866233E-1    3.407760486328430E-6   -6.483436266563780E-6    6.838207705303721E-6   -3.078149870175300E-7    9.668576118623941E-1   -2.505878121008221E-1
 1.995007976071784E8     9.639200242492717E-1   -2.592414882110539E-1   -2.622785056632852E-6   -5.355706043756674E-6   -1.432334809177901E-5   -7.220876798246173E-6    9.627518531401211E-1   -2.632311940640850E-1
 2.094708374875374E8     9.608430980570029E-1   -2.722746331045330E-1    1.240242487489386E-5    4.893134679554493E-7    1.214622478354413E-5    1.379211668600419E-5    9.588822098363622E-1   -2.763276285791465E-1
 2.194408773678963E8     9.573557009976913E-1   -2.849273428031589E-1   -6.971313836046453E-6   -2.371936362133583E-6   -2.142249750205894E-5    2.469339744629984E-5    9.552869756146491E-1   -2.892979345125927E-1
 2.294109172482552E8     9.535453325241440E-1   -2.972248550597347E-1   -3.862226122026766E-6   -9.216205509294133E-6    4.133854469043091E-6   -3.141816060268908E-6    9.510209193133995E-1   -3.020029289108167E-1
 2.393809571286142E8     9.506043653967567E-1   -3.092887362612588E-1    2.786486933674287E-6    1.487432763844455E-5   -1.970450285743237E-5   -1.038907087518055E-5    9.469876759103055E-1   -3.141265228197669E-1
 2.493509970089731E8     9.471178225608740E-1   -3.231795210006552E-1   -4.999273497226642E-6   -1.076818992605281E-5    8.069326567244160E-6    8.799421999872914E-6    9.441123145844198E-1   -3.277950211757345E-1
 2.593210368893320E8     9.428184303401574E-1   -3.350662950576473E-1   -1.137769476147607E-6    1.297646456833252E-5   -4.846920995092561E-6   -4.964502573569718E-6    9.398651380911985E-1   -3.409530423350624E-1
 2.692910767696909E8     9.384295168951949E-1   -3.464180943140278E-1    1.010095365952528E-5    6.178989340019358E-6   -3.170640553519965E-6    7.612626227732623E-6    9.356515786052070E-1   -3.529356519121326E-1
 2.792611166500499E8     9.338445002794892E-1   -3.581569362839158E-1   -5.456894339925572E-6    1.190195515528578E-5    2.584357647281579E-6   -1.119380185311956E-6    9.310183874846110E-1   -3.647006899728566E-1
 2.892311565304088E8     9.292627644780057E-1   -3.702360222464723E-1    4.277434380454332E-6    1.064456678540196E-5   -5.648874675035949E-7    4.268271830553269E-6    9.263196517659157E-1   -3.768667097765210E-1
 2.992011964107677E8     9.243703119171250E-1   -3.823665962771058E-1    7.705375378147357E-6    9.441253045912639E-6   -2.231345987434822E-5    4.090149644099100E-7    9.212993811152159E-1   -3.887082982339370E-1
 3.091712362911266E8     9.188832927270902E-1   -3.945245152211976E-1   -4.967267160703004E-6    2.605367952096526E-6   -8.827916698383914E-6   -7.807118435031091E-6    9.157980116589158E-1   -4.002218681159387E-1
 3.191412761714855E8     9.133721857853684E-1   -4.070163084386578E-1   -6.679615188669286E-6   -8.471951909140138E-6   -8.459197411490397E-6    1.187909530574016E-5    9.099735064999226E-1   -4.121002024883221E-1
 3.291113160518445E8     9.076281827632573E-1   -4.196967299985279E-1    8.852960943428348E-6    3.095388485886027E-6    6.548089607561113E-6   -8.795938672355285E-8    9.032965284352560E-1   -4.243866023030233E-1
 3.390813559322034E8     9.020811031845899E-1   -4.325706477959139E-1   -6.604403269573577E-6   -8.619486980882797E-6   -4.980692455656546E-6    5.760995824164667E-6    8.967457298180993E-1   -4.370337559813998E-1
 3.490513958125623E8     8.968591637710388E-1   -4.451088486442109E-1    4.958081439142358E-6    6.548175408536467E-6   -5.750627880489821E-6   -8.242657838986319E-6    8.905330244758761E-1   -4.495786579734696E-1
 3.590214356929212E8     8.914540774088697E-1   -4.576278065053717E-1    6.814675086317452E-6   -5.506059424706885E-7    1.420307089005318E-5    3.672521807005787E-6    8.846929176224813E-1   -4.622871901805601E-1
 3.689914755732802E8     8.859848791860719E-1   -4.697773741686166E-1   -3.242375771286286E-7   -1.374528315995542E-5    3.667695081713648E-6    1.030909075796815E-7    8.790628138424585E-1   -4.747335568471459E-1
 3.789615154536391E8     8.799319342393654E-1   -4.809979111529309E-1   -2.997133126578436E-6    5.282291170102312E-6   -1.071344585358133E-7   -9.418050324701460E-6    8.737957578466227E-1   -4.867996272565733E-1
 3.889315553339980E8     8.742394390734752E-1   -4.917746191587640E-1    2.138494606977718E-5   -1.101424865746737E-5    4.289858051267728E-6   -2.928717807948485E-6    8.680777002595821E-1   -4.988641089597691E-1
 3.989015952143569E8     8.675662911948202E-1   -5.024480881285205E-1   -1.423591874278900E-6   -4.346163045226045E-7    1.501578271507744E-6   -1.679300857406774E-5    8.612356432768538E-1   -5.098235542506201E-1
 4.088716350947158E8     8.603400602777397E-1   -5.132901050734494E-1   -1.908358292262957E-5    1.050244424924442E-5    4.332928761905470E-6   -1.500939363926766E-5    8.543094697375296E-1   -5.206577455864665E-1
 4.188416749750748E8     8.534269328668300E-1   -5.248394289755179E-1    4.610763292185232E-6    1.047981443946210E-5   -1.008830428464495E-5    1.355391071307399E-5    8.477277897534338E-1   -5.315923762608572E-1
 4.288117148554337E8     8.461182421197233E-1   -5.364499834853775E-1   -3.029028871219691E-7   -3.259397251702601E-6   -6.823650403769456E-6   -3.002362719564011E-6    8.407181694084442E-1   -5.418904509773812E-1
 4.387817547357926E8     8.384167679878544E-1   -5.480164971046041E-1    9.330923588077632E-6    1.150467849454223E-6    2.515818153111126E-6   -4.048185821789844E-6    8.327166880544805E-1   -5.524281581000724E-1
 4.487517946161516E8     8.307196560447448E-1   -5.598437152348372E-1    7.546514929485944E-6    1.530477443535480E-6    1.770911741162078E-5   -1.535042788663175E-5    8.242145091789448E-1   -5.634544402039692E-1
 4.587218344965104E8     8.236381551209428E-1   -5.717343039044149E-1   -1.231249976825929E-6   -2.096025605492045E-6   -3.164867359787513E-6    7.508996284292073E-6    8.160880754891621E-1   -5.752385971882312E-1
 4.686918743768694E8     8.171576225380863E-1   -5.831427869698997E-1   -4.467990666832601E-6   -3.512436811477252E-7   -5.154937593484480E-6    1.530796385913412E-5    8.079093519506554E-1   -5.868528541459918E-1
 4.786619142572283E8     8.100739206071512E-1   -5.938649260043026E-1   -1.080332897572980E-6   -1.261984086184423E-5    4.358787254693351E-6    9.151265737959938E-6    7.992775228725165E-1   -5.980825893719169E-1
 4.886319541375872E8     8.025491878735065E-1   -6.043800591641332E-1    1.007190984990470E-5   -3.759067126756459E-6   -1.009227263054265E-5   -2.453421652274156E-6    7.905390759257622E-1   -6.088824768482212E-1
 4.986019940179462E8     7.941189639660677E-1   -6.150548699968502E-1   -2.347643316487946E-6    1.198451458843594E-6   -1.036938203157566E-5   -8.813574386071914E-6    7.823046957422606E-1   -6.197113901038079E-1
 5.085720338983051E8     7.858359300099360E-1   -6.241658414169335E-1   -5.706461660837833E-6   -1.414865325248565E-5   -1.260821007760146E-5   -2.102438512711979E-6    7.747036801569618E-1   -6.304525211918716E-1
 5.185420737786640E8     7.784310377983237E-1   -6.332274347808574E-1    8.148690490144810E-6   -4.335192235051244E-7    2.608793436347541E-5   -4.363527301025865E-6    7.669654635484300E-1   -6.400521356827955E-1
 5.285121136590229E8     7.702497868647238E-1   -6.428593247260915E-1   -3.393359143207849E-6   -9.442870416733695E-6   -1.378555956378808E-5   -6.325074438343266E-6    7.590161247701842E-1   -6.497432643363615E-1
 5.384821535393819E8     7.615966383036464E-1   -6.530208751863820E-1    1.188706465250673E-6    2.894600300605709E-6    6.885013366310606E-6   -4.485951011064492E-6    7.509627396196036E-1   -6.594356691341853E-1
 5.484521934197408E8     7.533762620493732E-1   -6.634771279465477E-1    9.996494715237208E-6    4.704343788251468E-6    1.917601617231718E-5    4.228250741449146E-6    7.425072729822315E-1   -6.692880284525147E-1
 5.584222333000997E8     7.448595520035584E-1   -6.744603692326434E-1    6.763626350427790E-6   -1.762405796207556E-6    3.464016529109465E-6    8.642596757436004E-6    7.333285178802408E-1   -6.793225785650991E-1
 5.683922731804587E8     7.358177932616377E-1   -6.848597563642582E-1    1.435674333548352E-6   -8.935677470919805E-6   -1.396500441171436E-5   -1.944846024783621E-5    7.231436647892656E-1   -6.891108978959184E-1
 5.783623130608176E8     7.265189549384241E-1   -6.949488024145302E-1    7.354810454789550E-6   -2.635562871417816E-8    2.388396156942348E-5    3.977689957264670E-7    7.127596605563452E-1   -6.989425843602129E-1
 5.883323529411764E8     7.173118930064374E-1   -7.049322294200420E-1    3.906967310516179E-6    6.376247732469349E-6   -3.718757158659315E-6    3.113445766930347E-5    7.023823663409258E-1   -7.087208205823133E-1
 5.983023928215353E8     7.080927346504022E-1   -7.148724380607201E-1   -7.966843799245233E-6   -2.338452063144026E-6    2.372487238124168E-5   -2.264248076958428E-5    6.919870039340139E-1   -7.183427655918760E-1
 6.082724327018943E8     6.985734492241051E-1   -7.246256208680955E-1    1.238863891862448E-5    7.057649060677118E-6   -1.396361038202821E-5   -2.860353531779168E-6    6.816508099380715E-1   -7.276131859304326E-1
 6.182424725822532E8     6.888789731590764E-1   -7.343342115168733E-1    5.582773611444240E-6    1.021681405747505E-5   -2.513544701829996E-6   -6.665249952480702E-6    6.717893524598491E-1   -7.370998639307189E-1
 6.282125124626122E8     6.782967418612397E-1   -7.437462862327971E-1    3.654796377019825E-6    1.080485893976320E-7    2.505247338807889E-6    1.972779499988595E-6    6.628343384037845E-1   -7.466886456682121E-1
 6.381825523429711E8     6.686467859364968E-1   -7.508060985248152E-1    5.203224634025965E-6   -5.959886954061909E-6    1.506816549561375E-6   -9.788719707971905E-6    6.539024163376963E-1   -7.555453787275481E-1
 6.481525922233300E8     6.594977171437464E-1   -7.594102311891026E-1   -1.239493527211310E-6    8.268973212646818E-6   -3.072522142931496E-7    2.892010414116797E-6    6.447755945141002E-1   -7.640968020206831E-1
 6.581226321036890E8     6.498740044802139E-1   -7.683449264232084E-1    4.398371651803256E-7   -5.891393250750650E-6    9.023041615022917E-6    1.416528647119136E-5    6.347035985760030E-1   -7.723152290924837E-1
 6.680926719840479E8     6.399618689230824E-1   -7.770892576435207E-1    2.263314576573178E-6    1.450821754074280E-6   -2.066582836629919E-5   -6.334387490047691E-6    6.241147403959585E-1   -7.804755279434794E-1
 6.780627118644068E8     6.301568069794192E-1   -7.851546433370947E-1    2.153376083890087E-5    1.252151308057230E-5   -6.196939648069883E-7   -2.893517958165371E-6    6.130601030952502E-1   -7.883640437690870E-1
 6.880327517447658E8     6.197450563410460E-1   -7.934912082624231E-1   -8.936483110877482E-6   -1.284027397226214E-5    4.451834511873470E-6   -1.559625346461211E-5    6.017003406748674E-1   -7.959876072021135E-1
 6.980027916251246E8     6.088019289359627E-1   -8.016100048570231E-1   -3.832996974245027E-6    5.881328071026388E-6    1.375797123134567E-5   -1.262493864227546E-5    5.901243773554767E-1   -8.036556066777444E-1
 7.079728315054835E8     5.974151427471384E-1   -8.100148155189245E-1    1.568609295391759E-6    6.058091561916800E-6    1.361603156718755E-5   -8.198211973303917E-6    5.786088821785016E-1   -8.116605440212974E-1
 7.179428713858424E8     5.862314376188120E-1   -8.184565242835230E-1    8.250482129081883E-6    5.193576809523671E-6    1.701167165434614E-5   -1.004474099408271E-5    5.673665566071410E-1   -8.201051402385813E-1
 7.279129112662014E8     5.752229984901750E-1   -8.268403871824790E-1   -1.705757397397448E-5   -4.157071484376238E-6    5.866543110991678E-6    1.385288202898806E-5    5.560725676297811E-1   -8.288280017693186E-1
 7.378829511465603E8     5.640478748061504E-1   -8.356822047620936E-1    5.921495340890030E-6    8.896726123991012E-6   -1.357565178661747E-6    5.867196348755992E-6    5.447882244080863E-1   -8.371452704647979E-1
 7.478529910269192E8     5.520688247900326E-1   -8.441537629300921E-1   -4.052650228885975E-6   -2.620164928314084E-6    5.178289469791148E-6   -5.193254871323885E-6    5.335797494884456E-1   -8.447574562109004E-1
 7.578230309072782E8     5.393116429744450E-1   -8.512212823157749E-1   -2.275010996698022E-5   -3.341852461588334E-6    1.276748607108033E-5    4.122126851842589E-6    5.224894074114517E-1   -8.517098042681082E-1
 7.677930707876371E8     5.290013489422687E-1   -8.566564426350498E-1    2.386881032383964E-7   -3.871126582109205E-6    9.018069650894341E-6    2.551952094952848E-6    5.113024555614922E-1   -8.581820973326004E-1
 7.777631106679960E8     5.193856074954699E-1   -8.637284529248006E-1    1.018992178860018E-5   -5.168776550043158E-6    9.324691780990751E-7   -1.676228092108910E-5    4.996802647666059E-1   -8.646820922143789E-1
 7.877331505483550E8     5.090991460875447E-1   -8.707045078617143E-1    6.332627760503637E-7   -8.183791547810031E-6    7.186670409725379E-6   -1.880249079762308E-5    4.878845000155886E-1   -8.713611929915466E-1
 7.977031904287138E8     4.978001504442672E-1   -8.770965084737384E-1   -2.411495639169305E-6    1.175805755683781E-5   -1.328480375239962E-5    6.789818696999166E-7    4.750900239114323E-1   -8.778660778270446E-1
 8.076732303090727E8     4.860558260817203E-1   -8.827633996285587E-1    3.428770291786195E-6   -1.052386664263766E-5    2.647696736267084E-6   -8.474636802003922E-6    4.622906802110718E-1   -8.841230018079568E-1
 8.176432701894317E8     4.741343622767997E-1   -8.887986139998933E-1    1.666896517389062E-6   -4.846123772775308E-6    5.839645464046513E-6   -8.928531231059074E-6    4.494476878571052E-1   -8.903314390997945E-1
 8.276133100697906E8     4.619512593876845E-1   -8.953261624916147E-1    6.074860543416015E-7    3.151202452507969E-6    7.520414987201141E-6    3.351678303357726E-6    4.368143274342178E-1   -8.971126352408890E-1
 8.375833499501495E8     4.493162667497418E-1   -9.017914544125497E-1    1.248956948666964E-5   -4.494670963395709E-6   -2.307789430718446E-6    3.014597767565262E-6    4.247176552689817E-1   -9.037883966059771E-1
 8.475533898305085E8     4.364961111764494E-1   -9.082232508435755E-1   -1.013420797433154E-5    2.023749596057216E-6    9.558217717470684E-6    1.084609412223900E-5    4.128265656853468E-1   -9.099048373018265E-1
 8.575234297108674E8     4.236448121739410E-1   -9.144345541189358E-1   -4.506219601072964E-7    4.429432402570584E-6   -2.629975943299721E-7    1.047626542401449E-5    4.010058178502265E-1   -9.150706321165947E-1
 8.674934695912263E8     4.107588137651772E-1   -9.211123801186077E-1    8.702678343195709E-6    7.398059338953880E-6    1.946868579048235E-6    8.957874653031989E-6    3.889799006216589E-1   -9.198815219314439E-1
 8.774635094715853E8     3.977610233817597E-1   -9.278145339917361E-1   -5.805608324648442E-6    4.518977016946314E-6   -1.196757923796885E-5   -1.826659512484685E-5    3.764232793383057E-1   -9.246563218563926E-1
 8.874335493519442E8     3.846846684498800E-1   -9.325286701882001E-1    4.228441141507069E-7   -8.119175058946493E-6    1.525529452123592E-5    3.052639057186002E-6    3.633006902336902E-1   -9.290222496908954E-1
 8.974035892323031E8     3.733915479750044E-1   -9.360383691480005E-1   -1.074953039258426E-7    9.722938649337199E-6    9.957601289620443E-6   -3.867895285605245E-6    3.495947888606257E-1   -9.333693619143777E-1
