[Version] 2.0
! Rohde & Schwarz Vector Network Analyzer
! Rohde-Schwarz,ZNL20-2Port,1323001220200009,1.71.1.10-23.02.1.238
! 
! Port Assignments:
! Nominal Port -> Actual Test Port
! --------------------------------
!   1 -> 1

! Created: GMT 2024-09-05 14:38:42

# Hz S DB R 50

[Number of Ports] 1
[Number of Frequencies] 10001

[Network Data] 
! freq[Hz]               S11[mag dB]              S11[ang]                 
1.090000000000000e+10    -1.879085098133535e+01   -1.519568086000044e+02   
1.090002000000000e+10    -1.877606265290697e+01   -1.518291579519314e+02   
1.090004000000000e+10    -1.876612818388639e+01   -1.519629947227140e+02   
1.090006000000000e+10    -1.879885507574475e+01   -1.518700348507184e+02   
1.090008000000000e+10    -1.878908784827897e+01   -1.519344689097487e+02   
1.090010000000000e+10    -1.878216243749703e+01   -1.517725018426040e+02   
1.090012000000000e+10    -1.878952699033729e+01   -1.520366697808549e+02   
1.090014000000000e+10    -1.879036639390978e+01   -1.518872024779587e+02   
1.090016000000000e+10    -1.878553825873160e+01   -1.519060161883119e+02   
1.090018000000000e+10    -1.878586467608074e+01   -1.519069875103054e+02   
1.090020000000000e+10    -1.883600499828712e+01   -1.518867173692366e+02   
1.090022000000000e+10    -1.878295855749800e+01   -1.519799184192570e+02   
1.090024000000000e+10    -1.879776446068965e+01   -1.518742917305017e+02   
1.090026000000000e+10    -1.876311344170994e+01   -1.520460094565577e+02   
1.090028000000000e+10    -1.880573046237801e+01   -1.517855720029302e+02   
1.090030000000000e+10    -1.880643895301945e+01   -1.519073029980567e+02   
1.090032000000000e+10    -1.877942222412132e+01   -1.518450187237600e+02   
1.090034000000000e+10    -1.879506779366803e+01   -1.519579218841612e+02   
1.090036000000000e+10    -1.878673777495982e+01   -1.519807294042302e+02   
1.090038000000000e+10    -1.880944536026158e+01   -1.520068728434828e+02   
1.090040000000000e+10    -1.880802477083329e+01   -1.518856204078624e+02   
1.090042000000000e+10    -1.879515665230158e+01   -1.519326673546402e+02   
1.090044000000000e+10    -1.879880847220386e+01   -1.520045168362857e+02   
1.090046000000000e+10    -1.878226973334674e+01   -1.519879347325030e+02   
1.090048000000000e+10    -1.876672651492057e+01   -1.518848504084221e+02   
1.090050000000000e+10    -1.877775611091854e+01   -1.519181641298222e+02   
1.090052000000000e+10    -1.874463786684766e+01   -1.518173806024314e+02   
1.090054000000000e+10    -1.879514821311516e+01   -1.518983116109013e+02   
1.090056000000000e+10    -1.883785760875116e+01   -1.520116773380537e+02   
1.090058000000000e+10    -1.877736293854930e+01   -1.519839977047507e+02   
1.090060000000000e+10    -1.879506387318179e+01   -1.519440859348927e+02   
1.090062000000000e+10    -1.879526042298774e+01   -1.522265382564055e+02   
1.090064000000000e+10    -1.879205480536224e+01   -1.521042201175968e+02   
1.090066000000000e+10    -1.878157575511425e+01   -1.519995902432822e+02   
1.090068000000000e+10    -1.877667249239443e+01   -1.519523095426580e+02   
1.090070000000000e+10    -1.881375907408405e+01   -1.520117979408098e+02   
1.090072000000000e+10    -1.878338082910106e+01   -1.519978504658548e+02   
1.090074000000000e+10    -1.880488949678722e+01   -1.518997156223903e+02   
1.090076000000000e+10    -1.878503738881228e+01   -1.518630116168328e+02   
1.090078000000000e+10    -1.882507542570969e+01   -1.519131483965666e+02   
1.090080000000000e+10    -1.878719050880374e+01   -1.520576069360379e+02   
1.090082000000000e+10    -1.877816167757600e+01   -1.519567430573756e+02   
1.090084000000000e+10    -1.882341669123169e+01   -1.519226892432755e+02   
1.090086000000000e+10    -1.877423444171779e+01   -1.521439966501924e+02   
1.090088000000000e+10    -1.878566321605744e+01   -1.520320023239948e+02   
1.090090000000000e+10    -1.880571543267792e+01   -1.519161488018659e+02   
1.090092000000000e+10    -1.880170656261410e+01   -1.520811074984532e+02   
1.090094000000000e+10    -1.877806627463960e+01   -1.519768515875740e+02   
1.090096000000000e+10    -1.879512022737831e+01   -1.519874218589130e+02   
1.090098000000000e+10    -1.880412124212178e+01   -1.519147407784795e+02   
1.090100000000000e+10    -1.878227079159311e+01   -1.519368756282205e+02   
1.090102000000000e+10    -1.876924706479455e+01   -1.520030876404575e+02   
1.090104000000000e+10    -1.879930817315960e+01   -1.519374977737385e+02   
1.090106000000000e+10    -1.877875312978746e+01   -1.518340347999395e+02   
1.090108000000000e+10    -1.877876018874683e+01   -1.520541148622268e+02   
1.090110000000000e+10    -1.878480172517171e+01   -1.519709325314816e+02   
1.090112000000000e+10    -1.878770824613674e+01   -1.518410577677440e+02   
1.090114000000000e+10    -1.877895967121457e+01   -1.518802787504849e+02   
1.090116000000000e+10    -1.878557322967795e+01   -1.519014590319611e+02   
1.090118000000000e+10    -1.878268833633419e+01   -1.520013436651411e+02   
1.090120000000000e+10    -1.877908478305858e+01   -1.521015208039883e+02   
1.090122000000000e+10    -1.879836019588403e+01   -1.521045045454942e+02   
1.090124000000000e+10    -1.880981557037969e+01   -1.518011492071820e+02   
1.090126000000000e+10    -1.881011092564261e+01   -1.518511558156630e+02   
1.090128000000000e+10    -1.879527974048059e+01   -1.519820971644290e+02   
1.090130000000000e+10    -1.881758433076070e+01   -1.519645663190062e+02   
1.090132000000000e+10    -1.879798920332744e+01   -1.519569229846804e+02   
1.090134000000000e+10    -1.880727669039819e+01   -1.519803775091363e+02   
1.090136000000000e+10    -1.880940145064721e+01   -1.519734761702196e+02   
1.090138000000000e+10    -1.879503122438386e+01   -1.517754061208739e+02   
1.090140000000000e+10    -1.881319285434916e+01   -1.519499645242248e+02   
1.090142000000000e+10    -1.879431702400858e+01   -1.519915736076109e+02   
1.090144000000000e+10    -1.878780848683394e+01   -1.518985343797138e+02   
1.090146000000000e+10    -1.879601617844119e+01   -1.521951298229299e+02   
1.090148000000000e+10    -1.877531854092553e+01   -1.519712174792537e+02   
1.090150000000000e+10    -1.878815596591841e+01   -1.521198329497398e+02   
1.090152000000000e+10    -1.880529619558928e+01   -1.520095867374571e+02   
1.090154000000000e+10    -1.882056757853136e+01   -1.520605578235368e+02   
1.090156000000000e+10    -1.879455062590937e+01   -1.520114777696025e+02   
1.090158000000000e+10    -1.878851023376146e+01   -1.519218932278386e+02   
1.090160000000000e+10    -1.878154784184613e+01   -1.519867475357923e+02   
1.090162000000000e+10    -1.880893410715316e+01   -1.519009201983146e+02   
1.090164000000000e+10    -1.878657897066699e+01   -1.518781554975173e+02   
1.090166000000000e+10    -1.878242932966270e+01   -1.519963012795721e+02   
1.090168000000000e+10    -1.880002705314038e+01   -1.519003786936018e+02   
1.090170000000000e+10    -1.877969210788841e+01   -1.519734608882695e+02   
1.090172000000000e+10    -1.878751758380936e+01   -1.520009494410060e+02   
1.090174000000000e+10    -1.877833251604978e+01   -1.520844457725781e+02   
1.090176000000000e+10    -1.879696350911772e+01   -1.521164375311133e+02   
1.090178000000000e+10    -1.879291726849911e+01   -1.520795898559952e+02   
1.090180000000000e+10    -1.880604271015299e+01   -1.520085704663922e+02   
1.090182000000000e+10    -1.880327093860499e+01   -1.520160961584883e+02   
1.090184000000000e+10    -1.879487866172350e+01   -1.519326541580908e+02   
1.090186000000000e+10    -1.878688181630114e+01   -1.517346443248104e+02   
1.090188000000000e+10    -1.878136713976300e+01   -1.520289959568142e+02   
1.090190000000000e+10    -1.880352237375809e+01   -1.520779093840054e+02   
1.090192000000000e+10    -1.879207448071424e+01   -1.518935197445224e+02   
1.090194000000000e+10    -1.879358453271738e+01   -1.520083565089787e+02   
1.090196000000000e+10    -1.882505980557434e+01   -1.520791907725400e+02   
1.090198000000000e+10    -1.878302142553229e+01   -1.521116524522323e+02   
1.090200000000000e+10    -1.883845162421262e+01   -1.519819238050076e+02   
1.090202000000000e+10    -1.878621613382867e+01   -1.519736310021591e+02   
1.090204000000000e+10    -1.880635606752276e+01   -1.521188739571706e+02   
1.090206000000000e+10    -1.877869944353064e+01   -1.520015824159486e+02   
1.090208000000000e+10    -1.880653835739466e+01   -1.519598841120533e+02   
1.090210000000000e+10    -1.881136094452668e+01   -1.519694486156760e+02   
1.090212000000000e+10    -1.881906672207081e+01   -1.519672596583999e+02   
1.090214000000000e+10    -1.878797158776113e+01   -1.519910189370951e+02   
1.090216000000000e+10    -1.879011162143415e+01   -1.519943163886723e+02   
1.090218000000000e+10    -1.879153408772799e+01   -1.520584205345083e+02   
1.090220000000000e+10    -1.882097388656073e+01   -1.520968533737365e+02   
1.090222000000000e+10    -1.880491930513514e+01   -1.519639928500657e+02   
1.090224000000000e+10    -1.879857447200309e+01   -1.520594879321190e+02   
1.090226000000000e+10    -1.879477858045336e+01   -1.519414026122084e+02   
1.090228000000000e+10    -1.877271536398500e+01   -1.521710062352410e+02   
1.090230000000000e+10    -1.878816216244337e+01   -1.520851351783188e+02   
1.090232000000000e+10    -1.879813502261212e+01   -1.520281457665200e+02   
1.090234000000000e+10    -1.878965259804201e+01   -1.519384921969103e+02   
1.090236000000000e+10    -1.881544005002415e+01   -1.520274402073003e+02   
1.090238000000000e+10    -1.880514885612110e+01   -1.519010668088999e+02   
1.090240000000000e+10    -1.877775427339416e+01   -1.521162341802981e+02   
1.090242000000000e+10    -1.880521637338708e+01   -1.522010256830513e+02   
1.090244000000000e+10    -1.881229701481293e+01   -1.519630420197983e+02   
1.090246000000000e+10    -1.879295910768793e+01   -1.522119691805529e+02   
1.090248000000000e+10    -1.878669696508938e+01   -1.521440174414260e+02   
1.090250000000000e+10    -1.879539596893992e+01   -1.519346360022236e+02   
1.090252000000000e+10    -1.878874166040810e+01   -1.517470229416151e+02   
1.090254000000000e+10    -1.880352983728973e+01   -1.519990835164350e+02   
1.090256000000000e+10    -1.879623989824847e+01   -1.520577738981314e+02   
1.090258000000000e+10    -1.879439620662585e+01   -1.521290435118030e+02   
1.090260000000000e+10    -1.880259809489865e+01   -1.519786757155012e+02   
1.090262000000000e+10    -1.876558077062061e+01   -1.519635228205919e+02   
1.090264000000000e+10    -1.880167605886789e+01   -1.518163780820979e+02   
1.090266000000000e+10    -1.880127922039163e+01   -1.521061080105219e+02   
1.090268000000000e+10    -1.880755367999736e+01   -1.520530983229355e+02   
1.090270000000000e+10    -1.879440737844202e+01   -1.518885674717758e+02   
1.090272000000000e+10    -1.878160859012958e+01   -1.521181476568246e+02   
1.090274000000000e+10    -1.879332571899396e+01   -1.519840445882147e+02   
1.090276000000000e+10    -1.879513868343171e+01   -1.520804025670878e+02   
1.090278000000000e+10    -1.880304632979468e+01   -1.520164248832914e+02   
1.090280000000000e+10    -1.878542582018838e+01   -1.521128731260724e+02   
1.090282000000000e+10    -1.880698170703520e+01   -1.519607257693249e+02   
1.090284000000000e+10    -1.880456958151224e+01   -1.520396823512465e+02   
1.090286000000000e+10    -1.880212212736949e+01   -1.519330359708961e+02   
1.090288000000000e+10    -1.877166945775817e+01   -1.519408116945530e+02   
1.090290000000000e+10    -1.880427407945383e+01   -1.519746142288879e+02   
1.090292000000000e+10    -1.878838679352930e+01   -1.520103584668871e+02   
1.090294000000000e+10    -1.879429613036059e+01   -1.520655481790490e+02   
1.090296000000000e+10    -1.879871394991596e+01   -1.519707545069763e+02   
1.090298000000000e+10    -1.880337232161471e+01   -1.520798704105460e+02   
1.090300000000000e+10    -1.881904950777135e+01   -1.520117256485377e+02   
1.090302000000000e+10    -1.878230502898339e+01   -1.520829504569195e+02   
1.090304000000000e+10    -1.880137244391110e+01   -1.519900084574983e+02   
1.090306000000000e+10    -1.880365658581728e+01   -1.522077883669002e+02   
1.090308000000000e+10    -1.879987618260436e+01   -1.521034824063323e+02   
1.090310000000000e+10    -1.881340519501238e+01   -1.520541124020370e+02   
1.090312000000000e+10    -1.879126824178531e+01   -1.521109353356875e+02   
1.090314000000000e+10    -1.879539309851598e+01   -1.521207570478518e+02   
1.090316000000000e+10    -1.879410448082654e+01   -1.520157777552633e+02   
1.090318000000000e+10    -1.880550832609693e+01   -1.521077972406354e+02   
1.090320000000000e+10    -1.879401259194474e+01   -1.520705624143813e+02   
1.090322000000000e+10    -1.876609354395138e+01   -1.520242062705489e+02   
1.090324000000000e+10    -1.879768469879662e+01   -1.520834931869975e+02   
1.090326000000000e+10    -1.879592726693219e+01   -1.520181351763842e+02   
1.090328000000000e+10    -1.879054607837496e+01   -1.519613486459746e+02   
1.090330000000000e+10    -1.879623034237533e+01   -1.517816226397767e+02   
1.090332000000000e+10    -1.878905732755434e+01   -1.521412113531871e+02   
1.090334000000000e+10    -1.878090786590916e+01   -1.518712483568260e+02   
1.090336000000000e+10    -1.878437469908374e+01   -1.520657962562737e+02   
1.090338000000000e+10    -1.881618003024280e+01   -1.521089864875172e+02   
1.090340000000000e+10    -1.877099278928119e+01   -1.519941387125576e+02   
1.090342000000000e+10    -1.879193978891310e+01   -1.521024256712803e+02   
1.090344000000000e+10    -1.881302198101701e+01   -1.521226590135350e+02   
1.090346000000000e+10    -1.880543973160172e+01   -1.519985623105580e+02   
1.090348000000000e+10    -1.881135649030034e+01   -1.521961193123032e+02   
1.090350000000000e+10    -1.882319816020745e+01   -1.521132380982408e+02   
1.090352000000000e+10    -1.881603949179939e+01   -1.519342190077980e+02   
1.090354000000000e+10    -1.882496756103676e+01   -1.520373712951327e+02   
1.090356000000000e+10    -1.879437293354451e+01   -1.520052216645503e+02   
1.090358000000000e+10    -1.879256552978630e+01   -1.520030446203008e+02   
1.090360000000000e+10    -1.879758910431785e+01   -1.520242511984161e+02   
1.090362000000000e+10    -1.880476059919322e+01   -1.519244785879805e+02   
1.090364000000000e+10    -1.879803082749870e+01   -1.520378998674127e+02   
1.090366000000000e+10    -1.879265453731992e+01   -1.520919190305780e+02   
1.090368000000000e+10    -1.881177124847151e+01   -1.520250376857347e+02   
1.090370000000000e+10    -1.881301705466718e+01   -1.520203131163478e+02   
1.090372000000000e+10    -1.881685547333180e+01   -1.521846368201053e+02   
1.090374000000000e+10    -1.879943295322798e+01   -1.522144555672878e+02   
1.090376000000000e+10    -1.879823113556170e+01   -1.520895159588259e+02   
1.090378000000000e+10    -1.877164989602233e+01   -1.520226473388848e+02   
1.090380000000000e+10    -1.880070154343299e+01   -1.521037059251535e+02   
1.090382000000000e+10    -1.878116593809091e+01   -1.519799983975176e+02   
1.090384000000000e+10    -1.878489185950369e+01   -1.520189594635069e+02   
1.090386000000000e+10    -1.880276611929181e+01   -1.520638781280968e+02   
1.090388000000000e+10    -1.878475203123449e+01   -1.520205297517375e+02   
1.090390000000000e+10    -1.880729367770298e+01   -1.520070336445928e+02   
1.090392000000000e+10    -1.879955786559004e+01   -1.519470371252919e+02   
1.090394000000000e+10    -1.879674575998103e+01   -1.519844940938605e+02   
1.090396000000000e+10    -1.880691116150413e+01   -1.522120124570436e+02   
1.090398000000000e+10    -1.880138823619684e+01   -1.520166411120729e+02   
1.090400000000000e+10    -1.877587158483201e+01   -1.521537193470802e+02   
1.090402000000000e+10    -1.881579297189446e+01   -1.519889129735399e+02   
1.090404000000000e+10    -1.880400746692271e+01   -1.521386899767173e+02   
1.090406000000000e+10    -1.882150358594341e+01   -1.519698960675974e+02   
1.090408000000000e+10    -1.876659484832916e+01   -1.519210991017632e+02   
1.090410000000000e+10    -1.882242528994440e+01   -1.520747494461803e+02   
1.090412000000000e+10    -1.877911878934268e+01   -1.521093092776301e+02   
1.090414000000000e+10    -1.882354820389224e+01   -1.519098363321628e+02   
1.090416000000000e+10    -1.879017697750154e+01   -1.520886204252120e+02   
1.090418000000000e+10    -1.878741242935294e+01   -1.520041317668067e+02   
1.090420000000000e+10    -1.880571983479644e+01   -1.519614010205046e+02   
1.090422000000000e+10    -1.878062746174547e+01   -1.521822195812875e+02   
1.090424000000000e+10    -1.881416451410615e+01   -1.520850312460809e+02   
1.090426000000000e+10    -1.880921002720041e+01   -1.520426927201498e+02   
1.090428000000000e+10    -1.879335778587731e+01   -1.519430643085674e+02   
1.090430000000000e+10    -1.881718113939010e+01   -1.520250491930991e+02   
1.090432000000000e+10    -1.876399819391041e+01   -1.520052506040227e+02   
1.090434000000000e+10    -1.879812772435238e+01   -1.520164057908655e+02   
1.090436000000000e+10    -1.881509290810514e+01   -1.520635736257098e+02   
1.090438000000000e+10    -1.881243390381200e+01   -1.520068656895263e+02   
1.090440000000000e+10    -1.881040002430733e+01   -1.520997935729316e+02   
1.090442000000000e+10    -1.880514883385370e+01   -1.520618273294366e+02   
1.090444000000000e+10    -1.878681430668645e+01   -1.520588828366322e+02   
1.090446000000000e+10    -1.878521130631905e+01   -1.520011023757619e+02   
1.090448000000000e+10    -1.882285540274871e+01   -1.521886355367328e+02   
1.090450000000000e+10    -1.881091993520976e+01   -1.522222699513857e+02   
1.090452000000000e+10    -1.880101348600069e+01   -1.521362647933102e+02   
1.090454000000000e+10    -1.877908551865890e+01   -1.520773888804075e+02   
1.090456000000000e+10    -1.881491731768961e+01   -1.520725442885021e+02   
1.090458000000000e+10    -1.879522205616412e+01   -1.520093007099507e+02   
1.090460000000000e+10    -1.879965653108370e+01   -1.520240221012746e+02   
1.090462000000000e+10    -1.881817919266247e+01   -1.520921851665903e+02   
1.090464000000000e+10    -1.879820977185208e+01   -1.522144592548922e+02   
1.090466000000000e+10    -1.878957157836847e+01   -1.520477484104564e+02   
1.090468000000000e+10    -1.879958959957404e+01   -1.522654790926191e+02   
1.090470000000000e+10    -1.880844278270508e+01   -1.518986586632483e+02   
1.090472000000000e+10    -1.879669804571522e+01   -1.520387600099216e+02   
1.090474000000000e+10    -1.884362245357253e+01   -1.521451527196418e+02   
1.090476000000000e+10    -1.881206577488389e+01   -1.519939488954492e+02   
1.090478000000000e+10    -1.878386432320710e+01   -1.520969006725924e+02   
1.090480000000000e+10    -1.878860171715252e+01   -1.519770377275799e+02   
1.090482000000000e+10    -1.879657467569003e+01   -1.518920404849736e+02   
1.090484000000000e+10    -1.879492488019274e+01   -1.521873484775269e+02   
1.090486000000000e+10    -1.878052926417404e+01   -1.521103331705789e+02   
1.090488000000000e+10    -1.879408110234414e+01   -1.521276086304736e+02   
1.090490000000000e+10    -1.878918673923146e+01   -1.521418125115340e+02   
1.090492000000000e+10    -1.876412308399309e+01   -1.519939848884014e+02   
1.090494000000000e+10    -1.879180891699667e+01   -1.521111251394744e+02   
1.090496000000000e+10    -1.880722995182770e+01   -1.521899528692524e+02   
1.090498000000000e+10    -1.879074074814489e+01   -1.522154010695225e+02   
1.090500000000000e+10    -1.879937233385803e+01   -1.521261549224859e+02   
1.090502000000000e+10    -1.877112726596854e+01   -1.522297411488313e+02   
1.090504000000000e+10    -1.881537464652405e+01   -1.522792204504636e+02   
1.090506000000000e+10    -1.882090916407039e+01   -1.523616465442683e+02   
1.090508000000000e+10    -1.881693430820581e+01   -1.520988403290925e+02   
1.090510000000000e+10    -1.880400471527708e+01   -1.521396168132219e+02   
1.090512000000000e+10    -1.881021463829209e+01   -1.521340488275994e+02   
