[Version] 2.0
! Rohde & Schwarz Vector Network Analyzer
! Rohde-Schwarz,ZNL20-2Port,1323001220200009,1.71.1.10-23.02.1.238
! 
! Port Assignments:
! Nominal Port -> Actual Test Port
! --------------------------------
!   1 -> 1

! Created: GMT 2024-09-05 14:41:02

# Hz S DB R 50

[Number of Ports] 1
[Number of Frequencies] 10001

[Network Data] 
! freq[Hz]               S11[mag dB]              S11[ang]                 
1.090000000000000e+10    -1.373175761441766e+01   -1.262032852268250e+02   
1.090002000000000e+10    -1.372273767827100e+01   -1.260940951786089e+02   
1.090004000000000e+10    -1.371942102002226e+01   -1.261999024992928e+02   
1.090006000000000e+10    -1.372294247600191e+01   -1.261598099544902e+02   
1.090008000000000e+10    -1.372308473871624e+01   -1.261690607250482e+02   
1.090010000000000e+10    -1.370933217518346e+01   -1.261253280188082e+02   
1.090012000000000e+10    -1.372855237512312e+01   -1.262423658768840e+02   
1.090014000000000e+10    -1.372659799285354e+01   -1.261602847390862e+02   
1.090016000000000e+10    -1.372057014330366e+01   -1.262391731444164e+02   
1.090018000000000e+10    -1.371842050029865e+01   -1.261712502123356e+02   
1.090020000000000e+10    -1.372677554200740e+01   -1.261859114218232e+02   
1.090022000000000e+10    -1.372804993952881e+01   -1.261851143156872e+02   
1.090024000000000e+10    -1.373417602784054e+01   -1.261697810728561e+02   
1.090026000000000e+10    -1.371478316014126e+01   -1.263193915938696e+02   
1.090028000000000e+10    -1.373069115788254e+01   -1.261921552713958e+02   
1.090030000000000e+10    -1.373170560152467e+01   -1.262209215601770e+02   
1.090032000000000e+10    -1.371803993710699e+01   -1.262437021945684e+02   
1.090034000000000e+10    -1.373256323196934e+01   -1.261084724256433e+02   
1.090036000000000e+10    -1.372404019202966e+01   -1.262559470015324e+02   
1.090038000000000e+10    -1.370617259240613e+01   -1.263155091679227e+02   
1.090040000000000e+10    -1.373085691138358e+01   -1.262078820669472e+02   
1.090042000000000e+10    -1.372978699812350e+01   -1.263439064528718e+02   
1.090044000000000e+10    -1.372564713266646e+01   -1.262159345666283e+02   
1.090046000000000e+10    -1.372190427564300e+01   -1.261845347026140e+02   
1.090048000000000e+10    -1.371009591429232e+01   -1.262871931582559e+02   
1.090050000000000e+10    -1.372279173984212e+01   -1.262269973663671e+02   
1.090052000000000e+10    -1.370255243718031e+01   -1.262940551869317e+02   
1.090054000000000e+10    -1.372020662318132e+01   -1.262588566862901e+02   
1.090056000000000e+10    -1.373105780458312e+01   -1.262113907787098e+02   
1.090058000000000e+10    -1.370551194580666e+01   -1.263297339591535e+02   
1.090060000000000e+10    -1.372216166090321e+01   -1.263011982634270e+02   
1.090062000000000e+10    -1.371303010769497e+01   -1.263511088915511e+02   
1.090064000000000e+10    -1.371633329077969e+01   -1.263086743211628e+02   
1.090066000000000e+10    -1.371963085501440e+01   -1.263267569226380e+02   
1.090068000000000e+10    -1.370732407663669e+01   -1.263765636102423e+02   
1.090070000000000e+10    -1.372599115854747e+01   -1.262740245901710e+02   
1.090072000000000e+10    -1.371495970125532e+01   -1.263334145233137e+02   
1.090074000000000e+10    -1.372614009961680e+01   -1.262077850970951e+02   
1.090076000000000e+10    -1.371114007317507e+01   -1.263086116869232e+02   
1.090078000000000e+10    -1.372521513550676e+01   -1.263065613125971e+02   
1.090080000000000e+10    -1.370964495271871e+01   -1.263572180539030e+02   
1.090082000000000e+10    -1.372040967562111e+01   -1.263265461460427e+02   
1.090084000000000e+10    -1.372229185959247e+01   -1.263421182202321e+02   
1.090086000000000e+10    -1.372312559802057e+01   -1.263998420955921e+02   
1.090088000000000e+10    -1.373039218985732e+01   -1.262978789220639e+02   
1.090090000000000e+10    -1.371449186423310e+01   -1.262726572364297e+02   
1.090092000000000e+10    -1.372526474234807e+01   -1.263150515890928e+02   
1.090094000000000e+10    -1.371047711540561e+01   -1.263307452015221e+02   
1.090096000000000e+10    -1.370793112810692e+01   -1.263310190669327e+02   
1.090098000000000e+10    -1.372813507018455e+01   -1.263033531724072e+02   
1.090100000000000e+10    -1.371018238146628e+01   -1.262881877002370e+02   
1.090102000000000e+10    -1.371175998375743e+01   -1.264308522342884e+02   
1.090104000000000e+10    -1.370865333790079e+01   -1.262827933956686e+02   
1.090106000000000e+10    -1.371760353314732e+01   -1.262941303655761e+02   
1.090108000000000e+10    -1.371629580338828e+01   -1.264160284367581e+02   
1.090110000000000e+10    -1.370628428689563e+01   -1.263590663186080e+02   
1.090112000000000e+10    -1.371196840666933e+01   -1.263323891976461e+02   
1.090114000000000e+10    -1.370849447384780e+01   -1.263232516147592e+02   
1.090116000000000e+10    -1.372267515542469e+01   -1.262624676421262e+02   
1.090118000000000e+10    -1.371403212328813e+01   -1.263896359275133e+02   
1.090120000000000e+10    -1.371043980974715e+01   -1.263939032484363e+02   
1.090122000000000e+10    -1.370826766762712e+01   -1.265244441325490e+02   
1.090124000000000e+10    -1.372171102968136e+01   -1.263236102953434e+02   
1.090126000000000e+10    -1.373034745668243e+01   -1.262928072838283e+02   
1.090128000000000e+10    -1.370687233250787e+01   -1.263384197497756e+02   
1.090130000000000e+10    -1.372123354749873e+01   -1.263821416927475e+02   
1.090132000000000e+10    -1.370930618801525e+01   -1.264041293596707e+02   
1.090134000000000e+10    -1.372050146531720e+01   -1.264319685268319e+02   
1.090136000000000e+10    -1.370594450798149e+01   -1.263910592772178e+02   
1.090138000000000e+10    -1.370450245307255e+01   -1.263056295539435e+02   
1.090140000000000e+10    -1.370818583484881e+01   -1.263863293659912e+02   
1.090142000000000e+10    -1.370906128275845e+01   -1.263956230969997e+02   
1.090144000000000e+10    -1.370682227030406e+01   -1.264138649187531e+02   
1.090146000000000e+10    -1.372257619203058e+01   -1.265455260821089e+02   
1.090148000000000e+10    -1.369654898575256e+01   -1.264607213992666e+02   
1.090150000000000e+10    -1.371322475511148e+01   -1.265002192587116e+02   
1.090152000000000e+10    -1.372309341962730e+01   -1.265035533930874e+02   
1.090154000000000e+10    -1.372087768616024e+01   -1.265575073441475e+02   
1.090156000000000e+10    -1.370978352284001e+01   -1.264215503113810e+02   
1.090158000000000e+10    -1.370830255006636e+01   -1.265426909556833e+02   
1.090160000000000e+10    -1.371682273583656e+01   -1.264593980139250e+02   
1.090162000000000e+10    -1.371111746510717e+01   -1.263918661894963e+02   
1.090164000000000e+10    -1.370162870471201e+01   -1.264316522525102e+02   
1.090166000000000e+10    -1.370924566107982e+01   -1.265528854166143e+02   
1.090168000000000e+10    -1.371105594976407e+01   -1.264166487165745e+02   
1.090170000000000e+10    -1.371693660498975e+01   -1.264735499363476e+02   
1.090172000000000e+10    -1.371284557497250e+01   -1.264613703720779e+02   
1.090174000000000e+10    -1.370089819070690e+01   -1.265822175825142e+02   
1.090176000000000e+10    -1.371339623179766e+01   -1.265344129644216e+02   
1.090178000000000e+10    -1.370840508730632e+01   -1.265401310067016e+02   
1.090180000000000e+10    -1.371015609830037e+01   -1.264973289196395e+02   
1.090182000000000e+10    -1.370897954219448e+01   -1.265768876227697e+02   
1.090184000000000e+10    -1.371230578145964e+01   -1.265585594929278e+02   
1.090186000000000e+10    -1.368592784035324e+01   -1.264494404494157e+02   
1.090188000000000e+10    -1.370080511341356e+01   -1.265908397673627e+02   
1.090190000000000e+10    -1.370779472725068e+01   -1.265933079919570e+02   
1.090192000000000e+10    -1.370769715367283e+01   -1.264939131838560e+02   
1.090194000000000e+10    -1.370379517956261e+01   -1.265364310788943e+02   
1.090196000000000e+10    -1.371615862966005e+01   -1.265821903570503e+02   
1.090198000000000e+10    -1.370222004517264e+01   -1.265757287994114e+02   
1.090200000000000e+10    -1.371870473832718e+01   -1.264861875871514e+02   
1.090202000000000e+10    -1.369627515918784e+01   -1.265217224743274e+02   
1.090204000000000e+10    -1.369460500204612e+01   -1.265572626710782e+02   
1.090206000000000e+10    -1.369711328485933e+01   -1.266164210734510e+02   
1.090208000000000e+10    -1.371929863917690e+01   -1.265269339263528e+02   
1.090210000000000e+10    -1.371012082016283e+01   -1.264975273285859e+02   
1.090212000000000e+10    -1.370356375381817e+01   -1.265190824492949e+02   
1.090214000000000e+10    -1.370516966903423e+01   -1.265404209447090e+02   
1.090216000000000e+10    -1.370879753291175e+01   -1.265427758048711e+02   
1.090218000000000e+10    -1.369521522586460e+01   -1.266451056853788e+02   
1.090220000000000e+10    -1.371079519842825e+01   -1.266201627603433e+02   
1.090222000000000e+10    -1.369354387669164e+01   -1.265101569509625e+02   
1.090224000000000e+10    -1.371041888097923e+01   -1.266323465040891e+02   
1.090226000000000e+10    -1.368908665513377e+01   -1.265208691360574e+02   
1.090228000000000e+10    -1.368906921525074e+01   -1.266282340566972e+02   
1.090230000000000e+10    -1.370667060470785e+01   -1.265548591826616e+02   
1.090232000000000e+10    -1.369974320239333e+01   -1.266191982524120e+02   
1.090234000000000e+10    -1.370931835896383e+01   -1.265533486647095e+02   
1.090236000000000e+10    -1.370970559449093e+01   -1.266411480049615e+02   
1.090238000000000e+10    -1.370532523426336e+01   -1.266159021673187e+02   
1.090240000000000e+10    -1.369919867695027e+01   -1.265951141827800e+02   
1.090242000000000e+10    -1.369089034576138e+01   -1.267556651214878e+02   
1.090244000000000e+10    -1.369759927353801e+01   -1.266471365931416e+02   
1.090246000000000e+10    -1.370678576243860e+01   -1.267505823484867e+02   
1.090248000000000e+10    -1.370368727221095e+01   -1.266712923078436e+02   
1.090250000000000e+10    -1.370571774181765e+01   -1.265911487853882e+02   
1.090252000000000e+10    -1.367986109355731e+01   -1.265526835301663e+02   
1.090254000000000e+10    -1.370038778846065e+01   -1.266581913114910e+02   
1.090256000000000e+10    -1.372025965435622e+01   -1.266709067332623e+02   
1.090258000000000e+10    -1.369642796651376e+01   -1.267442953366608e+02   
1.090260000000000e+10    -1.370104833732811e+01   -1.265954374605397e+02   
1.090262000000000e+10    -1.368809477631795e+01   -1.266543055079803e+02   
1.090264000000000e+10    -1.370822139508426e+01   -1.266209016877925e+02   
1.090266000000000e+10    -1.368605590989370e+01   -1.266393403587528e+02   
1.090268000000000e+10    -1.370463004619586e+01   -1.266727043615932e+02   
1.090270000000000e+10    -1.369391778231504e+01   -1.267214752393650e+02   
1.090272000000000e+10    -1.369928378084746e+01   -1.267040758424435e+02   
1.090274000000000e+10    -1.368214589051522e+01   -1.267436841370694e+02   
1.090276000000000e+10    -1.369313043585982e+01   -1.267229975969813e+02   
1.090278000000000e+10    -1.369780205945021e+01   -1.266873643445269e+02   
1.090280000000000e+10    -1.370307931738611e+01   -1.266950624187648e+02   
1.090282000000000e+10    -1.370393994424271e+01   -1.266451308569144e+02   
1.090284000000000e+10    -1.368600941154624e+01   -1.267265569756771e+02   
1.090286000000000e+10    -1.370220238082193e+01   -1.266596304948777e+02   
1.090288000000000e+10    -1.368925983924417e+01   -1.267540465756255e+02   
1.090290000000000e+10    -1.368064538166700e+01   -1.266781679545536e+02   
1.090292000000000e+10    -1.369946641187862e+01   -1.266669919802311e+02   
1.090294000000000e+10    -1.368686852459204e+01   -1.266996868277138e+02   
1.090296000000000e+10    -1.369931850706986e+01   -1.267336553442474e+02   
1.090298000000000e+10    -1.370302222402099e+01   -1.267033344834861e+02   
1.090300000000000e+10    -1.369544915506238e+01   -1.266924893828827e+02   
1.090302000000000e+10    -1.370382939965326e+01   -1.267275026905956e+02   
1.090304000000000e+10    -1.369617213411735e+01   -1.267714081356959e+02   
1.090306000000000e+10    -1.370062971198322e+01   -1.267958483173015e+02   
1.090308000000000e+10    -1.369280524820296e+01   -1.267433074947376e+02   
1.090310000000000e+10    -1.369769529181960e+01   -1.268979492912038e+02   
1.090312000000000e+10    -1.369428574760651e+01   -1.267909663157406e+02   
1.090314000000000e+10    -1.368983306263665e+01   -1.267705460392537e+02   
1.090316000000000e+10    -1.370011309848353e+01   -1.268188966144108e+02   
1.090318000000000e+10    -1.369067573445312e+01   -1.267739783555115e+02   
1.090320000000000e+10    -1.369868096544832e+01   -1.268325524594197e+02   
1.090322000000000e+10    -1.369557867413243e+01   -1.268187583300266e+02   
1.090324000000000e+10    -1.368791086973736e+01   -1.267832382988973e+02   
1.090326000000000e+10    -1.369944918912488e+01   -1.268071606057238e+02   
1.090328000000000e+10    -1.368541444162387e+01   -1.267196351935095e+02   
1.090330000000000e+10    -1.369534840594866e+01   -1.266827748596018e+02   
1.090332000000000e+10    -1.368874644892844e+01   -1.268604419100800e+02   
1.090334000000000e+10    -1.368717968016411e+01   -1.267280840674154e+02   
1.090336000000000e+10    -1.368541239650560e+01   -1.268447730526082e+02   
1.090338000000000e+10    -1.368861307690024e+01   -1.268209248091816e+02   
1.090340000000000e+10    -1.368280492419983e+01   -1.268141217127962e+02   
1.090342000000000e+10    -1.368044279407815e+01   -1.268599438392931e+02   
1.090344000000000e+10    -1.369517131517121e+01   -1.268145307684047e+02   
1.090346000000000e+10    -1.370093121868311e+01   -1.267324758387316e+02   
1.090348000000000e+10    -1.370001027576504e+01   -1.268494964018236e+02   
1.090350000000000e+10    -1.368487136758944e+01   -1.268864009329193e+02   
1.090352000000000e+10    -1.368308009037895e+01   -1.268220264802835e+02   
1.090354000000000e+10    -1.369810587848619e+01   -1.268202864588542e+02   
1.090356000000000e+10    -1.369209681222870e+01   -1.268435961781500e+02   
1.090358000000000e+10    -1.370166831938644e+01   -1.268188112745521e+02   
1.090360000000000e+10    -1.370106801018536e+01   -1.269004234870798e+02   
1.090362000000000e+10    -1.367899320472356e+01   -1.268732839606328e+02   
1.090364000000000e+10    -1.367700483628652e+01   -1.268863202140418e+02   
1.090366000000000e+10    -1.369197315242041e+01   -1.268401118801407e+02   
1.090368000000000e+10    -1.368166123667473e+01   -1.268973767548576e+02   
1.090370000000000e+10    -1.368317083137195e+01   -1.268181881701445e+02   
1.090372000000000e+10    -1.369860692990370e+01   -1.269282262794128e+02   
1.090374000000000e+10    -1.368156513888082e+01   -1.270062122195282e+02   
1.090376000000000e+10    -1.368376351075862e+01   -1.268928317208469e+02   
1.090378000000000e+10    -1.368092171016039e+01   -1.269262285348798e+02   
1.090380000000000e+10    -1.369529547656380e+01   -1.269444277409002e+02   
1.090382000000000e+10    -1.367949229940144e+01   -1.268550108715408e+02   
1.090384000000000e+10    -1.368134628558872e+01   -1.268912504868869e+02   
1.090386000000000e+10    -1.369619893204364e+01   -1.269276632406193e+02   
1.090388000000000e+10    -1.368158472902092e+01   -1.268388734252415e+02   
1.090390000000000e+10    -1.369307671771361e+01   -1.269127050984749e+02   
1.090392000000000e+10    -1.368127465474542e+01   -1.269258610034823e+02   
1.090394000000000e+10    -1.368484977573083e+01   -1.269754451583833e+02   
1.090396000000000e+10    -1.370297002964400e+01   -1.269471160039989e+02   
1.090398000000000e+10    -1.369188057144694e+01   -1.270456129755407e+02   
1.090400000000000e+10    -1.367756381346357e+01   -1.269550059236438e+02   
1.090402000000000e+10    -1.369279715743295e+01   -1.269468423074695e+02   
1.090404000000000e+10    -1.368880667147516e+01   -1.270823404467127e+02   
1.090406000000000e+10    -1.371282806297335e+01   -1.269789664066376e+02   
1.090408000000000e+10    -1.367259978701430e+01   -1.269377033980083e+02   
1.090410000000000e+10    -1.368911408356178e+01   -1.269601636340256e+02   
1.090412000000000e+10    -1.368073114897003e+01   -1.269669073728648e+02   
1.090414000000000e+10    -1.368797163480806e+01   -1.269213150603229e+02   
1.090416000000000e+10    -1.367578281120183e+01   -1.269963884349436e+02   
1.090418000000000e+10    -1.368212476244044e+01   -1.269231370586324e+02   
1.090420000000000e+10    -1.368900154466082e+01   -1.269543257640661e+02   
1.090422000000000e+10    -1.369418991356068e+01   -1.270004654453682e+02   
1.090424000000000e+10    -1.366689830108491e+01   -1.270710598896465e+02   
1.090426000000000e+10    -1.368239004036538e+01   -1.270463640681383e+02   
1.090428000000000e+10    -1.368007471605448e+01   -1.270259811312164e+02   
1.090430000000000e+10    -1.368406851066668e+01   -1.270006861170255e+02   
1.090432000000000e+10    -1.367134509185172e+01   -1.270656170763624e+02   
1.090434000000000e+10    -1.368072385549537e+01   -1.270294707779674e+02   
1.090436000000000e+10    -1.368814609961623e+01   -1.270401815718070e+02   
1.090438000000000e+10    -1.367525437718087e+01   -1.268698053690267e+02   
1.090440000000000e+10    -1.367165317876504e+01   -1.271109640290316e+02   
1.090442000000000e+10    -1.367704517170758e+01   -1.270290125465865e+02   
1.090444000000000e+10    -1.367477390667611e+01   -1.270483870658252e+02   
1.090446000000000e+10    -1.368110974192699e+01   -1.270349123665109e+02   
1.090448000000000e+10    -1.367657228777082e+01   -1.269932316889901e+02   
1.090450000000000e+10    -1.366713900038141e+01   -1.270297885295602e+02   
1.090452000000000e+10    -1.367758920789443e+01   -1.271195174940081e+02   
1.090454000000000e+10    -1.366848264656760e+01   -1.271121958730157e+02   
1.090456000000000e+10    -1.367461817669436e+01   -1.269955331644467e+02   
1.090458000000000e+10    -1.367411574668395e+01   -1.271171618761257e+02   
1.090460000000000e+10    -1.368288260549274e+01   -1.270682799057347e+02   
1.090462000000000e+10    -1.368932148955095e+01   -1.270645100232263e+02   
1.090464000000000e+10    -1.367109237584963e+01   -1.271766408839150e+02   
1.090466000000000e+10    -1.366646339396248e+01   -1.270188952206466e+02   
1.090468000000000e+10    -1.368100679094846e+01   -1.270761070937831e+02   
1.090470000000000e+10    -1.367987048826816e+01   -1.270593357765217e+02   
1.090472000000000e+10    -1.367215264794665e+01   -1.269406075025753e+02   
1.090474000000000e+10    -1.369560592410047e+01   -1.270971968796616e+02   
1.090476000000000e+10    -1.366847606402257e+01   -1.270843945418974e+02   
1.090478000000000e+10    -1.367836524494871e+01   -1.271159013227858e+02   
1.090480000000000e+10    -1.367294179277179e+01   -1.271684745259941e+02   
1.090482000000000e+10    -1.367273081139926e+01   -1.270433900415731e+02   
1.090484000000000e+10    -1.366824032718907e+01   -1.271436849130196e+02   
1.090486000000000e+10    -1.366559877361825e+01   -1.270739452013516e+02   
1.090488000000000e+10    -1.367915856240260e+01   -1.270558859072978e+02   
1.090490000000000e+10    -1.367810309914452e+01   -1.270924119346956e+02   
1.090492000000000e+10    -1.366532453609303e+01   -1.271810299385767e+02   
1.090494000000000e+10    -1.367329725852525e+01   -1.270652072136282e+02   
1.090496000000000e+10    -1.368962008852429e+01   -1.271729916778342e+02   
1.090498000000000e+10    -1.367450755367563e+01   -1.271729551905627e+02   
1.090500000000000e+10    -1.365701961548341e+01   -1.271285834662255e+02   
1.090502000000000e+10    -1.366208761089555e+01   -1.271311093335520e+02   
1.090504000000000e+10    -1.368063442963513e+01   -1.272081895713864e+02   
1.090506000000000e+10    -1.368296019768509e+01   -1.270872472909105e+02   
1.090508000000000e+10    -1.366088658525704e+01   -1.271289869736480e+02   
1.090510000000000e+10    -1.366709149290789e+01   -1.272384243561675e+02   
1.090512000000000e+10    -1.367489304964933e+01   -1.272150103131120e+02   
