#  HZ   S   RI   R     50.00 
! Rohde & Schwarz Vector Network Analyzer 
! Rohde-Schwarz,ZNB20-2Port,1311601062102128,3.60
! Created: UTC 4/29/2024, 3:47:19 PM
! freq[Hz]                re:S11                  im:S11                  re:S21                  im:S21                  re:S12                  im:S12                  re:S22                  im:S22
 1.000000000000000E5     9.961309772294847E-1    4.711785828944947E-3   -5.090323559285033E-5    4.858346705839403E-5    8.682015671389751E-5   -1.759690660961618E-4    1.011062731006837      -1.101033907540123E-2
 1.007003988035892E7     9.991895850356715E-1   -1.396817309612468E-2   -7.525521614497212E-6    1.016574100345647E-5    7.111411905747287E-6   -1.724211252768252E-5    9.958979850137488E-1   -1.447651688801762E-2
 2.004007976071785E7     9.995924236007118E-1   -2.719818861468807E-2   -5.065626349024046E-6   -2.087961383670585E-5   -8.597050711474453E-6   -5.169331812464188E-6    9.987031894886639E-1   -2.767208565274126E-2
 3.001011964107677E7     9.983632830857871E-1   -4.109228199192114E-2   -2.086148619887954E-6    7.065041572310748E-6   -1.336840982526160E-5   -1.434472722816943E-5    9.975271524743604E-1   -4.211414405919992E-2
 3.998015952143569E7     9.971618893030753E-1   -5.306510228913210E-2    1.551572028907397E-5   -6.500816105069511E-6   -1.381962637672304E-5    9.321996227707302E-6    9.976488751874194E-1   -5.680420226433697E-2
 4.995019940179461E7     9.952535016726349E-1   -6.593600303397246E-2   -1.271951274501512E-5   -2.001803527982525E-6    4.311210437446607E-6   -4.847629899462851E-6    9.965517452600836E-1   -6.917372472341507E-2
 5.992023928215354E7     9.938928248609982E-1   -7.877583373565543E-2   -2.285497926480342E-5   -5.030200303106894E-6    8.304536335269559E-6    2.436420505079569E-6    9.947175499694475E-1   -8.208356279023482E-2
 6.989027916251247E7     9.934727602814136E-1   -9.180099376642178E-2    3.596719833381216E-6    6.795064525785112E-6   -2.628472333163354E-6    5.368495115837170E-6    9.935158282151593E-1   -9.495299026844617E-2
 7.986031904287139E7     9.930892176801279E-1   -1.052181786762925E-1   -2.019323985802824E-5   -8.214974684730866E-6    2.690139989780939E-6   -8.328694166499456E-6    9.923794852058531E-1   -1.081105972536136E-1
 8.983035892323031E7     9.914020964464171E-1   -1.187242798782546E-1    4.974701043159944E-6    1.070329961308390E-5   -3.571494688283561E-6   -2.847210116032702E-6    9.907392594705144E-1   -1.212941083315846E-1
 9.980039880358922E7     9.887787274741462E-1   -1.321604193418394E-1    8.876664141574074E-6    2.095452647728356E-5   -6.422655229952356E-6    6.101743233322788E-6    9.884581541892372E-1   -1.346813939385198E-1
 1.097704386839482E8     9.861562744820811E-1   -1.454350399120831E-1    3.206454432928098E-6   -2.051609533190034E-6    3.389511993203838E-7    5.851329127621631E-6    9.860698333880547E-1   -1.479770940185942E-1
 1.197404785643071E8     9.851167097501402E-1   -1.588725482871062E-1    9.073885342180140E-6    5.044026243929548E-6    4.226567334187241E-6   -7.119967021092493E-6    9.845156169109262E-1   -1.613485142324821E-1
 1.297105184446660E8     9.831308635460607E-1   -1.717409711532844E-1   -1.096901488126359E-5   -1.241269961674627E-6    3.014574959519628E-6    1.100962485966187E-5    9.829316557288725E-1   -1.746077055800266E-1
 1.396805583250249E8     9.816725958223390E-1   -1.845090638679053E-1   -4.696489436231030E-6   -3.825630322954966E-6   -5.077721742093244E-6   -9.699277982615677E-6    9.808532860351079E-1   -1.875614026683144E-1
 1.496505982053838E8     9.785429733429601E-1   -1.969357628143107E-1   -5.925898223253859E-6    5.567516368202014E-6    6.789634575908580E-7   -4.237588479973981E-6    9.783729443429087E-1   -2.004978245130127E-1
 1.596206380857428E8     9.759511498548477E-1   -2.093142733944455E-1    4.256590142267676E-7   -1.385550535225564E-5    7.614251772675955E-8    9.422110443282397E-6    9.757943970289656E-1   -2.133621922190163E-1
 1.695906779661017E8     9.732399356592678E-1   -2.222093493169859E-1    7.279385469769419E-7   -3.172265684269982E-6    3.237407733848260E-6    4.697736364319149E-6    9.728905508468055E-1   -2.262953141336114E-1
 1.795607178464606E8     9.708725097184776E-1   -2.346556931393777E-1    8.708445850847356E-6   -2.315907569946041E-6   -2.304648625864334E-5    5.170033745267384E-6    9.702088390775396E-1   -2.381563098154261E-1
 1.895307577268195E8     9.675504970329142E-1   -2.468322904505550E-1   -3.943580311260618E-6    3.259397200454763E-6    9.683728078116265E-6   -7.500083535892690E-6    9.667196990102688E-1   -2.506479454524057E-1
 1.995007976071784E8     9.636233520317856E-1   -2.592497943666605E-1   -8.495238800036296E-7    9.841155465896700E-6   -1.428644009811383E-5    3.939513080294673E-6    9.626708368850291E-1   -2.632701726621957E-1
 2.094708374875374E8     9.605115652945437E-1   -2.722515620382013E-1   -1.376723866501483E-5    4.987472979251726E-8    9.412075494471231E-7   -1.799845493910726E-5    9.589454926123409E-1   -2.763173259899230E-1
 2.194408773678963E8     9.574980776083853E-1   -2.849477592053709E-1    1.815114092230669E-5   -1.706379335060034E-5   -1.408015502434298E-5    3.676319347072115E-6    9.550782964470761E-1   -2.891675239618187E-1
 2.294109172482552E8     9.535725211344167E-1   -2.972203103465586E-1   -1.027247765177363E-5   -7.153900084177569E-6    6.670541891621443E-6    6.280415122902736E-6    9.508346553249710E-1   -3.017912341259342E-1
 2.393809571286142E8     9.504495333660777E-1   -3.092984764184048E-1   -7.019321192341541E-6    7.414944513543607E-6    9.412036697977928E-6    8.821514844684921E-6    9.469897572656669E-1   -3.141207384323937E-1
 2.493509970089731E8     9.468857772798142E-1   -3.231613173342569E-1   -8.315460196139291E-6    1.269683199075874E-5    8.551035953561339E-6    6.805410947712516E-6    9.441048270156226E-1   -3.276812352819237E-1
 2.593210368893320E8     9.427302012379910E-1   -3.352083592970656E-1   -1.683030903807099E-5   -9.678591068160465E-6   -1.654666456045147E-5    3.722031085150133E-6    9.398327979865402E-1   -3.408953110037146E-1
 2.692910767696909E8     9.384432926689021E-1   -3.465169913586824E-1    1.193507397783088E-5   -4.525009184247983E-6    6.905440208874436E-6    1.982026552160849E-5    9.355114725946108E-1   -3.529186179288394E-1
 2.792611166500499E8     9.337078054676156E-1   -3.580549667254020E-1    8.081675018800807E-6    4.165444030107864E-6    7.647073177308627E-6   -6.822196621127417E-6    9.310424733289518E-1   -3.646140587146527E-1
 2.892311565304088E8     9.289753333255674E-1   -3.702138662688166E-1    9.179571909282022E-6   -3.610133596236165E-6    1.519658655599437E-5   -6.417838367896395E-8    9.262252085272437E-1   -3.767818603861419E-1
 2.992011964107677E8     9.241128814694630E-1   -3.823667762787862E-1   -1.200748601557925E-6    2.678312172488649E-7   -6.342723531580186E-6   -1.493524088682217E-5    9.212801375238121E-1   -3.887027638491458E-1
 3.091712362911266E8     9.188351916007925E-1   -3.945974153536023E-1    1.721332920439891E-5    1.834027773786627E-6   -6.294449498423787E-6    1.112525856874107E-5    9.156803101774235E-1   -4.001348975012584E-1
 3.191412761714855E8     9.133592778925044E-1   -4.070454282774688E-1   -3.435237544109868E-6   -2.947148862502269E-6    1.120492760169095E-5    6.624468084323159E-6    9.097900299708541E-1   -4.119417885145940E-1
 3.291113160518445E8     9.076808130849917E-1   -4.197457826810240E-1    8.170779087154211E-6   -8.244754222570848E-6   -1.402263388791596E-6   -1.474713467212715E-5    9.033380176531429E-1   -4.244337549336751E-1
 3.390813559322034E8     9.021506536332805E-1   -4.326392175901247E-1   -6.763154700971962E-6    7.373621551536197E-6    8.902726212399835E-6    2.326883645836713E-6    8.967773087538645E-1   -4.369784142680918E-1
 3.490513958125623E8     8.968740117392653E-1   -4.451596185442916E-1    6.921972984126279E-6    6.010287272843607E-6   -1.082955624766546E-6   -1.085470190420910E-5    8.905116979600533E-1   -4.494058031309883E-1
 3.590214356929212E8     8.913681262681243E-1   -4.575150578587408E-1    6.021463703266222E-7   -7.456220403971784E-6    1.177745037400291E-5   -3.571354814663525E-6    8.845307687217586E-1   -4.621717029312636E-1
 3.689914755732802E8     8.859716013470385E-1   -4.697877495180502E-1   -8.867120720320898E-6   -3.696465319045059E-6   -2.099496643162673E-6    3.873195600219236E-6    8.790741399437803E-1   -4.747601520405592E-1
 3.789615154536391E8     8.799310153901085E-1   -4.809795907950417E-1   -1.153335750443388E-5    9.454919081651222E-7   -1.333176102722403E-5    6.692004255397972E-7    8.738535608596494E-1   -4.868104979864015E-1
 3.889315553339980E8     8.742694551331212E-1   -4.917781904947762E-1    2.198866726165030E-6   -1.427352437102318E-5    1.310246413648575E-5    1.079589435499420E-5    8.679521264472739E-1   -4.987008557277581E-1
 3.989015952143569E8     8.674924714041886E-1   -5.024584417439905E-1    8.069276050679023E-6   -3.781445540513047E-6   -8.987327815561170E-6   -1.009173955100353E-6    8.610928204921153E-1   -5.098263012983316E-1
 4.088716350947158E8     8.602484483811900E-1   -5.133685306055095E-1   -1.234144995173369E-6    1.505934303556470E-5   -9.966900830015241E-7    3.853079235236402E-6    8.543730528940795E-1   -5.206648678310337E-1
 4.188416749750748E8     8.533721707010772E-1   -5.248902142015218E-1    2.782398875792901E-6   -8.213778673251128E-6   -1.140541512392525E-6   -2.969939580876979E-6    8.475854368850796E-1   -5.314205661781550E-1
 4.288117148554337E8     8.461058123878452E-1   -5.365638783390702E-1   -1.025700079073721E-5   -1.133535595589883E-5   -5.875907979356333E-6   -4.756805979972670E-6    8.406633097137499E-1   -5.418289117177196E-1
 4.387817547357926E8     8.383070790810619E-1   -5.480063830946248E-1   -1.458995674073303E-6   -3.464489485302285E-6    5.402925370090722E-6    6.089624119659248E-6    8.326988431529724E-1   -5.522978635354484E-1
 4.487517946161516E8     8.305347600861333E-1   -5.597688385932045E-1   -2.158679149176517E-6   -4.349738453976350E-7   -1.050448345754203E-5    6.107470691455647E-6    8.242929070382136E-1   -5.635094007609169E-1
 4.587218344965104E8     8.237117903228870E-1   -5.717832717501586E-1   -4.559991296081609E-6    9.171378935180864E-6    1.010082355602148E-5    3.992881344843051E-6    8.160250939583940E-1   -5.751963555388501E-1
 4.686918743768694E8     8.171083468387150E-1   -5.831800771406828E-1    9.130712974916260E-6    1.061361047595200E-5    7.520510831914152E-6   -7.973145593982920E-6    8.078522561588948E-1   -5.867960541088828E-1
 4.786619142572283E8     8.099347720229365E-1   -5.939163206592538E-1    6.496532911743782E-6   -1.265162043438093E-5    2.284625273911299E-8   -1.149046263137533E-5    7.993571719740952E-1   -5.981145608136973E-1
 4.886319541375872E8     8.023608222073345E-1   -6.043616877628452E-1   -1.779409078904020E-6   -7.525235483467459E-6   -1.589477040976257E-5    1.074329637882003E-5    7.906325470721445E-1   -6.088822390910842E-1
 4.986019940179462E8     7.941962882299021E-1   -6.150667473819468E-1   -3.408620596571366E-6   -6.461682617690841E-6    3.784021111527107E-6   -4.017804311370568E-6    7.821987630271169E-1   -6.196737189584369E-1
 5.085720338983051E8     7.858193131157286E-1   -6.241985444946584E-1   -2.721471209526500E-6   -6.663778390540750E-6   -9.522583675618555E-6    2.213467606191219E-6    7.745632789560175E-1   -6.302899217984079E-1
 5.185420737786640E8     7.784448561951984E-1   -6.332336684290524E-1    5.925680051133373E-6   -3.998525936676195E-6   -9.494909634668715E-6   -1.109867489444393E-5    7.670275491160230E-1   -6.401314972389355E-1
 5.285121136590229E8     7.701756543898650E-1   -6.427825321434911E-1    7.595981163096443E-6   -1.401605541807844E-5   -1.791950719873708E-6    1.647060123886844E-5    7.589874951176756E-1   -6.496870293210208E-1
 5.384821535393819E8     7.615660384741563E-1   -6.529305460957769E-1    1.380051492995589E-5   -9.265795502431416E-6    1.601222218458485E-5    8.299689487371002E-6    7.508772912753243E-1   -6.593715350721695E-1
 5.484521934197408E8     7.534161457408857E-1   -6.635704040777867E-1   -1.078470129890849E-5   -3.512878894118631E-6    1.753082866223936E-5    9.405791363927246E-7    7.425358476866418E-1   -6.691677677133575E-1
 5.584222333000997E8     7.449922796211429E-1   -6.745298161416052E-1   -1.220548718073303E-5    1.639581245592563E-5   -4.386524517601249E-6    4.717198947894900E-6    7.333468015639647E-1   -6.792074826987734E-1
 5.683922731804587E8     7.357266213434988E-1   -6.848583470281268E-1   -1.520114023263567E-5    5.472460785159479E-6    3.039166284090601E-6    1.356083098860279E-6    7.231915975919899E-1   -6.891619699682986E-1
 5.783623130608176E8     7.263962067153813E-1   -6.948061871709025E-1    2.337809332255687E-5   -1.595421210903158E-5    1.493686258814885E-5   -8.730837774928274E-6    7.127544220816813E-1   -6.989892974731960E-1
 5.883323529411764E8     7.171489111090372E-1   -7.048488029459273E-1    1.009185740715002E-5   -3.476741237319260E-6    7.258286977503393E-6   -5.873098508002857E-6    7.021663738185243E-1   -7.086862465573046E-1
 5.983023928215353E8     7.080744162792741E-1   -7.148844876562562E-1    5.807563678183657E-6    2.151081497139143E-6   -1.395950936973478E-5    1.242278964188663E-5    6.918945634998174E-1   -7.181495729008158E-1
 6.082724327018943E8     6.987186755987015E-1   -7.246333616230344E-1   -3.242236261222689E-6   -1.330253236218708E-5   -4.011843608309334E-6   -1.862140286651390E-5    6.816834641677699E-1   -7.276557117359980E-1
 6.182424725822532E8     6.888316292892390E-1   -7.343523022284970E-1   -1.577906332671413E-6    4.159740752825784E-6   -1.280378091733667E-6   -8.088749350827791E-6    6.718690324444035E-1   -7.370930098004544E-1
 6.282125124626122E8     6.782499153101427E-1   -7.436518392467681E-1   -1.058787185041885E-5   -5.189031666524238E-6   -1.365280508338102E-5   -1.801027277758327E-6    6.628343742947126E-1   -7.465911023092840E-1
 6.381825523429711E8     6.685896942517231E-1   -7.508674760354697E-1    2.681473211168265E-7    1.361511170566408E-5   -2.346887773648279E-7    1.353819587251275E-7    6.538384205244318E-1   -7.554457806504886E-1
 6.481525922233300E8     6.596301635347497E-1   -7.595220496357877E-1   -4.823716322447436E-6   -1.864217640804267E-6   -1.456973895619601E-5   -2.174385192001508E-6    6.446774905111782E-1   -7.639445020494345E-1
 6.581226321036890E8     6.498679671495242E-1   -7.684195672416534E-1   -5.438676997123463E-6   -4.691377238177790E-6    6.506047706991982E-6    2.163467760446801E-6    6.346602251145994E-1   -7.723716049283356E-1
 6.680926719840479E8     6.399295346242831E-1   -7.770424402003047E-1    1.493358486665843E-5   -4.483903746208967E-6    1.348069076468979E-5   -2.458431432285009E-6    6.241381388416100E-1   -7.805037386363302E-1
 6.780627118644068E8     6.301326206196242E-1   -7.853048013723374E-1   -1.591821970545278E-6    7.694330833587893E-7   -2.612340663586378E-6   -4.802140379415188E-6    6.129817966891404E-1   -7.883268017773877E-1
 6.880327517447658E8     6.198222313647483E-1   -7.935814880157426E-1    5.321560688398114E-7    1.127424457925286E-5    1.412050723226087E-5    3.617601489631215E-6    6.016889749390467E-1   -7.959207808766625E-1
 6.980027916251246E8     6.088092088980207E-1   -8.016773175208687E-1    4.327598207604793E-6    1.593548650317107E-5    4.019796729002926E-6   -1.558780254224276E-5    5.900177338270829E-1   -8.034972870172491E-1
 7.079728315054835E8     5.974124900251312E-1   -8.101135101111634E-1   -9.926769029829384E-7   -8.330040934986613E-6   -5.168809055220345E-7    9.824314575026805E-6    5.784857416129672E-1   -8.115045987096856E-1
 7.179428713858424E8     5.863368859401508E-1   -8.186482737964392E-1   -6.010254422178580E-6    2.027513216551070E-6   -3.212826131776132E-6   -3.450986879134907E-6    5.673664135744348E-1   -8.201226755790424E-1
 7.279129112662014E8     5.752361254151998E-1   -8.270437641659171E-1   -1.390737787403943E-5   -1.066083364587381E-5   -1.400335719238120E-5   -8.613862740093708E-6    5.561141151296618E-1   -8.286872353015631E-1
 7.378829511465603E8     5.640380861357570E-1   -8.357216036358910E-1    1.966144357364447E-7   -4.548888624795510E-6   -3.170589414972665E-6   -4.469886500251697E-6    5.447365511983944E-1   -8.371080181157357E-1
 7.478529910269192E8     5.520565791703531E-1   -8.442743446884527E-1    1.297711973822775E-5    1.924031498773510E-5    1.156796304620881E-5    3.867860054890462E-6    5.336723110219748E-1   -8.447018414278611E-1
 7.578230309072782E8     5.394339217346321E-1   -8.514420018077128E-1    1.229290551689469E-5   -8.584350621418720E-6    6.092141382549767E-6   -2.907635163934623E-6    5.225098431444292E-1   -8.516283078722311E-1
 7.677930707876371E8     5.290828549270991E-1   -8.569786699921499E-1    4.927208119724683E-6   -9.531319036324944E-6    2.844419688088220E-6   -1.185635426820933E-5    5.113189624401302E-1   -8.581410356959797E-1
 7.777631106679960E8     5.193943753741072E-1   -8.636682622270996E-1    5.554875906605482E-6   -7.193616640135062E-6   -7.205609378653593E-6   -7.136297452091777E-6    4.997439032557384E-1   -8.647825456649584E-1
 7.877331505483550E8     5.090729185682145E-1   -8.706596483366675E-1    9.188879705939466E-6    1.626573001209217E-5    7.250657051428808E-6    1.076070765902188E-5    4.878049947488162E-1   -8.712828845033846E-1
 7.977031904287138E8     4.979128187512914E-1   -8.772000019520301E-1    1.587474738643055E-5    1.354659855674370E-5    7.101881675450979E-6    4.494473676532568E-6    4.750348921195832E-1   -8.777698474175154E-1
 8.076732303090727E8     4.862391015668880E-1   -8.830347337524643E-1   -3.461113587530518E-6   -7.082002437444623E-6    1.498655687247955E-5   -7.574289885228407E-6    4.622508395190475E-1   -8.838542780117867E-1
 8.176432701894317E8     4.742024338704175E-1   -8.890087949907884E-1   -8.265989865898729E-6    1.945054724416882E-5    1.379074085560635E-5    1.163698401275219E-5    4.493398688043551E-1   -8.902642489609347E-1
 8.276133100697906E8     4.619373347406507E-1   -8.953677334441325E-1   -4.780742833221433E-6   -8.268535350871870E-6   -3.584648179825502E-6    3.032779966371930E-7    4.367820579852376E-1   -8.969100815601170E-1
 8.375833499501495E8     4.493431520357036E-1   -9.018812755245914E-1    9.151914746910517E-6    1.418507294326757E-5   -1.025217372940844E-6   -6.458810363566384E-6    4.246601297566154E-1   -9.035894668236634E-1
 8.475533898305085E8     4.364765323489398E-1   -9.083935533459163E-1    4.827076390732262E-6    3.410048994301615E-6   -9.989063641195762E-6   -1.164701942272045E-5    4.127513971167446E-1   -9.097013812321776E-1
 8.575234297108674E8     4.238167165898005E-1   -9.146623170752539E-1    1.640342955868954E-6    9.538145847415441E-6   -2.825909401225565E-6    1.252041831274175E-6    4.010062658863991E-1   -9.150033139390514E-1
 8.674934695912263E8     4.108675544825017E-1   -9.213098772403671E-1    4.278382004140989E-6    3.765140551008115E-6    1.911968621921396E-6    1.922948085542930E-6    3.889852381892538E-1   -9.199090168190827E-1
 8.774635094715853E8     3.977818302961936E-1   -9.279124477385613E-1   -4.902748563951432E-6   -9.246079574864997E-6   -5.344962356449889E-6   -5.547895555165318E-6    3.763539668590926E-1   -9.244913642740709E-1
 8.874335493519442E8     3.847573535339101E-1   -9.324968813308282E-1   -8.497820598661676E-6   -8.412158368984341E-6   -7.315143186836008E-6   -1.253849073513047E-5    3.632667013133423E-1   -9.290278797800564E-1
 8.974035892323031E8     3.734117046336956E-1   -9.362537485631039E-1    7.190727507593460E-7   -7.599336190085972E-6    3.489867685824124E-6   -1.233296771685164E-5    3.496503094992697E-1   -9.333763165072699E-1
