#  HZ   S   RI   R     50.00 
! Rohde & Schwarz Vector Network Analyzer 
! Rohde-Schwarz,ZNB20-2Port,1311601062102128,3.60
! Created: UTC 4/29/2024, 3:46:59 PM
! freq[Hz]                re:S11                  im:S11                  re:S21                  im:S21                  re:S12                  im:S12                  re:S22                  im:S22
 1.000000000000000E5     9.962754343719081E-1    4.539641032614630E-3    4.044278711472925E-5    9.480329522432572E-5    4.942577175627570E-5    5.013467551700519E-5    1.010741110576188      -1.097568682323232E-2
 1.007003988035892E7     9.976034348844719E-1   -1.381097825735910E-2    1.013627144696571E-5    8.953367569915249E-6    1.209142506856781E-5   -1.130618332284697E-5    9.958427654656075E-1   -1.452945944103078E-2
 2.004007976071785E7     9.996670408124116E-1   -2.707805367913309E-2   -1.824899417337609E-5   -5.771112134927882E-6    5.953444887642373E-6    1.516590693955190E-5    9.987912723633617E-1   -2.772810370823252E-2
 3.001011964107677E7     9.977076289686996E-1   -4.097770304366628E-2   -9.550084671016966E-6   -2.314974534291020E-5    8.270368155458669E-6    4.697774182669235E-6    9.974578092544187E-1   -4.208147795304465E-2
 3.998015952143569E7     9.976315159583260E-1   -5.305899385127484E-2    1.605239109363151E-5    8.574924213414739E-6    1.640581815549951E-5    3.645068808822595E-6    9.975794002175423E-1   -5.679270863672312E-2
 4.995019940179461E7     9.960542156716887E-1   -6.594597449047089E-2    1.518617360110522E-5    1.548875733870506E-5   -1.536562127076653E-5    5.941287338848029E-6    9.966345678077777E-1   -6.915662111795050E-2
 5.992023928215354E7     9.942856378556839E-1   -7.873809902824434E-2   -1.455571224070344E-5   -1.407492861005662E-5   -4.887495318791258E-6   -2.939400282244183E-6    9.946520986930537E-1   -8.198326281910988E-2
 6.989027916251247E7     9.930405965940088E-1   -9.178289888118518E-2   -9.377404133074418E-8   -5.470307104417572E-6   -1.699484757768066E-5    1.315097102465064E-5    9.934555708516423E-1   -9.487659926421736E-2
 7.986031904287139E7     9.923642746422286E-1   -1.051753849679576E-1    8.281794926532185E-6   -8.303473462346055E-6    1.296933818207785E-6   -4.950774154159474E-6    9.922562219559893E-1   -1.081107114435672E-1
 8.983035892323031E7     9.914115222576649E-1   -1.187506096087105E-1    3.759964996424267E-6   -1.516225243743903E-5    1.088595816896245E-5    3.884860791210090E-6    9.907668794031944E-1   -1.212905859272706E-1
 9.980039880358922E7     9.893941747084894E-1   -1.322507386634941E-1    2.101551043370567E-5    9.866277860960882E-6    7.847523244133078E-6   -1.428268712917245E-5    9.885251568189007E-1   -1.346801065984731E-1
 1.097704386839482E8     9.865993574106174E-1   -1.454325210948828E-1   -3.809839865202862E-6    2.454353571305047E-5   -3.770269849395342E-6   -7.074451283244260E-7    9.860244325966343E-1   -1.479356030751227E-1
 1.197404785643071E8     9.847674724435882E-1   -1.587764320227877E-1   -5.470355734049406E-6    5.800709375223331E-6    1.697994410786915E-5   -1.823930167567004E-5    9.843227786797714E-1   -1.612512476101220E-1
 1.297105184446660E8     9.830371874791475E-1   -1.716318499930403E-1    2.602506702229144E-6    8.117806871450053E-6   -8.294692222836317E-6    8.472287609280172E-6    9.828471987416617E-1   -1.745477416761325E-1
 1.396805583250249E8     9.814374812929866E-1   -1.845193165909327E-1   -5.099901841910584E-6    7.788697652676563E-6   -3.519858990886143E-6    3.596806470464852E-6    9.809299924232090E-1   -1.875993420272725E-1
 1.496505982053838E8     9.789721236276377E-1   -1.970714132324164E-1    1.195555146557446E-5   -4.674383585703472E-6   -6.095741253363663E-6   -4.226073027001352E-6    9.785964996589971E-1   -2.004725981279827E-1
 1.596206380857428E8     9.761716318665163E-1   -2.093926716347587E-1   -1.193392452263723E-5    1.159117643667610E-5   -1.346397053811689E-6    2.515877669533003E-6    9.758265513533335E-1   -2.133759415094168E-1
 1.695906779661017E8     9.732686405713195E-1   -2.222792177184768E-1   -5.678486045883613E-6    1.798327388578458E-6    2.024223729431615E-7    2.895939717208648E-6    9.727602885332421E-1   -2.261705093243726E-1
 1.795607178464606E8     9.706368801905531E-1   -2.346826093818914E-1   -1.487322415098635E-5   -1.206239012818394E-5   -3.457773206348552E-6   -6.085323397165964E-6    9.701463099680923E-1   -2.381752183923509E-1
 1.895307577268195E8     9.675544247422159E-1   -2.468476294336538E-1   -8.935137429830308E-6   -8.933586728831434E-6    2.896166428365241E-6    4.179339755173755E-6    9.667977883987516E-1   -2.506332207248050E-1
 1.995007976071784E8     9.639027535040551E-1   -2.593468701442004E-1   -4.380352090032153E-7    5.120443645659180E-6   -1.745128723059546E-6    1.074835521059415E-5    9.628177371465337E-1   -2.633118821495788E-1
 2.094708374875374E8     9.605530344764729E-1   -2.722139203711446E-1   -7.666023784044628E-6    6.655646595348926E-6    2.350659384983964E-6    8.583995640226688E-6    9.588069662369583E-1   -2.762053660001996E-1
 2.194408773678963E8     9.572796803622873E-1   -2.849705840188209E-1    7.146457484467747E-6    9.563386318353421E-6    3.420546337396152E-7    1.953669291387428E-5    9.550086141840520E-1   -2.891918041383680E-1
 2.294109172482552E8     9.536425763780108E-1   -2.972998338650180E-1    3.896918265344937E-6    5.646144359372032E-6   -1.182404980226196E-5    1.424823112995650E-5    9.509146590129532E-1   -3.019629994978063E-1
 2.393809571286142E8     9.505482172887569E-1   -3.093724465627253E-1   -8.864144963915917E-6   -4.977587031613479E-6   -1.428730510026747E-5   -2.286543403061106E-5    9.469745070141991E-1   -3.140744514037243E-1
 2.493509970089731E8     9.468738543216632E-1   -3.231900844646565E-1    6.513275643367284E-6   -1.417587340662777E-6   -1.358729058086946E-5   -1.602252275933517E-5    9.440411952059891E-1   -3.277540205531086E-1
 2.593210368893320E8     9.427124143140423E-1   -3.350931982663075E-1    1.015492994251295E-5    1.085220584180368E-5    1.089431598793197E-5   -9.717622038402897E-7    9.397934691470416E-1   -3.409221645809087E-1
 2.692910767696909E8     9.384827256556277E-1   -3.465649298285355E-1   -4.578567123544743E-6   -1.384106396305944E-5   -3.877796467702549E-6    4.101034582789836E-6    9.354316959330112E-1   -3.529110276534274E-1
 2.792611166500499E8     9.337977807611318E-1   -3.581911796061789E-1   -1.284062758849043E-5    1.205611559735382E-5   -1.840473820270124E-6   -6.616501644520079E-6    9.310740599450059E-1   -3.647718491507295E-1
 2.892311565304088E8     9.290722779735777E-1   -3.702192568870686E-1    1.033748036230013E-5    2.392995647082880E-6   -1.949916070477362E-5    7.802501373381588E-6    9.261665303153875E-1   -3.769482828228606E-1
 2.992011964107677E8     9.241383488134874E-1   -3.824245854013376E-1    8.938691888847857E-7   -2.659843754044676E-6    1.602631541757535E-5   -2.040274762778279E-5    9.212177518967821E-1   -3.886438867451519E-1
 3.091712362911266E8     9.189100087395415E-1   -3.945997355780907E-1    4.421888789512493E-6   -7.870720275758202E-6   -3.107796563594261E-6    1.528402223204615E-7    9.156689035499059E-1   -4.002133772093971E-1
 3.191412761714855E8     9.134028121683827E-1   -4.070890547114214E-1    3.161804682281335E-6    5.202698603652056E-6   -1.060117430834856E-5   -7.760048902349035E-6    9.098695956153422E-1   -4.120066601439420E-1
 3.291113160518445E8     9.076965214798021E-1   -4.198165588222456E-1    1.817314161572003E-5    1.248873921245289E-5   -9.366682539340816E-6   -1.724359902156758E-5    9.033945686144185E-1   -4.244530948222965E-1
 3.390813559322034E8     9.021433976728795E-1   -4.326025265407048E-1   -5.149328812391455E-6   -6.177694589240016E-7   -1.753810591556107E-6   -1.915336114977065E-6    8.967904934578659E-1   -4.368881773011386E-1
 3.490513958125623E8     8.968600467730219E-1   -4.452193890991112E-1    4.164951513664254E-6    1.365433139266494E-5    1.547226500733488E-5    1.151792909955364E-6    8.904121024731693E-1   -4.493639601746520E-1
 3.590214356929212E8     8.914335561704041E-1   -4.576778322145397E-1    1.785605216658015E-5   -4.040255471613430E-6    3.067689901950154E-6    1.399877592879463E-5    8.844412411789354E-1   -4.621271334238112E-1
 3.689914755732802E8     8.859412453761590E-1   -4.698407732199765E-1   -6.120176869443585E-6   -4.577183143611586E-6   -1.694043272439787E-6    6.654268626225405E-7    8.790976911991595E-1   -4.747733111508423E-1
 3.789615154536391E8     8.798441020878863E-1   -4.810954970249389E-1    3.837674382344765E-6   -4.932073930846327E-6    2.631195223254233E-6    3.984004590255169E-7    8.738816074048043E-1   -4.868147592336173E-1
 3.889315553339980E8     8.743821761697453E-1   -4.918031330292957E-1    9.611793252870251E-6    1.443469638903587E-5   -1.070826588595644E-5   -2.993746324992690E-7    8.680036028834959E-1   -4.989215939062636E-1
 3.989015952143569E8     8.675481414932183E-1   -5.024995721106955E-1   -9.041016820771151E-6    6.019681740150049E-6    1.277047993898035E-6   -9.967746018309010E-6    8.610919721590492E-1   -5.097461803300513E-1
 4.088716350947158E8     8.602232182119651E-1   -5.133021478262301E-1    1.755057752316857E-7    7.061668598219297E-6   -1.709836562584497E-5   -6.585726043885480E-6    8.542164771471948E-1   -5.205861506407340E-1
 4.188416749750748E8     8.533707531425019E-1   -5.248152310937531E-1   -1.084109299512099E-5    3.057309663184737E-6   -1.340505786880758E-6    8.204063238400056E-6    8.475798187325924E-1   -5.315151112228390E-1
 4.288117148554337E8     8.460863347870203E-1   -5.365672580759482E-1   -7.873443371025109E-6   -1.860705978521528E-6    1.449551855315443E-5   -4.777998704511498E-6    8.406582404816463E-1   -5.418396169649838E-1
 4.387817547357926E8     8.383284966742496E-1   -5.480170177893060E-1    5.952681306422413E-6   -5.471562884626432E-6   -1.161300622394623E-5    1.833329651043784E-5    8.326516462487005E-1   -5.523147440374658E-1
 4.487517946161516E8     8.305974849478254E-1   -5.599202892566676E-1   -1.542584209072089E-6    2.499792301188129E-6   -1.005510093815585E-5    1.025932653025565E-6    8.242107630099553E-1   -5.634244571047127E-1
 4.587218344965104E8     8.236713667322707E-1   -5.717713762702198E-1    2.951260258346089E-6    1.729445838011333E-6    4.583444839286721E-6    2.574573577068331E-6    8.160407757630543E-1   -5.752452395012265E-1
 4.686918743768694E8     8.171584539873329E-1   -5.832314818773658E-1   -1.052785509926663E-5    7.164233423234236E-6   -7.684552240782918E-6   -2.215520781392874E-5    8.078808959931126E-1   -5.868187083161731E-1
 4.786619142572283E8     8.100079322261805E-1   -5.940293728439280E-1    5.942626826217892E-6   -9.037171584962877E-6   -8.700983617850090E-7    3.977103832062971E-6    7.992737632306784E-1   -5.981055488593903E-1
 4.886319541375872E8     8.024792389951282E-1   -6.043894828610551E-1   -1.430212493321963E-6    2.305663409650182E-6   -1.310770326631259E-5   -1.989277128497318E-5    7.904745675924600E-1   -6.088824992548674E-1
 4.986019940179462E8     7.941638402381409E-1   -6.150845414393494E-1    3.384785359502700E-7    8.577017767173289E-6   -1.803342671299928E-6    1.242612583703623E-6    7.822137268000233E-1   -6.197000692474151E-1
 5.085720338983051E8     7.858004436168122E-1   -6.242674707669242E-1    5.705407482664744E-6    1.171668010413595E-5   -1.809473107220681E-5   -9.772942433792092E-6    7.746290093471994E-1   -6.302502915900677E-1
 5.185420737786640E8     7.784339766865122E-1   -6.333173908227129E-1   -6.871492431905451E-6    8.021495181592462E-6    6.172227209728778E-6   -4.400295136432156E-6    7.669912163287955E-1   -6.401641952000017E-1
 5.285121136590229E8     7.701156387773852E-1   -6.428673244813481E-1    5.272256670977595E-6   -9.480606609312400E-8    5.144202506383588E-6   -4.221434398100594E-6    7.591268674505328E-1   -6.496607381800427E-1
 5.384821535393819E8     7.615143881512854E-1   -6.530037070873266E-1   -1.022982667403715E-6   -3.555445386990601E-6   -6.574407187750158E-7   -9.875545068090008E-6    7.508727781301135E-1   -6.593001205504415E-1
 5.484521934197408E8     7.534195294375865E-1   -6.636104916421803E-1   -3.309188517001900E-6   -6.407473555066815E-6   -1.791387752741568E-5    1.897349585368330E-6    7.424373273927262E-1   -6.692227816327140E-1
 5.584222333000997E8     7.448515702418254E-1   -6.745127549971104E-1   -7.075134597326426E-6    6.247062556217449E-6   -2.840695586217609E-7   -6.807704529871406E-6    7.333049696164975E-1   -6.790824673749867E-1
 5.683922731804587E8     7.356604671772864E-1   -6.850241071518138E-1   -1.411884982193910E-5   -1.231574036732409E-5    5.202015195711487E-6   -1.754000527712770E-6    7.232851322440167E-1   -6.892119671616165E-1
 5.783623130608176E8     7.264562574212508E-1   -6.949136747425938E-1   -7.207282953060729E-7    6.742893035531089E-6   -7.307067791343245E-6   -2.009857381787466E-5    7.127048963056558E-1   -6.989612998797092E-1
 5.883323529411764E8     7.171208241501531E-1   -7.048984251514385E-1   -5.368488751121434E-6   -2.762638910216774E-6   -5.266239252345106E-6    4.131553671368554E-6    7.022703617221002E-1   -7.086330308084399E-1
 5.983023928215353E8     7.080638603640297E-1   -7.149569413056470E-1    4.594843971854074E-6    8.487510983040054E-6    1.301281356114958E-5   -1.109526092965302E-5    6.919297664135962E-1   -7.182867308569315E-1
 6.082724327018943E8     6.986402244950443E-1   -7.246594791212547E-1    3.655236201679983E-7    6.168603570805615E-6    4.107911956246276E-6   -1.596640677217530E-5    6.817475880490168E-1   -7.277428683913787E-1
 6.182424725822532E8     6.888019370487507E-1   -7.343689513513277E-1   -5.209963606462311E-6    1.591340351342041E-6    2.857860992328167E-6   -8.583911265990024E-6    6.717928786884754E-1   -7.371727780643583E-1
 6.282125124626122E8     6.782946169041744E-1   -7.437911709893581E-1   -1.507919633948416E-6    1.712868872909575E-6    3.296907582333759E-6    2.065751148837472E-6    6.629028000411438E-1   -7.467467385619946E-1
 6.381825523429711E8     6.685364255723707E-1   -7.508123687886538E-1    6.936805300409862E-7   -1.713163813264088E-5    2.212581760017195E-6   -5.638172524686666E-6    6.539168730764718E-1   -7.554684788241133E-1
 6.481525922233300E8     6.596070467430899E-1   -7.593602319989609E-1   -4.703103635452140E-6   -1.669558357283591E-7   -1.940257571735256E-6    1.091721045255111E-5    6.446730702465369E-1   -7.640106530041006E-1
 6.581226321036890E8     6.498215687273100E-1   -7.683765295177749E-1   -2.416104827350808E-6   -3.993659832116847E-6   -1.018871485990606E-5    2.268025271928070E-5    6.347112864500767E-1   -7.723036033278142E-1
 6.680926719840479E8     6.399155678446863E-1   -7.770592606969574E-1    2.597752219267748E-7    7.202591576028110E-6   -1.575599980580527E-5    2.239665315626365E-5    6.241196260892158E-1   -7.803238236042206E-1
 6.780627118644068E8     6.302569490049879E-1   -7.853024636677711E-1    6.629839790659050E-6   -9.493481636848528E-6    1.248819122627846E-5   -7.534183965507977E-6    6.131683427983402E-1   -7.883323505822056E-1
 6.880327517447658E8     6.197076853286613E-1   -7.935056605416708E-1    6.281965150192395E-6    7.626529747356042E-6   -6.416581295545296E-6   -6.178109008923957E-6    6.017129358707691E-1   -7.958731546321957E-1
 6.980027916251246E8     6.088374505096421E-1   -8.017365143798006E-1   -1.190599972607109E-6    3.286106362048006E-7    2.953849977982905E-6    9.831178618673054E-6    5.901359192165428E-1   -8.035159353317518E-1
 7.079728315054835E8     5.974598690387445E-1   -8.100596509570043E-1   -1.651931788149356E-5   -4.823174889549147E-6   -9.126110543178988E-6    1.006446542875310E-5    5.786337441531209E-1   -8.115488498217449E-1
 7.179428713858424E8     5.862219373824965E-1   -8.185419801063277E-1    5.211016131271742E-6    8.607864760383543E-6    1.044445282727179E-5   -4.178118848488754E-6    5.674136753568175E-1   -8.200684334754038E-1
 7.279129112662014E8     5.752657679927730E-1   -8.268634917763711E-1    8.039475341866848E-7    2.277950503183237E-6   -6.748417025551801E-6   -7.386877916144916E-7    5.560362717639442E-1   -8.287478162427238E-1
 7.378829511465603E8     5.640081529400813E-1   -8.356464630682502E-1    6.245213834983337E-6    3.209149485847459E-6    2.264290212271983E-7   -9.252547080837296E-6    5.448495192163966E-1   -8.371739087614632E-1
 7.478529910269192E8     5.520587631031212E-1   -8.441694605920321E-1    9.008941536222977E-6    8.643822032691633E-6   -3.616553981399309E-6    8.791724511120687E-6    5.336908885954545E-1   -8.447800769402294E-1
 7.578230309072782E8     5.393833411264297E-1   -8.514387646487785E-1   -4.303591969796768E-6   -4.116342870989537E-6   -7.297320519403671E-8    4.406586538501252E-6    5.225384702374707E-1   -8.516297546057047E-1
 7.677930707876371E8     5.290767079639730E-1   -8.568159270237911E-1    5.171716006866367E-6   -2.036371758104528E-6   -3.757928247301333E-6   -2.009278855759562E-5    5.112759265020259E-1   -8.581032786316102E-1
 7.777631106679960E8     5.193569666941134E-1   -8.637204118533267E-1   -6.804249244818713E-6   -8.580455424639008E-7   -2.035586805982894E-6   -2.027882369976663E-6    4.997712285924844E-1   -8.646464982522165E-1
 7.877331505483550E8     5.091732519105154E-1   -8.706633604798750E-1    5.033069359922208E-6    5.778397087505560E-6   -2.891588016984151E-6    7.330215534850190E-6    4.879038520510633E-1   -8.713564968144978E-1
 7.977031904287138E8     4.979055672074877E-1   -8.771256511934523E-1    1.021370510706617E-5   -3.470434228882462E-7   -3.131438930335822E-6    1.017062576162692E-6    4.750594543816953E-1   -8.777314501985055E-1
 8.076732303090727E8     4.862297159857844E-1   -8.829965428577370E-1   -3.493400346334273E-6   -4.311877692805456E-6    1.341498096386674E-5   -5.719215400415010E-6    4.622939663897271E-1   -8.838775943212744E-1
 8.176432701894317E8     4.742287033007285E-1   -8.889991796838344E-1   -3.000734697178161E-6    5.808421261154725E-6    1.067851090329235E-5   -4.991005887910198E-6    4.494203094658732E-1   -8.903001445214257E-1
 8.276133100697906E8     4.619312330458722E-1   -8.954138652466332E-1   -1.450588843300924E-5    4.438130472211941E-6   -1.020421825966831E-5    7.259574400573275E-6    4.368739199112771E-1   -8.970324169106355E-1
 8.375833499501495E8     4.493619217961645E-1   -9.018090109368962E-1   -6.150104519358671E-7   -3.654498675443533E-7   -1.272254216567588E-5   -1.332301717140630E-5    4.246706422211283E-1   -9.037131999087296E-1
 8.475533898305085E8     4.365309987237742E-1   -9.082327621923871E-1    2.814388840911617E-6    5.384344199525743E-6   -4.953953021929181E-6    5.142522482680410E-6    4.128481624218525E-1   -9.096486056917215E-1
 8.575234297108674E8     4.236953046090349E-1   -9.146026420159055E-1   -7.315102340766906E-6   -1.940071391064290E-5   -5.062963467502785E-6    5.036524382189077E-6    4.010613290453287E-1   -9.150008044464244E-1
 8.674934695912263E8     4.109549273293304E-1   -9.211920724379168E-1    4.826069881363666E-6   -1.997883658703427E-5   -2.912089194644596E-6   -3.113651892991472E-6    3.889560574852757E-1   -9.198696589451563E-1
 8.774635094715853E8     3.978168702721898E-1   -9.278271916992509E-1   -4.089014659159887E-6   -1.898182173339602E-5   -1.698150761589634E-5    1.093860712146004E-5    3.763495192204929E-1   -9.246126750132049E-1
 8.874335493519442E8     3.847605348652482E-1   -9.325425599588899E-1    6.123185958382337E-6    1.117038737642819E-5    1.382120383388664E-5   -2.210948005929163E-5    3.632420372621604E-1   -9.290845955962878E-1
 8.974035892323031E8     3.734724974773214E-1   -9.362436461959827E-1   -7.252764745667296E-6    8.570050208233210E-6    1.600412189876000E-5   -1.024970990536070E-5    3.498109533408448E-1   -9.332908266377814E-1
