#  HZ   S   RI   R     50.00 
! Rohde & Schwarz Vector Network Analyzer 
! Rohde-Schwarz,ZNB20-2Port,1311601062102128,3.60
! Created: UTC 4/29/2024, 3:47:16 PM
! freq[Hz]                re:S11                  im:S11                  re:S21                  im:S21                  re:S12                  im:S12                  re:S22                  im:S22
 1.000000000000000E5     9.964021168315073E-1    4.518069703302231E-3    6.572633153462411E-5    1.576230137785738E-6    2.154107022470159E-6   -1.429136935605975E-4    1.011167911426354      -1.102978020124270E-2
 1.007003988035892E7     9.974741842542250E-1   -1.393238688417297E-2    1.656249331804381E-5    1.540117123798491E-6    1.877249773628815E-5    3.768575837436541E-6    9.959337507181125E-1   -1.454909024828218E-2
 2.004007976071785E7     9.998189463088660E-1   -2.716403020433659E-2    2.335040207572919E-6   -1.115807124606743E-5   -1.135517500182501E-5   -5.790706347172728E-6    9.989361531562844E-1   -2.782302500391784E-2
 3.001011964107677E7     9.978799306617410E-1   -4.106221339157835E-2    2.726968628243077E-5   -2.076149444630713E-5   -9.914598550594871E-6   -1.771657449367722E-5    9.976047123162479E-1   -4.201134950524331E-2
 3.998015952143569E7     9.976278259695317E-1   -5.301731633697761E-2   -5.514036711255703E-6   -1.673429602946317E-5   -5.856755589269303E-6    2.527084892774397E-6    9.976825991252306E-1   -5.669163420620794E-2
 4.995019940179461E7     9.960657357639391E-1   -6.595341225156715E-2    2.521533256559668E-5   -1.565442752014376E-5    1.265060471975051E-5    7.418454408069372E-9    9.964035999164621E-1   -6.916925951587817E-2
 5.992023928215354E7     9.941293717466517E-1   -7.861382473851859E-2    4.180178959657019E-6   -1.890531908708623E-6    1.313246947318408E-5   -1.275088761581535E-6    9.945497559390587E-1   -8.193150025083876E-2
 6.989027916251247E7     9.930378351094423E-1   -9.168670553149795E-2    7.145678205804875E-6    7.837973553074255E-6   -1.251259530798929E-5    3.144701716471951E-6    9.934622778082103E-1   -9.493552391720407E-2
 7.986031904287139E7     9.924933989018873E-1   -1.051432749722139E-1    5.108832852879268E-6   -1.005734076644444E-5    2.989132412374187E-6    1.792389254016034E-7    9.924355828809888E-1   -1.080393455201626E-1
 8.983035892323031E7     9.914427474297467E-1   -1.186407277959454E-1    1.019809274794086E-5   -1.611688897262952E-6    5.851670526671323E-6   -1.426726615535440E-5    9.907487587496839E-1   -1.213050497449825E-1
 9.980039880358922E7     9.893007476485294E-1   -1.321614493104502E-1   -1.118015940210117E-5    1.065970782628761E-5   -1.166915053104008E-5    7.195914875109268E-6    9.884051051015234E-1   -1.346239372066952E-1
 1.097704386839482E8     9.863252150300004E-1   -1.453942321676045E-1   -2.079019435140781E-5    1.613183316004912E-5    2.152401038867020E-5   -1.084895300446851E-6    9.860330216160208E-1   -1.479719362818869E-1
 1.197404785643071E8     9.847929266883306E-1   -1.587854171995760E-1    1.488025393113818E-5   -7.277545630391898E-6    1.321493021640151E-5   -4.103522025601685E-6    9.843165655972896E-1   -1.613071174692988E-1
 1.297105184446660E8     9.829793921851636E-1   -1.716865428344245E-1   -2.075256316090199E-6    5.031216851814154E-6    5.612493005070764E-6   -1.073955860550756E-6    9.827287895997796E-1   -1.744757480857924E-1
 1.396805583250249E8     9.816306497585028E-1   -1.845824223679392E-1    1.929628896083414E-6    6.294366640755771E-8   -6.184992784590642E-6    2.322630655654036E-5    9.809978943217588E-1   -1.876591038075639E-1
 1.496505982053838E8     9.788396196613386E-1   -1.970082442861518E-1   -1.297425836646935E-5   -4.997964947478009E-6    3.892148926148194E-6    2.266009136237366E-6    9.784648639335014E-1   -2.004634699285144E-1
 1.596206380857428E8     9.761553686114016E-1   -2.093497193569473E-1   -1.852024797965174E-5   -2.036987634827671E-5    4.832322635779238E-6   -4.601292767403508E-6    9.757247274210987E-1   -2.133889628231820E-1
 1.695906779661017E8     9.732128958867402E-1   -2.222093155288848E-1    1.750883281542805E-5   -1.357844137116197E-5    6.053098559125265E-6    3.827071481574454E-6    9.728556623130735E-1   -2.262277009836134E-1
 1.795607178464606E8     9.707878726330434E-1   -2.346574942327526E-1   -1.079688002774759E-5    7.531176494686084E-6   -1.255584406760637E-6   -2.241129486415279E-6    9.702192421159354E-1   -2.381079524450465E-1
 1.895307577268195E8     9.677153372998779E-1   -2.468454172689439E-1   -1.610133298552973E-6    5.726818688982824E-6   -1.065632635311393E-5   -5.793783877915298E-6    9.666562716900940E-1   -2.506109317969217E-1
 1.995007976071784E8     9.638139384148769E-1   -2.594315875456123E-1    2.238526000195392E-6    9.641123218454000E-6    3.914750912042150E-7   -1.219459800467053E-5    9.627172015679110E-1   -2.632870334267631E-1
 2.094708374875374E8     9.605436530354622E-1   -2.723076024958497E-1    1.169119447222994E-5    7.445768009398866E-6    9.417552290983583E-6   -6.927486573506738E-6    9.588673471194353E-1   -2.762068905369089E-1
 2.194408773678963E8     9.573139776080313E-1   -2.849611827418465E-1   -4.794523809117892E-6    7.336691401873307E-7    1.031327689655124E-5    5.019411061672102E-7    9.550384857933435E-1   -2.892110127319077E-1
 2.294109172482552E8     9.536614675977970E-1   -2.972613520353012E-1    1.219395194127074E-6    4.062991487370894E-6   -8.267515343424838E-7    4.967722567605038E-6    9.508324208493213E-1   -3.019136888248269E-1
 2.393809571286142E8     9.505150289381118E-1   -3.093505850592704E-1    2.843950853091478E-6    9.246855877633506E-6   -1.012993150979134E-5   -1.473211395985938E-5    9.469295409022451E-1   -3.140437480738656E-1
 2.493509970089731E8     9.468531094791760E-1   -3.231584600773961E-1   -1.357822299107143E-5    5.995717168431988E-6   -1.989345268327586E-5   -1.113228410190729E-5    9.440336806847862E-1   -3.276631719377319E-1
 2.593210368893320E8     9.427430339117497E-1   -3.350800057512326E-1   -3.820221020765767E-6   -2.885991331708993E-6   -1.548497063316013E-5    1.445761406576046E-5    9.397599531521750E-1   -3.408947243839051E-1
 2.692910767696909E8     9.384355805739490E-1   -3.465922003926492E-1   -1.391769859547899E-6    1.150674063329419E-5    9.016163363580318E-6    1.058965174252835E-5    9.355872722700579E-1   -3.529034936021899E-1
 2.792611166500499E8     9.338206757223221E-1   -3.581614108908730E-1    2.139278369581955E-5    5.227008835522812E-6   -2.572632071648988E-5    1.394075233780787E-5    9.309251082736806E-1   -3.647401767643975E-1
 2.892311565304088E8     9.291371664780177E-1   -3.702643257788729E-1   -1.616749349284432E-7    4.356031521162356E-6   -9.877443764788126E-6   -2.216109621709969E-5    9.261932973992398E-1   -3.768170875689490E-1
 2.992011964107677E8     9.242492234372564E-1   -3.824267426706213E-1    4.447472729026351E-6   -2.049996092923696E-5   -1.301676795196899E-5    1.157108917385855E-5    9.211990087256472E-1   -3.885770272139171E-1
 3.091712362911266E8     9.189637194001435E-1   -3.945923576909862E-1   -1.252907810715286E-5   -2.699275818546989E-6    1.364213793892873E-5   -6.080783387165343E-6    9.156609729785939E-1   -4.002105822452203E-1
 3.191412761714855E8     9.132363136445496E-1   -4.070253010604012E-1    1.003682240838120E-5    3.169173847671097E-6   -1.860146492669508E-5    1.011772558143634E-5    9.098246065049234E-1   -4.119529786724070E-1
 3.291113160518445E8     9.076758611238163E-1   -4.197663067884299E-1    5.044272358384594E-8    3.480610081492056E-6    1.534627994315259E-5    1.611508248597790E-6    9.033924462391875E-1   -4.244242638959668E-1
 3.390813559322034E8     9.022465456329807E-1   -4.326832377537957E-1    1.054199262412775E-6   -4.832244177096930E-6    1.244642495175833E-7    1.120840453458097E-5    8.969182182958816E-1   -4.369831259081163E-1
 3.490513958125623E8     8.968384228388735E-1   -4.452037155201585E-1   -1.665219064621036E-5    5.592978883009911E-6   -3.581244079904472E-5   -8.393483184073313E-6    8.904187846362137E-1   -4.495006289837744E-1
 3.590214356929212E8     8.914024810727751E-1   -4.576442852141157E-1    6.849939856983579E-7    9.177402341544562E-6   -8.863160733107350E-6    3.615241002964193E-6    8.844074484896026E-1   -4.621153774383924E-1
 3.689914755732802E8     8.860086771030847E-1   -4.698467755297817E-1    3.195169822981937E-6    5.425872887896512E-6    4.317576348376265E-6    6.577349384185344E-6    8.790504316662526E-1   -4.747997110815321E-1
 3.789615154536391E8     8.799532068956385E-1   -4.811113837083035E-1    1.397374473619549E-6   -2.902158631112201E-6    7.520749789280298E-6    9.321910686769093E-6    8.738852483547842E-1   -4.869413864399436E-1
 3.889315553339980E8     8.743101504146863E-1   -4.918928270837080E-1   -2.021167081613026E-5   -1.168350777221825E-5   -2.803979748262319E-6    4.476743991486519E-6    8.679185062024934E-1   -4.988467351903116E-1
 3.989015952143569E8     8.675669595044487E-1   -5.025090644192810E-1   -3.048553058701662E-6    5.451008451511893E-6    1.749638210783039E-6    1.057000511482460E-7    8.611268540969643E-1   -5.097136425445260E-1
 4.088716350947158E8     8.602078177221377E-1   -5.132999997453199E-1    8.221257584834184E-6   -2.631492362141995E-6   -5.267089803842213E-6    7.915272510528841E-6    8.542477296106656E-1   -5.206654670130628E-1
 4.188416749750748E8     8.534522075298586E-1   -5.249581429917032E-1    1.645520343220291E-5    1.526139044530252E-5   -1.178483676645261E-5   -7.917493244038794E-6    8.476698997776144E-1   -5.316348703775817E-1
 4.288117148554337E8     8.461619876648770E-1   -5.366633544623004E-1   -1.527708286178325E-5    1.475012145567201E-6    1.859411806726270E-6    4.522348451695871E-6    8.407116860772565E-1   -5.417983302051025E-1
 4.387817547357926E8     8.383465001895347E-1   -5.480770839918147E-1    1.665775117594859E-6    1.037517917080289E-5   -2.942922448350174E-5    1.007503997329875E-5    8.327003826895817E-1   -5.522766626130863E-1
 4.487517946161516E8     8.305324065248448E-1   -5.598323776047981E-1    3.275917177026977E-6    5.576078603371748E-6    2.605040698035085E-6    3.088010145792970E-6    8.241738849347150E-1   -5.634491962117107E-1
 4.587218344965104E8     8.236685539658003E-1   -5.718040768721914E-1    4.393352625125973E-6    9.558694693523603E-7    1.984729424102298E-6   -1.108381476157560E-6    8.160215320645360E-1   -5.752265091896224E-1
 4.686918743768694E8     8.171897590683557E-1   -5.833185059519185E-1    2.709121420437589E-6   -6.578906454159467E-6    1.421761943332034E-5   -1.647807081496010E-5    8.078813179041258E-1   -5.868510802620701E-1
 4.786619142572283E8     8.100572517936664E-1   -5.940563190667499E-1    1.020744021895964E-5   -8.671093540350432E-6   -1.439183295621318E-5    5.421962547672962E-6    7.993144113109871E-1   -5.979533007911917E-1
 4.886319541375872E8     8.025665774110943E-1   -6.044664814497966E-1   -2.337146165033602E-5   -8.448128561504535E-6    9.487876459718167E-7   -3.084784451366437E-5    7.904728712343776E-1   -6.087826344330749E-1
 4.986019940179462E8     7.940809271026781E-1   -6.150478442412906E-1    1.929807109681710E-6    7.080586524709799E-6   -9.896953070265866E-6   -4.577734139235395E-6    7.823621857599580E-1   -6.196486350310709E-1
 5.085720338983051E8     7.858711132936375E-1   -6.242794944752204E-1    2.584500423975160E-6    1.037910485953618E-5    5.328466881389328E-6   -7.215487407133528E-7    7.746287213031795E-1   -6.302479933555458E-1
 5.185420737786640E8     7.783899214558491E-1   -6.333239120535711E-1    5.991098468969107E-6   -3.838442878116273E-6    2.015068273620461E-5    9.499875447001681E-7    7.670564404831103E-1   -6.401271674046762E-1
 5.285121136590229E8     7.701179933847587E-1   -6.428769026360679E-1   -8.044706556733187E-6    3.437770599372016E-6    1.597940680211028E-6   -1.411377747596335E-5    7.589860608182177E-1   -6.496550901449948E-1
 5.384821535393819E8     7.616305583465774E-1   -6.530596422617860E-1   -7.149050145390190E-6    7.361169096270810E-6   -7.332845762241033E-6   -2.457435750270883E-6    7.508255007621597E-1   -6.593446693154655E-1
 5.484521934197408E8     7.534476534348942E-1   -6.635961061589115E-1   -3.546113409673656E-6   -5.473966532211733E-8   -6.041673956966668E-6    1.894439984734163E-6    7.424863715974652E-1   -6.692144083961493E-1
 5.584222333000997E8     7.448788898640804E-1   -6.745148316055807E-1   -3.435296724421921E-6   -4.690744903374390E-6   -1.876756188648541E-5    1.328593453273904E-5    7.333969443926199E-1   -6.793111022819718E-1
 5.683922731804587E8     7.356974921535337E-1   -6.850176776331991E-1   -4.880827880549596E-6   -1.033274952112412E-6   -1.634202705450490E-5   -5.158121246137030E-6    7.232583801345328E-1   -6.891229791921218E-1
 5.783623130608176E8     7.264645039393554E-1   -6.949174166355071E-1   -4.331580947268468E-6   -2.770699721900006E-6   -2.625857025797887E-6    1.655428628079018E-5    7.126544209319993E-1   -6.988220537116394E-1
 5.883323529411764E8     7.172405499876925E-1   -7.049196035141587E-1    1.567320529662985E-6   -8.515728422455692E-6   -2.594371721246279E-5    2.385032140454857E-5    7.022185384729784E-1   -7.085035399792300E-1
 5.983023928215353E8     7.080942875027050E-1   -7.150947194360633E-1    1.284840389286880E-6    1.193642109552380E-5   -1.569313719575266E-5   -7.018430257770706E-6    6.919211324987216E-1   -7.182721959610580E-1
 6.082724327018943E8     6.986055975297860E-1   -7.247691641308572E-1    1.112291618567757E-5    3.079923649666365E-6   -1.626926674318100E-5   -1.186443034096885E-5    6.817546597397186E-1   -7.277870341783343E-1
 6.182424725822532E8     6.888084367331603E-1   -7.343696650923496E-1   -1.275777156575251E-5   -5.276548280542682E-7   -2.033109161439666E-5    2.286344709816562E-5    6.717588017806351E-1   -7.371143795103667E-1
 6.282125124626122E8     6.783076915947223E-1   -7.437119865172489E-1    4.150699048317685E-6    2.092339783810557E-7   -4.017507678072894E-6    1.175816231358091E-6    6.629099559325907E-1   -7.467372390123443E-1
 6.381825523429711E8     6.685589182178586E-1   -7.509008362682407E-1   -5.282052065215889E-6   -1.836601008875268E-6   -2.258869175207215E-5   -6.758317554687666E-6    6.539216423491402E-1   -7.555141727347698E-1
 6.481525922233300E8     6.596276852168732E-1   -7.594567321456926E-1   -5.401579025781796E-6   -7.449687165970661E-6   -2.916291256501947E-6    1.137207769981685E-5    6.447422702230220E-1   -7.640585146739295E-1
 6.581226321036890E8     6.498425673700277E-1   -7.683727649676335E-1   -3.061090694922603E-6   -4.079967853377466E-6   -1.077344180831279E-5   -1.105594160548984E-5    6.347130022714375E-1   -7.724076547597172E-1
 6.680926719840479E8     6.399622878329818E-1   -7.770444056064946E-1    2.135449073799267E-6   -8.619226555280553E-6   -2.554053397248511E-5    6.854641349143571E-6    6.240690843155035E-1   -7.803388438429747E-1
 6.780627118644068E8     6.300713919756057E-1   -7.851933827069938E-1    7.335609645133942E-6   -1.666318433979085E-5    2.594158152854538E-5    7.199577542869094E-6    6.130566295284893E-1   -7.882464475575631E-1
 6.880327517447658E8     6.197694666786133E-1   -7.935185235618917E-1   -2.893177878638087E-6   -1.342130043277429E-5    1.551953343009399E-5   -1.229734646479683E-5    6.017271611968167E-1   -7.960803165497576E-1
 6.980027916251246E8     6.088595951376992E-1   -8.017188234356595E-1    7.920844695567375E-6   -6.984115259451209E-6   -2.802532173868448E-6    1.178175832925258E-5    5.901743981282080E-1   -8.036759317951475E-1
 7.079728315054835E8     5.974100165726981E-1   -8.100741558622079E-1   -1.380760497498535E-6   -6.321951301000250E-7   -8.072475598435776E-6   -2.008098943732467E-6    5.785841236512926E-1   -8.116081832150968E-1
 7.179428713858424E8     5.862646442737125E-1   -8.184622763300105E-1    1.218646342175282E-5    3.693387282730349E-6   -1.794220935794601E-6   -3.480363260583130E-5    5.673475421919479E-1   -8.201055009994891E-1
 7.279129112662014E8     5.753791080324511E-1   -8.269587109302637E-1    1.529163490381695E-6    9.789926278337607E-6   -1.589957826774741E-5   -7.875080553991662E-6    5.560219629521130E-1   -8.287815593490792E-1
 7.378829511465603E8     5.639642363155626E-1   -8.356729419821339E-1    1.126150696919095E-5   -9.166388556041297E-6   -1.275037088859807E-6    6.231642551387409E-6    5.447757057880376E-1   -8.371600108447746E-1
 7.478529910269192E8     5.520981261050844E-1   -8.442636745842195E-1   -2.335291131557905E-6    1.096233516954354E-6    4.715039492635439E-6    8.158601642297035E-6    5.336796782991879E-1   -8.447712347629635E-1
 7.578230309072782E8     5.393885356773167E-1   -8.513927512646150E-1    1.182698794483916E-6   -2.841838333973580E-6    7.878596656016542E-6    5.520464498457159E-6    5.226681264779042E-1   -8.516928939051667E-1
 7.677930707876371E8     5.290060578633502E-1   -8.567416406156371E-1   -1.026177151138929E-5   -2.070527268159463E-6   -1.827226819275594E-6   -1.410370360176782E-5    5.112427623975233E-1   -8.581919870151794E-1
 7.777631106679960E8     5.194283439790965E-1   -8.636586249689456E-1    1.018433034964169E-5   -6.580462337576469E-6    2.762170850187783E-6    1.854972813896598E-5    4.997953800752278E-1   -8.646667172491461E-1
 7.877331505483550E8     5.091675927026751E-1   -8.707054421954572E-1    4.498016302179029E-6   -7.986806769455205E-6    3.305135029963400E-6    1.068219919116087E-5    4.879627391850626E-1   -8.714205618088520E-1
 7.977031904287138E8     4.979420581131609E-1   -8.771828968251094E-1    3.583791235865275E-6   -9.562286287789551E-6    7.612098718065076E-7    6.077843443806609E-6    4.751485599493517E-1   -8.778332339412909E-1
 8.076732303090727E8     4.861957055511346E-1   -8.829506089826361E-1   -3.921217356682524E-7    8.631340914171197E-7   -8.773817441659713E-6   -4.596064232678003E-6    4.623213659605425E-1   -8.839979909397714E-1
 8.176432701894317E8     4.742288126759707E-1   -8.888915709894247E-1   -8.205398814130165E-6   -6.679537501164243E-6    1.119897341007355E-5    5.203394613545691E-6    4.494401349862033E-1   -8.901872486039059E-1
 8.276133100697906E8     4.619534852077339E-1   -8.954265275646452E-1   -3.184501673229751E-6    2.921514230373834E-6    3.534138242025277E-6   -1.485508818776610E-6    4.368432561207975E-1   -8.969426988809127E-1
 8.375833499501495E8     4.493617774858004E-1   -9.017378262113128E-1    4.484862677579401E-7    2.531618495373094E-6   -9.413610562210141E-6    5.906708619168590E-6    4.246943918847884E-1   -9.037406466435437E-1
 8.475533898305085E8     4.365407521669212E-1   -9.082735499993221E-1    1.479487538329599E-5    6.675945655817791E-6   -7.569136099695630E-6    4.507499855631680E-6    4.128814358097864E-1   -9.098278111336028E-1
 8.575234297108674E8     4.238076169076703E-1   -9.146611506058347E-1   -9.090872765864844E-6    1.273787825453648E-5    1.167992721339349E-5   -2.362644256874234E-6    4.011035207897031E-1   -9.150337926118074E-1
 8.674934695912263E8     4.108961821373942E-1   -9.212950034648959E-1   -2.184031159345250E-6    5.967886691124004E-6   -7.336319732404463E-6    7.571230730774772E-6    3.889558081710829E-1   -9.198797625853172E-1
 8.774635094715853E8     3.977999744756776E-1   -9.278550331373527E-1   -1.204881635335426E-7    8.064091951336315E-6    2.043867595902026E-6    4.869076800805485E-6    3.764425232282872E-1   -9.245362847067551E-1
 8.874335493519442E8     3.847800792200293E-1   -9.324887276971089E-1    7.149021961942927E-6    1.252490254322870E-5    3.935519931141042E-6   -1.498938269885678E-7    3.633134585389362E-1   -9.290413955514929E-1
 8.974035892323031E8     3.734453164296805E-1   -9.361731947342852E-1    1.094964222895457E-6    5.959149903131768E-6   -1.286527347717029E-5   -9.625633026179801E-6    3.497963206759251E-1   -9.333698333479592E-1
