#  HZ   S   RI   R     50.00 
! Rohde & Schwarz Vector Network Analyzer 
! Rohde-Schwarz,ZNB20-2Port,1311601062102128,3.60
! Created: UTC 4/29/2024, 3:47:11 PM
! freq[Hz]                re:S11                  im:S11                  re:S21                  im:S21                  re:S12                  im:S12                  re:S22                  im:S22
 1.000000000000000E5     9.962035079439709E-1    4.527675141598201E-3    1.056132056952172E-5   -6.261454831754742E-5    3.171325348895776E-5   -5.946908355299659E-5    1.011049117385437      -1.110042139251838E-2
 1.007003988035892E7     9.977316793802080E-1   -1.376802938069380E-2   -4.283531380235403E-7    6.312456687384420E-6   -7.309118768632775E-6   -1.434222676637039E-5    9.958455339042336E-1   -1.450122647353083E-2
 2.004007976071785E7     9.998951654833370E-1   -2.712881935525500E-2    8.909623482694051E-6   -6.501002108093516E-6    2.532442924498171E-6    8.834948450516428E-6    9.988928522343197E-1   -2.770947813113203E-2
 3.001011964107677E7     9.978823895751813E-1   -4.103895690173483E-2    1.769810303840694E-5    7.485080373633800E-7    6.626242610121289E-6   -4.205693788784476E-6    9.974575402848119E-1   -4.200062320411742E-2
 3.998015952143569E7     9.976964416764711E-1   -5.295898287684089E-2    2.356940101380052E-5    2.473231354347278E-5   -7.836212166303494E-6   -8.452378631316438E-6    9.976640944678228E-1   -5.678316109338814E-2
 4.995019940179461E7     9.961291502101777E-1   -6.594745428237686E-2    1.570603580721968E-5   -2.009820414986151E-6    1.155434807585787E-5    7.603244414231419E-6    9.965359049342236E-1   -6.920212711908959E-2
 5.992023928215354E7     9.941411440460047E-1   -7.882193408934721E-2   -2.628419596588454E-6    3.555399416029718E-6   -6.052585166785187E-6   -1.017060292905759E-5    9.946241254308847E-1   -8.209557163094119E-2
 6.989027916251247E7     9.929347910704380E-1   -9.169984728122819E-2    1.616838465643899E-6   -1.361137804157929E-5    1.122990344421983E-5    1.219332680641135E-5    9.933151132504489E-1   -9.492128238306119E-2
 7.986031904287139E7     9.923403538617755E-1   -1.051794667550831E-1    6.452188294937401E-6   -2.262847750686008E-5   -2.030722700408591E-6    1.973294157944844E-5    9.922662447902616E-1   -1.080522627515868E-1
 8.983035892323031E7     9.914948142688311E-1   -1.187053977354604E-1   -1.152547062531035E-5    1.133336260047656E-5   -2.505616942666646E-5   -1.814558249842329E-6    9.907626845738393E-1   -1.212035251074677E-1
 9.980039880358922E7     9.894546649558630E-1   -1.322327102238699E-1   -5.227566407873483E-6    5.782757954355781E-6    1.651171942227538E-5   -1.576295041297029E-5    9.886276082424537E-1   -1.346211709290304E-1
 1.097704386839482E8     9.865262180215159E-1   -1.454603430553817E-1   -7.301867338864668E-6    5.665422163416942E-7    1.102048435396829E-5   -4.493802629114179E-6    9.860115212885390E-1   -1.479519259107533E-1
 1.197404785643071E8     9.846460599263146E-1   -1.587870207540708E-1    8.877729709330072E-6   -1.066661594717967E-6   -2.319770285499049E-7   -1.079945605630290E-6    9.842557516003529E-1   -1.612077704483063E-1
 1.297105184446660E8     9.828730776119773E-1   -1.715996218950464E-1   -7.738944153508552E-6   -7.367874444717084E-6    3.484077126694687E-6    1.452577053286355E-5    9.829384021908021E-1   -1.746052961542269E-1
 1.396805583250249E8     9.815378052168483E-1   -1.845507045262503E-1    3.665526459384785E-7    1.174278224158726E-5   -5.167090073577030E-6    3.410415414122015E-6    9.808344184961214E-1   -1.876373739981955E-1
 1.496505982053838E8     9.789434835550672E-1   -1.970225215610230E-1   -3.257109441704814E-6   -1.908332584669581E-5    3.512368630080520E-6    1.138074293927362E-5    9.784892095298643E-1   -2.005169752101765E-1
 1.596206380857428E8     9.761140055539286E-1   -2.093514219686831E-1    6.610687219641353E-6    1.747382856603453E-6    1.038417348013394E-6   -1.909837994338719E-6    9.758104423454992E-1   -2.133803457397852E-1
 1.695906779661017E8     9.731078892194055E-1   -2.221967219120552E-1   -1.934220970997489E-6    2.076980116341051E-6    6.113053049203245E-6    2.663316505379932E-5    9.729349258817114E-1   -2.262338559798660E-1
 1.795607178464606E8     9.707071590284136E-1   -2.347061292710255E-1    8.357760924960863E-6    7.733069688984894E-6   -5.516230190197603E-6   -1.295304620910994E-5    9.702210896718338E-1   -2.381081369103050E-1
 1.895307577268195E8     9.677246818708054E-1   -2.469152068026953E-1   -2.866027666502169E-6   -1.082308396993396E-5    4.381810579778266E-6   -9.562704497775993E-6    9.666683850192682E-1   -2.506756112096172E-1
 1.995007976071784E8     9.638382011894722E-1   -2.593470315776549E-1   -2.656463693429772E-6    9.026495904332096E-6   -1.579972697084882E-5   -9.992028740199685E-7    9.627832651481504E-1   -2.632709561157391E-1
 2.094708374875374E8     9.603852156489140E-1   -2.722430835589785E-1    5.493973200818937E-6   -8.567939632201060E-6    5.548828903144650E-7    5.744521196292858E-6    9.589175332624641E-1   -2.762489450647859E-1
 2.194408773678963E8     9.573726584587982E-1   -2.849414959829880E-1    3.101896704889820E-6    1.001616029951932E-5    3.283397097985882E-5    2.026362563837231E-5    9.551198461915836E-1   -2.891679252385361E-1
 2.294109172482552E8     9.537103242379240E-1   -2.973064510227600E-1   -1.106244231650249E-5   -7.816314380966028E-8    7.991453174344827E-6   -1.130499379999110E-6    9.509264555738924E-1   -3.018495678434928E-1
 2.393809571286142E8     9.505961423638689E-1   -3.093961147140887E-1   -1.250304316178282E-5   -7.306897624838504E-7    3.894383722512587E-6   -2.218022713255005E-6    9.469585337374231E-1   -3.141465833039706E-1
 2.493509970089731E8     9.468500623126370E-1   -3.231740938946215E-1   -5.178800827539723E-6    7.249109138193578E-6    8.109481164040606E-6   -1.453792933212443E-5    9.440852352647614E-1   -3.277868618767967E-1
 2.593210368893320E8     9.426404793843375E-1   -3.351821536061834E-1    4.507474449811298E-6   -1.680032490335131E-6   -1.710217489759663E-5    6.623052676209995E-6    9.398402427208762E-1   -3.409166160015008E-1
 2.692910767696909E8     9.384939563084144E-1   -3.465770122691871E-1    7.930344835258906E-6   -6.087536365376196E-6    1.098673690291735E-5   -3.339568547081564E-6    9.355316916004138E-1   -3.529475509430212E-1
 2.792611166500499E8     9.338347297779727E-1   -3.581577196997935E-1   -9.268225064856807E-6    7.891831236748900E-7    5.522044464701050E-7   -3.550106986256923E-6    9.309386272691232E-1   -3.647609049123779E-1
 2.892311565304088E8     9.289702964767372E-1   -3.702461770679251E-1    1.625391197350999E-5    3.820592122835760E-6   -9.788185112420186E-6   -1.746413667766470E-5    9.262369872275361E-1   -3.768160130757429E-1
 2.992011964107677E8     9.240625687497470E-1   -3.823134496832720E-1   -1.077252059557529E-5   -1.987249923585402E-6   -7.033929697236503E-6    1.184623006074013E-5    9.212321705408250E-1   -3.886821435352842E-1
 3.091712362911266E8     9.188725668498897E-1   -3.946429255296681E-1   -7.873200044251303E-6   -1.595195423122824E-5    2.042937358890661E-5   -1.778718728126751E-5    9.156826320265998E-1   -4.001531159419053E-1
 3.191412761714855E8     9.134642217072803E-1   -4.071215094295104E-1    7.371463027578537E-6    1.033419555853214E-5    8.532099909678921E-6   -1.653388506141991E-5    9.096692645450296E-1   -4.119756645856938E-1
 3.291113160518445E8     9.077088252122748E-1   -4.197921796441647E-1   -2.370602476775653E-6    3.058619808570304E-6    1.064658410398866E-6    9.530155449694868E-6    9.034420174852417E-1   -4.244008201881098E-1
 3.390813559322034E8     9.019238223043532E-1   -4.325257909344578E-1   -9.499043801267553E-6   -2.762708402221045E-6    6.500434869732305E-6   -6.075992078701788E-6    8.968126816706541E-1   -4.369792932419160E-1
 3.490513958125623E8     8.968268618266206E-1   -4.451671453790884E-1   -1.723354271295179E-6   -1.781540560626570E-5    9.154463640110414E-6   -1.521249463455976E-5    8.905560216731755E-1   -4.494407504445915E-1
 3.590214356929212E8     8.915186697017667E-1   -4.577267248866435E-1    4.266054881789108E-6    1.148498651440896E-5    2.896393476621082E-6   -8.610894226512425E-6    8.845217553872419E-1   -4.621725169805292E-1
 3.689914755732802E8     8.860291300362950E-1   -4.698315718383128E-1    1.011831829565710E-5   -7.479300584151710E-6   -9.203549374718558E-6   -1.236195999973895E-6    8.790870613105162E-1   -4.747763848510169E-1
 3.789615154536391E8     8.797834506903099E-1   -4.810263055017858E-1    1.517481682289765E-5   -4.187041662176534E-6    6.018415303096378E-6    9.377738427938804E-6    8.738107350370599E-1   -4.867980035689526E-1
 3.889315553339980E8     8.741659404267594E-1   -4.917957173362708E-1   -6.093340621307334E-6   -9.124254104165272E-6   -6.255490920805827E-6   -1.208813501390838E-5    8.679884702609032E-1   -4.988606911469635E-1
 3.989015952143569E8     8.674885737451103E-1   -5.024856643873912E-1    3.338271815062058E-6   -3.498880073657947E-6    1.172469090712497E-5   -1.265054808747193E-5    8.611324300571570E-1   -5.096768675070141E-1
 4.088716350947158E8     8.603883192087272E-1   -5.133508884313955E-1    8.662617079064707E-6   -6.224996912031272E-6   -1.488530582354293E-5    8.090945848858649E-6    8.542512828701678E-1   -5.206591515433693E-1
 4.188416749750748E8     8.533357866007634E-1   -5.248894618913552E-1   -1.160292215448405E-5   -8.281806907974902E-6   -2.671100210924625E-5    2.839017473153130E-6    8.476036672276482E-1   -5.314471909553791E-1
 4.288117148554337E8     8.460747273255496E-1   -5.365276605227703E-1   -1.416586719987689E-6    1.654353126689058E-6   -1.491340773517095E-5    1.617170223679018E-5    8.406665294336778E-1   -5.418919044306545E-1
 4.387817547357926E8     8.382651888948255E-1   -5.479533157457603E-1   -1.503210562083886E-5   -1.101846588392781E-5   -5.908352450802545E-6    9.071941978875226E-6    8.326672597804452E-1   -5.523322148419514E-1
 4.487517946161516E8     8.306911485868613E-1   -5.598970291400945E-1    9.262320796460756E-6    1.925219310874010E-6   -9.757077221808144E-6    1.597938103170676E-5    8.242535119259216E-1   -5.634642393351027E-1
 4.587218344965104E8     8.237531924556382E-1   -5.718196440319121E-1   -4.744999193585530E-6    4.180726731537997E-6    8.259993397894735E-8    1.211727673911764E-5    8.160150955222724E-1   -5.752175044691888E-1
 4.686918743768694E8     8.169796935085260E-1   -5.830986670209128E-1    1.564873862811938E-5   -1.655387753059252E-5    1.204357065829079E-5    1.827511352073749E-6    8.078700947184514E-1   -5.868925296657530E-1
 4.786619142572283E8     8.099734647311473E-1   -5.939084408838192E-1   -9.171518449081701E-6    2.979411005996971E-6    9.916537050569593E-6    8.033297067480276E-6    7.992932465812540E-1   -5.981433204806375E-1
 4.886319541375872E8     8.024504537405922E-1   -6.043313115769030E-1   -1.178522626070187E-5   -6.367116188929653E-6    3.977739753760221E-6   -4.981789221425956E-6    7.904408514724872E-1   -6.088744496245625E-1
 4.986019940179462E8     7.942693147543453E-1   -6.150870219487382E-1    1.166068617568533E-5   -9.545773949606835E-6    7.231283212690239E-6    1.176697497617316E-5    7.823106087503362E-1   -6.197159249665074E-1
 5.085720338983051E8     7.858406174552843E-1   -6.242011574088338E-1   -1.257952330684702E-6    2.155524900736047E-6   -6.865274890106975E-6   -1.579136685429246E-5    7.746869005901024E-1   -6.302433962787601E-1
 5.185420737786640E8     7.783273341714796E-1   -6.332279381335726E-1   -7.341146464708668E-6    7.863154934801160E-6    1.197331953496466E-7    1.315221236439646E-5    7.670128832787366E-1   -6.400521902483459E-1
 5.285121136590229E8     7.700785785207614E-1   -6.428133177219963E-1   -1.196370365418712E-5   -1.135150670138676E-6    1.499438857983266E-5    2.432953383923706E-5    7.590840183028996E-1   -6.495817972854773E-1
 5.384821535393819E8     7.616330380417403E-1   -6.530409945405241E-1   -2.977433426031637E-7    8.380685122651030E-6    1.382776732405985E-5   -1.261309730683492E-5    7.509382480955122E-1   -6.593529952909717E-1
 5.484521934197408E8     7.534616061199446E-1   -6.636785507587741E-1   -9.180713215789220E-6    4.275134057936368E-6    6.798343282269927E-6    1.119192558624510E-5    7.426050252803660E-1   -6.692677255169605E-1
 5.584222333000997E8     7.447715779030033E-1   -6.744533162666509E-1   -5.656870467127005E-6    5.112526740758763E-7   -5.854386452966475E-7   -2.302718901643672E-6    7.333069231312205E-1   -6.791603643833658E-1
 5.683922731804587E8     7.356979123827205E-1   -6.849220954913529E-1    1.365023888972926E-6   -1.309411981775470E-5   -1.063174033354408E-5   -1.059711032147724E-5    7.231422609473487E-1   -6.891266719196916E-1
 5.783623130608176E8     7.264650369056797E-1   -6.949631026386777E-1    3.423701873470954E-6    7.392083312522291E-6   -1.351546666724011E-5    1.855682768267513E-5    7.126573778062043E-1   -6.988418974662086E-1
 5.883323529411764E8     7.173108004871187E-1   -7.048927992628351E-1    7.560452123874503E-8    7.523859529711820E-6   -1.433933708083059E-5   -7.407692170709368E-6    7.021254139841639E-1   -7.085098474077061E-1
 5.983023928215353E8     7.080965490971191E-1   -7.150007863170916E-1    1.154561851591161E-5   -6.646015037744474E-6   -6.706931306745888E-6   -2.739578718515842E-5    6.919865409960959E-1   -7.182689681634300E-1
 6.082724327018943E8     6.986875464936971E-1   -7.247695538745420E-1    2.873446750372509E-6    5.706599960745006E-6    7.688878958751424E-6   -1.814456394336118E-6    6.816827141013777E-1   -7.277591452638904E-1
 6.182424725822532E8     6.887371987261062E-1   -7.342735968817437E-1   -9.871877774287345E-6   -1.235260897181872E-5    6.517305346447845E-6   -3.639616406949137E-6    6.718065913604652E-1   -7.370997089394894E-1
 6.282125124626122E8     6.782619137293429E-1   -7.437419981092268E-1    1.071634936312451E-5    4.274434143563537E-6   -5.481865951771404E-6   -3.170149768766729E-6    6.627699612086811E-1   -7.466507732580464E-1
 6.381825523429711E8     6.685348409813844E-1   -7.508030426050051E-1    7.045227021006523E-6   -1.266356064631615E-5   -1.319324664729482E-5   -2.900403878443464E-6    6.538247764907611E-1   -7.554762398047239E-1
 6.481525922233300E8     6.595589704160890E-1   -7.594677695165253E-1    1.811765533317675E-5   -1.501592401498009E-7   -5.343629162659429E-6   -9.207006603772283E-6    6.447888301484036E-1   -7.639088644178946E-1
 6.581226321036890E8     6.498864708790439E-1   -7.684533139179233E-1   -6.857792004022766E-6   -4.221335955010248E-7   -5.423011351299339E-8   -3.236675861871253E-7    6.347194718135615E-1   -7.724492515956379E-1
 6.680926719840479E8     6.399001843684967E-1   -7.770740959530433E-1   -1.330041031944335E-6    1.807826302427511E-6   -1.105247042448328E-5    1.196320695659659E-7    6.240435005112480E-1   -7.803722323254545E-1
 6.780627118644068E8     6.300767348523805E-1   -7.851253836010913E-1   -8.388991442245341E-7   -3.840541198910900E-7   -1.671524876260617E-5    9.248220310833667E-6    6.129976535585743E-1   -7.882470943495192E-1
 6.880327517447658E8     6.197610634657658E-1   -7.935558159273147E-1    7.896777945443403E-6   -3.098238205380713E-6    3.939918091015480E-6   -1.163490359137983E-5    6.016693518044016E-1   -7.959269386650388E-1
 6.980027916251246E8     6.088882849860049E-1   -8.017675603579943E-1    4.782697580479081E-6   -1.183411359260772E-5    1.154851201993880E-5    6.717733573848743E-6    5.902126076150003E-1   -8.035797534578896E-1
 7.079728315054835E8     5.974350029494476E-1   -8.100436470578212E-1    1.768395242843632E-5   -5.521752588698692E-6    1.367638114960021E-5    2.297031227199932E-6    5.786946566301218E-1   -8.114813853285263E-1
 7.179428713858424E8     5.862045082002322E-1   -8.184395249797289E-1    5.879785945439656E-6   -6.674569136641358E-6   -1.248514848210466E-5    1.342277128973310E-5    5.673946874749927E-1   -8.199944338456056E-1
 7.279129112662014E8     5.752343194151996E-1   -8.269273728975698E-1    1.610606460542663E-7   -7.367775657703550E-6    8.235515553453058E-6   -9.701347055786305E-6    5.561249472011510E-1   -8.287680380233188E-1
 7.378829511465603E8     5.640016187320923E-1   -8.356933242564309E-1   -1.180037208437645E-5   -8.654651900018808E-6    7.394622804244378E-6    6.506785884432001E-6    5.448221787441182E-1   -8.370474542927898E-1
 7.478529910269192E8     5.520958677633203E-1   -8.442081373912697E-1    1.174950898930019E-6   -6.814606410827348E-6    1.320665704030930E-6   -1.175633465286959E-6    5.336286575317774E-1   -8.447106033895230E-1
 7.578230309072782E8     5.394551792415416E-1   -8.513650674421338E-1   -1.144613664338544E-6   -5.775686438176526E-6   -5.125018728433833E-6    1.130808325669351E-5    5.225511026689668E-1   -8.517442811502599E-1
 7.677930707876371E8     5.290103445674187E-1   -8.567306975223471E-1   -9.826830858906622E-7   -1.091300600792903E-6   -5.919650759078916E-6    9.962118157666223E-6    5.112501172347437E-1   -8.581428148236988E-1
 7.777631106679960E8     5.194229090500021E-1   -8.636617294085427E-1    6.577526254307974E-6   -5.027502860384807E-6    7.037277998827165E-6    2.313971280676000E-6    4.996378117224782E-1   -8.646467182551119E-1
 7.877331505483550E8     5.090849591848320E-1   -8.706204423927785E-1    1.312961184643732E-5   -7.334731670743703E-6    7.120981049271354E-6    2.737257201955045E-6    4.878963596936984E-1   -8.711700017931500E-1
 7.977031904287138E8     4.979380352836833E-1   -8.770757154943604E-1   -4.063705081157890E-6    4.903311208148506E-6    6.255040531638272E-6    1.434239586226548E-5    4.751890949811834E-1   -8.778142692792014E-1
 8.076732303090727E8     4.861877215142337E-1   -8.829663705431817E-1    3.976848576994584E-6    2.404846489924701E-6    5.792411322508952E-6   -1.221759601692833E-5    4.623465456685111E-1   -8.839128020172726E-1
 8.176432701894317E8     4.742982280700611E-1   -8.889111741879403E-1    1.919743976306570E-5    1.229127114800439E-5   -9.615674820128984E-6    6.795254990223366E-6    4.495042908304381E-1   -8.903099669768495E-1
 8.276133100697906E8     4.619346705449499E-1   -8.953084021211847E-1   -1.369055495031822E-5   -3.101471034010420E-7    1.850396031463152E-5    4.036995612428689E-6    4.368602440845999E-1   -8.969003104450410E-1
 8.375833499501495E8     4.493917552622916E-1   -9.018258558686042E-1    4.597323253816085E-6    6.278465974290582E-6   -1.941388181477277E-6   -2.477687683849103E-6    4.247103834534257E-1   -9.036807923402741E-1
 8.475533898305085E8     4.365612855170605E-1   -9.082988890007230E-1   -2.213203532109073E-6   -1.361764292563103E-5    4.468145921513167E-6   -4.023048863697583E-6    4.128273543798868E-1   -9.097295161259130E-1
 8.575234297108674E8     4.237682916458383E-1   -9.146435706273736E-1   -4.084071932784456E-6    1.744893172308652E-7    1.510080369721239E-5   -7.481739994204036E-6    4.011409458257393E-1   -9.149870468549859E-1
 8.674934695912263E8     4.108389456264539E-1   -9.212834198917034E-1    1.117054603410384E-5    3.999004173195919E-6    2.533505577336534E-6   -7.243508024700181E-6    3.889925987062974E-1   -9.198667016194325E-1
 8.774635094715853E8     3.978450723022182E-1   -9.277865077985268E-1   -1.017288547323164E-5    4.441138501672678E-6    6.073976982958412E-6    1.562911554073757E-5    3.763443553563782E-1   -9.245251404997870E-1
 8.874335493519442E8     3.847579928406066E-1   -9.324989463482176E-1   -4.709139958716603E-6    2.459544829670862E-6   -1.347757980760254E-5   -1.422195042390869E-6    3.632462316811525E-1   -9.288753577711075E-1
 8.974035892323031E8     3.734703868991093E-1   -9.361500169529002E-1    6.855964405763984E-6    2.422016835792793E-6   -3.718649916342499E-6    1.466300065567537E-6    3.497151275994886E-1   -9.334039725395891E-1
