#  HZ   S   RI   R     50.00 
! Rohde & Schwarz Vector Network Analyzer 
! Rohde-Schwarz,ZNB20-2Port,1311601062102128,3.60
! Created: UTC 4/29/2024, 3:47:08 PM
! freq[Hz]                re:S11                  im:S11                  re:S21                  im:S21                  re:S12                  im:S12                  re:S22                  im:S22
 1.000000000000000E5     9.958515569250190E-1    4.569992318640916E-3   -1.750132011489638E-4   -4.857559646842994E-5   -4.619612527883628E-5   -1.775439024837666E-5    1.010984238002937      -1.102493143158421E-2
 1.007003988035892E7     9.987431898630984E-1   -1.390846377125887E-2   -2.980730656700946E-6    1.374162883208453E-5    8.875759294367854E-6    1.456495896679321E-5    9.957767172369546E-1   -1.462237994208644E-2
 2.004007976071785E7     1.000029363637676      -2.724794147599374E-2    4.408513330060687E-6   -1.195592985310070E-5    4.339933722327715E-6    5.128501046077946E-6    9.987730521218893E-1   -2.766498717131353E-2
 3.001011964107677E7     9.982780851093292E-1   -4.108055960844300E-2    2.256247254267084E-5    8.473446136132269E-6    3.934449509678970E-6    1.430315975270676E-5    9.975218632776686E-1   -4.210195447024637E-2
 3.998015952143569E7     9.975684963734108E-1   -5.302509159444043E-2    4.297360071306171E-6    3.402294974280446E-6    1.346745913416320E-5   -2.663582291473077E-6    9.976290351632370E-1   -5.675337972755152E-2
 4.995019940179461E7     9.956218828783314E-1   -6.589042457611639E-2   -2.013615527116345E-8   -4.914807046903112E-6    1.188532637816442E-5    1.734538247540982E-5    9.966312425370651E-1   -6.935347122053244E-2
 5.992023928215354E7     9.937879913222891E-1   -7.876646448706431E-2   -1.494425821526413E-5   -2.086205231922928E-5    4.818875612914139E-6    1.786661587275787E-5    9.947577854744898E-1   -8.207715601423077E-2
 6.989027916251247E7     9.933328373963826E-1   -9.182539004606866E-2    2.335353376928820E-6   -3.119436734906290E-6    1.478521941467894E-5   -2.392788695497752E-5    9.933335933979548E-1   -9.494462262335829E-2
 7.986031904287139E7     9.929120891295578E-1   -1.051761368875995E-1    1.496035804218039E-5   -6.420412182759766E-6    3.002002519476139E-6   -2.602694639752829E-5    9.923522856415703E-1   -1.080857277553403E-1
 8.983035892323031E7     9.916837440808445E-1   -1.186986320720732E-1    1.014659643381396E-5   -8.189035573566519E-6   -2.014063063475105E-5    2.127115458614054E-5    9.908480354967583E-1   -1.213046488995891E-1
 9.980039880358922E7     9.891855703112319E-1   -1.321649155675708E-1   -1.023926368742813E-5   -7.402207752550857E-6    3.812244331237260E-6    1.894224153944026E-6    9.885754342117418E-1   -1.347017734147193E-1
 1.097704386839482E8     9.861553048142184E-1   -1.454221632076970E-1   -2.102830098872312E-6   -1.786246259175419E-6   -1.038509191384981E-5   -3.849541908692058E-6    9.861861311500502E-1   -1.480366130322142E-1
 1.197404785643071E8     9.848510236234941E-1   -1.588482639786171E-1   -1.253919322125219E-5    2.490849793465284E-5    1.276256629894116E-5    7.148654514792566E-6    9.841942032800240E-1   -1.612925066108083E-1
 1.297105184446660E8     9.831165680796270E-1   -1.717153470318807E-1   -6.999033519684033E-6   -6.205560223385087E-6    2.124550772487618E-6    1.127081498559442E-5    9.828052446429375E-1   -1.745597519448376E-1
 1.396805583250249E8     9.817723447035447E-1   -1.845865263923060E-1    1.518423728068153E-5    6.753648059392511E-6    1.532955271243593E-5    3.862884651830002E-7    9.807901281694427E-1   -1.876481186316415E-1
 1.496505982053838E8     9.787876731362407E-1   -1.969369432941806E-1   -5.939635654602157E-6   -1.480457472971319E-5   -1.173862387071618E-6   -3.938559026321613E-6    9.786039510452594E-1   -2.004717436724704E-1
 1.596206380857428E8     9.760483797239119E-1   -2.093179595058242E-1   -1.771461247735224E-5   -6.813778398400448E-6    4.922447608752311E-6    2.151318107772619E-5    9.758769385763866E-1   -2.133533400994942E-1
 1.695906779661017E8     9.732489429203932E-1   -2.222073048003191E-1    5.061903699757772E-6   -1.106734684012584E-5   -2.854010910491851E-6    8.279328741296695E-6    9.729275208119187E-1   -2.261482543506775E-1
 1.795607178464606E8     9.707872878646040E-1   -2.346386077308218E-1    1.468644617743060E-5    1.241221166791149E-5    1.940276918404618E-5    1.671486031395141E-5    9.701506727533609E-1   -2.381904616037963E-1
 1.895307577268195E8     9.677605964388090E-1   -2.469317372375119E-1    5.988363370473476E-6   -2.266047157429655E-6    6.487228058907306E-6    7.005895437082983E-6    9.667270850733852E-1   -2.506385139568474E-1
 1.995007976071784E8     9.637282514769375E-1   -2.593276512634654E-1    7.390458661693953E-6    1.327819326764003E-5   -2.762501810891222E-6   -8.131128551075689E-6    9.629102112369322E-1   -2.632981326557926E-1
 2.094708374875374E8     9.605398901809247E-1   -2.722652795112668E-1    9.420657030087019E-7   -1.949737034066758E-6    1.309959915389686E-6    1.183241148118561E-5    9.589474563238241E-1   -2.763067654568030E-1
 2.194408773678963E8     9.573695871150522E-1   -2.849227830229824E-1   -1.411086002319464E-5    1.733443089244746E-5   -1.286618897070567E-5   -8.112004256738444E-7    9.550703583769884E-1   -2.892286061997016E-1
 2.294109172482552E8     9.537929458182662E-1   -2.973005391150626E-1   -1.431465402583617E-6    2.009998939649483E-5    1.529943803574166E-5    2.007508985096092E-5    9.509711607947456E-1   -3.019262557923642E-1
 2.393809571286142E8     9.505422809140470E-1   -3.093080917268307E-1    7.267853307614234E-6    1.360417534294970E-6    1.564903101854525E-5    5.771007739921201E-6    9.470098034303917E-1   -3.140628164262863E-1
 2.493509970089731E8     9.468199043041945E-1   -3.230871715277077E-1   -1.319529113554413E-5   -1.078106431453747E-6    1.896508799606713E-5    6.602943940164141E-7    9.440525990179204E-1   -3.277909352607368E-1
 2.593210368893320E8     9.426531687143899E-1   -3.351747426908962E-1   -1.887332057619345E-6    5.823968658080735E-6    1.041565575454501E-5   -1.937733521448758E-5    9.398161723993266E-1   -3.409354533823124E-1
 2.692910767696909E8     9.385460653937245E-1   -3.465726629237771E-1    2.798637203124829E-6    1.142978764676239E-5   -1.351525386496240E-5    6.517469917935834E-6    9.355892520569873E-1   -3.529707212255452E-1
 2.792611166500499E8     9.337877097506477E-1   -3.581442737745523E-1    5.377004667953743E-6    2.005549239064765E-5   -1.486654751672263E-5    1.132542057689113E-5    9.310718285834272E-1   -3.647523887754402E-1
 2.892311565304088E8     9.289771407697248E-1   -3.702645873747463E-1    1.202438300359015E-5   -1.352662227375752E-5    5.837170733229643E-6   -1.209566668786560E-5    9.261913672719172E-1   -3.768067322934301E-1
 2.992011964107677E8     9.241522672303888E-1   -3.823640889929502E-1   -9.008479793452370E-6   -3.611091575905107E-7    1.431872108613982E-5    4.797954149871502E-6    9.213353350412996E-1   -3.887078284797972E-1
 3.091712362911266E8     9.189330412391328E-1   -3.947157418828572E-1    1.565702470309289E-6    1.570719878466940E-5   -5.437411396706209E-6    1.354421026571303E-5    9.157465842893155E-1   -4.002877875416174E-1
 3.191412761714855E8     9.133840030345849E-1   -4.070216083102206E-1    1.008237079680480E-5    1.943272675172905E-6   -9.800702059666689E-6   -8.547244292431353E-6    9.097897474045128E-1   -4.119564235176990E-1
 3.291113160518445E8     9.076912816740703E-1   -4.197031669388208E-1   -1.106002922481379E-5   -7.875209331395473E-8   -2.370371647112954E-7   -1.392942874335825E-5    9.033854601285015E-1   -4.243780328898012E-1
 3.390813559322034E8     9.021264469790056E-1   -4.326273514036936E-1   -1.182386956862624E-5    4.332964654914918E-6    1.339793148743370E-6    8.985267719114048E-6    8.967749008913816E-1   -4.370547544164133E-1
 3.490513958125623E8     8.968578080918975E-1   -4.451508340099924E-1    1.126124559274008E-5   -4.498489901030945E-6   -1.676417273707800E-6    9.162265374778067E-6    8.905514369104860E-1   -4.495061099836506E-1
 3.590214356929212E8     8.914151031087507E-1   -4.575678675264677E-1    1.359732258123070E-7   -7.004350427233993E-6    4.754666245612045E-6   -2.337445692135271E-5    8.845765106943599E-1   -4.621576267263205E-1
 3.689914755732802E8     8.861254235184751E-1   -4.698528986415126E-1    2.522822930003342E-6   -4.876842827603208E-6    5.211819348737834E-7   -4.367141900617677E-6    8.789539595972412E-1   -4.747445417935536E-1
 3.789615154536391E8     8.799438201189620E-1   -4.810586750325881E-1    5.016640095511057E-6   -1.709678368259059E-5   -2.963438586142809E-5    3.347422200421734E-6    8.737342248012239E-1   -4.868307512101573E-1
 3.889315553339980E8     8.742263464245866E-1   -4.917100091278411E-1    2.652491824652728E-6    3.784834904137420E-7    8.633183815880603E-6    1.243050682197805E-5    8.680659781423727E-1   -4.988347290561458E-1
 3.989015952143569E8     8.675606108951547E-1   -5.025400711084397E-1    6.609883219611341E-6    1.314876511145246E-5   -3.504945860780513E-6   -1.586800121543632E-5    8.612146591768297E-1   -5.097813664567743E-1
 4.088716350947158E8     8.603905849778456E-1   -5.133991073166843E-1    1.084621830453818E-5    1.117261049299293E-5   -1.070411370359655E-5   -1.504670134584991E-5    8.543273240127850E-1   -5.206460944708106E-1
 4.188416749750748E8     8.534044773365755E-1   -5.248942551553598E-1   -2.889295106289745E-6   -7.567093950430548E-6   -4.505079825204003E-6    1.190287180817835E-5    8.476207022391986E-1   -5.314478625741036E-1
 4.288117148554337E8     8.460849412328941E-1   -5.365335464564612E-1   -4.527007213346390E-6    1.681677941602286E-5   -1.081148168646581E-5    1.669454544847338E-6    8.406938713419206E-1   -5.418793023901989E-1
 4.387817547357926E8     8.382808172225086E-1   -5.480158255635033E-1   -5.643077753461847E-7    3.763857682152728E-6   -1.021833055836044E-5   -1.102987006371440E-5    8.327459614807264E-1   -5.523910530464072E-1
 4.487517946161516E8     8.306359854891797E-1   -5.598481549908672E-1   -1.085224152614896E-5    4.387173885171427E-6   -3.007348277151421E-7    4.569003484991999E-6    8.241869362031337E-1   -5.634112595232955E-1
 4.587218344965104E8     8.236186722986412E-1   -5.717819194018958E-1   -3.832566105076209E-6    2.947054518840220E-6   -2.174420172837839E-6    1.920935477691603E-5    8.160543127174010E-1   -5.752926823698844E-1
 4.686918743768694E8     8.170314628536197E-1   -5.831397573138375E-1    3.363183606378635E-6    2.030770249681170E-6   -5.527440272198298E-7    5.803154702668969E-7    8.078221553776601E-1   -5.867975417197235E-1
 4.786619142572283E8     8.099365887625141E-1   -5.939459838996850E-1   -1.280415766592917E-7   -3.203085508628688E-6    4.152449440309080E-6    4.852598431328129E-6    7.993839537511755E-1   -5.981050531327471E-1
 4.886319541375872E8     8.026060464824094E-1   -6.044699145158665E-1    4.943021004032210E-6    8.143832437574385E-6   -3.008903416713012E-6    3.223843520688903E-5    7.904582068629612E-1   -6.089357662540466E-1
 4.986019940179462E8     7.941883194914494E-1   -6.150723173259349E-1    5.409428804360548E-6    1.126826941397667E-5    4.355118399745709E-6    3.741522700622251E-6    7.822407689469462E-1   -6.195618276994459E-1
 5.085720338983051E8     7.856577534552126E-1   -6.240661016286341E-1    9.823139191131515E-6    3.394042185885510E-6   -1.487105190716965E-5   -8.980285043420598E-6    7.746362499681186E-1   -6.302344181386161E-1
 5.185420737786640E8     7.783802745005942E-1   -6.332185041704139E-1   -1.749247822010763E-6   -1.630630130876705E-7    2.072261168886083E-6   -8.126767248791782E-7    7.670123362850045E-1   -6.400841170778340E-1
 5.285121136590229E8     7.702572424802308E-1   -6.429717829889091E-1    9.980064664828680E-6   -9.844876363665362E-7    1.041723567186459E-5   -1.033683422061940E-5    7.591228062477847E-1   -6.497348280356106E-1
 5.384821535393819E8     7.615994187276629E-1   -6.529712248723365E-1   -2.696982163389298E-6    7.122154855826400E-6   -4.372108199609614E-6   -1.079570803696167E-5    7.509271211913069E-1   -6.592714132007794E-1
 5.484521934197408E8     7.533278373698123E-1   -6.634904880061397E-1    6.664817561934477E-6   -1.241565689152043E-5    3.876874473560994E-6   -1.418232345394047E-5    7.425277087888209E-1   -6.692335316405893E-1
 5.584222333000997E8     7.447871375194246E-1   -6.744167145412870E-1    1.746670737914101E-6   -2.518309842386526E-6    2.264328175322375E-6    3.989339556723215E-6    7.334856038934862E-1   -6.793115797187396E-1
 5.683922731804587E8     7.356724361602512E-1   -6.848650419882742E-1    4.936735120840846E-6   -1.264386643570190E-5   -1.398020896356736E-5   -4.454207334087762E-6    7.232016249533219E-1   -6.891455960109559E-1
 5.783623130608176E8     7.265896567378038E-1   -6.948764269907293E-1    1.769707667365948E-5   -1.066173975601771E-6   -8.502765054797601E-6   -6.226202436022667E-6    7.125685413579622E-1   -6.987528768961832E-1
 5.883323529411764E8     7.173450941641754E-1   -7.049252431598306E-1   -2.999142601876105E-6    7.398955169238527E-7   -2.999335588166917E-6   -9.909363554383014E-6    7.021906505691697E-1   -7.085849490623194E-1
 5.983023928215353E8     7.079691620787590E-1   -7.147347970388479E-1   -1.507321619396814E-5   -5.863503438394075E-6   -3.514574862153129E-6    3.042215679971218E-6    6.921127314548885E-1   -7.183615272635729E-1
 6.082724327018943E8     6.985524986087905E-1   -7.245787469681862E-1    1.574145723961810E-6    1.393738884574304E-6   -1.193568126305957E-5    1.224991666977430E-5    6.816722810264622E-1   -7.277756225889338E-1
 6.182424725822532E8     6.889274275009101E-1   -7.343957091026517E-1   -6.638193441220043E-6   -1.278531982483648E-5    8.992218082634252E-6    3.713319602301955E-6    6.717935151895310E-1   -7.370544391147983E-1
 6.282125124626122E8     6.783226263055621E-1   -7.437295405917025E-1   -1.033856354948215E-6   -4.760276425193457E-6   -8.730921393220501E-7    3.000805833322435E-6    6.628742557947332E-1   -7.466414995704108E-1
 6.381825523429711E8     6.685521166693646E-1   -7.508830279798584E-1   -4.365736680831549E-6    6.682064428049203E-6    9.629916518004430E-6    1.823452838868550E-6    6.538320835822556E-1   -7.555608773341264E-1
 6.481525922233300E8     6.596278444626941E-1   -7.594524128217016E-1   -6.036050256552798E-6    8.746919172915628E-6    5.175669959413024E-6   -1.515961693426586E-5    6.447313118672802E-1   -7.640314816950919E-1
 6.581226321036890E8     6.498606250021292E-1   -7.683190664052005E-1    2.184555519433181E-6    9.774239892586417E-6   -9.187072237154208E-6   -1.820785168278415E-5    6.347936558922280E-1   -7.723299925703876E-1
 6.680926719840479E8     6.399233473418517E-1   -7.770487786247717E-1    2.262484556560577E-7    3.505115567882334E-6    2.199784327747463E-6    9.385940229762726E-8    6.240944642611889E-1   -7.804618532837424E-1
 6.780627118644068E8     6.302174121380637E-1   -7.852846121915584E-1   -1.841585085967322E-7    1.466856208011164E-5    7.820424248764281E-6   -9.996328930298588E-6    6.131004000378255E-1   -7.882765487994357E-1
 6.880327517447658E8     6.197015960922709E-1   -7.934680086877287E-1   -1.452367700534945E-6    4.921737809049942E-6    3.633763495249323E-6    1.477001179875579E-5    6.016564899199147E-1   -7.959048525541523E-1
 6.980027916251246E8     6.087873593019740E-1   -8.016555664142390E-1    5.461823696709865E-6    8.466695465023898E-7   -1.104023604455242E-5   -2.018981703857993E-5    5.901222100856479E-1   -8.035396275417021E-1
 7.079728315054835E8     5.974650610474693E-1   -8.099815749190459E-1   -8.482712133567109E-7   -1.510477170252038E-5   -4.901278268066357E-6    1.704219409034833E-5    5.785957752917361E-1   -8.115072294150032E-1
 7.179428713858424E8     5.862452595218697E-1   -8.185538775087147E-1   -5.793416977807717E-6    1.331317495991545E-5   -2.530171038369194E-5   -2.196760091132464E-6    5.673563740094901E-1   -8.200868673496637E-1
 7.279129112662014E8     5.753482140730010E-1   -8.269285054059713E-1   -4.968424312993436E-6    1.798648737737118E-5    6.534172689754783E-6   -6.401693690757078E-6    5.560295056429011E-1   -8.288398034146462E-1
 7.378829511465603E8     5.640175804238291E-1   -8.356581127776718E-1    3.672733851938557E-6   -7.504005037780738E-6   -1.454451170732802E-5   -5.137004251817992E-6    5.447313006266475E-1   -8.370904951543646E-1
 7.478529910269192E8     5.519398604459793E-1   -8.441131372745666E-1   -6.158534873975362E-6   -5.039142077980596E-6    3.797615133664121E-6   -3.409117889076690E-6    5.336823517648703E-1   -8.447713964308298E-1
 7.578230309072782E8     5.394537303846408E-1   -8.513383044095999E-1    9.162413181559177E-6    1.253267769068245E-6    8.289070869058937E-6    3.838105614178218E-6    5.225295271899647E-1   -8.516803114396506E-1
 7.677930707876371E8     5.291066243778496E-1   -8.567822807754311E-1    1.403489693713448E-5   -1.059335890569570E-5    8.344838642815832E-6    9.164106586298463E-6    5.112879635455048E-1   -8.582142687881392E-1
 7.777631106679960E8     5.194571264483486E-1   -8.637434317888254E-1   -6.104777710265606E-6   -5.735780407211685E-6   -1.305243349916681E-5    9.699605534596206E-7    4.996781085719903E-1   -8.646727478147975E-1
 7.877331505483550E8     5.091543134787333E-1   -8.706197546538560E-1    1.011704608752818E-6    3.393056344823335E-7   -1.052930779445111E-6   -2.249655749705196E-6    4.879856303351273E-1   -8.714239150964542E-1
 7.977031904287138E8     4.977978711209769E-1   -8.769256568946436E-1    1.527030115756050E-7    3.682658335026979E-7   -1.886904116209817E-6    2.283155547664474E-6    4.750891488772545E-1   -8.777863266484359E-1
 8.076732303090727E8     4.862848052912620E-1   -8.829549627664440E-1    1.838346970279900E-5    6.346060183163620E-6   -3.284086366575799E-6   -3.841682041796033E-6    4.622190089546201E-1   -8.840288715987801E-1
 8.176432701894317E8     4.742154483271428E-1   -8.888621306928907E-1    1.416197342263618E-5    6.950564232709486E-6   -1.310416133958833E-5    7.792399040313578E-6    4.495229772303689E-1   -8.903245849014428E-1
 8.276133100697906E8     4.619110462275234E-1   -8.953414065050895E-1   -9.569262357957727E-6    4.854082003474067E-6    1.996619579455874E-6    8.336687517749530E-6    4.368407659520180E-1   -8.970050762028940E-1
 8.375833499501495E8     4.493280351429498E-1   -9.017560531298506E-1    6.455834851174227E-7    4.627067114733712E-6    5.241950259874028E-6    2.838134991978800E-6    4.246840976582125E-1   -9.036534373165516E-1
 8.475533898305085E8     4.364133681852226E-1   -9.081426453710020E-1    3.096286558497954E-6   -1.675353561723636E-6    3.065906306738387E-6    3.581283719671272E-6    4.128135976268567E-1   -9.097194933843270E-1
 8.575234297108674E8     4.236680943114494E-1   -9.146108922199282E-1    8.674814795672236E-6   -1.870034023892787E-8   -6.046845007452326E-6   -8.968813677596812E-6    4.011050787660952E-1   -9.150643473377218E-1
 8.674934695912263E8     4.108891607302966E-1   -9.213149936930015E-1   -1.167209882965153E-5    9.213164216573262E-6    3.655499693574229E-6   -9.933326453829025E-7    3.890952315386358E-1   -9.199640529004894E-1
 8.774635094715853E8     3.977449039040434E-1   -9.277843845408743E-1    8.774073625857612E-6   -2.956925362005033E-6   -9.605571237894535E-6    6.242649041291473E-7    3.763460986785209E-1   -9.245292301997136E-1
 8.874335493519442E8     3.846688467421820E-1   -9.323741312203361E-1   -3.909790910216674E-6    1.582682505310844E-6   -2.530011931822088E-6   -8.578248270360987E-6    3.632933541544983E-1   -9.290541783725885E-1
 8.974035892323031E8     3.734854102385680E-1   -9.361493738801820E-1   -5.938348848987371E-7    3.620500606623552E-6    6.961722622994103E-7   -3.739443258650025E-6    3.496695152925348E-1   -9.332881386433318E-1
