#  HZ   S   RI   R     50.00 
! Rohde & Schwarz Vector Network Analyzer 
! Rohde-Schwarz,ZNB20-2Port,1311601062102128,3.60
! Created: UTC 4/29/2024, 3:44:38 PM
! freq[Hz]                re:S11                  im:S11                  re:S21                  im:S21                  re:S12                  im:S12                  re:S22                  im:S22
 1.000000000000000E5     9.958343127678451E-1    4.566571954639025E-3   -2.941868520213156E-5    3.991901596880201E-5    1.081375026764194E-5    1.180417036272847E-4    1.010941620680473      -1.112153302751660E-2
 1.007003988035892E7     9.979191265408687E-1   -1.379348357271702E-2   -5.507642423495741E-6   -7.582518205481662E-6   -4.975834369909914E-6   -1.243030041604789E-5    9.956903454779704E-1   -1.461272515629079E-2
 2.004007976071785E7     9.998645122878710E-1   -2.730523101298679E-2    8.062259085225479E-6    2.137533303486171E-5   -3.066791246224201E-6    5.816922486584117E-6    9.987514133952483E-1   -2.771100182129013E-2
 3.001011964107677E7     9.979492707279785E-1   -4.102754403317189E-2   -1.236024563627200E-5   -1.093055802994430E-6    5.464875266910493E-6   -3.064957434273026E-6    9.973794843483305E-1   -4.198065385162693E-2
 3.998015952143569E7     9.975358143429489E-1   -5.300624552058145E-2   -7.096708764380379E-6    1.463358813223018E-5    1.353052795576712E-5   -1.004763118586470E-5    9.975531358323507E-1   -5.677678993173877E-2
 4.995019940179461E7     9.956503180754258E-1   -6.594177147388135E-2   -6.428257394406430E-6    8.018036820701849E-6   -9.066830689749025E-6    2.637690578794000E-5    9.965310721800417E-1   -6.914470246397045E-2
 5.992023928215354E7     9.938276505927633E-1   -7.877438841306574E-2   -7.603603946094430E-6    4.979551230948508E-6   -5.523008873794388E-7    7.002560667563982E-7    9.944822994859248E-1   -8.198213228459154E-2
 6.989027916251247E7     9.929275516715746E-1   -9.171334709600937E-2   -8.541979181782991E-7   -1.643360181207304E-7    2.633751210406125E-6    5.717632540554615E-6    9.933165944998388E-1   -9.490589846723659E-2
 7.986031904287139E7     9.925247192933837E-1   -1.051387854885053E-1    1.007782771281329E-5    8.792099694100390E-7   -3.150866362293164E-6    1.341298804807943E-5    9.922490073566149E-1   -1.080643536792039E-1
 8.983035892323031E7     9.913852185116059E-1   -1.187451661588508E-1    1.510756625011519E-5    6.842312049415829E-6   -1.409994471385331E-5    1.710756818925593E-5    9.906860033791397E-1   -1.212653064969929E-1
 9.980039880358922E7     9.892031194427073E-1   -1.322322719267849E-1    1.999929324374044E-6   -1.210258751024241E-5   -2.198121836402656E-5   -9.360831381801731E-7    9.886158188303039E-1   -1.346222278813934E-1
 1.097704386839482E8     9.862826237362882E-1   -1.453586174696686E-1   -2.250540664699639E-6    5.694859836249863E-6    6.627273136904713E-6    1.672340255646478E-5    9.860641977163966E-1   -1.480268531869667E-1
 1.197404785643071E8     9.846618755581635E-1   -1.587347377278228E-1    1.630424010210657E-5   -2.942010341237876E-6    4.505869947708368E-6   -2.762547822351291E-6    9.841909095860809E-1   -1.612568490537887E-1
 1.297105184446660E8     9.829075854040620E-1   -1.717428237785688E-1    6.027176746627827E-6    1.123327305260470E-5    6.957805989995170E-7    1.840861911130654E-5    9.826807505643570E-1   -1.744776502159596E-1
 1.396805583250249E8     9.816022362579966E-1   -1.845362943525956E-1   -6.967857668593391E-6    1.503758988716650E-5    7.690802824616701E-6   -4.458870309800476E-6    9.808206319271967E-1   -1.876269515565652E-1
 1.496505982053838E8     9.788815482915074E-1   -1.970114956243868E-1    9.233593549871831E-6   -8.897647553463162E-6   -4.896100640250395E-6   -3.819676388030914E-6    9.784417345554570E-1   -2.004707612335423E-1
 1.596206380857428E8     9.759563491578116E-1   -2.093376126174841E-1    4.327666422582674E-6   -2.506568500522704E-6   -5.140792229577067E-6    3.756065352469801E-6    9.756497324765878E-1   -2.134333308551974E-1
 1.695906779661017E8     9.730478107497054E-1   -2.222086590879066E-1   -2.180326637866934E-6   -4.115600835518774E-6   -1.385199054052694E-5   -2.420055985779625E-6    9.728352419747276E-1   -2.262517900643781E-1
 1.795607178464606E8     9.707198873291059E-1   -2.346412797944405E-1    7.262304768141523E-6   -3.790663935192312E-6   -6.636021458100289E-7    1.224393676185040E-5    9.701590118195322E-1   -2.381340559685210E-1
 1.895307577268195E8     9.675660131872275E-1   -2.468668624692555E-1   -1.161378859529025E-5    1.070424984160349E-5    6.951069089380489E-6    4.752286699078739E-6    9.667047998568149E-1   -2.506070263527947E-1
 1.995007976071784E8     9.636563563309438E-1   -2.592446660749558E-1   -5.975501299595471E-6    5.553298272614707E-6   -4.774680739873667E-6    8.894332992065743E-6    9.626906019871421E-1   -2.632018151701189E-1
 2.094708374875374E8     9.604349897313543E-1   -2.721754660571223E-1    8.212713770007400E-6    1.208708693755585E-6   -2.914882981716308E-6    1.960215409918793E-6    9.587622982429223E-1   -2.762413700012631E-1
 2.194408773678963E8     9.571902334976548E-1   -2.849340742993463E-1    1.058981128393960E-6   -1.424391937702342E-5   -8.241340789656626E-6   -7.057442264741333E-6    9.548889113590381E-1   -2.891832385513406E-1
 2.294109172482552E8     9.536850617541520E-1   -2.973258374027041E-1    5.461711259897199E-6    2.515548173892267E-6   -1.850110488742629E-5    2.935858716703928E-6    9.508046704708721E-1   -3.018183929251276E-1
 2.393809571286142E8     9.503753991659669E-1   -3.093306519954614E-1   -1.482056853227807E-5    9.570005133000294E-6    4.448253275293984E-6   -2.118853313669293E-5    9.469118912017593E-1   -3.140759337296535E-1
 2.493509970089731E8     9.467307775945728E-1   -3.230963124981924E-1   -1.120976049151113E-5   -6.265895893744951E-6    1.373130665739773E-5    8.801018827016117E-6    9.440343022466019E-1   -3.277630809542494E-1
 2.593210368893320E8     9.426015201903843E-1   -3.352543086787929E-1    3.898643116602565E-6   -3.163780578967822E-6   -6.688014073067261E-6    4.994832345779096E-6    9.398487197366246E-1   -3.409085514976609E-1
 2.692910767696909E8     9.384146829779351E-1   -3.465819073110964E-1   -1.475576777946497E-5   -1.440331721949930E-5    7.324164416255754E-6    2.938485075602988E-6    9.355561586350689E-1   -3.528123569216723E-1
 2.792611166500499E8     9.336620326616135E-1   -3.581508538912783E-1    3.830465899053521E-6    1.121885243543658E-6    6.369173837224516E-6    3.411782423863948E-6    9.308494145264282E-1   -3.646320850572923E-1
 2.892311565304088E8     9.288760888649054E-1   -3.701594143199340E-1    1.526256769246996E-5   -1.451367698777159E-5    1.668019976175113E-6    4.865050497186043E-6    9.262297613888826E-1   -3.769172977655979E-1
 2.992011964107677E8     9.241537296638636E-1   -3.823449308109400E-1    7.668230610988491E-6   -4.245094426184706E-6    2.316042274072702E-6   -2.818862971709235E-6    9.211943916707420E-1   -3.886307280676463E-1
 3.091712362911266E8     9.187759044676046E-1   -3.945958281400450E-1    8.295036652938378E-6    1.066526807245976E-5   -3.589829876297469E-6   -8.477953711108105E-6    9.156692561846249E-1   -4.001312740644305E-1
 3.191412761714855E8     9.132199876242159E-1   -4.069482446968515E-1   -1.163578497321605E-5    1.795866339536552E-6    2.514063156873777E-5   -9.102646503210447E-7    9.097234582298320E-1   -4.119062140220074E-1
 3.291113160518445E8     9.075721850064609E-1   -4.196625300059693E-1    5.903707265716319E-6    1.357685765625218E-6   -1.063026573501985E-5   -3.031028604870611E-6    9.033829441355047E-1   -4.242942422064048E-1
 3.390813559322034E8     9.020382173144378E-1   -4.325413067347236E-1    9.147486975917757E-6    1.683166157305787E-6    1.364112538043534E-5    1.101621814992106E-5    8.967506117337892E-1   -4.369340411447801E-1
 3.490513958125623E8     8.966629458409771E-1   -4.450416085002272E-1    9.754121278545231E-6   -1.216216166621746E-6   -1.009622451838334E-6    1.256040916892158E-5    8.904074325946658E-1   -4.494519770601670E-1
 3.590214356929212E8     8.912863780254573E-1   -4.575443774931187E-1   -3.868403474608020E-6    1.123623880643032E-5    1.642435088785534E-5   -8.310649760037021E-6    8.844982698597923E-1   -4.621269554461629E-1
 3.689914755732802E8     8.858022541173541E-1   -4.697790996892959E-1    6.978317926058776E-6    6.788566956995181E-6   -4.479520156651433E-6   -2.098950400374875E-5    8.790540592747978E-1   -4.747328483446673E-1
 3.789615154536391E8     8.798440472752415E-1   -4.810139150824398E-1   -4.109192026733461E-6   -9.815547737242394E-7    5.433389846564159E-6    3.429435410251881E-6    8.737833865538205E-1   -4.867327256164543E-1
 3.889315553339980E8     8.739776331249879E-1   -4.916791463440433E-1    2.122358659626605E-6   -3.485950490638592E-6    2.325460208860876E-5   -1.805863847022495E-5    8.679196423938951E-1   -4.988422980580372E-1
 3.989015952143569E8     8.672766844320691E-1   -5.024085399394349E-1    1.008853475106463E-5    7.154426015929890E-6   -9.694850744872123E-6    3.215144977784770E-6    8.611143614641067E-1   -5.097017429984467E-1
 4.088716350947158E8     8.601743719379613E-1   -5.132283230855385E-1   -2.434883701637492E-6   -8.165772429127731E-6   -2.121377118997034E-5    1.225095885448952E-5    8.542741546781876E-1   -5.207106721058983E-1
 4.188416749750748E8     8.532604879337632E-1   -5.247615483626700E-1    4.164336450495686E-6   -1.738804238879959E-5    1.810865891968259E-6   -6.845001189010686E-6    8.476752140076607E-1   -5.314370451032807E-1
 4.288117148554337E8     8.460110056851313E-1   -5.364992038506737E-1    9.798249378196345E-6   -3.146364795677095E-6   -5.029856471082417E-6   -6.575887459767088E-6    8.405550056329837E-1   -5.418231041274107E-1
 4.387817547357926E8     8.382746235510496E-1   -5.479468471335653E-1   -1.499090664747260E-6   -1.606039410323126E-5    4.698866158970110E-6    2.481584139371023E-6    8.326394112204103E-1   -5.522983804739158E-1
 4.487517946161516E8     8.305860355392891E-1   -5.597927464017082E-1   -4.702999882019776E-6   -7.185502521942296E-6   -5.942546467089394E-6    3.261263216316025E-6    8.241329440544160E-1   -5.633641827745018E-1
 4.587218344965104E8     8.236321643078222E-1   -5.717669164659274E-1   -6.284592487358523E-6    1.048933104558183E-5   -2.004902543129827E-6   -2.726257280141226E-5    8.159780136439108E-1   -5.751838948919276E-1
 4.686918743768694E8     8.169901830673179E-1   -5.831276646499055E-1    1.416251073267403E-6   -1.155340149575549E-5   -7.551965973135408E-7   -3.096162335901431E-6    8.078426022604429E-1   -5.867919570816700E-1
 4.786619142572283E8     8.099245984384292E-1   -5.939640746126412E-1    2.743158484481751E-6    3.486977327431068E-6    4.468595915415916E-6    1.081926349052241E-5    7.993348211667108E-1   -5.979607727349185E-1
 4.886319541375872E8     8.022712091947846E-1   -6.042997573808216E-1    1.974043472508058E-6   -2.881511897668451E-6   -7.094265868164295E-6   -8.913159373213263E-6    7.905198404514077E-1   -6.088317755938543E-1
 4.986019940179462E8     7.940429634698937E-1   -6.149930588178049E-1   -7.019735658406165E-6    1.358265184483336E-6    1.249584548380522E-5    2.752909211381797E-5    7.822891501725444E-1   -6.196401604090286E-1
 5.085720338983051E8     7.857090335778798E-1   -6.242229888861558E-1    1.764236209211107E-5    8.327886455607701E-6   -1.287330230222031E-6   -2.014047265400486E-5    7.746170890339693E-1   -6.303029479412106E-1
 5.185420737786640E8     7.783066753705495E-1   -6.332176147795009E-1   -1.919017321338082E-6    1.560739781205590E-5   -4.423504597064072E-6   -5.802055170145726E-6    7.670683501334480E-1   -6.400751851447560E-1
 5.285121136590229E8     7.701361076311518E-1   -6.427783705090941E-1    9.976307640061584E-6    6.759212926099203E-6    2.474939767473014E-5   -2.104677277332854E-5    7.590193952525234E-1   -6.496618223231911E-1
 5.384821535393819E8     7.615269287036207E-1   -6.529204027333123E-1   -2.980706656777163E-6    2.197142813812738E-6   -8.104976474877052E-7   -8.343588107874250E-6    7.508804933584677E-1   -6.593468878715940E-1
 5.484521934197408E8     7.533284663202865E-1   -6.634633985386328E-1    2.426651647694656E-6    8.960431121775133E-6    1.847434975614029E-6    1.631176608777747E-6    7.424384289930561E-1   -6.691563931173047E-1
 5.584222333000997E8     7.448248779412865E-1   -6.744075910912183E-1   -9.275243913874384E-6    2.975210478639105E-7   -1.543112297578400E-5   -2.234708554836804E-5    7.334322893169954E-1   -6.791826871099932E-1
 5.683922731804587E8     7.357649745168828E-1   -6.848881157362248E-1    2.359530038305349E-6    1.600413698974764E-6    1.203441083744034E-5   -2.105537200423895E-6    7.231898248169643E-1   -6.891068945687597E-1
 5.783623130608176E8     7.263677222443394E-1   -6.948024793112796E-1    9.036659066336178E-7   -8.870285136129764E-6   -2.933233174821822E-6    3.448208962924691E-6    7.126859606518959E-1   -6.988563839500127E-1
 5.883323529411764E8     7.171984472731942E-1   -7.048097736796994E-1   -1.646994226456088E-6    7.847806106023718E-6    1.523411575153384E-6   -1.472712455441578E-5    7.022223854269608E-1   -7.085299413984789E-1
 5.983023928215353E8     7.081376320521380E-1   -7.149213222656179E-1    1.280916134284397E-5    1.131080328471760E-5   -3.811798927608197E-6   -1.096740600318710E-6    6.919526905063386E-1   -7.180916959147122E-1
 6.082724327018943E8     6.985589109325977E-1   -7.245843854614982E-1   -2.864264292717699E-6   -8.334067817049743E-6    4.982031804953224E-6    5.288948766455672E-7    6.818663475681545E-1   -7.277153419219342E-1
 6.182424725822532E8     6.887587551724488E-1   -7.343039878609113E-1    2.122267485171208E-5   -1.827900249321140E-6    1.124964863533107E-5    4.184193223994121E-6    6.718764214912373E-1   -7.370414175513037E-1
 6.282125124626122E8     6.781979119112118E-1   -7.437074832498984E-1   -1.087262781662914E-5   -1.216593367275978E-5    8.816339838349790E-6   -1.161447608750467E-6    6.628102215313579E-1   -7.465788496045337E-1
 6.381825523429711E8     6.684775721295380E-1   -7.507718587404806E-1    4.955036248219070E-6    4.195589820631811E-6   -1.569077875738196E-5   -1.450699225458369E-5    6.538535240544798E-1   -7.555486198963168E-1
 6.481525922233300E8     6.596268061636773E-1   -7.594400559425288E-1    2.322001069051480E-5   -5.573110382576965E-6   -3.977886488240968E-6   -1.738375200628974E-5    6.448441534587309E-1   -7.640955828043934E-1
 6.581226321036890E8     6.498308374358628E-1   -7.683270343159017E-1    6.355231036905108E-6   -4.911513913649595E-6    2.222579921197764E-6   -1.301991846116670E-5    6.347194337779386E-1   -7.723134202303586E-1
 6.680926719840479E8     6.398575377848513E-1   -7.769838620895584E-1   -4.970773892025823E-6    3.215923045225246E-6   -9.150969337776923E-6   -1.424056241544747E-5    6.239731622545435E-1   -7.803485221366027E-1
 6.780627118644068E8     6.300898657271833E-1   -7.851975530787538E-1    3.626158395821371E-6    9.643102611246099E-7    9.928566775145336E-6    4.621903542578957E-7    6.129806433598396E-1   -7.881643320461177E-1
 6.880327517447658E8     6.198102772653378E-1   -7.935407650254264E-1   -1.326759365005671E-5    1.690148559978690E-5   -2.528232357915176E-7    8.391414788253337E-6    6.017387397922559E-1   -7.959178798123352E-1
 6.980027916251246E8     6.087993450002810E-1   -8.016394834166164E-1    7.544159308172190E-7    7.924993568431550E-6    8.627714598576644E-6   -7.944157126454977E-6    5.901676029082210E-1   -8.035538736110288E-1
 7.079728315054835E8     5.973874606017617E-1   -8.098666084566521E-1   -4.805283571220032E-6    3.804884293652754E-6    3.315898836944251E-5   -8.141937193092091E-7    5.786641782141591E-1   -8.114817933162641E-1
 7.179428713858424E8     5.862688117624708E-1   -8.183982948121133E-1    1.335284516956579E-5    1.133406761615540E-5   -1.356953989150499E-5    5.153107313349298E-6    5.673112210557761E-1   -8.201171133804924E-1
 7.279129112662014E8     5.752620548508972E-1   -8.268354183341551E-1   -6.960766247136067E-6   -4.610375770707285E-6    2.259707255471543E-5    2.309142558450550E-6    5.560598891020769E-1   -8.286798486042277E-1
 7.378829511465603E8     5.640221117633450E-1   -8.356745633287334E-1    3.115492466471390E-6    3.894480169638291E-6   -4.042851452294799E-6    1.959887096553959E-6    5.448041721720153E-1   -8.369745185778902E-1
 7.478529910269192E8     5.520494258516268E-1   -8.441633333230263E-1   -6.354238486832270E-7   -3.004630105221814E-6    1.081142823881874E-5   -9.562016651278630E-6    5.336823181819562E-1   -8.446897603539287E-1
 7.578230309072782E8     5.392887043814166E-1   -8.512272303255506E-1   -7.725935652356105E-6   -1.597819945269024E-5   -2.146172064127190E-5   -4.002205271269081E-6    5.225907772854753E-1   -8.516148507030155E-1
 7.677930707876371E8     5.290126235468792E-1   -8.567011236920312E-1   -6.380618731313326E-6   -7.308080912121202E-6    1.710523555683413E-5    1.078142301719500E-5    5.112853284057538E-1   -8.580788288436272E-1
 7.777631106679960E8     5.194260139331683E-1   -8.636777367913783E-1   -1.884145716002708E-6   -2.319249370606258E-7   -6.717803116636974E-7   -1.228249539826421E-5    4.996686860672407E-1   -8.646355650416956E-1
 7.877331505483550E8     5.091280367058698E-1   -8.705978928038555E-1   -9.266495776128529E-6    1.312887038907719E-5   -1.093953112266158E-5   -3.232302023907588E-7    4.878851534113504E-1   -8.712292233444296E-1
 7.977031904287138E8     4.979681418433941E-1   -8.769853868479536E-1   -1.185004121900345E-5   -5.465022951578193E-7   -7.346352688612943E-6   -5.940001651041846E-6    4.751745930818729E-1   -8.778316276558467E-1
 8.076732303090727E8     4.861560841078001E-1   -8.827727519917807E-1    8.961844794723121E-6    3.155555267496091E-6   -1.080114592026889E-6    1.593082044693962E-5    4.622915898237757E-1   -8.838933936084411E-1
 8.176432701894317E8     4.741917709280727E-1   -8.886964702062380E-1    9.385363693517848E-6   -3.283361159609136E-6    4.821432846798994E-7   -1.679438749121807E-5    4.494010154424456E-1   -8.902369813610364E-1
 8.276133100697906E8     4.619577418839680E-1   -8.952452233374411E-1   -4.820402961853510E-7   -2.276868690331820E-6    5.378117707851633E-6    1.600988273297529E-5    4.368615901537065E-1   -8.969124776416231E-1
 8.375833499501495E8     4.492932525154082E-1   -9.017044131786623E-1   -6.048945286914151E-6   -2.025947041919318E-6    2.892172115631025E-6   -7.017558638579984E-6    4.247197783149441E-1   -9.036165269038943E-1
 8.475533898305085E8     4.364706418358352E-1   -9.081582132860178E-1    2.317898766300794E-6    9.715560741298256E-6    1.498087107865292E-6    5.281176596839386E-6    4.128706725474660E-1   -9.097278832434824E-1
 8.575234297108674E8     4.237317883336205E-1   -9.144523979091967E-1    1.120980640061902E-5    4.557390446678349E-7    1.583536207312123E-5    1.240973421845589E-5    4.010636117577382E-1   -9.149448458411990E-1
 8.674934695912263E8     4.109078014947528E-1   -9.212096138152360E-1    7.351069436592298E-6    2.420996255137853E-6   -1.243345366242268E-6   -6.913024773887492E-6    3.889418616653493E-1   -9.198186524141186E-1
 8.774635094715853E8     3.977914627933933E-1   -9.277672212367715E-1   -3.716496258833175E-6   -1.540189122412404E-6    1.165158926260843E-5   -2.049968981773430E-5    3.764549375488248E-1   -9.245180706137185E-1
 8.874335493519442E8     3.847727703601697E-1   -9.324727663793483E-1    6.279924666560167E-6    8.507183870068792E-6    1.325096771068615E-5   -2.045387663093187E-6    3.632797396129927E-1   -9.290653766625586E-1
 8.974035892323031E8     3.733380432097501E-1   -9.361062503153631E-1   -9.285615104131267E-6    1.193946100510300E-6    2.853424586248011E-6    1.532266155602158E-5    3.497150503078065E-1   -9.334247407128432E-1
