#  HZ   S   RI   R     50.00 
! Rohde & Schwarz Vector Network Analyzer 
! Rohde-Schwarz,ZNB20-2Port,1311601062102128,3.60
! Created: UTC 4/29/2024, 3:44:36 PM
! freq[Hz]                re:S11                  im:S11                  re:S21                  im:S21                  re:S12                  im:S12                  re:S22                  im:S22
 1.000000000000000E5     9.964223425729805E-1    4.746332037076518E-3    1.062421686916784E-4    1.090497755348912E-4    7.996420741822814E-6   -8.614832366541231E-6    1.010933620395625      -1.106131860267426E-2
 1.007003988035892E7     9.975178776233510E-1   -1.381561132280246E-2   -1.171964398006707E-5   -4.138059596781959E-6    6.800341235111012E-6    2.050009380642420E-5    9.959499269035283E-1   -1.451938194805741E-2
 2.004007976071785E7     9.999595027232112E-1   -2.715875504987747E-2    2.152782963642195E-5    8.825629367812865E-6    9.289803488070202E-6   -1.232321870872596E-5    9.986818564038912E-1   -2.775547036113736E-2
 3.001011964107677E7     9.977534536065498E-1   -4.106478676072772E-2    8.312261368883831E-6    3.357895191084849E-6    1.019101654546556E-5    3.805644188086569E-6    9.974277263950568E-1   -4.203276516107887E-2
 3.998015952143569E7     9.975244070489463E-1   -5.305241435503805E-2    2.417118272078442E-5    1.136774134589699E-5   -1.508421944628996E-5   -1.177238625250113E-5    9.974844721428199E-1   -5.688146744339592E-2
 4.995019940179461E7     9.960414635127686E-1   -6.596533230298066E-2    3.709886140378120E-6   -4.983690675026282E-6   -1.478580298860877E-5   -6.744823684023814E-6    9.964089409782432E-1   -6.922063675904480E-2
 5.992023928215354E7     9.940682072588605E-1   -7.868361124095624E-2    6.020869903233577E-6    1.179321835974439E-5    1.307776262195865E-5    4.031973116180668E-5    9.946086608009463E-1   -8.198669396872922E-2
 6.989027916251247E7     9.929297351968719E-1   -9.165051154365000E-2    4.492918155207051E-6   -9.690973255650909E-7    1.334868822059365E-5   -1.149817908862298E-5    9.934247873608516E-1   -9.489083071593440E-2
 7.986031904287139E7     9.923186528513922E-1   -1.051135611494297E-1    1.446425507261897E-5   -1.994462814647724E-6   -1.568621626722013E-7   -4.152910799280825E-6    9.922760826285701E-1   -1.080496221165290E-1
 8.983035892323031E7     9.914028844086361E-1   -1.186919172317326E-1    3.967338591547843E-6   -7.638868047390153E-6    3.813386336492847E-6    2.447801046007179E-5    9.906277723123010E-1   -1.211713004073945E-1
 9.980039880358922E7     9.893680805996112E-1   -1.321706478111789E-1    1.189644367210073E-5   -2.291120774220095E-5   -8.394122209186907E-6   -2.273798589052435E-6    9.884789238168019E-1   -1.345987030580305E-1
 1.097704386839482E8     9.864165296065879E-1   -1.454958979454806E-1    6.168958812844428E-6   -1.372246289792885E-5    6.171389770680271E-6    5.158954095896070E-6    9.861635768043606E-1   -1.479607869461169E-1
 1.197404785643071E8     9.846301475899797E-1   -1.588708865221049E-1    4.309476753956955E-6   -1.106078917617536E-5   -6.302838772447208E-6    1.259461279324776E-6    9.843551539217666E-1   -1.612504041721891E-1
 1.297105184446660E8     9.828773619261144E-1   -1.716920826848031E-1   -4.448410402932570E-6   -4.250903078615273E-7   -3.312903800879200E-6   -2.010723935927204E-5    9.828275564172778E-1   -1.744954831664656E-1
 1.396805583250249E8     9.813691461539643E-1   -1.845616772412554E-1    3.571469020963191E-6   -6.021586760196036E-9   -3.584289387327393E-6    1.978524449007669E-5    9.808820574020646E-1   -1.875462057163552E-1
 1.496505982053838E8     9.790420611859835E-1   -1.969965583904613E-1   -4.564522753008625E-6   -5.826937711047408E-6   -1.651911171955160E-5   -7.343258264059785E-7    9.783822132384279E-1   -2.003017955924768E-1
 1.596206380857428E8     9.762036061496919E-1   -2.093845838476907E-1   -5.317579614943500E-6   -1.200537372280402E-5   -7.868432971638380E-6   -1.457638366371337E-6    9.757418476347987E-1   -2.133092630304075E-1
 1.695906779661017E8     9.730509215705807E-1   -2.222129768736157E-1   -6.132412916302370E-6    8.926796848649645E-6    1.714135071920500E-6    2.024323203906196E-5    9.728470034815757E-1   -2.261798719015786E-1
 1.795607178464606E8     9.705844505770134E-1   -2.346013787287048E-1    9.649790996084438E-6   -4.427379131554593E-6    5.224176844031587E-6    8.144116948968659E-6    9.702231140651894E-1   -2.380454359384173E-1
 1.895307577268195E8     9.677864220809900E-1   -2.469833643811894E-1    5.819917011455233E-6    2.547638174352658E-6   -6.562050156252972E-6   -2.099390103585570E-5    9.665572194863299E-1   -2.504948128902439E-1
 1.995007976071784E8     9.637916542950057E-1   -2.593044608923206E-1   -4.322781444436310E-7    3.355812984794042E-6   -5.097437174787801E-6   -1.638362798967128E-5    9.626500007980968E-1   -2.632531847771364E-1
 2.094708374875374E8     9.603184263200523E-1   -2.722207393927776E-1    1.283266250224398E-5    1.594356180935060E-5    9.656780845887016E-6   -1.715429436495957E-5    9.587861590294550E-1   -2.762239976075908E-1
 2.194408773678963E8     9.572091576421015E-1   -2.848994492483304E-1   -1.184185405943811E-6    1.472920777490600E-5    1.217510744931324E-5    5.720422613299997E-6    9.550496987505377E-1   -2.892019230436192E-1
 2.294109172482552E8     9.537039792365177E-1   -2.973095893542452E-1    3.585524702212265E-6   -1.412508398345410E-6    7.318491065647065E-6   -2.496589453327731E-6    9.509159489112734E-1   -3.018242092588777E-1
 2.393809571286142E8     9.506027034878379E-1   -3.093557690088016E-1   -6.116448416039264E-6    6.977745114254742E-6   -1.896383280633971E-5    1.683484783373555E-6    9.469992386087462E-1   -3.140631144020866E-1
 2.493509970089731E8     9.466913491699772E-1   -3.231537483602244E-1    4.623846869799200E-6    7.470741948033652E-6    3.102279779301467E-6    2.013512213628675E-5    9.440400831622837E-1   -3.277073531692423E-1
 2.593210368893320E8     9.425567898752272E-1   -3.351021012612408E-1   -3.499810100757560E-6    1.556902662114692E-5    7.704184938899467E-6    4.395953047281068E-6    9.398375476846297E-1   -3.408512043976071E-1
 2.692910767696909E8     9.385398998592376E-1   -3.466234564498230E-1    9.511854702594735E-6   -1.095537028065994E-5    1.272936746583157E-5    2.262530049805501E-6    9.355899359338401E-1   -3.528681236378147E-1
 2.792611166500499E8     9.338345834834868E-1   -3.582297359741174E-1    2.695067714746198E-6   -8.045660365604599E-6   -5.457141540435382E-6   -3.306509922582699E-6    9.309570687578812E-1   -3.647188023350842E-1
 2.892311565304088E8     9.288422668329296E-1   -3.701862183183997E-1   -4.325334990192774E-6    1.633202994153155E-5    8.227531422350487E-6   -1.481458930327349E-5    9.261615702971391E-1   -3.768180830843855E-1
 2.992011964107677E8     9.239833478401027E-1   -3.823763613486362E-1   -4.241566396674396E-6    4.167228756326760E-6   -1.705298480656986E-5    6.515492466136600E-6    9.211617028452377E-1   -3.885772673006016E-1
 3.091712362911266E8     9.188880870385874E-1   -3.947106392730309E-1   -1.555054972761764E-5   -6.692196847632876E-6   -1.889359524957127E-6    4.547316087459215E-6    9.156672462526986E-1   -4.001590569198083E-1
 3.191412761714855E8     9.133641280479515E-1   -4.069986224975798E-1   -8.613649430710274E-6    5.496226140422012E-6   -2.227045210848289E-5   -9.547576128889665E-6    9.098319279949096E-1   -4.120429691085422E-1
 3.291113160518445E8     9.076719781501800E-1   -4.196377155009542E-1   -1.274996445372995E-6   -6.987320322312862E-6    7.245150098565238E-7    5.356319778398168E-6    9.035335112844880E-1   -4.243353258477011E-1
 3.390813559322034E8     9.019704741969483E-1   -4.325095677584010E-1    9.252464548391530E-6    2.812819607121809E-6    1.022911283780812E-5   -1.482078626032672E-5    8.967580745061764E-1   -4.369087692238041E-1
 3.490513958125623E8     8.966843798429434E-1   -4.450904322630902E-1   -5.040053549222514E-6   -8.051861108504553E-6   -2.009389772673267E-6    7.645338192428698E-6    8.904867993814536E-1   -4.494050845912376E-1
 3.590214356929212E8     8.912744237896519E-1   -4.575778304193794E-1   -4.600520999186805E-7    1.240908251353155E-6   -9.851839565879103E-6   -1.118450573546633E-6    8.844165915001019E-1   -4.620854304563767E-1
 3.689914755732802E8     8.859495448296253E-1   -4.697957315301136E-1   -1.568896094034214E-6   -1.595352541519138E-5   -5.835878062084514E-6    4.508686917240191E-6    8.791192887730597E-1   -4.747724928404238E-1
 3.789615154536391E8     8.797559141136087E-1   -4.809961918840271E-1   -6.681901447726228E-6    1.257875369509444E-5    7.371638259089732E-7   -1.090804734686927E-6    8.738221637225069E-1   -4.868015925475469E-1
 3.889315553339980E8     8.741752511560222E-1   -4.917136305454657E-1    5.616390529919594E-6    5.648761633970339E-6    5.622756446302466E-6   -9.041942821715709E-6    8.677673245820244E-1   -4.986489103350749E-1
 3.989015952143569E8     8.674675494814753E-1   -5.024931385652983E-1   -2.947708121290225E-6   -1.219780548532844E-5    1.335620924279469E-5   -1.773269592375008E-6    8.610683587217364E-1   -5.096920011684615E-1
 4.088716350947158E8     8.601986800161368E-1   -5.133304916024102E-1    3.537400561480163E-9   -3.651781294496256E-6   -5.620878058449302E-7   -9.758084524712320E-6    8.542945165507793E-1   -5.206181368821049E-1
 4.188416749750748E8     8.533418757665625E-1   -5.248395901759009E-1   -5.234584491287185E-6    1.324156834892924E-5   -1.654786325092212E-5    6.686124224679451E-6    8.476965390932529E-1   -5.314855666364267E-1
 4.288117148554337E8     8.460939588008887E-1   -5.365541947262025E-1   -5.643121300883185E-6    8.126219628978568E-6   -6.125932488366448E-6    8.637508096639053E-7    8.406526232418252E-1   -5.417733889141907E-1
 4.387817547357926E8     8.381701750478183E-1   -5.478601538556104E-1    1.489384920650946E-6    3.827886598823984E-7   -8.015948868045092E-6   -4.245314948027693E-7    8.326153197687528E-1   -5.523096936307532E-1
 4.487517946161516E8     8.304864656372440E-1   -5.597831565543435E-1   -2.321519299197683E-6    5.404176772531481E-6    2.060988928411541E-6    9.295162132335755E-6    8.242143429373638E-1   -5.634930171081827E-1
 4.587218344965104E8     8.236087251662300E-1   -5.717331474433646E-1   -7.054207812590352E-6   -1.482055792445417E-6    5.748678291031371E-6   -3.748961973313235E-7    8.160403364441882E-1   -5.751812135296711E-1
 4.686918743768694E8     8.170395403171138E-1   -5.830731185231944E-1    3.757151007878432E-7   -2.813448456122901E-6    4.635112819819859E-6    5.073308730519024E-6    8.078799498991067E-1   -5.867703675520940E-1
 4.786619142572283E8     8.098510933632298E-1   -5.938755008409876E-1   -5.335601933359436E-6   -3.412896827430966E-6    1.073669080158520E-5   -2.762154013971843E-6    7.992965576408962E-1   -5.978797911301025E-1
 4.886319541375872E8     8.023041104288684E-1   -6.043521870001118E-1    5.833518023703627E-6   -1.510060782073027E-5   -8.226976962101320E-6    4.071180938330778E-6    7.904304193361682E-1   -6.087864871063046E-1
 4.986019940179462E8     7.940600214989777E-1   -6.150080448180871E-1    2.320162875433894E-6    4.344007617135910E-6    3.611652286373813E-6    9.601163045850243E-6    7.822507412014491E-1   -6.197365854632162E-1
 5.085720338983051E8     7.856747678740499E-1   -6.240816816589992E-1    4.216930857766149E-7   -4.713083048977016E-6    1.264723769102546E-7   -2.407570709689184E-6    7.748601689546394E-1   -6.302330391198311E-1
 5.185420737786640E8     7.783755426955538E-1   -6.332757222441395E-1   -1.028498927867575E-5   -4.751725360731931E-6    1.668069766410292E-5   -1.139223499554207E-5    7.669658850709478E-1   -6.400577051480112E-1
 5.285121136590229E8     7.701119739262903E-1   -6.428221754965145E-1    7.120379425443337E-6   -1.769161695724820E-6    9.409878678448184E-6   -1.184769391251871E-7    7.589739111533781E-1   -6.496017322695253E-1
 5.384821535393819E8     7.615278342580182E-1   -6.528551293412035E-1    3.458056324904195E-6    7.811862532081627E-6   -2.656128867042290E-5    1.053363101856296E-5    7.508652026397470E-1   -6.592486266457083E-1
 5.484521934197408E8     7.532629037544929E-1   -6.634551260315322E-1   -4.043290155707245E-6   -1.392847883470038E-5   -2.405564720961510E-5   -1.353396416214988E-5    7.425256956144043E-1   -6.692266072409313E-1
 5.584222333000997E8     7.448151794079104E-1   -6.744359427311478E-1   -4.748702127279394E-6   -4.874288662025651E-6   -1.296886244849569E-5    1.394690291577080E-5    7.334146063577630E-1   -6.791680189539031E-1
 5.683922731804587E8     7.357213791396013E-1   -6.848742546333978E-1    9.235319165110867E-6    8.550880031503034E-6    2.937696046473963E-6    7.951668929928092E-6    7.231776302453128E-1   -6.890406810454931E-1
 5.783623130608176E8     7.263964895050095E-1   -6.948609801082588E-1    4.459337016327342E-6    1.091210244292861E-6    1.505065097642014E-5    1.156563112501353E-5    7.127033771904350E-1   -6.988736610623822E-1
 5.883323529411764E8     7.171191941214431E-1   -7.047353108982173E-1    5.421731383671477E-6   -1.242503501267548E-5   -3.504724978803201E-6    3.982504593408175E-6    7.021951142048528E-1   -7.085602600027802E-1
 5.983023928215353E8     7.080179046020465E-1   -7.148652446717244E-1   -7.549556580582528E-6    1.851109471465748E-5   -2.782615635228440E-5   -6.956174473630322E-6    6.920094666587042E-1   -7.182197772517513E-1
 6.082724327018943E8     6.987160903494501E-1   -7.246730922729495E-1    7.835961603137646E-6   -3.530468984602460E-6   -3.227240191550646E-6    1.817797200444764E-5    6.818183940924459E-1   -7.276244537573930E-1
 6.182424725822532E8     6.887827184639409E-1   -7.342552440480766E-1    5.298869858607755E-6    1.582435075844326E-6   -1.067045626732266E-5    4.185317917642833E-6    6.718488517325227E-1   -7.370083199681665E-1
 6.282125124626122E8     6.782031212165774E-1   -7.437284358710704E-1   -7.898256582208111E-6    1.049807909711287E-5    7.462466596665635E-6   -1.125390120723995E-5    6.627190881290936E-1   -7.466031922756375E-1
 6.381825523429711E8     6.685366417044167E-1   -7.508609216689007E-1    1.872260845540569E-6    9.064093509118014E-6   -2.356515729321101E-5    4.794476550234315E-6    6.539933812309875E-1   -7.555500522492484E-1
 6.481525922233300E8     6.595944894849052E-1   -7.594430918261357E-1   -3.599314343588836E-6   -5.779215165435500E-6    1.638233348932257E-5   -1.037714837939223E-6    6.449470999532642E-1   -7.640682083113454E-1
 6.581226321036890E8     6.498359212173673E-1   -7.683745022645864E-1   -3.384657432923238E-6    1.237370352303882E-5   -5.916889776789066E-6   -1.847934375640073E-5    6.346325601973324E-1   -7.722547308400458E-1
 6.680926719840479E8     6.398304900841217E-1   -7.770081730081794E-1   -6.093870914735665E-6   -3.029160175955751E-6    2.102375906494794E-6   -1.779731241911498E-6    6.239645464015138E-1   -7.802584703830475E-1
 6.780627118644068E8     6.300339523763554E-1   -7.851668918972686E-1    1.157295574913248E-6    4.898689617357552E-7   -7.520706159083449E-6    1.312265708987154E-5    6.131120896300317E-1   -7.881146116270602E-1
 6.880327517447658E8     6.197775956673650E-1   -7.934870916229432E-1    5.416575913186138E-7   -6.660820777341786E-6    3.506517776994843E-6   -1.612597843647785E-5    6.019179007228646E-1   -7.959473573479626E-1
 6.980027916251246E8     6.087211092626845E-1   -8.016627231056219E-1    2.284305599279458E-6   -3.453521805532266E-6   -6.508255700895791E-6    4.750184516128141E-6    5.902184160497348E-1   -8.035666160505199E-1
 7.079728315054835E8     5.974044301525221E-1   -8.099785271898275E-1   -1.689659968559869E-6   -1.942938194361334E-6    5.955808414653326E-6   -5.823143484468553E-6    5.786837483344990E-1   -8.113644367306813E-1
 7.179428713858424E8     5.861902501676787E-1   -8.184277742418388E-1   -8.159169121799092E-6    4.753037716375024E-7   -1.515451969667655E-6   -1.324635262024862E-5    5.673983027574442E-1   -8.199863713114947E-1
 7.279129112662014E8     5.752145094418520E-1   -8.268127635644550E-1    2.931907661594750E-6   -1.467789215917694E-5   -8.386521624954224E-8    6.406922777074816E-6    5.560765976675327E-1   -8.287686956128071E-1
 7.378829511465603E8     5.640128688892918E-1   -8.357069478079173E-1    2.528163856872406E-6   -8.587320969576061E-6   -4.658710949226291E-6   -5.995253724261278E-8    5.447991307517929E-1   -8.370664141904136E-1
 7.478529910269192E8     5.519849107808550E-1   -8.441466604253590E-1   -5.252846034999748E-7   -8.071700521016408E-6   -2.598523171444332E-6    1.090760991026995E-6    5.336400487708732E-1   -8.446164483570466E-1
 7.578230309072782E8     5.394057015750851E-1   -8.513644729460823E-1   -5.537919530596776E-6    4.133135115821002E-6    7.754436883489901E-6    1.403408196713548E-5    5.225473880889347E-1   -8.516267054931442E-1
 7.677930707876371E8     5.289090806554703E-1   -8.567236657090882E-1    1.151661841660237E-5   -2.666432560961797E-6   -7.494356402679892E-6   -1.489813367924152E-6    5.112835473109200E-1   -8.580392647560411E-1
 7.777631106679960E8     5.193531253570233E-1   -8.635923566196251E-1    1.292066873326164E-6    3.932003928885128E-6    1.433843230440102E-5   -6.675348104097627E-6    4.997501723556326E-1   -8.646173583832049E-1
 7.877331505483550E8     5.091208281114493E-1   -8.705780174094832E-1    4.362738135120378E-6   -1.146925632834370E-5   -1.687818258138865E-6    3.140993268580399E-6    4.880062305458928E-1   -8.712946429049010E-1
 7.977031904287138E8     4.978803375790232E-1   -8.768941501171441E-1   -1.964334493084518E-6    3.885602161270537E-6   -8.302486402469064E-6    1.319996175730183E-6    4.750573053426353E-1   -8.776977992217608E-1
 8.076732303090727E8     4.861554083944333E-1   -8.828392931873629E-1   -8.427440813085786E-8   -2.958959111420283E-6   -8.722441643722196E-6    1.529316409472451E-5    4.622353948093911E-1   -8.837973086244988E-1
 8.176432701894317E8     4.741310007718690E-1   -8.890077745452653E-1    4.467165358199653E-6    9.078322073980479E-6    8.457411766674158E-7   -4.694261373183632E-6    4.494746588621009E-1   -8.902695525367990E-1
 8.276133100697906E8     4.618932150659773E-1   -8.953397012883189E-1    7.845047052095070E-6   -1.108665945786980E-5   -1.883882777190982E-6   -3.101533265257563E-6    4.368879144048052E-1   -8.969564399978639E-1
 8.375833499501495E8     4.493637207665212E-1   -9.016951786715007E-1   -1.647202603885639E-6   -1.529492557939736E-5    4.320422310913421E-7   -1.169109801370958E-5    4.247270750307955E-1   -9.036122217310697E-1
 8.475533898305085E8     4.364435072699529E-1   -9.081588704090390E-1   -4.951378334831598E-6   -8.156792935005263E-6   -4.754488875489917E-6    1.994348170006700E-6    4.128819869164341E-1   -9.096058323942032E-1
 8.575234297108674E8     4.237293678661230E-1   -9.145364343840062E-1    4.048237799610622E-7    8.546894954329924E-6    1.198921134557795E-5   -3.547081293539637E-7    4.010805947397665E-1   -9.149805753223620E-1
 8.674934695912263E8     4.108917682440505E-1   -9.212086559910262E-1   -3.310276306055989E-6   -3.805193447385394E-7    1.130981250136627E-5    1.343472975973530E-5    3.890601849043059E-1   -9.197873158341017E-1
 8.774635094715853E8     3.977663699579942E-1   -9.277446384628835E-1   -3.345866788313986E-6   -2.929183849770674E-6    8.749885075603155E-6   -6.470942795665085E-6    3.765000336177347E-1   -9.245662295066648E-1
 8.874335493519442E8     3.846236015851288E-1   -9.323885261081934E-1    1.354822414963436E-5   -2.364092530394114E-7    3.968753402827911E-6   -5.110154529856870E-6    3.633879511612579E-1   -9.289501402779377E-1
 8.974035892323031E8     3.733515098483670E-1   -9.361263673954203E-1   -1.637485800068361E-6   -1.658624164883322E-5    4.682007017367539E-6    4.632204635832029E-6    3.497056910545668E-1   -9.332693506325597E-1
