#  HZ   S   RI   R     50.00 
! Rohde & Schwarz Vector Network Analyzer 
! Rohde-Schwarz,ZNB20-2Port,1311601062102128,3.60
! Created: UTC 4/29/2024, 3:44:26 PM
! freq[Hz]                re:S11                  im:S11                  re:S21                  im:S21                  re:S12                  im:S12                  re:S22                  im:S22
 1.000000000000000E5     9.962429954049218E-1    4.669956600044801E-3    1.472351983280665E-4    5.867768082246928E-5    3.045082199963844E-5   -1.335027362903131E-4    1.010994291431531      -1.109044780264299E-2
 1.007003988035892E7     9.973453675304362E-1   -1.380363763703296E-2   -3.924207534582228E-6    3.425285195834802E-5   -1.260777372241700E-5    8.746593884868296E-6    9.958727629808045E-1   -1.454105224664845E-2
 2.004007976071785E7     9.998122424671370E-1   -2.719741228792903E-2   -7.800904627410607E-6    9.660332588035258E-7    6.819959059616808E-7   -2.563616496825670E-5    9.987110993724114E-1   -2.772589834780786E-2
 3.001011964107677E7     9.977393477568790E-1   -4.104836745506898E-2   -8.899849918960084E-10  -8.503422799512401E-8   -2.600715720182589E-6    5.435587925218119E-6    9.975681884387150E-1   -4.210749545445814E-2
 3.998015952143569E7     9.976183518148738E-1   -5.299521310510875E-2    5.063860299558287E-6    7.754881801787465E-7   -1.130172187241169E-5   -1.584369695087572E-5    9.976653010577258E-1   -5.680115128230485E-2
 4.995019940179461E7     9.960599573096622E-1   -6.591854668614897E-2    1.211483765363056E-5   -2.579513089590254E-6    6.760306736160784E-6   -1.095968034044602E-5    9.966037277442173E-1   -6.919821372051814E-2
 5.992023928215354E7     9.942157299202387E-1   -7.873086990428825E-2   -5.355318163755922E-6    1.739284003815328E-5    3.315245723230928E-5    1.414053994537382E-5    9.945882822429213E-1   -8.200688139180395E-2
 6.989027916251247E7     9.931634721539011E-1   -9.166289320061212E-2   -5.628296158467709E-6    6.513865987239975E-6    2.040100701720501E-5    2.857322278213406E-6    9.934710816174253E-1   -9.480874418648029E-2
 7.986031904287139E7     9.922933358594921E-1   -1.051354985928357E-1    3.840613856122561E-6    1.890354237603993E-6   -3.343040361441190E-6   -5.224980783994686E-6    9.922162266337196E-1   -1.080799230428617E-1
 8.983035892323031E7     9.913068769800035E-1   -1.186617481416624E-1   -1.838478877069788E-5    1.329700448640078E-5   -1.456681595729323E-5   -1.693325235473164E-5    9.907321910498481E-1   -1.212925042943954E-1
 9.980039880358922E7     9.893549512449549E-1   -1.322556322648944E-1   -8.531824339650333E-6    7.209371196793744E-6    2.151007216348238E-5    7.687998087989101E-6    9.885341829983889E-1   -1.345435720253201E-1
 1.097704386839482E8     9.865937845274879E-1   -1.455335240815513E-1    1.517676787910863E-6   -2.359291484976784E-5    2.147505016901231E-5   -1.860097349180453E-5    9.860707556764630E-1   -1.480784349890850E-1
 1.197404785643071E8     9.847673200148820E-1   -1.588639525500351E-1    1.018110917402305E-5    3.572257675868241E-6    1.715245036806958E-5    2.130334598080422E-5    9.842421828076724E-1   -1.611352611748395E-1
 1.297105184446660E8     9.828949519751439E-1   -1.717159261435862E-1    1.984907132085989E-6    6.896599957371396E-6   -7.769807764495237E-6    1.054679743665598E-5    9.827905594997879E-1   -1.745464851155593E-1
 1.396805583250249E8     9.814972642359101E-1   -1.846369957830557E-1   -1.878140399188208E-6    8.216057745413222E-6    6.334134472111103E-6    2.009302460009286E-7    9.808072677972818E-1   -1.875708571356725E-1
 1.496505982053838E8     9.789676386390108E-1   -1.970301675810914E-1    3.497411890663914E-6   -5.644178167606411E-6   -3.903035449250828E-6    5.260415446287899E-6    9.784431155132262E-1   -2.005204059622266E-1
 1.596206380857428E8     9.762157700299553E-1   -2.094333703794826E-1   -1.127121135840052E-5    5.758961836422246E-6   -5.904477222767813E-6    2.198846348975668E-5    9.757989156604202E-1   -2.133046570211637E-1
 1.695906779661017E8     9.731300413435305E-1   -2.222288480573175E-1   -9.637158395342736E-6    4.660980591225442E-6   -1.034523152478978E-5    1.405192837749714E-5    9.728326953250759E-1   -2.262650147161276E-1
 1.795607178464606E8     9.705443658471387E-1   -2.346855820170577E-1    5.870831141549674E-6    6.928875718454891E-6    1.518409402853573E-5    8.212086926996226E-6    9.699952916300885E-1   -2.380635459507473E-1
 1.895307577268195E8     9.676716090479807E-1   -2.469301031027319E-1   -5.474943282302513E-6    1.832466783845226E-7   -6.125528702371663E-6   -2.123486671998373E-5    9.668167294543345E-1   -2.506017748448811E-1
 1.995007976071784E8     9.638673812758117E-1   -2.594677608652260E-1    5.848049532349716E-6    6.294896216216167E-6    7.873907281540735E-6    1.837423242794001E-5    9.628510531736731E-1   -2.632563748787257E-1
 2.094708374875374E8     9.603706462605917E-1   -2.721895037648586E-1    2.177662901823685E-5    3.825114167846864E-7   -1.674169882911701E-5   -3.660877971021500E-6    9.588445957688499E-1   -2.762984982297485E-1
 2.194408773678963E8     9.572006810266108E-1   -2.849358818147529E-1    2.183649153825855E-5   -8.618996368149886E-6   -5.443860439791046E-6    1.141600395367542E-5    9.549346527990513E-1   -2.892171558354206E-1
 2.294109172482552E8     9.536016486772724E-1   -2.972898541282655E-1    8.382119854975934E-6    1.352511364818248E-6    4.122170171385422E-6   -1.423477779628083E-5    9.508923198433390E-1   -3.018607231205308E-1
 2.393809571286142E8     9.505731162482743E-1   -3.092963863201251E-1    8.078616914093003E-6    2.295750208316509E-7    8.332167455656060E-7    1.431675254132993E-5    9.469430608302596E-1   -3.142339256746718E-1
 2.493509970089731E8     9.468970258019865E-1   -3.231966253510828E-1   -8.809172053361099E-6   -1.464201476235811E-5   -6.373988130286368E-7   -1.354875954269973E-5    9.439893600359990E-1   -3.277207883059754E-1
 2.593210368893320E8     9.425868267784998E-1   -3.351273967577615E-1   -5.933551224709116E-6   -1.231433656410315E-6   -1.780875166347446E-5   -1.258922703850134E-5    9.397757826230618E-1   -3.408732641951702E-1
 2.692910767696909E8     9.384062284983450E-1   -3.465946674140127E-1    2.024548978237638E-6   -8.133722556990734E-6    7.810810411772384E-6   -2.296068314246292E-6    9.354673997900139E-1   -3.529346058192256E-1
 2.792611166500499E8     9.338994729143207E-1   -3.581812820336154E-1    1.786773668858382E-6   -3.567751472136171E-6    4.043661511480732E-6   -5.682937491989677E-6    9.310165198826503E-1   -3.647708440999627E-1
 2.892311565304088E8     9.288460795393971E-1   -3.703118046933939E-1    8.508490972421173E-6   -3.915971701310398E-7    1.143491023295997E-5    5.706260452888872E-6    9.261687807495613E-1   -3.768694728945312E-1
 2.992011964107677E8     9.240230871582550E-1   -3.823860910556076E-1    2.473675075114733E-6    4.565657911020457E-6    9.370179279566617E-6   -9.850330770864799E-6    9.212535644559354E-1   -3.886715821867153E-1
 3.091712362911266E8     9.188606670549805E-1   -3.946390061574966E-1    1.608070945516452E-6    7.558887726848079E-6    5.782393483436887E-6   -5.195311861062850E-6    9.157907506447294E-1   -4.001827303413008E-1
 3.191412761714855E8     9.133821884498030E-1   -4.071397491639721E-1    1.073263011909835E-5    7.456859743074219E-6   -5.141897715989394E-6    1.735698315999183E-5    9.098394291425210E-1   -4.119950240465857E-1
 3.291113160518445E8     9.075948766665435E-1   -4.197970042819492E-1   -1.182676611821854E-5   -4.413474766526081E-6   -1.661943741594149E-6    9.958826389516801E-6    9.034300825578490E-1   -4.243912576356957E-1
 3.390813559322034E8     9.020300013983598E-1   -4.325843123480306E-1   -1.239609823516513E-5    1.000974574068606E-5   -2.337245587754508E-6    1.034301917966834E-5    8.968792310930753E-1   -4.369172585527768E-1
 3.490513958125623E8     8.967394087223789E-1   -4.451819362745748E-1   -1.629821526197067E-7    7.288755365404690E-6   -2.187019403506520E-5    7.470943413277207E-6    8.903999231155555E-1   -4.494274280041520E-1
 3.590214356929212E8     8.913669559620898E-1   -4.576422212805445E-1    1.409606236146205E-5    5.187004980086230E-7   -2.570126770430608E-5    1.300694743474366E-5    8.845560826776319E-1   -4.622058745527878E-1
 3.689914755732802E8     8.859742621197975E-1   -4.699735705756857E-1   -6.419896868888192E-6   -1.952758506478512E-5   -2.188287772172494E-6   -1.557758839822828E-6    8.790454736549475E-1   -4.747287018580645E-1
 3.789615154536391E8     8.797542038104280E-1   -4.810372002908477E-1   -2.023347665325308E-6   -1.543819997413278E-6    7.672648967213002E-6    6.800517551982452E-6    8.738259902354873E-1   -4.867696453012973E-1
 3.889315553339980E8     8.740701251595502E-1   -4.917684139676385E-1    7.477289459302152E-6    1.355637138097195E-6    1.105812369241221E-5    1.204678237021838E-5    8.680170306049594E-1   -4.988177638846475E-1
 3.989015952143569E8     8.674781790473202E-1   -5.025064849016067E-1   -1.516830124060432E-6    1.036222927286184E-5   -2.488847739599645E-7    1.164413337419260E-5    8.611626149410302E-1   -5.097244952452809E-1
 4.088716350947158E8     8.602456574500378E-1   -5.133348827685007E-1   -2.046311092847877E-6    4.707376100881714E-6   -1.339152898739917E-5    7.598809296942869E-6    8.542337267574885E-1   -5.206352103919947E-1
 4.188416749750748E8     8.533470124812724E-1   -5.249572854998847E-1   -5.084867505170786E-6   -6.043139948309180E-7    7.647417701224249E-6   -5.086157760330529E-6    8.476140347323061E-1   -5.314645030816042E-1
 4.288117148554337E8     8.460276033848313E-1   -5.365874564050475E-1    2.725250983434949E-6    3.806523521349053E-6    6.222873254479830E-6    1.134629993028102E-5    8.406432826214210E-1   -5.417775873914620E-1
 4.387817547357926E8     8.382550721197054E-1   -5.481021113835894E-1   -5.356330927366028E-6   -1.117349373859379E-5    2.188489752981137E-6    8.533431417414279E-9    8.326907755485722E-1   -5.523409282864440E-1
 4.487517946161516E8     8.305549903042738E-1   -5.598891063233051E-1   -2.251390780711689E-6   -1.086329239072385E-5   -1.141898298687388E-5    7.866250750177802E-6    8.242317290981567E-1   -5.634401015859440E-1
 4.587218344965104E8     8.236130217378923E-1   -5.718998336446567E-1    9.187227233492766E-6    9.867432203182356E-6    1.052118560867194E-5   -1.371412401967712E-5    8.160106795915878E-1   -5.752332413270809E-1
 4.686918743768694E8     8.170226516482025E-1   -5.832144225430593E-1    6.484175983968754E-6   -6.003752640880625E-6   -2.147299433984472E-6   -1.217207544391931E-5    8.077738799858936E-1   -5.867872761134308E-1
 4.786619142572283E8     8.099788940365475E-1   -5.940452608762403E-1    1.097098795733866E-5   -1.184021001224636E-5   -1.445117344053986E-5   -9.527234942859872E-7    7.993161963958836E-1   -5.979175866496474E-1
 4.886319541375872E8     8.024847058379955E-1   -6.045579175113381E-1   -8.693470497158840E-7   -1.163139482972819E-6   -1.911878875163110E-5   -6.316706358660576E-6    7.904875911753040E-1   -6.087574591576355E-1
 4.986019940179462E8     7.941107530389021E-1   -6.152053613937343E-1   -3.745151560801157E-7   -6.757426955699216E-7    1.064821065188102E-6   -6.723153153803490E-6    7.822887231897722E-1   -6.196225759835949E-1
 5.085720338983051E8     7.856190348755733E-1   -6.242803269823732E-1   -4.280871459757310E-6   -6.057321382301428E-6    3.296060399368275E-6   -1.251780863367869E-5    7.746536426125846E-1   -6.301551143656965E-1
 5.185420737786640E8     7.782228062086343E-1   -6.332206206068530E-1    3.431964480736511E-6   -1.151602968057593E-5   -1.882541004476699E-5    1.414597845216003E-5    7.668777694591755E-1   -6.400116451474941E-1
 5.285121136590229E8     7.701408052191897E-1   -6.429439609370449E-1   -4.641585606015137E-7    8.760398946950305E-8   -2.824206539603867E-6    7.771155574313737E-6    7.591184804511221E-1   -6.497016021833819E-1
 5.384821535393819E8     7.615301392072322E-1   -6.530379783266209E-1    5.744267651954130E-7   -1.811691356707102E-6    1.558919009793086E-5    2.127797275895952E-5    7.509745389818792E-1   -6.592893087372622E-1
 5.484521934197408E8     7.533285846213595E-1   -6.635899325203678E-1    1.816900052111567E-5    2.993848439527594E-6   -3.229645735214209E-6    3.571640810480670E-6    7.424892108283118E-1   -6.691270094926492E-1
 5.584222333000997E8     7.447334551623290E-1   -6.744265361701968E-1   -9.637489014831855E-8    5.121332375953059E-6   -3.319990979248011E-6   -1.424448131759048E-5    7.332896345387879E-1   -6.791277857998579E-1
 5.683922731804587E8     7.356305735636154E-1   -6.849413405244719E-1    1.316671417935367E-5   -1.464691170004264E-5    1.134844379396162E-5    1.847190588963665E-5    7.231122078653610E-1   -6.891944026993222E-1
 5.783623130608176E8     7.264986976025233E-1   -6.949976680188958E-1    2.952902420240537E-6    9.343034044411870E-6    1.158756763647138E-5   -1.153745887827988E-5    7.126832563718404E-1   -6.988898641512732E-1
 5.883323529411764E8     7.172053987278081E-1   -7.048845787451588E-1   -1.141901295396853E-5   -9.666415764562722E-6    4.137305698320082E-7   -7.144558625276661E-7    7.022169387971462E-1   -7.085405005800178E-1
 5.983023928215353E8     7.079838031265685E-1   -7.149978905543531E-1    6.216895188693509E-6    1.314298981717593E-5    5.820838762977390E-6   -2.154373864168316E-6    6.919792341131205E-1   -7.183661219167526E-1
 6.082724327018943E8     6.985293450165904E-1   -7.246424653739072E-1   -4.502924638671957E-8   -8.595700493342113E-7   -1.292811816800190E-5    1.751470594640373E-5    6.817413770488926E-1   -7.276154507354151E-1
 6.182424725822532E8     6.886786027004455E-1   -7.343994721827323E-1   -4.630331753416715E-6    2.992119120009793E-6    6.983346495089902E-6   -5.823907556702074E-6    6.717347067104510E-1   -7.369240564051177E-1
 6.282125124626122E8     6.782539997261389E-1   -7.438390557381841E-1    1.092693058666265E-5    6.352300768160982E-6   -1.543725943141813E-6   -8.474405799496001E-6    6.628320751685681E-1   -7.466561587734117E-1
 6.381825523429711E8     6.685347280884345E-1   -7.508708897451252E-1    1.992325764397198E-5    6.321641520631292E-6    2.059471046179423E-5    1.506399388052264E-5    6.539237305999740E-1   -7.555178788209596E-1
 6.481525922233300E8     6.594972245897178E-1   -7.594621262084701E-1    1.788176168305876E-5   -6.334008524286504E-6    1.969524271263349E-5   -6.418088154839984E-6    6.447554475012245E-1   -7.638757468956189E-1
 6.581226321036890E8     6.497086366153247E-1   -7.683071168537264E-1   -2.432585840612443E-6    3.592424883953154E-7   -6.084276437116871E-6   -6.676055004096196E-6    6.346846557103766E-1   -7.723440761119377E-1
 6.680926719840479E8     6.398224906227132E-1   -7.770502173649436E-1    9.050077926038662E-6   -3.668913900227332E-6    1.060179458749026E-5    2.521313204033409E-5    6.240995818591873E-1   -7.803441871519823E-1
 6.780627118644068E8     6.301588315161580E-1   -7.853530881179644E-1   -4.020047601607415E-6    4.034096952202122E-6    1.130654141866240E-7   -2.131109927661582E-6    6.130643512038049E-1   -7.882135011153379E-1
 6.880327517447658E8     6.197497766049784E-1   -7.936781086324515E-1    5.533573369262453E-6    5.007466746138687E-6    1.138282504707378E-5    4.836385366886062E-7    6.016733380110523E-1   -7.958493356213930E-1
 6.980027916251246E8     6.086690689543423E-1   -8.016710871088552E-1    2.762942636330934E-6   -3.245737379097260E-6    1.655123932609516E-5    1.029783826516104E-5    5.901022290247612E-1   -8.035828259440044E-1
 7.079728315054835E8     5.973821634580391E-1   -8.099978524300849E-1   -1.244066676237457E-5    1.917888308002926E-6    1.251525284130813E-5   -8.184423448366034E-6    5.785646496080586E-1   -8.113755003398602E-1
 7.179428713858424E8     5.861536117810516E-1   -8.185575645465811E-1    1.674469066175198E-5    1.898894928112008E-5   -1.483161516558908E-5    4.001081071048679E-6    5.674030274786059E-1   -8.200226531429536E-1
 7.279129112662014E8     5.752755858966773E-1   -8.270190013746408E-1   -2.137109035359231E-6    1.208322084921712E-5    1.191831835526963E-5    1.257837970398720E-5    5.560751371534008E-1   -8.287662941976938E-1
 7.378829511465603E8     5.639053782625791E-1   -8.357009271511713E-1    7.073811614020918E-6    1.135667687147019E-5    1.131388788553247E-5   -6.540561649865845E-6    5.448411408568858E-1   -8.370793215092793E-1
 7.478529910269192E8     5.518013493881809E-1   -8.441457510247380E-1    1.077428629770180E-7    9.346236666258489E-7   -4.634974775496022E-6   -3.189987032644478E-5    5.336728255771056E-1   -8.446064596466639E-1
 7.578230309072782E8     5.393235589547405E-1   -8.514044266144218E-1   -3.808751699529482E-6    3.451880608274838E-6    8.689062481620590E-6    2.609548665053348E-6    5.224669011723115E-1   -8.515298298378875E-1
 7.677930707876371E8     5.290420819472625E-1   -8.569145825935414E-1   -2.913619671317807E-6    1.058974380778417E-5    9.649619658577734E-6   -1.859812506497671E-6    5.113438575711716E-1   -8.580447655156151E-1
 7.777631106679960E8     5.194154545362327E-1   -8.638362983592001E-1    4.672181527243271E-6   -4.637721613936939E-6   -7.229995050119180E-6   -6.521804664251532E-6    4.997730651685067E-1   -8.647981904552270E-1
 7.877331505483550E8     5.089269685317398E-1   -8.706226264337874E-1   -1.263472247091530E-6    7.973301593173652E-6    1.065062354927354E-7    1.258294930134086E-5    4.879121016148754E-1   -8.713349691049788E-1
 7.977031904287138E8     4.976772757128484E-1   -8.769799909985426E-1   -7.459907857800677E-6   -3.669265031660216E-6   -1.554331816700240E-5    3.684617333630755E-7    4.750745652195420E-1   -8.776149467504554E-1
 8.076732303090727E8     4.861529200580963E-1   -8.830379961803058E-1   -5.019689811500580E-6   -5.667682787785554E-6    5.208981867317810E-6   -2.510124500244346E-5    4.622519503421194E-1   -8.837009213031692E-1
 8.176432701894317E8     4.741580472576241E-1   -8.891412776013927E-1   -1.390124619316758E-7    1.513786716851518E-5    2.454095842901719E-5    1.388524769589979E-6    4.495076208206341E-1   -8.902442346383521E-1
 8.276133100697906E8     4.617994513365333E-1   -8.953779467322137E-1    1.620157846026713E-5    1.461180102126733E-6   -3.106262212752390E-7    1.326581896724076E-5    4.368975526287318E-1   -8.970259682639893E-1
 8.375833499501495E8     4.491766439820090E-1   -9.016999380210660E-1   -1.721300723445479E-7   -5.828048041191643E-6    1.094894760428104E-5    1.021891546151129E-5    4.246377659698610E-1   -9.035658875861994E-1
 8.475533898305085E8     4.363211513304294E-1   -9.081893158316345E-1   -4.561501804032337E-6   -4.422078042687165E-6    8.820520696147933E-7   -3.386724682345311E-7    4.128482557365268E-1   -9.096421899840017E-1
 8.575234297108674E8     4.236790521373822E-1   -9.146667907903585E-1    1.180767677453083E-5   -8.407878725471709E-8    2.072707098533628E-5    7.744123744824091E-6    4.009871811630804E-1   -9.148728594004475E-1
 8.674934695912263E8     4.108326690740948E-1   -9.214129788993480E-1    6.976616342466500E-6    1.254891694457441E-5    1.025004100978585E-6    2.723149409850509E-6    3.890853723922323E-1   -9.198409734902077E-1
 8.774635094715853E8     3.976981183691138E-1   -9.278626866566912E-1    2.954294466215344E-6    9.933497587151103E-7   -2.251759184169139E-6    2.179007822348372E-7    3.764477222986329E-1   -9.244896471826541E-1
 8.874335493519442E8     3.845669366771274E-1   -9.325644807775376E-1    2.401630426885739E-6    6.048378352663361E-6   -9.936215592456498E-6    1.495931683595627E-6    3.633429428896215E-1   -9.289350668499559E-1
 8.974035892323031E8     3.732344512985479E-1   -9.361534676690452E-1   -1.176860873747051E-6    1.181410256663683E-5    7.893394424371248E-6    1.579691203988760E-5    3.496225199646124E-1   -9.332410598428731E-1
