#  HZ   S   RI   R     50.00 
! Rohde & Schwarz Vector Network Analyzer 
! Rohde-Schwarz,ZNB20-2Port,1311601062102128,3.60
! Created: UTC 4/29/2024, 3:44:43 PM
! freq[Hz]                re:S11                  im:S11                  re:S21                  im:S21                  re:S12                  im:S12                  re:S22                  im:S22
 1.000000000000000E5     9.963564885594898E-1    4.712767342776596E-3    4.685050776037411E-6    8.251772953392425E-5   -1.673480011529870E-4   -1.189443853525261E-4    1.010990342136499      -1.122252871992141E-2
 1.007003988035892E7     9.976100055268765E-1   -1.384208047939124E-2   -1.787024294658770E-6    6.028779785863650E-6    1.068438405925823E-5   -3.727486104151532E-6    9.957191776178453E-1   -1.457163759556860E-2
 2.004007976071785E7     9.997358019901594E-1   -2.737207085166783E-2   -2.137495755549848E-6   -2.218394123300512E-5    3.917672417736830E-6   -9.426712699105882E-6    9.985478095527254E-1   -2.785891825634735E-2
 3.001011964107677E7     9.977892573456247E-1   -4.106845417528275E-2    1.469365511405917E-6   -5.842959264470078E-6    1.020642575399282E-5    1.842975221813743E-7    9.975674283988719E-1   -4.195844920152073E-2
 3.998015952143569E7     9.976123282291354E-1   -5.305630649967087E-2    9.007108991535342E-6   -3.967086990001432E-6   -3.036065544091732E-6   -1.624215760764708E-6    9.976845670983815E-1   -5.672276437401876E-2
 4.995019940179461E7     9.959365649440045E-1   -6.592909377481754E-2    2.651819503827164E-6    1.469616423928021E-5    4.846812341019853E-6    1.789727210132675E-5    9.966406557852673E-1   -6.919117641190395E-2
 5.992023928215354E7     9.942537802401786E-1   -7.882421675610712E-2   -6.880582714959920E-7    1.647841111714700E-5    3.886652484806768E-6   -3.719868163333555E-6    9.945315649073593E-1   -8.214571838065504E-2
 6.989027916251247E7     9.929472501140170E-1   -9.174911519901383E-2   -9.773865696565656E-6    1.678306099960006E-5    1.075009320412320E-5    2.886261526353388E-6    9.933851137288898E-1   -9.487362268961398E-2
 7.986031904287139E7     9.922565949705535E-1   -1.051192256870154E-1    2.158379691070733E-6    1.364132133855011E-5    9.170962503285422E-6   -2.733814155436568E-5    9.923113407714276E-1   -1.080447220790674E-1
 8.983035892323031E7     9.912729498220727E-1   -1.186438813060082E-1   -2.862370148432296E-6    4.220390303320099E-7    3.839704710310172E-6    1.556244689972427E-6    9.907228507848616E-1   -1.212191493924819E-1
 9.980039880358922E7     9.893308615339379E-1   -1.322280878721120E-1   -1.064304639583394E-5   -1.286528032494228E-5    3.506809081005508E-6    1.132049013344569E-5    9.886931229078689E-1   -1.346597864742157E-1
 1.097704386839482E8     9.865108551506121E-1   -1.454513729697756E-1    1.878114541695406E-5    1.562253903712158E-5    3.481366181222000E-6    4.561009471646214E-6    9.860628724844832E-1   -1.479644043090264E-1
 1.197404785643071E8     9.847584715111529E-1   -1.588689627233177E-1   -6.306712679541423E-6   -1.466066192854130E-5   -2.692423696369741E-6    9.548472667804936E-6    9.841756473136444E-1   -1.612734879321647E-1
 1.297105184446660E8     9.829178435633457E-1   -1.716725799302771E-1    2.180521136219657E-5    7.295085980250104E-6    7.768374253807328E-6   -8.295790315575245E-6    9.828389231492760E-1   -1.744965187120202E-1
 1.396805583250249E8     9.815420650885543E-1   -1.845893497335795E-1   -5.076679927898457E-6   -7.798912533983929E-6    1.263375011832706E-5    7.124993649151447E-6    9.808825654572029E-1   -1.876301582992675E-1
 1.496505982053838E8     9.789460264061731E-1   -1.970424288756435E-1   -1.186014476430206E-6   -2.779238668258997E-6   -1.478896436821501E-5    1.229367605122576E-5    9.784390409463165E-1   -2.005308755344950E-1
 1.596206380857428E8     9.762828040008129E-1   -2.093336890825683E-1   -1.589896053206979E-5   -2.556114432174080E-6    3.337247901734554E-7   -1.796863767548351E-5    9.757442504155008E-1   -2.134008890176313E-1
 1.695906779661017E8     9.732302905019130E-1   -2.222148970641655E-1   -8.328514487318236E-7    5.913409933271675E-6   -3.568867599856699E-6   -8.155726385416291E-6    9.728981797925923E-1   -2.261652970375319E-1
 1.795607178464606E8     9.707115208994586E-1   -2.346754426085222E-1    1.763530476480070E-6    7.227922462193294E-6   -5.002930313202319E-6   -1.306976745328080E-5    9.702594569094272E-1   -2.381987394590883E-1
 1.895307577268195E8     9.676415247546949E-1   -2.469142986683966E-1    3.400843803129890E-6   -1.054049905180292E-6    1.202662012459386E-5    1.638791086451265E-6    9.666416441437816E-1   -2.505858888499525E-1
 1.995007976071784E8     9.638176715563451E-1   -2.593651705831225E-1    7.789255947282739E-6   -8.756029277077403E-6   -1.588039964184718E-5   -3.742519622211470E-7    9.626255078229065E-1   -2.630974000097550E-1
 2.094708374875374E8     9.604363445065208E-1   -2.722309446914428E-1    1.318086392427987E-5   -8.933112888680572E-6    2.254414198963527E-5   -1.355554489715061E-5    9.589369066631334E-1   -2.763288182155998E-1
 2.194408773678963E8     9.573283315697328E-1   -2.850053923706105E-1    3.967853901771322E-6    1.636778644077861E-5    7.283923326389364E-6    4.040832736920672E-6    9.551921544411494E-1   -2.892573785505189E-1
 2.294109172482552E8     9.537033785981385E-1   -2.972872789334221E-1   -1.177141853418370E-5   -4.871722716430888E-6    2.912313418458408E-6   -6.252753673961451E-6    9.508509634011796E-1   -3.018279707049379E-1
 2.393809571286142E8     9.505963590228368E-1   -3.093320169150949E-1    1.024924296761530E-5    1.094366303593206E-5    1.583522159621968E-5   -1.470252469947673E-6    9.468972227064767E-1   -3.140350323537838E-1
 2.493509970089731E8     9.468346148485969E-1   -3.230922843964847E-1   -5.398136522647419E-6    2.025913352539666E-5    5.666570326979304E-6   -5.086922773868615E-6    9.441150446235658E-1   -3.277682178358950E-1
 2.593210368893320E8     9.426055545661858E-1   -3.351457777584780E-1    1.028607064687269E-5    7.344302746932553E-6   -2.370521035904566E-6    5.895031523701206E-6    9.397968979758715E-1   -3.408777308890575E-1
 2.692910767696909E8     9.385596953017622E-1   -3.466347214050996E-1    1.379917329058798E-5    2.044022543329147E-6    1.144267953785013E-5   -6.059627452280580E-6    9.355387861905706E-1   -3.528594793307348E-1
 2.792611166500499E8     9.338651752336785E-1   -3.581256623485320E-1   -1.992675748180341E-6    2.916424431845719E-6   -7.667619921547765E-6   -8.608512586000375E-6    9.309407261341309E-1   -3.646823044657521E-1
 2.892311565304088E8     9.289354522204467E-1   -3.702053183641222E-1    8.046625530746517E-6   -6.427147016353568E-6   -4.798849684799530E-6   -8.918105017887876E-6    9.262735512488465E-1   -3.769152118444206E-1
 2.992011964107677E8     9.241638075450540E-1   -3.823816622584354E-1    1.069426143115935E-5    1.220929124323394E-5   -6.556950394959767E-6   -1.578201504930460E-5    9.212323103313599E-1   -3.886841421333793E-1
 3.091712362911266E8     9.189154018654785E-1   -3.947050590144119E-1    1.609745965788128E-5   -9.254378174546105E-6    5.403031351011196E-6    1.140650611672263E-5    9.156510327796109E-1   -4.000954141308037E-1
 3.191412761714855E8     9.133440641216443E-1   -4.070009204195411E-1    1.046356238571402E-5   -9.568663720942560E-6   -5.738058407331653E-6   -4.228831592107635E-6    9.097541457319445E-1   -4.119046050051861E-1
 3.291113160518445E8     9.076312829301123E-1   -4.197671811532452E-1   -1.114910870424678E-6   -9.685842083267531E-6   -2.362929383716550E-7    5.658375267855701E-6    9.034063251456831E-1   -4.243897162705677E-1
 3.390813559322034E8     9.022249973125426E-1   -4.325848180712553E-1   -1.325556996221688E-5   -9.896335376798322E-6    1.338284923539646E-5   -5.493610781083876E-6    8.968391535252856E-1   -4.370189575437711E-1
 3.490513958125623E8     8.968239341594429E-1   -4.451697113215503E-1   -1.193421476797648E-5    1.215974156243618E-5   -1.275063742604595E-5   -7.850105085424355E-7    8.905316794893278E-1   -4.494338949870013E-1
 3.590214356929212E8     8.913831985208235E-1   -4.576258969147860E-1    1.083620385287608E-5    3.261301827474210E-7    1.725781246103364E-5   -6.063462067975147E-6    8.845580203718263E-1   -4.621528268533821E-1
 3.689914755732802E8     8.860151551503279E-1   -4.699133470263985E-1   -3.114276253093280E-6   -5.439261524593952E-6    3.158891917891180E-6    9.353065557662280E-7    8.790218256578574E-1   -4.747365728458987E-1
 3.789615154536391E8     8.799116857058670E-1   -4.810110199850551E-1   -1.825109921679473E-6   -1.043191014776873E-6    1.347693546385810E-5    1.425228009190290E-5    8.737438428691500E-1   -4.867781103745594E-1
 3.889315553339980E8     8.741724421841813E-1   -4.918172151560678E-1   -3.262705211227942E-7   -4.384024661417934E-6   -1.734379680911636E-5    6.761324713032438E-6    8.679677119440884E-1   -4.988406233086168E-1
 3.989015952143569E8     8.675214323307149E-1   -5.024789790758796E-1    7.396364729445942E-6   -9.514082565713043E-6    2.691315882443196E-5   -7.822583467883696E-6    8.612125715695027E-1   -5.097825069249580E-1
 4.088716350947158E8     8.603086652521579E-1   -5.133264245693678E-1   -2.911806017447716E-6   -7.016718413564332E-6   -5.745975644533255E-7   -6.067056553229315E-6    8.542645166138809E-1   -5.206673557983653E-1
 4.188416749750748E8     8.534351429974119E-1   -5.249117272705791E-1    2.086497133458924E-7   -8.519848727071109E-6   -3.878678078457289E-6   -1.061322858413650E-6    8.475730711016639E-1   -5.313699455035856E-1
 4.288117148554337E8     8.460930655845351E-1   -5.365680856396843E-1    3.425200149267956E-7    1.318442755136454E-5    7.119900111178877E-7    3.607759409209618E-6    8.406460964423230E-1   -5.417474976879398E-1
 4.387817547357926E8     8.382675169130257E-1   -5.479388743242682E-1   -6.642709017491889E-6   -8.438024166403331E-6    1.226880604685897E-5    5.156812241962338E-6    8.326797294391393E-1   -5.523402684992046E-1
 4.487517946161516E8     8.306814877750847E-1   -5.598539567239124E-1    6.663776011187706E-7    6.611537105211604E-6    8.654199934443174E-6   -4.028554011968935E-6    8.242948563887044E-1   -5.635109285703781E-1
 4.587218344965104E8     8.237135089253057E-1   -5.718346719148582E-1    6.523674729016814E-6   -1.386107835132973E-6   -3.825012957093509E-6   -7.368736755878318E-6    8.160314905638129E-1   -5.751597927985884E-1
 4.686918743768694E8     8.170314424826550E-1   -5.831291708989500E-1   -6.628440023917556E-6    5.877276912877846E-6    2.966972806769584E-6    8.474804158804590E-7    8.077920091925443E-1   -5.867306035569528E-1
 4.786619142572283E8     8.099652698777866E-1   -5.939405650409817E-1    1.285745569174765E-6    9.853384521847792E-6    6.240174555917393E-6   -3.363514293827097E-6    7.993749904467509E-1   -5.980293757068553E-1
 4.886319541375872E8     8.023183641186532E-1   -6.043644100870517E-1    1.802749535081028E-6   -6.330851836139068E-6   -1.134735554493701E-5   -4.036930550120322E-6    7.906407917502537E-1   -6.089275364260979E-1
 4.986019940179462E8     7.942077456022530E-1   -6.151407387624886E-1   -1.339206659761821E-5   -1.024648959189934E-5   -1.520164756124400E-5   -6.323837411953995E-6    7.822463102012784E-1   -6.196247873123835E-1
 5.085720338983051E8     7.858505459122526E-1   -6.243395981200097E-1   -7.840904654960585E-6   -6.824853909279497E-6    9.985513060225422E-6    5.627946350666617E-6    7.746198931628481E-1   -6.301754954865676E-1
 5.185420737786640E8     7.784338058035903E-1   -6.332803797895924E-1    2.871395196505313E-6   -1.359199159499433E-5   -4.972605518669295E-6    1.391956990057855E-5    7.669851120211512E-1   -6.400765989451968E-1
 5.285121136590229E8     7.700337555409595E-1   -6.427521045215987E-1    8.126494742578315E-8   -2.046865813564931E-6    6.383304288046708E-6    1.449140025867458E-5    7.590881175906269E-1   -6.496449948909728E-1
 5.384821535393819E8     7.616130429875111E-1   -6.530616525951376E-1    5.752250167142349E-6   -6.310080863109883E-8   -1.559810694664136E-5   -1.356473426342961E-7    7.509457187325110E-1   -6.592764896280326E-1
 5.484521934197408E8     7.534588358305846E-1   -6.636090067027905E-1   -9.419560508109818E-6    8.030751775869876E-6    1.421661486308646E-5   -7.483198108208017E-6    7.424294070619790E-1   -6.691324944974426E-1
 5.584222333000997E8     7.448436415980767E-1   -6.745196644802562E-1    6.526053305364376E-6   -3.215122305187323E-6    1.331986849490637E-5   -1.024426858041320E-5    7.332599441854429E-1   -6.791010767222784E-1
 5.683922731804587E8     7.356263800449014E-1   -6.848214683820589E-1   -1.186300476988469E-5    8.815129506460114E-6    5.491436094664443E-6    1.037232555716603E-5    7.232204448026316E-1   -6.890815974485641E-1
 5.783623130608176E8     7.263845494094586E-1   -6.948671478613008E-1    6.406496233920018E-6   -1.162448006754324E-5    1.729833940538944E-5   -2.625195805516676E-6    7.127327264022234E-1   -6.989354598396235E-1
 5.883323529411764E8     7.172637007583492E-1   -7.049707169013849E-1   -6.566482865967319E-6   -1.273536143892096E-6    3.906234893515548E-6   -2.441092780912475E-5    7.021922118084595E-1   -7.085595839050390E-1
 5.983023928215353E8     7.082086492770721E-1   -7.150659793416222E-1   -2.276194972981659E-6    7.613077179232235E-6   -3.285589722278574E-5   -1.619160455978561E-5    6.919221461200149E-1   -7.181123127107956E-1
 6.082724327018943E8     6.985836730305982E-1   -7.245951500480911E-1   -1.731420035402173E-5   -5.396797077235944E-6    1.259380800003114E-5   -8.453295015818308E-7    6.816942659457357E-1   -7.275863610778530E-1
 6.182424725822532E8     6.887458525858751E-1   -7.342704570891545E-1    1.094080623659495E-5    2.828546638481004E-6   -3.736868568113196E-6   -5.889785879606245E-6    6.717723672921626E-1   -7.370839156491571E-1
 6.282125124626122E8     6.782970875828120E-1   -7.437354249217979E-1   -1.178404714569713E-5   -3.961862916732628E-7   -6.278226499853100E-6   -4.333653552164253E-6    6.628872276861523E-1   -7.466195166854576E-1
 6.381825523429711E8     6.686022999233274E-1   -7.509449638608485E-1    5.711605146622186E-6    3.611853439649451E-6   -7.880459645794341E-6   -9.837845112744360E-6    6.538860942000867E-1   -7.553931794383562E-1
 6.481525922233300E8     6.595818897556388E-1   -7.594771067978843E-1    3.538908857802550E-6   -3.491426301152902E-6    1.379921500238612E-6    6.062957119665777E-6    6.446844079272240E-1   -7.639197143169336E-1
 6.581226321036890E8     6.498056873990893E-1   -7.683373252377367E-1    1.402030105553892E-6   -3.980432831249344E-7   -9.696499710043415E-6    1.288334445190067E-5    6.346284443656065E-1   -7.722527321622245E-1
 6.680926719840479E8     6.399568278147385E-1   -7.770500928570973E-1    7.932662267392603E-6    3.967946071776548E-6   -1.137753531090970E-5   -2.381347719714749E-6    6.240892837523854E-1   -7.803671545746885E-1
 6.780627118644068E8     6.301827914958641E-1   -7.852941725783448E-1    2.176557172382607E-5   -9.548315952251948E-7   -5.915865633908735E-7    1.013629295669167E-5    6.132202471183941E-1   -7.882699690509305E-1
 6.880327517447658E8     6.198770137863830E-1   -7.935988177478763E-1   -1.820166387389025E-7    1.528622477821128E-5    6.036150802933515E-6    7.162182734971300E-6    6.017457166237091E-1   -7.958467871788263E-1
 6.980027916251246E8     6.087400260357758E-1   -8.016572683954056E-1   -1.755099339087550E-5    8.697007516251524E-7   -3.536223421308146E-6   -1.715611078727339E-5    5.900800706384575E-1   -8.034904489174994E-1
 7.079728315054835E8     5.974551737900066E-1   -8.100338561442739E-1    4.915376851497256E-6    7.956146860800508E-6    6.175141435622081E-6    2.781058495688361E-6    5.786409364398970E-1   -8.115004713140179E-1
 7.179428713858424E8     5.862658783161917E-1   -8.185880168846134E-1    3.581241506471195E-6    1.506553818989776E-6   -8.600310226885753E-6    2.965839611952712E-7    5.673872485826623E-1   -8.199975303981856E-1
 7.279129112662014E8     5.753854594128957E-1   -8.270382087944463E-1   -3.421633762588673E-6    6.370355470196311E-6   -1.238824540834757E-6    3.211952150078851E-6    5.561272501725033E-1   -8.287297737782676E-1
 7.378829511465603E8     5.640267979368846E-1   -8.356626790487229E-1   -2.857310401171291E-6   -1.237800746675188E-5    7.267408790890568E-6    1.768880643239758E-5    5.448374325467403E-1   -8.370179207977594E-1
 7.478529910269192E8     5.519668723412073E-1   -8.441985151603509E-1    1.698103773085576E-6    8.502611356644743E-6    1.523510323072936E-5    9.402933567784207E-6    5.337575454461800E-1   -8.447371658586458E-1
 7.578230309072782E8     5.394028518087999E-1   -8.513091910761127E-1   -4.374835340775505E-6    1.150839394255228E-5    7.100015560961444E-6   -9.990544234017643E-6    5.226191717926824E-1   -8.517290036066784E-1
 7.677930707876371E8     5.290227735203846E-1   -8.568180612122952E-1    2.608575011192089E-6   -1.015401534127702E-5   -6.808253733468188E-6   -1.375064205782209E-5    5.113198558176797E-1   -8.581045077580965E-1
 7.777631106679960E8     5.195242863538725E-1   -8.638260777039156E-1   -1.492094954829370E-6    2.109316649439768E-6    6.425606805172323E-6    2.967345563836064E-7    4.997619453027154E-1   -8.645732718871488E-1
 7.877331505483550E8     5.090383928178933E-1   -8.706378734634097E-1    7.761969768702898E-6   -8.103492495077953E-6   -1.256021552729314E-5   -1.390953944987658E-5    4.879978301042087E-1   -8.713077747066832E-1
 7.977031904287138E8     4.978143197125465E-1   -8.770077005050030E-1   -8.418349839491936E-6    2.136206433078320E-6    1.143341193840762E-5   -9.565418101618391E-7    4.751283855593076E-1   -8.776756542339433E-1
 8.076732303090727E8     4.862024666774734E-1   -8.828600228813079E-1    9.018029225156900E-6   -6.744718560348165E-6   -1.354979891825324E-5   -1.048795467834251E-6    4.622425000083821E-1   -8.838697415212434E-1
 8.176432701894317E8     4.742994932416550E-1   -8.890709093324669E-1   -6.624757159719053E-7   -1.509060768489675E-5    9.503598630513821E-7   -9.205312768224406E-6    4.494818289945891E-1   -8.902626628229919E-1
 8.276133100697906E8     4.619608476611795E-1   -8.954460329269586E-1   -7.399818405981751E-6    1.098552730963422E-5   -7.886852410434718E-6    1.796111724706601E-5    4.368529432923067E-1   -8.969413756553913E-1
 8.375833499501495E8     4.492576382385958E-1   -9.017669046984871E-1    2.600240708216464E-6    5.414949494263572E-6   -2.972060839824311E-7    1.099256781667649E-5    4.246695626977469E-1   -9.036204743987682E-1
 8.475533898305085E8     4.364823366005186E-1   -9.082131466250865E-1    4.428998546281447E-6   -7.937436020644451E-6   -1.537086998404173E-5    4.407435446445673E-6    4.128289858706752E-1   -9.096289018156232E-1
 8.575234297108674E8     4.237638448613734E-1   -9.146023643781075E-1   -4.687942085076842E-6    2.013112480847339E-5   -1.238139676778716E-5    4.023149720017466E-6    4.010773839157213E-1   -9.148746714022117E-1
 8.674934695912263E8     4.108804408244771E-1   -9.213341373008900E-1   -5.607986148512782E-6   -4.339497522960185E-6    6.004473823990865E-6   -1.530920935826617E-5    3.890473632459295E-1   -9.199006353774412E-1
 8.774635094715853E8     3.977795550949447E-1   -9.278570045230501E-1   -2.758431741256811E-6    5.211616708947939E-6    3.448431674627729E-7    2.728542135325374E-6    3.763961310219830E-1   -9.245503371370275E-1
 8.874335493519442E8     3.846633971728957E-1   -9.325178385862931E-1   -4.841151327686451E-7   -4.194907958689330E-6    1.149182482661067E-5    5.137628404289598E-7    3.632284234615937E-1   -9.288427564573541E-1
 8.974035892323031E8     3.734292713375185E-1   -9.361866321274559E-1   -1.396021890153910E-5    2.410175185571587E-6    6.191534448694303E-6   -4.761696018076527E-6    3.497543701834225E-1   -9.333001339308751E-1
