#  HZ   S   RI   R     50.00 
! Rohde & Schwarz Vector Network Analyzer 
! Rohde-Schwarz,ZNB20-2Port,1311601062102128,3.60
! Created: UTC 4/29/2024, 3:44:30 PM
! freq[Hz]                re:S11                  im:S11                  re:S21                  im:S21                  re:S12                  im:S12                  re:S22                  im:S22
 1.000000000000000E5     9.959007390793988E-1    4.732780101822691E-3    1.933752803362979E-4    4.516807959178544E-5   -8.543286298068934E-5    4.670734233831667E-5    1.010754815533873      -1.108037084746683E-2
 1.007003988035892E7     9.983388959506527E-1   -1.397202500405669E-2    2.687625878557200E-6   -1.663791124438333E-5    1.863785066182894E-5   -9.772537722390661E-7    9.958198381905415E-1   -1.467748281824953E-2
 2.004007976071785E7     9.999280592580768E-1   -2.722554354195268E-2   -1.409527835981761E-5   -6.728699592868951E-6    1.588718880577493E-5    2.843356341136937E-6    9.988336556174410E-1   -2.774027539782152E-2
 3.001011964107677E7     9.981790535545116E-1   -4.109333224837688E-2   -2.665439915364567E-6    2.470271938149714E-5    1.130611586108875E-5   -8.785439393131334E-6    9.975510245612662E-1   -4.199234668630496E-2
 3.998015952143569E7     9.976443588652805E-1   -5.309265392487672E-2    1.094032071657017E-5   -7.991285251483979E-6   -1.059062819247914E-5    4.514351908759952E-6    9.975522509810251E-1   -5.679036242152127E-2
 4.995019940179461E7     9.956621717398755E-1   -6.591279719393939E-2   -7.688942103173441E-6   -1.573050722292061E-5    1.189310434065329E-5    1.282024213168380E-5    9.965255168644697E-1   -6.920797653452895E-2
 5.992023928215354E7     9.937246685630458E-1   -7.869690916356580E-2   -5.901254274309822E-6    1.408191361892323E-5   -1.523186515360620E-5    2.225324625552266E-5    9.944379950027357E-1   -8.212672736345956E-2
 6.989027916251247E7     9.929724744748056E-1   -9.177407826828490E-2   -5.609170976777227E-6    4.581864640373719E-7    4.052941223596468E-6    2.042444093172041E-5    9.932815624372423E-1   -9.489205656469445E-2
 7.986031904287139E7     9.926817436247266E-1   -1.051511269953132E-1    2.857010131457898E-6    6.391570846294194E-6    2.758504943778573E-6    9.258322063217853E-6    9.923633041421310E-1   -1.081198990654612E-1
 8.983035892323031E7     9.917083725834047E-1   -1.187208443892502E-1   -4.683760515939748E-6    1.556177813237102E-5    7.889962555552705E-6    2.214763924001598E-5    9.907333613633628E-1   -1.212530324556306E-1
 9.980039880358922E7     9.891381009025314E-1   -1.321906751614749E-1    6.946424381836360E-7   -1.953551401830894E-6   -3.391409075626457E-6    2.500348749958435E-6    9.884844349024231E-1   -1.345720156803513E-1
 1.097704386839482E8     9.861057935348846E-1   -1.453358051543001E-1   -5.271614817243973E-6    4.685690097727394E-6    3.425131863114780E-6   -4.395817267718046E-6    9.859577568624900E-1   -1.478125208466569E-1
 1.197404785643071E8     9.847389464556090E-1   -1.587422786975602E-1    1.078654862396232E-5   -4.928568724902139E-6    7.725297651004480E-6    2.856458885015595E-6    9.842517706805511E-1   -1.612623746950743E-1
 1.297105184446660E8     9.828997675617603E-1   -1.717118809387056E-1    1.859204887345493E-5   -9.283733029425087E-6    5.669804716077500E-6    6.091109827871004E-6    9.827332280050104E-1   -1.744723895628865E-1
 1.396805583250249E8     9.817243519525493E-1   -1.845819950682693E-1    5.652739668226365E-6   -9.081606961972988E-7   -2.846282296254105E-6    5.650602363903150E-6    9.809253239104438E-1   -1.876603373923670E-1
 1.496505982053838E8     9.787894858060474E-1   -1.970069079071077E-1    1.036931498367681E-5   -1.483661652933743E-5   -1.511896724006739E-5    3.102261906868592E-6    9.783884765682787E-1   -2.004299345612881E-1
 1.596206380857428E8     9.760257740134275E-1   -2.092945466830042E-1   -9.664848481374108E-6   -3.014869796592499E-6    1.418479107624719E-5    1.903384933181668E-5    9.756170999739356E-1   -2.133508629843618E-1
 1.695906779661017E8     9.731040502038731E-1   -2.222626389167865E-1   -2.627562583227112E-6    8.127204499410482E-6   -5.802188245243097E-6   -1.671345057831549E-5    9.728673057635688E-1   -2.262108819568980E-1
 1.795607178464606E8     9.708368100071390E-1   -2.346624625051809E-1   -1.205294307067873E-5   -6.996755894298142E-6   -5.014849624441658E-6    7.061085435214554E-6    9.702367078843576E-1   -2.381376805953268E-1
 1.895307577268195E8     9.675847609121040E-1   -2.469330832106216E-1   -8.881124807116766E-6    1.248721006069867E-5   -9.797982963727664E-6    4.022374947469526E-6    9.666518705630224E-1   -2.505356710943587E-1
 1.995007976071784E8     9.637746953534838E-1   -2.592521847706143E-1    1.979043789295357E-5   -1.826319823745152E-6    4.620968104253219E-6    6.495116360967985E-6    9.626316457775587E-1   -2.632082932454761E-1
 2.094708374875374E8     9.603606173032246E-1   -2.721953182614258E-1    3.283392649546341E-6   -3.765346356135949E-6    1.144839166404929E-5   -1.713775201872568E-5    9.589093052060094E-1   -2.763308772244524E-1
 2.194408773678963E8     9.574052715619954E-1   -2.850123857378666E-1   -7.824851547016369E-6    1.259666394720237E-6   -7.457136518788429E-6   -3.359345585532869E-6    9.550530281888908E-1   -2.893122652648716E-1
 2.294109172482552E8     9.536230374754656E-1   -2.972735118815615E-1   -1.079585589873881E-5    7.216471409639109E-6    9.100301157472899E-6   -5.405921057287132E-6    9.508606278981984E-1   -3.018374097942251E-1
 2.393809571286142E8     9.503962644962078E-1   -3.093255608309474E-1    1.682608662348074E-5    4.649744982658440E-6    6.899184136123387E-7   -1.049770220242526E-5    9.468413219940542E-1   -3.140307132904634E-1
 2.493509970089731E8     9.468366076117293E-1   -3.230845782523599E-1    8.690249697051286E-6    7.948999604585326E-7    2.116148465457807E-7   -1.752052640249247E-5    9.440395839547274E-1   -3.277123399910680E-1
 2.593210368893320E8     9.426118960762889E-1   -3.352282413497983E-1    1.440398725617489E-8   -5.693934835400415E-6    1.078082054001501E-5    4.171002862081146E-6    9.398834660247217E-1   -3.408391647574670E-1
 2.692910767696909E8     9.385015372770209E-1   -3.466049389114069E-1    5.518259926573766E-6    5.302381244941263E-6   -4.295161404737700E-6    1.921962528755753E-5    9.355454871403563E-1   -3.529198769697759E-1
 2.792611166500499E8     9.337079434118706E-1   -3.582094455799049E-1    2.761559486847734E-6    2.118575406511757E-6   -3.935767514501207E-6    1.632570942556489E-5    9.310046023506285E-1   -3.646504066152350E-1
 2.892311565304088E8     9.289660463402326E-1   -3.702463397748412E-1    6.872683058399055E-6    7.838150456194382E-6   -1.604808576553880E-5    1.916316539348940E-6    9.261642968874214E-1   -3.767974479992699E-1
 2.992011964107677E8     9.241739867190393E-1   -3.823919573702456E-1    6.179617061054683E-6    7.209099363477503E-6   -3.817380256572785E-6   -3.071140524330211E-7    9.211380888938896E-1   -3.885714955987591E-1
 3.091712362911266E8     9.188508089483427E-1   -3.946822221191215E-1    3.050469947081446E-7   -1.975347785826607E-6    5.601278478390764E-6   -6.759270277728853E-6    9.157223033381180E-1   -4.001418189927536E-1
 3.191412761714855E8     9.132581773364735E-1   -4.070211233653016E-1    8.945903708293558E-6   -2.078349359067938E-6    3.143236874843647E-5   -2.424381590470204E-5    9.097235940015732E-1   -4.119274221038678E-1
 3.291113160518445E8     9.075641095601868E-1   -4.196108095504356E-1   -1.498979933866111E-5   -1.281848384987140E-6    1.030044748006772E-5    6.812951289644576E-6    9.034109543333593E-1   -4.243491178551347E-1
 3.390813559322034E8     9.020540524187100E-1   -4.325517743670615E-1   -7.666661156776656E-6    9.729229684942267E-6    8.810114161523354E-6    4.752769350285041E-6    8.968248518860009E-1   -4.368438108115063E-1
 3.490513958125623E8     8.967798234560552E-1   -4.451923418783823E-1    6.903559910969892E-6   -1.602535599303341E-5    6.008705614301186E-6   -6.204002046148776E-6    8.904280962057012E-1   -4.493595321863851E-1
 3.590214356929212E8     8.914365586980889E-1   -4.576355334439488E-1    9.347402883913246E-6    1.423227353954126E-5   -2.488176187948921E-6    1.784520837690133E-6    8.844733660565393E-1   -4.621184071850249E-1
 3.689914755732802E8     8.859522325354334E-1   -4.697685887016710E-1    3.411956660269170E-6    5.494466289415480E-6    8.119602721701773E-6   -6.288118387315857E-6    8.790410293317226E-1   -4.746945739522724E-1
 3.789615154536391E8     8.798070161024811E-1   -4.809968801623919E-1   -1.484185701876909E-5    4.580740698477656E-6    4.242452504197512E-6    8.833693488257833E-6    8.738445148154431E-1   -4.867114306448127E-1
 3.889315553339980E8     8.741662396898331E-1   -4.917372815196938E-1   -9.821648697098621E-6   -6.316875261435990E-6   -2.221287531637884E-6   -1.983017584112618E-6    8.679263593065061E-1   -4.987754328292039E-1
 3.989015952143569E8     8.673817211676706E-1   -5.024994469711488E-1    7.358553210967724E-6    5.015748010357676E-7   -8.342394601702899E-6    1.597300367299184E-5    8.611545314000704E-1   -5.096807145517298E-1
 4.088716350947158E8     8.602275687482884E-1   -5.131846584949701E-1   -2.521798712048749E-6   -1.609033097436553E-5    6.070732225749747E-6    2.100571487153588E-6    8.543493621598550E-1   -5.206156203686941E-1
 4.188416749750748E8     8.532732967396645E-1   -5.248434881434650E-1   -1.696228037607851E-6   -7.823057364054373E-6    1.441894307931150E-5   -1.326326485384607E-5    8.476627594711507E-1   -5.314366129895726E-1
 4.288117148554337E8     8.460438802935466E-1   -5.365053057607619E-1   -1.453488966701341E-6   -1.243068821605277E-7    9.634946661661929E-6   -2.088150352471657E-6    8.405259305022806E-1   -5.417381408671167E-1
 4.387817547357926E8     8.383166772020675E-1   -5.480506307337987E-1   -7.125870872792890E-6   -3.780783141380877E-7    1.694151076548283E-6   -1.535031098126781E-5    8.326578236075493E-1   -5.522417480178806E-1
 4.487517946161516E8     8.305284320987935E-1   -5.598087584326531E-1   -5.272637116307811E-6    1.103903439975433E-5    2.726290476786248E-6    5.936893321000699E-6    8.242003877005513E-1   -5.633904118191962E-1
 4.587218344965104E8     8.235870447185764E-1   -5.717561119281873E-1   -2.085904382580727E-6    5.845673383745881E-6   -7.806153702850850E-6   -5.106516324255818E-6    8.160609618048614E-1   -5.751799365105449E-1
 4.686918743768694E8     8.169656246688788E-1   -5.831393084492721E-1    9.937193689361942E-7   -4.636390420348750E-6   -5.687366307986380E-6    6.602146448682043E-6    8.078073522162015E-1   -5.867476245930421E-1
 4.786619142572283E8     8.099567455158998E-1   -5.939487621048904E-1   -8.369748168751384E-6    3.972340877162071E-6   -5.166460191694921E-6   -2.385417047994748E-7    7.993086452045963E-1   -5.980692453712104E-1
 4.886319541375872E8     8.026285310356845E-1   -6.044918639032035E-1    6.374207577936091E-7   -2.621749285442389E-6   -1.199907727466529E-5   -4.485856339608450E-6    7.905279412174908E-1   -6.088418111137640E-1
 4.986019940179462E8     7.942202499150188E-1   -6.150579179249079E-1   -8.869694631693631E-6    1.996966311877036E-5    1.407446003920823E-5    5.818343505685038E-6    7.822908457170114E-1   -6.196394462075815E-1
 5.085720338983051E8     7.856986442833203E-1   -6.240654010150312E-1   -4.322270898434393E-6   -2.931080803734858E-6    1.451636292358030E-6    1.393307311050130E-5    7.745285194774454E-1   -6.301666623329740E-1
 5.185420737786640E8     7.783708363765515E-1   -6.332495587569051E-1    1.163790195878550E-5    1.056106594013877E-5   -4.268549854858949E-6   -4.615358587686556E-6    7.670824023161168E-1   -6.400095891566935E-1
 5.285121136590229E8     7.702543119893592E-1   -6.429168253181702E-1    7.800028204818731E-6   -3.297116483759077E-6    1.307759976348444E-6    2.544910384278633E-5    7.590549816754401E-1   -6.496845636229217E-1
 5.384821535393819E8     7.615979928709589E-1   -6.530266682957153E-1    4.778326544916996E-7   -6.953021622045614E-6   -1.029402388526155E-5    5.007060016177700E-6    7.509992305670603E-1   -6.593610268688072E-1
 5.484521934197408E8     7.532866986877320E-1   -6.634697260376938E-1   -9.256189358353021E-7    2.037549515062037E-6   -1.028591393191051E-5   -4.533408059841416E-6    7.424248053302830E-1   -6.691284896824102E-1
 5.584222333000997E8     7.447339803358157E-1   -6.742925547321819E-1    9.585758223733877E-6   -3.474573970316977E-6   -1.436936289963559E-5   -1.448880438958837E-5    7.332886416333382E-1   -6.791375414499562E-1
 5.683922731804587E8     7.356715581656288E-1   -6.848215638762423E-1    2.209899310519629E-6    1.025887222056917E-5   -4.187508728365655E-6    1.419602590557423E-5    7.231836352452332E-1   -6.891228263022446E-1
 5.783623130608176E8     7.264846565459052E-1   -6.949101703877071E-1   -1.201398970591929E-5   -8.797416406587174E-6    4.416579436649327E-6    3.440837592478034E-6    7.128275739028499E-1   -6.988412706986290E-1
 5.883323529411764E8     7.172270841598013E-1   -7.049086800689637E-1    6.823957212601560E-6   -1.232832492993189E-6   -1.093124729740595E-6    1.137230537254290E-5    7.022628405857975E-1   -7.085131489885655E-1
 5.983023928215353E8     7.080732622150765E-1   -7.147878923366041E-1    2.797898717505970E-6   -8.069492648239254E-6   -4.543923696882396E-6   -2.038351632617926E-7    6.918264193414548E-1   -7.180101853664368E-1
 6.082724327018943E8     6.986277468375021E-1   -7.245440559333992E-1   -9.382963003670833E-6   -6.071785781172586E-6    5.442949329228846E-6    1.816487649029530E-5    6.815783684162420E-1   -7.275811550887890E-1
 6.182424725822532E8     6.888636789327410E-1   -7.343021162534172E-1   -6.154023330767973E-6   -1.753548870437624E-6   -1.192327150815367E-6    1.954085903385385E-5    6.717149550353257E-1   -7.369869277373100E-1
 6.282125124626122E8     6.782314025988962E-1   -7.436915545353706E-1    7.012518508943544E-6    2.016685918023637E-6   -3.982245921345641E-7    2.362845978936373E-6    6.629479526416342E-1   -7.467631665834814E-1
 6.381825523429711E8     6.685282977593084E-1   -7.508021930823837E-1    1.243198380292370E-5   -3.409077021447237E-6   -2.409319853338508E-6   -2.056338099105928E-6    6.539652937149832E-1   -7.555258447460967E-1
 6.481525922233300E8     6.595989207532489E-1   -7.593712222600099E-1   -3.628589407131548E-7   -2.181173276896665E-6    6.442469845452026E-6   -8.937810914590452E-6    6.447455449849568E-1   -7.639348009081030E-1
 6.581226321036890E8     6.498887922985410E-1   -7.683604684848030E-1   -4.559152110304292E-6   -8.290660618690172E-6    7.033101972229148E-7    1.053884876085739E-5    6.347411187388317E-1   -7.722582268783792E-1
 6.680926719840479E8     6.399930262787791E-1   -7.771279045264516E-1   -7.854232648185816E-6   -2.868314221746023E-6    7.952409139191293E-6   -2.456163234753123E-5    6.240831788110400E-1   -7.802764292352268E-1
 6.780627118644068E8     6.301367701774071E-1   -7.852517948560824E-1   -4.490116030216061E-6   -1.613798936952790E-6    2.553653139215407E-5    6.024096886020067E-6    6.131580698624099E-1   -7.883320812124893E-1
 6.880327517447658E8     6.197852976861421E-1   -7.934640841866532E-1    1.449147838472007E-5    1.561474913854260E-6    5.698749641719383E-6    5.798363233257576E-6    6.017284130091269E-1   -7.959064089827347E-1
 6.980027916251246E8     6.087899478253233E-1   -8.016440196462278E-1   -7.754112200331326E-6   -1.354580237975961E-5   -5.110880225648390E-6    1.467976232316270E-5    5.901213269666294E-1   -8.034892171852136E-1
 7.079728315054835E8     5.974862492926846E-1   -8.100398936146931E-1    2.044857066148658E-5    4.252009663155851E-6    2.300237103850139E-6    1.148350541466780E-5    5.786082176396383E-1   -8.114881262116999E-1
 7.179428713858424E8     5.863430410540212E-1   -8.186055294824887E-1    8.749400544352562E-6    1.178151527466861E-5   -1.067536937630420E-5    7.993886818856286E-7    5.674413770670850E-1   -8.200556134657995E-1
 7.279129112662014E8     5.751688141690841E-1   -8.268659611901830E-1   -2.481229878630727E-6    1.123377528331493E-5   -2.191166922851835E-6    1.488487232022150E-6    5.561308800903725E-1   -8.287208052552911E-1
 7.378829511465603E8     5.639887850401997E-1   -8.355540617428964E-1   -6.070879903459069E-6   -1.361112123512101E-6    4.554477231297995E-6   -2.474062607809300E-6    5.448161539879153E-1   -8.369363105209959E-1
 7.478529910269192E8     5.520533461254110E-1   -8.441768204747528E-1    1.433824650323446E-6    4.159506048168116E-6    2.444741147684434E-6   -1.184530446128647E-5    5.336052972996479E-1   -8.446036844077849E-1
 7.578230309072782E8     5.394626028715320E-1   -8.514080481669908E-1    6.909283165365621E-6    9.556313190067032E-6   -2.638229491141707E-6    9.256865170026225E-7    5.225408750771581E-1   -8.516028407750964E-1
 7.677930707876371E8     5.290227984797994E-1   -8.567450317331866E-1   -9.101700203601342E-7    1.354687004970343E-6   -1.407407415134250E-6   -6.716716929817988E-6    5.113266405800013E-1   -8.580944729349681E-1
 7.777631106679960E8     5.194206701460593E-1   -8.636655762816122E-1    4.189374120476533E-6   -5.775745753113161E-6    8.650181001812563E-6    5.960013095697724E-6    4.997085000728153E-1   -8.646676022521795E-1
 7.877331505483550E8     5.090499471575122E-1   -8.705257789157593E-1   -6.617793934394688E-6    6.629300541791532E-6    1.420440431764608E-5    6.416477340867928E-8    4.879342896612515E-1   -8.713197340834572E-1
 7.977031904287138E8     4.977982894927239E-1   -8.769642094521437E-1   -3.255229704006799E-6   -6.415968576938729E-6    1.564978019646288E-5   -6.555633777666014E-6    4.751224075175189E-1   -8.777172551738712E-1
 8.076732303090727E8     4.861882690070361E-1   -8.830507222425834E-1    2.472617357178329E-5    8.571096511805586E-6   -1.672595408401257E-5    1.000406566815500E-5    4.623280586677918E-1   -8.837720647228559E-1
 8.176432701894317E8     4.741774092483587E-1   -8.889931348067844E-1   -7.537404319381940E-7   -8.162767717810347E-6    7.701476666977795E-6   -1.688637051576437E-6    4.494576471414107E-1   -8.902160251937492E-1
 8.276133100697906E8     4.618907601647295E-1   -8.953870647888372E-1   -2.259295984013190E-6    8.540388792502969E-6   -7.116721920984782E-6    4.286498056616202E-6    4.368685864336649E-1   -8.970204512261422E-1
 8.375833499501495E8     4.492550778445781E-1   -9.017483544914801E-1   -1.199298222545200E-6    3.386051330517188E-6   -1.391688210405475E-6    1.899975115960013E-5    4.246508128443276E-1   -9.036063197730548E-1
 8.475533898305085E8     4.365328631800072E-1   -9.082370377580081E-1    4.378196489853239E-6    7.760377570962106E-6   -3.679918289024022E-6    3.058800354833970E-6    4.128999888826551E-1   -9.096480972943514E-1
 8.575234297108674E8     4.237404842447888E-1   -9.146670155966815E-1   -6.525056717357733E-6   -3.618154010197617E-7   -1.122646665472808E-5   -2.146419276067139E-5    4.011051795644678E-1   -9.148601727479999E-1
 8.674934695912263E8     4.108954304818940E-1   -9.212862294938405E-1   -1.474936219729675E-6    3.807619187409902E-7   -6.243633641463400E-6   -5.145688873248588E-6    3.889983944708860E-1   -9.197408025869322E-1
 8.774635094715853E8     3.977905858299445E-1   -9.277648884982869E-1    1.322168380064710E-5   -7.371556472941533E-6    2.818205060483850E-6   -1.001518644436491E-5    3.764601295565037E-1   -9.245443240617487E-1
 8.874335493519442E8     3.846184802287572E-1   -9.324786237602947E-1   -2.936379739360727E-6   -5.925766305160527E-8    1.889185283296472E-6    6.843978473883742E-6    3.632850965153630E-1   -9.288985991578919E-1
 8.974035892323031E8     3.733138711079629E-1   -9.362159191967587E-1   -6.346759779734886E-6   -6.512756091607967E-6   -7.935482375298489E-6    5.397899681369264E-6    3.496963104895524E-1   -9.333234871621949E-1
