#  HZ   S   RI   R     50.00 
! Rohde & Schwarz Vector Network Analyzer 
! Rohde-Schwarz,ZNB20-2Port,1311601062102128,3.60
! Created: UTC 4/29/2024, 3:56:12 PM
! freq[Hz]                re:S11                  im:S11                  re:S21                  im:S21                  re:S12                  im:S12                  re:S22                  im:S22
 1.000000000000000E5     9.962118876057147E-1    4.914612906599079E-3    8.766274039550858E-5   -1.048161914992818E-4   -6.413752836469354E-5   -6.988210166708012E-7    1.011072572559186      -1.079341673453085E-2
 1.007003988035892E7     9.975703267701928E-1   -1.372463587675769E-2    4.214933638747838E-6   -2.077056155134083E-6   -6.000638484872567E-6    1.186758128485031E-6    9.959261080178642E-1   -1.456569753472390E-2
 2.004007976071785E7     9.999241289003534E-1   -2.714417835425857E-2    1.873679564259462E-5    3.147914579702609E-6   -1.337161011984767E-5   -1.084700420194606E-5    9.988485820721599E-1   -2.761579930314429E-2
 3.001011964107677E7     9.978077856839209E-1   -4.108531291438564E-2    1.479196028027090E-5   -7.217767767035524E-7    1.171803950143101E-5    1.376393251137825E-5    9.975282742361148E-1   -4.213121176099557E-2
 3.998015952143569E7     9.977503601601321E-1   -5.302166160069307E-2    8.334712792341258E-6   -6.820690450242736E-6    4.414666894842274E-6   -9.495057601083137E-6    9.977700346797217E-1   -5.677727518085503E-2
 4.995019940179461E7     9.962391614321661E-1   -6.585500178947462E-2   -9.074971213356498E-6    6.391112124438504E-6   -1.956557103187565E-6    1.766222125842596E-6    9.967277332883200E-1   -6.907796943290340E-2
 5.992023928215354E7     9.943176745528963E-1   -7.880603190073492E-2   -2.540936116010128E-5   -1.113932497726843E-6    6.614090383964139E-6    1.254886811972029E-5    9.946919764922886E-1   -8.201107239045623E-2
 6.989027916251247E7     9.930974136121726E-1   -9.176208290784593E-2    2.637009687719452E-5   -1.610395579280431E-5   -6.920442724484061E-6    1.320176193468668E-5    9.935123825922760E-1   -9.500374213808624E-2
 7.986031904287139E7     9.924770890520845E-1   -1.051134032303106E-1    4.463459721553432E-7   -1.742912601847945E-5    8.463364346993050E-6    8.003376839984735E-7    9.924385643779214E-1   -1.080197176825154E-1
 8.983035892323031E7     9.915238931263117E-1   -1.186386126836577E-1   -1.021365746417995E-5   -2.091974126904964E-6   -2.128916218744926E-5   -1.122653262832400E-5    9.907350080440441E-1   -1.212934683679577E-1
 9.980039880358922E7     9.894368204912591E-1   -1.322884158216845E-1    5.867629124945867E-6   -3.952101608924003E-6   -4.269958778184359E-6    9.031803079008145E-6    9.885768529633080E-1   -1.345836793508877E-1
 1.097704386839482E8     9.865383445707215E-1   -1.453962178094496E-1    9.460985738740005E-7   -1.142065431984509E-6   -6.330257549989836E-7   -2.508899237610482E-6    9.859703251993239E-1   -1.479581164080654E-1
 1.197404785643071E8     9.847936378041112E-1   -1.588653530682886E-1    2.599837190500782E-6    7.563286369305662E-6    7.116618648756370E-6   -2.257810344445721E-6    9.842817345181925E-1   -1.613167006590344E-1
 1.297105184446660E8     9.830118275703499E-1   -1.716772493085186E-1    1.060008168355595E-5    5.131635336928520E-6    3.439392374599905E-6    5.940802349786312E-6    9.828461030924484E-1   -1.745237565636656E-1
 1.396805583250249E8     9.815195221220938E-1   -1.845428606594673E-1    4.898451644761307E-6    4.657736914725830E-6    1.739933761694516E-6    5.096439313907103E-6    9.809058006990709E-1   -1.875804349209051E-1
 1.496505982053838E8     9.789384865782034E-1   -1.969853119755779E-1    7.429370009116306E-6   -5.368781343279244E-6    3.867790636474010E-6    9.357018971081627E-6    9.784806156620978E-1   -2.004700323568166E-1
 1.596206380857428E8     9.761018593345608E-1   -2.093656981644083E-1    3.742738785460366E-6   -5.125213795689903E-6    2.405753540648882E-5    8.887702512424281E-6    9.758531116947237E-1   -2.133782832444946E-1
 1.695906779661017E8     9.732796501692241E-1   -2.222666096061967E-1   -7.134951142761125E-6    1.492954462661879E-6   -2.211511768928418E-5    6.709041162223597E-6    9.730835479379175E-1   -2.261874566223544E-1
 1.795607178464606E8     9.707059647009714E-1   -2.346298961817999E-1    1.155344557835919E-5    7.271590836751722E-6    6.396731172340993E-6   -9.335837543779346E-6    9.701861127266767E-1   -2.380333564531515E-1
 1.895307577268195E8     9.676233343707167E-1   -2.468326686968575E-1    1.274004496963709E-6    2.154706635013988E-6    6.204258420876693E-6   -1.959878972405692E-6    9.667758106184844E-1   -2.505969234753327E-1
 1.995007976071784E8     9.639002815335667E-1   -2.593530192140484E-1    3.905368461731362E-7   -3.433957568897145E-6    3.615121320298784E-6    3.870018963627948E-6    9.629075414769864E-1   -2.632854191990302E-1
 2.094708374875374E8     9.604216019343096E-1   -2.721126337889297E-1    5.278047217941975E-6   -4.502255423569754E-7    1.431020401902145E-5   -1.177477915934694E-5    9.589599929651764E-1   -2.762521343050181E-1
 2.194408773678963E8     9.572885937911934E-1   -2.849006798433276E-1   -3.516330222781902E-6    2.151593559955134E-5    1.795786534087647E-5    2.860714059713835E-6    9.550190958510384E-1   -2.892818775425662E-1
 2.294109172482552E8     9.536704676659807E-1   -2.972820143891542E-1   -2.669914599368520E-6    2.313236295976468E-6    4.916263965507266E-6   -1.375777578099713E-5    9.508854158538141E-1   -3.017886395730112E-1
 2.393809571286142E8     9.504815923115250E-1   -3.092378507070977E-1   -5.556773431718233E-6    9.178523035444161E-6   -1.319098838652968E-5    6.357231650842545E-6    9.470645333886401E-1   -3.140852268584781E-1
 2.493509970089731E8     9.467259996297682E-1   -3.231072207024431E-1    1.269760385027541E-6    6.473900921345746E-6    5.045801019729136E-6   -1.104955674839348E-5    9.441315130669440E-1   -3.277035595584424E-1
 2.593210368893320E8     9.426799783883683E-1   -3.351246692105277E-1    7.965409911234602E-6    4.442567367458850E-6    1.811674598559584E-5   -2.478654433972238E-6    9.397365739932860E-1   -3.409622448652894E-1
 2.692910767696909E8     9.385016677417433E-1   -3.465469400882416E-1   -1.118781470503557E-5   -2.394586264360420E-6   -5.225031446537853E-6   -1.396777458832579E-5    9.355882685257010E-1   -3.529817237226393E-1
 2.792611166500499E8     9.337435780721820E-1   -3.581129624125920E-1    3.350926868032684E-6    3.717347078611193E-6    1.853098871734499E-5    9.923773768133342E-6    9.311197926826885E-1   -3.646668053947018E-1
 2.892311565304088E8     9.289821818084507E-1   -3.701138471978342E-1    2.100214824822288E-5    1.187571598398613E-6   -3.279578942087316E-6    4.266364354775541E-6    9.264361414777524E-1   -3.769274964673076E-1
 2.992011964107677E8     9.240992994128591E-1   -3.823302178437950E-1    6.042643449452961E-6    8.918880452605308E-6   -3.818385133722282E-6   -3.411103552619046E-6    9.212363940516402E-1   -3.886036780101791E-1
 3.091712362911266E8     9.190359873450170E-1   -3.945768200293051E-1    1.647857261073720E-5    4.384954029380383E-6    1.306400908728004E-5    2.031129405441788E-5    9.157376835690548E-1   -4.001008244302008E-1
 3.191412761714855E8     9.133377797113443E-1   -4.070374947441732E-1   -4.850136380353274E-6    4.511190026623958E-6    1.984370122351724E-5    1.583080285612254E-6    9.099062597853493E-1   -4.119789463342020E-1
 3.291113160518445E8     9.077436745258102E-1   -4.197896010226359E-1    2.455705001023465E-6    9.412977944107075E-6    2.968202722246081E-6    1.150609135380131E-5    9.035437035594224E-1   -4.244892969512379E-1
 3.390813559322034E8     9.020790288310433E-1   -4.327121140591464E-1   -1.302519724126606E-5    9.723048510452914E-7    1.511976830209000E-5    4.410614376666232E-6    8.968129270858298E-1   -4.369457796846440E-1
 3.490513958125623E8     8.968785597206428E-1   -4.452754972875891E-1    1.053585057429029E-5    1.559917982122350E-6    1.575390809385566E-6   -2.112599233646472E-7    8.905251485138708E-1   -4.494606369975581E-1
 3.590214356929212E8     8.914188040719774E-1   -4.576795948989847E-1   -1.201388332170845E-5   -1.928062865348020E-6    1.975266037975089E-5   -1.084837127975557E-5    8.846171507209587E-1   -4.621791407085274E-1
 3.689914755732802E8     8.859841820990723E-1   -4.698713447519771E-1    8.126604959134853E-6   -1.078824918079166E-5    1.357318647643950E-5   -1.306983534336709E-6    8.791833741537375E-1   -4.748894623211436E-1
 3.789615154536391E8     8.799339323630400E-1   -4.811642205477003E-1   -1.219639478287056E-5    8.012952729599786E-6    1.025327197437172E-6   -6.131306893353362E-6    8.738759318567948E-1   -4.869239741337196E-1
 3.889315553339980E8     8.743028926935505E-1   -4.917870353541577E-1   -1.041540269728497E-5    1.756422010504110E-5   -2.225227100770048E-6    1.754125999381083E-5    8.680361738269560E-1   -4.987615708443705E-1
 3.989015952143569E8     8.675656287384045E-1   -5.025085109387437E-1    1.127344614288274E-5   -1.716708322338811E-6    4.874501998018162E-6   -7.493537206160650E-6    8.610960274812143E-1   -5.096569226183123E-1
 4.088716350947158E8     8.603623064862447E-1   -5.132873142322270E-1   -5.028375346550156E-6   -7.643442078948716E-6    1.128241340764498E-5    3.171297261540049E-6    8.543584546871247E-1   -5.207093780312921E-1
 4.188416749750748E8     8.533419839137836E-1   -5.248140670436384E-1    1.343807950507463E-5   -8.689590287754101E-6   -7.249454432805776E-6    3.251456687681910E-6    8.477609494729876E-1   -5.314668958824120E-1
 4.288117148554337E8     8.461335271891020E-1   -5.365410876552572E-1   -5.628907371384263E-6    7.093580281588173E-6   -7.545026796987864E-7   -1.388976324360340E-7    8.407170936518561E-1   -5.417759856295290E-1
 4.387817547357926E8     8.383695957029363E-1   -5.479624205278666E-1   -6.039895387683986E-6   -4.870479573370738E-6    6.558443353157998E-6   -1.302355660063264E-5    8.327375676566257E-1   -5.522599596110023E-1
 4.487517946161516E8     8.307073079379491E-1   -5.599039221940458E-1    3.102022860466745E-6   -1.879640929319730E-6   -1.679885891466470E-5   -2.202457145795632E-6    8.242146897481328E-1   -5.634332144935484E-1
 4.587218344965104E8     8.237645419549605E-1   -5.718357134416336E-1   -6.216545419070348E-6   -1.619907340137640E-5   -1.055257059256438E-5   -7.843174689519749E-6    8.161504671534839E-1   -5.752509513849624E-1
 4.686918743768694E8     8.170909379171273E-1   -5.832136164454400E-1   -1.156303957319155E-5    5.527696996090990E-6   -5.120693451759703E-6    1.010547045600429E-5    8.079375968435950E-1   -5.868540724590079E-1
 4.786619142572283E8     8.100512186519018E-1   -5.940103783139336E-1    8.323738462341557E-6   -1.991436036105312E-6   -1.989509021536407E-5    4.664337394014734E-6    7.992369794390247E-1   -5.980149882577501E-1
 4.886319541375872E8     8.024616973732310E-1   -6.044846982042383E-1    7.175897097362420E-6   -5.352073030081990E-6   -1.227261370327105E-5    9.897748511995707E-6    7.904036260379288E-1   -6.088006131044418E-1
 4.986019940179462E8     7.942435759885726E-1   -6.151469021169587E-1   -4.691164202333144E-7   -1.223795390143091E-6   -1.826388078788206E-5   -2.627229620448228E-8    7.822787802268575E-1   -6.197483082430134E-1
 5.085720338983051E8     7.858682996482896E-1   -6.242627438304590E-1   -4.845310493624566E-6    4.026111667757549E-6   -2.918017301777463E-7    2.594176225429950E-5    7.747344953567024E-1   -6.302821433164522E-1
 5.185420737786640E8     7.784265344576541E-1   -6.333074082663273E-1   -4.567037822098947E-6    1.103926048620044E-5   -6.490926899728111E-6   -1.841796646353729E-5    7.670569988988751E-1   -6.400687786541963E-1
 5.285121136590229E8     7.701273111893944E-1   -6.429715160459113E-1   -7.510427056859390E-6   -1.322019666135921E-5    1.005938168036296E-5   -8.751739516745304E-6    7.591023984847830E-1   -6.496688815100179E-1
 5.384821535393819E8     7.616521971977657E-1   -6.530788728423843E-1    7.945762772047897E-6   -6.374941599819900E-6   -6.549619238032149E-6    1.914115401493281E-5    7.510342825570856E-1   -6.593274370625759E-1
 5.484521934197408E8     7.533839975628404E-1   -6.636669744918410E-1   -3.165653347805990E-6    6.511426621178832E-6    1.355904329485613E-6    1.104868236950622E-5    7.425893234454439E-1   -6.692690890437683E-1
 5.584222333000997E8     7.447904904754501E-1   -6.745320315166615E-1   -1.043887265674108E-6   -1.758874878868132E-6    4.733623736022950E-6    2.051394185159372E-5    7.334201039413035E-1   -6.791203707633909E-1
 5.683922731804587E8     7.356886667605554E-1   -6.849780992021915E-1   -6.668807017386804E-7    6.322027778942908E-6   -1.687449316363871E-6    5.872039838751149E-6    7.232283366823000E-1   -6.890444192398405E-1
 5.783623130608176E8     7.264921108897644E-1   -6.949148061170013E-1   -1.543717291869188E-6    5.288001121822063E-7   -1.590191564874958E-5    1.039715295636801E-5    7.126580814116649E-1   -6.989307332182528E-1
 5.883323529411764E8     7.172605561399240E-1   -7.049267971660477E-1   -2.334922010998355E-6    8.200806002323465E-6    1.635969541265733E-5    1.067594942323636E-5    7.023375943282618E-1   -7.085326993562667E-1
 5.983023928215353E8     7.081768354245644E-1   -7.150600029206632E-1    1.341427750556452E-6    2.530410570417541E-6    5.699599868873667E-6    2.490093465301288E-6    6.919847699013959E-1   -7.182056553777437E-1
 6.082724327018943E8     6.985260393005579E-1   -7.246268796371602E-1   -6.405993053383518E-6    1.233516046552457E-5   -2.056639323817679E-5   -1.736400447133575E-5    6.817816388026104E-1   -7.276033135952188E-1
 6.182424725822532E8     6.887653340647876E-1   -7.343805335837872E-1    6.083274653463077E-6    2.531896287134080E-6    9.742209414706714E-6    3.358358400947190E-5    6.717390138719294E-1   -7.371461690061700E-1
 6.282125124626122E8     6.782046648896100E-1   -7.437434674244737E-1   -6.260498688850680E-6   -3.563907322559532E-6    2.511885175007361E-5   -2.210481195609764E-6    6.629580126445489E-1   -7.466877780985780E-1
 6.381825523429711E8     6.685707303089758E-1   -7.508809542137495E-1   -4.624199746170984E-8    1.463438834521183E-5   -7.289259437658290E-6    1.662293977830489E-5    6.539013992998599E-1   -7.554654130968488E-1
 6.481525922233300E8     6.596279714594627E-1   -7.594857758192105E-1    3.643152196159423E-6    3.384046543631592E-6   -1.398488018148512E-6   -6.757897343343293E-6    6.448700049529886E-1   -7.640093424315704E-1
 6.581226321036890E8     6.498892419514218E-1   -7.684472404679626E-1   -5.099132804326990E-7   -2.395759230320268E-6    1.353107477732607E-5   -7.068639460570345E-6    6.347482130574171E-1   -7.723656077440143E-1
 6.680926719840479E8     6.399286051109401E-1   -7.770754940277531E-1   -2.120115500595898E-5   -2.664235473721537E-6   -4.992104889623608E-6    9.827396114745982E-7    6.242007212525820E-1   -7.804069049267350E-1
 6.780627118644068E8     6.301809578088164E-1   -7.852347001618265E-1   -3.759826242906127E-7   -3.104719236519740E-6   -1.167596006045997E-5   -6.035743183317319E-6    6.132094327775112E-1   -7.883188180644261E-1
 6.880327517447658E8     6.197272909221129E-1   -7.934880092304267E-1    1.942863375213928E-6    9.663274265154540E-6    8.518891226879750E-6    1.283573183093442E-5    6.018027468394966E-1   -7.958349874734650E-1
 6.980027916251246E8     6.087908839352687E-1   -8.018010656822490E-1   -1.847517431231593E-5    9.981804344096934E-6   -7.370248004741571E-6    8.789666184000883E-6    5.901409266203232E-1   -8.036012848321660E-1
 7.079728315054835E8     5.974707085903701E-1   -8.100733244948523E-1    1.045082127227606E-5    8.535288731637995E-7   -4.419729703113818E-6    5.594718425956652E-7    5.787593137081173E-1   -8.116162879010211E-1
 7.179428713858424E8     5.861688473150700E-1   -8.184797750827362E-1   -6.492081960552310E-6    1.125062898307562E-6   -3.464206339365693E-6    1.223441395287728E-6    5.675024929828434E-1   -8.202867192096390E-1
 7.279129112662014E8     5.752365970219085E-1   -8.267959456438749E-1   -3.604329042487592E-6    2.338060286478196E-7   -7.517208277483833E-6   -2.670416529955298E-5    5.561625610047752E-1   -8.288246333813365E-1
 7.378829511465603E8     5.641295492604510E-1   -8.357503985689857E-1    4.565158649801281E-6    4.197702160215082E-6    8.142385096492874E-8   -1.809322576603918E-6    5.448025136697277E-1   -8.369729192695221E-1
 7.478529910269192E8     5.520738939062444E-1   -8.442148921735786E-1    9.628107962339096E-6   -6.977123642179782E-6   -6.404393430552333E-6    1.472258003130630E-5    5.337617997204903E-1   -8.446747301417430E-1
 7.578230309072782E8     5.394037951753524E-1   -8.513848073096305E-1    7.668870749578600E-6    2.508885049115238E-6    3.127809505948258E-6    1.644512857074227E-5    5.227198385965082E-1   -8.517803664609834E-1
 7.677930707876371E8     5.290530656654613E-1   -8.567533014313172E-1   -1.638138278958670E-6    7.142057561192483E-6   -1.044631099334985E-5   -3.743136090509677E-6    5.112901629056409E-1   -8.581140855325289E-1
 7.777631106679960E8     5.194431175240587E-1   -8.636596956876701E-1    1.514836690635325E-5    7.250584235751933E-6   -3.948680748402097E-6   -1.099780929972858E-5    4.998209935019295E-1   -8.646174744350731E-1
 7.877331505483550E8     5.091111890904217E-1   -8.707020541127707E-1   -9.020603525708295E-6   -2.007905679901999E-6    2.945362910068583E-6   -1.098945856522795E-5    4.879369831154379E-1   -8.712771508438554E-1
 7.977031904287138E8     4.979234757661355E-1   -8.770948462681618E-1   -1.865041047043374E-6   -1.016448128166661E-5    7.857638047919742E-6   -9.091436791364647E-6    4.753216926823782E-1   -8.777918623357061E-1
 8.076732303090727E8     4.861752075690672E-1   -8.829874783763002E-1   -7.267048006986269E-6    6.617540577201575E-6    1.505121489569807E-6   -8.867012623395046E-6    4.623512549836935E-1   -8.839482942987167E-1
 8.176432701894317E8     4.741701392903502E-1   -8.889636332464351E-1    1.385305367424844E-5   -1.376352876010352E-5    9.359651363570484E-6    9.913865670046873E-6    4.494527388199065E-1   -8.903311230966116E-1
 8.276133100697906E8     4.618983917469330E-1   -8.953793760047237E-1   -8.579540546533943E-6   -3.471695486760530E-6    3.268194071458283E-6   -1.828428994917735E-5    4.369159876249585E-1   -8.968992611654363E-1
 8.375833499501495E8     4.492847799275238E-1   -9.018160979120727E-1    4.928166327615960E-6    8.823727109256180E-7   -2.829377925468757E-6   -8.298371088711577E-6    4.247299195799617E-1   -9.036077905701004E-1
 8.475533898305085E8     4.365975943659167E-1   -9.082370684896448E-1   -2.670563664148755E-6   -8.708675561777382E-6   -1.212558997329869E-5   -9.561962201642123E-6    4.129094031621564E-1   -9.097750497956647E-1
 8.575234297108674E8     4.238300068452194E-1   -9.147167885375875E-1    3.581747533286577E-6   -6.651606330413446E-6   -4.755332015092464E-6    6.565406526034682E-6    4.012279056543529E-1   -9.150820760989464E-1
 8.674934695912263E8     4.107266760173083E-1   -9.212575542481661E-1    1.279339094115876E-5   -2.081907631139454E-6    1.119715715774266E-5   -3.407411760021185E-6    3.890934696533078E-1   -9.198734041651647E-1
 8.774635094715853E8     3.977171253081383E-1   -9.277561669676878E-1    7.546812004011045E-6    3.879896818407445E-6    1.526076183607356E-6    6.826706992549454E-6    3.764334294470827E-1   -9.245009364437693E-1
 8.874335493519442E8     3.847846853307457E-1   -9.326408646652364E-1   -1.503830936214113E-5   -5.933873796801007E-6   -3.734198477536313E-6   -1.266326168295173E-5    3.633680078838953E-1   -9.289775389071981E-1
 8.974035892323031E8     3.733714444454038E-1   -9.361033273279061E-1    2.135271432199884E-6    1.686094537738602E-6    4.519079361191609E-6   -2.565270062675905E-6    3.498032117704130E-1   -9.335153026678560E-1
