#  HZ   S   RI   R     50.00 
! Rohde & Schwarz Vector Network Analyzer 
! Rohde-Schwarz,ZNB20-2Port,1311601062102128,3.60
! Created: UTC 4/29/2024, 3:56:06 PM
! freq[Hz]                re:S11                  im:S11                  re:S21                  im:S21                  re:S12                  im:S12                  re:S22                  im:S22
 1.000000000000000E5     9.962570410858926E-1    4.656056182970321E-3    5.255770600074435E-6    4.889405215897842E-5    7.216998968352816E-5    9.341647947141162E-5    1.010837416000602      -1.099665286027708E-2
 1.007003988035892E7     9.976349611314205E-1   -1.389403116815920E-2    3.513035270215324E-6    2.379748842713453E-5    7.366290681223433E-6   -1.952892223649474E-6    9.959285542865618E-1   -1.450199706897393E-2
 2.004007976071785E7     9.998652755240782E-1   -2.723381084835875E-2   -1.332537631756494E-5   -3.184738797602406E-5   -3.740707965747615E-6    1.076199587107233E-5    9.987685348739835E-1   -2.783780381801277E-2
 3.001011964107677E7     9.978944227412889E-1   -4.107688034922339E-2    3.703929358199872E-6    1.979871177654875E-5   -9.869915991488117E-6    2.999816862617435E-6    9.975568170167867E-1   -4.201718275098956E-2
 3.998015952143569E7     9.976065773758148E-1   -5.299236849203889E-2    3.740419020049127E-6    1.671805385315191E-5   -9.032845138178618E-6   -9.768023507559616E-6    9.975814635815932E-1   -5.680806445097982E-2
 4.995019940179461E7     9.960279872370493E-1   -6.593163241983518E-2   -1.299857970760284E-6    7.788094708916462E-6   -4.751427855027265E-6    1.153685929896042E-5    9.965250710670770E-1   -6.920605069407558E-2
 5.992023928215354E7     9.940659580451149E-1   -7.871759828050175E-2    1.603036760052775E-5    2.242822008470735E-6   -4.264081270862291E-6    1.088135724151170E-5    9.946278383243543E-1   -8.203344219240960E-2
 6.989027916251247E7     9.931217250534841E-1   -9.161471107380288E-2   -1.272749810535480E-5    2.874659570657799E-5    2.551966283060116E-7    1.003283859921031E-5    9.933690069724851E-1   -9.486602597716073E-2
 7.986031904287139E7     9.925592863218674E-1   -1.050787006229836E-1   -4.438515430098575E-6    9.186410866301010E-6    7.612400071234267E-6   -2.668722746043617E-5    9.923473533649303E-1   -1.080533978717966E-1
 8.983035892323031E7     9.915266449919795E-1   -1.186774586705403E-1    1.363461562333665E-5   -6.677568384463362E-6   -7.013128531847335E-7    1.345743970128378E-5    9.906897613934085E-1   -1.211909654181611E-1
 9.980039880358922E7     9.893218484274965E-1   -1.322963269424551E-1   -3.613225183263176E-6    4.607290016968410E-6   -6.523603039580007E-6    1.674724164297714E-5    9.885036470784414E-1   -1.346473899305738E-1
 1.097704386839482E8     9.864380418909184E-1   -1.454362340018917E-1    8.028529433495520E-6    1.839762649621307E-5    3.187484989657044E-6   -1.030859227464243E-5    9.860846420985805E-1   -1.479088614115621E-1
 1.197404785643071E8     9.848553123874144E-1   -1.586981594354001E-1    2.287915249126139E-6    4.307613069350994E-8    2.474296896328909E-6   -5.467776182959503E-6    9.842492625051106E-1   -1.612002792007365E-1
 1.297105184446660E8     9.830510179354797E-1   -1.716425151298154E-1   -8.478510573457537E-6    7.572608686562082E-6    2.622391219517649E-6    1.266012885049774E-6    9.829411316853618E-1   -1.745830309812455E-1
 1.396805583250249E8     9.815169457623503E-1   -1.844863828125486E-1   -4.905942520400757E-6    5.182457831839451E-6    3.918483084782264E-6    4.148325783585637E-6    9.807912932910469E-1   -1.875950100991539E-1
 1.496505982053838E8     9.788469640060108E-1   -1.969356601389351E-1   -1.201301488775439E-5    1.227329275545041E-5    2.047092737956108E-6   -5.641799445485980E-6    9.785213159587539E-1   -2.003848516677073E-1
 1.596206380857428E8     9.760410548585655E-1   -2.093572035084435E-1    4.951016422945283E-6   -1.486598113236204E-5    1.656126643794272E-5   -1.602407618175227E-5    9.757117306068999E-1   -2.133675008183209E-1
 1.695906779661017E8     9.732425225456280E-1   -2.221764868556788E-1   -4.753486000804341E-6   -7.188771382438781E-6    1.628413319958638E-5    1.566355448748894E-6    9.729195678617366E-1   -2.261722901063123E-1
 1.795607178464606E8     9.708129586141525E-1   -2.346441151582956E-1   -6.255052445906898E-6    7.250075820773869E-6   -1.309358466373987E-5    1.891619590336035E-5    9.701222324976148E-1   -2.380019060645446E-1
 1.895307577268195E8     9.677035320646208E-1   -2.469313140034187E-1    9.214311018864866E-6   -6.816745777292239E-6    1.568642261009974E-5    1.400197274514204E-6    9.667877086086647E-1   -2.505631421510335E-1
 1.995007976071784E8     9.637712265608324E-1   -2.592930672244915E-1    1.545792092327353E-6    2.806049787986563E-6   -1.361789619671474E-6    9.582560211268111E-6    9.627192714178798E-1   -2.632988834506157E-1
 2.094708374875374E8     9.606454738346055E-1   -2.721541612223106E-1   -5.506547367292441E-7    8.201974742092839E-6    3.269175336949641E-6   -5.635494300014808E-6    9.588916749286955E-1   -2.763145867621738E-1
 2.194408773678963E8     9.573456863411171E-1   -2.850187237357993E-1   -3.673751656673953E-6    1.936085296813620E-6    7.658494312078526E-7   -7.003494023553586E-6    9.551094546030932E-1   -2.892296844106585E-1
 2.294109172482552E8     9.537086131878457E-1   -2.973833606144061E-1   -5.859377196657635E-6   -6.139811173947087E-6    2.034391472030405E-5   -1.827420096593200E-5    9.510176260070830E-1   -3.018717414499137E-1
 2.393809571286142E8     9.505142753038147E-1   -3.093328405654002E-1    5.483134401288571E-7    7.404929444913011E-6   -7.153268224679383E-6   -8.928142150961377E-7    9.469604448301455E-1   -3.141408669269478E-1
 2.493509970089731E8     9.468354512856104E-1   -3.231663696023939E-1    4.137644302551751E-6   -8.989153265081807E-7   -9.195515118250568E-6   -2.962700465552455E-6    9.441134582697863E-1   -3.277547754338521E-1
 2.593210368893320E8     9.427985071354185E-1   -3.351847313589473E-1    7.113700110402215E-6   -7.203004038030949E-6   -1.118778218077741E-5   -4.293512827725604E-7    9.398274446250345E-1   -3.408800016792362E-1
 2.692910767696909E8     9.385343607389687E-1   -3.465908978975131E-1   -9.784479816317935E-6    2.846274029407604E-6    1.577575763116277E-6    2.772792734478553E-6    9.355838266848030E-1   -3.528799781662814E-1
 2.792611166500499E8     9.337536708353933E-1   -3.580939225074317E-1    4.012120863086837E-6    8.801082592357288E-6   -5.307799569680703E-6   -2.240165680100821E-6    9.310593271080870E-1   -3.646596265547082E-1
 2.892311565304088E8     9.289251029040815E-1   -3.701974189826731E-1    1.485853176273856E-6    6.431168010675957E-6   -1.223053042303945E-5   -6.689098627852279E-6    9.261913824902615E-1   -3.768330205699209E-1
 2.992011964107677E8     9.242938898999751E-1   -3.824863029830364E-1   -1.417581481723002E-6   -8.962072000214696E-6   -2.727195971255417E-6    2.249221309332513E-5    9.211890784725708E-1   -3.886270825170737E-1
 3.091712362911266E8     9.189313640372937E-1   -3.946911145398493E-1    1.292787512506907E-6    1.018734039289613E-5    3.510424461607710E-6    1.636231047788769E-5    9.159237047467377E-1   -4.001008653805741E-1
 3.191412761714855E8     9.133450938026186E-1   -4.070676099098011E-1    1.346510161528024E-7    6.116394866060753E-6   -1.270742568833237E-5    8.836868595227117E-6    9.098603241905889E-1   -4.118958560094396E-1
 3.291113160518445E8     9.077776669844424E-1   -4.197548463764996E-1   -6.360700111184985E-6    1.276654253317187E-5   -8.976770303459489E-6    2.168466254906538E-5    9.034674545041891E-1   -4.244418055476223E-1
 3.390813559322034E8     9.022539113824174E-1   -4.326869237685764E-1   -1.092020302959572E-5    2.594996486749857E-6   -3.625644898846673E-6   -2.089461591587008E-5    8.968594577575644E-1   -4.368951242241391E-1
 3.490513958125623E8     8.967858220574773E-1   -4.452068463201181E-1   -2.861476168860212E-6   -1.734462264272240E-6    1.328939847272957E-5    1.085374415988775E-5    8.905922455454938E-1   -4.495418496559209E-1
 3.590214356929212E8     8.913388539460101E-1   -4.576209411945111E-1   -2.194582021985333E-6   -1.264607884438262E-5    7.335106995935409E-8   -1.296861435502424E-5    8.846251252320479E-1   -4.622089299525425E-1
 3.689914755732802E8     8.860616802138499E-1   -4.698473832330582E-1    3.061838301338997E-6   -2.784150763103054E-6   -2.423338415517623E-6    4.037494032788186E-6    8.790627841087364E-1   -4.748226539056423E-1
 3.789615154536391E8     8.799727551623086E-1   -4.810863247686445E-1    1.155587995836875E-5   -1.228069090421921E-6    4.208782054852352E-7    3.326456554104397E-6    8.738766761706069E-1   -4.867611920704152E-1
 3.889315553339980E8     8.742031724181187E-1   -4.917788732147526E-1    6.413790840137326E-6   -1.019531129971045E-5   -7.290740553081635E-6   -8.266792782658010E-6    8.680420545987714E-1   -4.987183772406730E-1
 3.989015952143569E8     8.674183323985778E-1   -5.024090531524116E-1   -7.840332824132372E-6    8.729754418913093E-6    5.165681992403054E-6    6.479535794866596E-7    8.612368248728612E-1   -5.097648462111525E-1
 4.088716350947158E8     8.604082929831876E-1   -5.133483649614666E-1    7.537013843437473E-6   -6.847064710690988E-7    1.542119270583272E-5    1.538245222712776E-5    8.543736786886017E-1   -5.206157072205441E-1
 4.188416749750748E8     8.534692923323287E-1   -5.248618969920807E-1   -4.477830751662079E-6    9.419405315128217E-6   -8.100525280875397E-6   -3.838617018104268E-6    8.477347382875707E-1   -5.314495871333493E-1
 4.288117148554337E8     8.460926135123031E-1   -5.365895620425710E-1   -4.740918790779875E-6    2.299262029904941E-6   -3.498331046103451E-6   -8.157214770258135E-6    8.407138859913924E-1   -5.418141815347270E-1
 4.387817547357926E8     8.383097784319116E-1   -5.479650419118798E-1    1.121059261242435E-5    1.130908130951595E-5   -1.087962521514343E-5   -8.524772295844716E-6    8.327583480169450E-1   -5.522854937481949E-1
 4.487517946161516E8     8.306932060826558E-1   -5.598527269360309E-1   -5.722263509353396E-7    4.083017124714618E-6    2.309483428520801E-5   -8.524085459377886E-6    8.242814762091418E-1   -5.634487020657151E-1
 4.587218344965104E8     8.236701474103003E-1   -5.718124777646474E-1   -1.158599539514674E-5    8.441409995381389E-6    1.779937501047296E-6    1.136364056935292E-5    8.161337112445159E-1   -5.752696935781800E-1
 4.686918743768694E8     8.171082824566047E-1   -5.832434980112675E-1    6.685274451226510E-7    5.169368494134070E-7   -1.334672522355395E-5    1.696895202127996E-6    8.078233867548349E-1   -5.868615287364762E-1
 4.786619142572283E8     8.099779225632558E-1   -5.940246111324300E-1   -9.073381875954194E-6   -2.372490172510351E-6    7.943547613781137E-6   -5.834031801285332E-6    7.992900114683567E-1   -5.980693630226863E-1
 4.886319541375872E8     8.024703277644966E-1   -6.044240348067397E-1    5.799158692751201E-7    8.174102762913762E-6    1.909546465522790E-5   -3.988998307363135E-7    7.905491365480597E-1   -6.087970636883616E-1
 4.986019940179462E8     7.941512960817591E-1   -6.151266057425492E-1    1.613611601114499E-5    1.100028538068708E-6   -1.459512604399495E-5    4.068675031245882E-6    7.825077538799277E-1   -6.196744106553719E-1
 5.085720338983051E8     7.858041884699875E-1   -6.243617613878630E-1   -1.732570659700773E-6   -1.224229003448578E-6    3.826602820792999E-6    1.022860355433873E-6    7.746635878949297E-1   -6.302221465806073E-1
 5.185420737786640E8     7.784456278479615E-1   -6.333826162565767E-1    9.434779700338681E-6   -5.387494199415168E-6   -2.064270598578128E-6    4.247030404566746E-6    7.671170363747973E-1   -6.399964485505376E-1
 5.285121136590229E8     7.701437097191364E-1   -6.429191732550691E-1    1.410970851182900E-5    2.104959240826289E-6    7.097886133407756E-6    1.299299225161578E-5    7.590758088755233E-1   -6.496927128316622E-1
 5.384821535393819E8     7.616005236350495E-1   -6.530782319011774E-1    1.884683069483100E-6    6.385926210443602E-6    1.097552279607148E-5   -2.056940029825055E-5    7.510590992449505E-1   -6.592944779072304E-1
 5.484521934197408E8     7.533852968038021E-1   -6.636259869840241E-1    4.025381093180083E-6   -9.082098447340966E-6    1.675191350997198E-5   -6.590088733470222E-6    7.425155614199620E-1   -6.692131848192154E-1
 5.584222333000997E8     7.448837850650363E-1   -6.745797237966074E-1    3.433239092126195E-6   -1.034486890774404E-6    1.357947924025754E-5    1.379875982750368E-5    7.334207514267840E-1   -6.791411350623633E-1
 5.683922731804587E8     7.357202227648000E-1   -6.849936483293887E-1    1.026738527322972E-5   -7.411843458058454E-6    1.156341679992395E-5   -1.921584767243254E-5    7.231570702547119E-1   -6.890219853403338E-1
 5.783623130608176E8     7.264077129646617E-1   -6.950019297836110E-1   -1.074468868080191E-6    9.392205623200395E-6    1.573199904871482E-5   -8.948247109695912E-6    7.126550805626428E-1   -6.988153715590862E-1
 5.883323529411764E8     7.172382303234999E-1   -7.050415549920356E-1   -3.180964189671564E-7   -1.003386651596159E-5    3.347834941573471E-6   -8.322784617747966E-6    7.022772512127585E-1   -7.086282227102357E-1
 5.983023928215353E8     7.080491242692183E-1   -7.150931783163965E-1    1.503587446531933E-5    6.522668940177186E-6   -8.767186967950326E-6   -1.438001429859074E-5    6.918952909796189E-1   -7.182060182363970E-1
 6.082724327018943E8     6.986394100358875E-1   -7.247291802802005E-1    1.760525620556618E-6    7.674752455033909E-6   -1.684114281294992E-5   -7.730070882458144E-6    6.817432719156790E-1   -7.275686446928765E-1
 6.182424725822532E8     6.888178948093598E-1   -7.344197830758525E-1    1.217093374126383E-6   -3.204103743870014E-7    9.418429288315486E-6   -1.491007475975629E-5    6.718894250068664E-1   -7.370250510408514E-1
 6.282125124626122E8     6.782897806463575E-1   -7.438337608372955E-1   -2.781006647700355E-6   -4.823374771731938E-6   -8.365595345236816E-6    3.957437962293259E-6    6.628180291239644E-1   -7.466535833196158E-1
 6.381825523429711E8     6.686112471589994E-1   -7.509204394185119E-1   -2.269863536551430E-6    2.433065437691841E-6   -5.585503004192866E-6    4.791675168969632E-6    6.539758201061525E-1   -7.555581925220610E-1
 6.481525922233300E8     6.596622367835457E-1   -7.595134802927020E-1   -4.673563186396624E-6   -1.119965139418224E-5   -1.312153357838602E-6    9.596832665303064E-6    6.447195631513593E-1   -7.639445192357101E-1
 6.581226321036890E8     6.499171126546567E-1   -7.684324557108566E-1   -6.160417811186366E-6    5.567053066761267E-6   -5.889950108385292E-6    4.880218647720414E-6    6.347494912630515E-1   -7.722388969008329E-1
 6.680926719840479E8     6.400045159664741E-1   -7.771646282804987E-1    6.313148104098267E-6   -6.809718101511863E-6   -5.247921899175549E-6   -1.545662185383823E-5    6.241664272710473E-1   -7.802792556671740E-1
 6.780627118644068E8     6.301487914813253E-1   -7.853072391803058E-1    6.805982191742218E-6    6.234440068953102E-6   -1.117376583124620E-6   -2.052531667521573E-7    6.131045984528164E-1   -7.882086160158422E-1
 6.880327517447658E8     6.196942589317859E-1   -7.935097250475450E-1    4.605226399694238E-6   -1.210926577119230E-5    9.734666482850844E-6    3.194038186493814E-6    6.017822955534943E-1   -7.959305537439375E-1
 6.980027916251246E8     6.087973415832554E-1   -8.016922262770471E-1   -1.025913517347360E-5    5.995023095141690E-6   -1.145772020526675E-6    4.230809702040900E-7    5.901197496184536E-1   -8.034983518262323E-1
 7.079728315054835E8     5.974413573863564E-1   -8.100709304039918E-1   -8.604613936237897E-7    4.355405178826693E-6   -9.703088265932932E-6   -2.542940461744442E-6    5.785812974928362E-1   -8.114555100927491E-1
 7.179428713858424E8     5.863256155467960E-1   -8.185930471269354E-1    8.985044778660124E-6    2.196224197017463E-5    7.825996294117031E-6   -1.848753717650115E-6    5.673419953244256E-1   -8.198859861818149E-1
 7.279129112662014E8     5.753334908543272E-1   -8.270379569720847E-1    9.676264891375739E-6    8.902679250594743E-6    1.244232574815525E-5    2.863077418575312E-6    5.560885263523531E-1   -8.287052969077489E-1
 7.378829511465603E8     5.639947873484286E-1   -8.356527221784310E-1    5.057218162197886E-6    1.637605427266578E-5   -2.682189304060168E-6   -1.059343902937285E-5    5.448538581209326E-1   -8.371286961759179E-1
 7.478529910269192E8     5.520741287667222E-1   -8.441811614468923E-1    7.645511449763580E-6    3.120921916697325E-6    7.096730275376346E-7    7.401565443674727E-7    5.336520777899570E-1   -8.446737104400103E-1
 7.578230309072782E8     5.394689611913981E-1   -8.515023374252425E-1    2.871549875662694E-6    4.995793179419972E-6   -3.507930968885169E-6    9.702796102487204E-7    5.226191407134418E-1   -8.515982323734571E-1
 7.677930707876371E8     5.290184247433904E-1   -8.567871579796005E-1    9.517035552382370E-7   -4.826728974018072E-6    8.909786512152309E-6    8.808057434301766E-6    5.113357064531399E-1   -8.580156127930390E-1
 7.777631106679960E8     5.194067954548809E-1   -8.637466994310067E-1    3.181057963842901E-6   -1.224908349572974E-5    1.270660878875330E-5   -9.021485019111110E-6    4.998234833808234E-1   -8.646427264881719E-1
 7.877331505483550E8     5.091208317648637E-1   -8.706632199808900E-1    5.311912426835028E-6    1.283418028681883E-6    3.235177271092957E-8   -2.987931043536076E-7    4.879535994829169E-1   -8.713115283175449E-1
 7.977031904287138E8     4.978994505941400E-1   -8.771565513499868E-1    1.967576969573501E-5    3.125772569338823E-6    1.594536692270686E-6   -1.499735056856469E-5    4.751664995511622E-1   -8.777303745782239E-1
 8.076732303090727E8     4.862176920937435E-1   -8.829407685657588E-1    3.904637315015721E-6   -2.732215844478264E-6    1.532000846086388E-6   -9.052273384769713E-6    4.622195124948808E-1   -8.838242676912067E-1
 8.176432701894317E8     4.742431107688252E-1   -8.889261645747292E-1   -4.556848094123567E-6    2.396511841689328E-6    5.547495579750442E-8   -1.453157149908526E-5    4.495085743982324E-1   -8.902662710566762E-1
 8.276133100697906E8     4.619954452857484E-1   -8.954436821427554E-1   -6.889651433583107E-6   -1.145801015394216E-5   -1.120388049512060E-5    1.347762475393395E-5    4.369073953249456E-1   -8.968628068209101E-1
 8.375833499501495E8     4.494026051939913E-1   -9.018918352859913E-1   -1.950467897241223E-6   -1.366560072237435E-5   -7.850677230817354E-6    4.798314614907960E-6    4.247089363690522E-1   -9.037309234603526E-1
 8.475533898305085E8     4.366686279906883E-1   -9.083854762607814E-1    6.652149817784194E-7   -9.087174148486091E-7    2.783528568471965E-6   -2.954184605036341E-6    4.129022890143220E-1   -9.096835684130548E-1
 8.575234297108674E8     4.237905050568359E-1   -9.146150491889709E-1    1.327273587848718E-5    5.931708114076704E-6    6.333208755521485E-6    1.390124380744713E-5    4.009863070541315E-1   -9.149610319660161E-1
 8.674934695912263E8     4.107798697933652E-1   -9.213445787215038E-1   -3.635667699354270E-6   -7.545460364314085E-6   -7.904531776582828E-7    6.018058571106197E-6    3.890895432272483E-1   -9.198072989361286E-1
 8.774635094715853E8     3.979131894771831E-1   -9.279833696671311E-1    2.885560880059790E-7   -3.750720212566381E-6    1.663267202402684E-5   -2.033331798704049E-5    3.764960967623094E-1   -9.245428860346394E-1
 8.874335493519442E8     3.847542887544496E-1   -9.326109038173810E-1   -9.035673396438199E-6   -1.676776990711765E-5   -2.769521205571385E-6    4.067349758314131E-6    3.632983109165785E-1   -9.289269476371986E-1
 8.974035892323031E8     3.733611188757009E-1   -9.362716415848483E-1    1.209293873903364E-5    4.878788632905924E-6    2.318061274783516E-6    4.440994117466078E-6    3.498672403101153E-1   -9.333902524315920E-1
