#  HZ   S   RI   R     50.00 
! Rohde & Schwarz Vector Network Analyzer 
! Rohde-Schwarz,ZNB20-2Port,1311601062102128,3.60
! Created: UTC 4/29/2024, 3:48:34 PM
! freq[Hz]                re:S11                  im:S11                  re:S21                  im:S21                  re:S12                  im:S12                  re:S22                  im:S22
 1.000000000000000E5     9.976650177554578E-1    4.723610894619182E-3    3.586499789846961E-5   -2.162999287436257E-5   -3.913193095150523E-5   -4.218402848062134E-5    1.011199811167943      -1.097470521313451E-2
 1.007003988035892E7     9.986745190922368E-1   -1.393440910273616E-2    2.871412215595216E-6   -2.684560056715366E-6    2.182445787462778E-5    3.491635010177943E-5    9.958593873463697E-1   -1.454917116973661E-2
 2.004007976071785E7     9.980350507588008E-1   -2.706731038178348E-2    2.599961626414270E-6   -2.053104824279983E-5   -1.225682194940690E-5   -1.542746632778043E-5    9.987499672717468E-1   -2.774569676595870E-2
 3.001011964107677E7     9.975382719794860E-1   -4.099554556642657E-2    4.457836885807622E-6    2.772402060774237E-6    7.867272675519429E-8   -1.009531508671393E-5    9.973994450205561E-1   -4.203805157279430E-2
 3.998015952143569E7     9.964358494154519E-1   -5.297623043873297E-2   -4.861664152499032E-7   -8.175490868156905E-6   -1.117344593940096E-6    8.940814430423943E-7    9.976418537371792E-1   -5.684260009555925E-2
 4.995019940179461E7     9.953886980034115E-1   -6.588393196797007E-2    1.359324203861583E-5    1.433338259413178E-5    1.852585627845724E-5    8.712596507288184E-6    9.966419098332311E-1   -6.913707636213383E-2
 5.992023928215354E7     9.946534161604316E-1   -7.871831394790954E-2    9.359115361315174E-6   -6.191527584179126E-7   -1.533426408880907E-6    7.371794335924612E-6    9.946007674360875E-1   -8.208855307044741E-2
 6.989027916251247E7     9.941572128445807E-1   -9.183757336287932E-2   -6.636006734005879E-6    3.813088435862617E-6   -1.253737864234854E-5    1.950736779753512E-5    9.933436032940238E-1   -9.486049516879974E-2
 7.986031904287139E7     9.928507295359886E-1   -1.051306845651417E-1   -6.533195234399613E-6    1.359146089782914E-6   -1.145834507437880E-5   -5.534229078512118E-6    9.922442892877326E-1   -1.080699633057985E-1
 8.983035892323031E7     9.907429328434807E-1   -1.185872075882037E-1    1.788216956547614E-6   -4.894840762249407E-6   -3.392032460105944E-6   -7.338932976387251E-6    9.908782348874434E-1   -1.213086647792351E-1
 9.980039880358922E7     9.883712119891496E-1   -1.320725132287496E-1    3.094838249143502E-6   -7.299656055262769E-6   -1.786962375034459E-5   -2.100937161390407E-5    9.885496658819602E-1   -1.346047680085679E-1
 1.097704386839482E8     9.869001722689228E-1   -1.454732145965065E-1   -1.202527451654804E-5    2.798776447400379E-7    7.655714125433841E-7    1.228003767246685E-5    9.860758492138840E-1   -1.478696133562678E-1
 1.197404785643071E8     9.856558659673909E-1   -1.589807990105184E-1    1.154922416581312E-5    6.295430436678003E-7    6.775963678830581E-6   -1.770483305835618E-5    9.841987396929434E-1   -1.612365605859113E-1
 1.297105184446660E8     9.836462436905413E-1   -1.717108294028145E-1   -6.639881025625806E-6   -1.356199691734732E-5    1.292687605503755E-7   -4.620619759688986E-6    9.828054473826053E-1   -1.745841094396552E-1
 1.396805583250249E8     9.812833542283383E-1   -1.844672896009957E-1   -3.821890207212555E-6   -2.277167346511771E-5    3.415693680190169E-6   -7.573571359284037E-7    9.809112485571759E-1   -1.876166424034920E-1
 1.496505982053838E8     9.784685757715652E-1   -1.968718161717052E-1   -7.545210075822291E-7    1.783920364870921E-6   -1.595876142400410E-6    5.091112157383593E-6    9.786068859919540E-1   -2.005274806377497E-1
 1.596206380857428E8     9.761609377133246E-1   -2.094235213892665E-1   -2.275300272265232E-6   -7.929320137756469E-8   -5.772526826366578E-6   -5.626175657786878E-6    9.756928571801288E-1   -2.135009127754292E-1
 1.695906779661017E8     9.734545261174815E-1   -2.223535244898965E-1    7.811181362160934E-6   -1.559159453998432E-5    2.041631605316028E-6    6.040813610882415E-7    9.727978488660980E-1   -2.262840038986245E-1
 1.795607178464606E8     9.704992583133566E-1   -2.345888989635122E-1    2.363223822567548E-6    1.139605592348994E-5   -8.662215745132983E-8    8.619248178416606E-6    9.702098986523656E-1   -2.381757449865952E-1
 1.895307577268195E8     9.673426798291110E-1   -2.468216687040257E-1    3.483294948171376E-6   -5.550974984249969E-6   -1.134551705194626E-5   -1.329789820533733E-5    9.666417087439612E-1   -2.505415368784552E-1
 1.995007976071784E8     9.638347419201039E-1   -2.593755639974764E-1    7.306698024938251E-6    4.200860295108255E-6   -2.361565646946564E-7    4.173142022843121E-6    9.627392265701820E-1   -2.633054699777108E-1
 2.094708374875374E8     9.606135648086445E-1   -2.722243800486330E-1   -8.324105873560112E-6   -6.921761973683020E-6    1.058648194173555E-5    1.381294398250711E-5    9.588820399293426E-1   -2.762874126483196E-1
 2.194408773678963E8     9.572217797190810E-1   -2.849625601798767E-1    1.154821226439771E-5   -1.560505239845659E-5    1.236775346313804E-5   -7.953438137420533E-7    9.550919074456299E-1   -2.892361599493706E-1
 2.294109172482552E8     9.534116884320515E-1   -2.971545359126194E-1    4.958181568855104E-6   -1.331939450434537E-5    9.762012064423519E-6    1.167465227807600E-5    9.508624637639193E-1   -3.018461584998393E-1
 2.393809571286142E8     9.505398109820263E-1   -3.092845408824860E-1   -4.080179706248312E-6   -7.929999955234043E-6   -1.446280191745773E-6    1.124690688786671E-5    9.470208388752757E-1   -3.141609939151468E-1
 2.493509970089731E8     9.469855795009530E-1   -3.231168166958384E-1   -3.012776235231619E-6    6.494645326574960E-6   -1.007409466943450E-5    1.394870663967846E-5    9.439496449661938E-1   -3.276906545267382E-1
 2.593210368893320E8     9.427042821891852E-1   -3.351192981464750E-1    1.893290687905493E-6    8.209553341525341E-6   -2.320986774853819E-6    1.237287251850429E-5    9.397287037340198E-1   -3.408934460286673E-1
 2.692910767696909E8     9.383096069868250E-1   -3.464266552067031E-1    7.545289974489341E-7   -5.901578432252429E-7    1.192274053920736E-5    7.160279923357868E-6    9.356277580388941E-1   -3.528989435632306E-1
 2.792611166500499E8     9.337001347983822E-1   -3.581769084845323E-1   -1.095137548063256E-6   -7.101999101368627E-6    2.276273433289463E-5    6.046927218410176E-6    9.311393131156409E-1   -3.646733331344578E-1
 2.892311565304088E8     9.290585148206770E-1   -3.702751334337039E-1   -4.823023180435076E-6   -1.743810783823938E-5   -6.346658929384106E-6    1.588763553612056E-5    9.263363582657278E-1   -3.770314280866960E-1
 2.992011964107677E8     9.242125829094120E-1   -3.824581497817441E-1    1.479708075955496E-5   -4.152101673470630E-6   -4.609111188882841E-6    2.527618048313153E-5    9.212040691116763E-1   -3.886692362500028E-1
 3.091712362911266E8     9.187280369355734E-1   -3.945346761172808E-1   -1.663814059556463E-5   -7.239196928718081E-6    2.001492784900554E-5    1.700973201813546E-6    9.156949553854569E-1   -4.001869166065775E-1
 3.191412761714855E8     9.132565522800474E-1   -4.069473700033662E-1    5.518635427159771E-6    3.133911263484554E-6   -9.298902549062935E-6    2.027596837632467E-5    9.097849447042532E-1   -4.120174941682090E-1
 3.291113160518445E8     9.077109491199647E-1   -4.197743707971937E-1    8.818032806793665E-6   -9.184391129212277E-7   -5.854792507022130E-6    6.002527139759055E-6    9.034134731378712E-1   -4.245140150853932E-1
 3.390813559322034E8     9.022655462732688E-1   -4.326909714851629E-1    1.385368273161062E-5    1.136485279395183E-5    3.172733754945772E-6    9.799821496215636E-6    8.968746668016374E-1   -4.369298497204909E-1
 3.490513958125623E8     8.968309894940020E-1   -4.451798503431418E-1   -1.488972460234114E-6   -1.434948187181321E-5    5.040634622059733E-6   -4.750798071094655E-6    8.903945813496045E-1   -4.494961697162085E-1
 3.590214356929212E8     8.911713812437083E-1   -4.575245079425220E-1   -1.038029591374125E-5    1.330591429065599E-6   -7.544139710139554E-6    1.104934300659406E-5    8.844898268519451E-1   -4.621115594290696E-1
 3.689914755732802E8     8.860586306407834E-1   -4.698036755417752E-1    4.956435756845387E-6   -1.056824987781774E-6   -1.952758268820431E-7    3.449062236669753E-6    8.791902692019240E-1   -4.748260372664989E-1
 3.789615154536391E8     8.801063034582050E-1   -4.811012058620318E-1    3.046340948481562E-6   -1.398342671814870E-6   -5.568262862287010E-7    3.478048065557314E-6    8.739462362857084E-1   -4.867912263094120E-1
 3.889315553339980E8     8.742969712569252E-1   -4.917596692460832E-1    1.062926266736158E-5   -5.334585258630007E-6    4.435660126045161E-6    9.227780475593401E-6    8.679360547317434E-1   -4.988288790431961E-1
 3.989015952143569E8     8.673097208162002E-1   -5.024411890568525E-1   -4.269671231377763E-6   -8.296772791663025E-6    2.167706351454331E-5   -9.618335334956643E-6    8.611483958233276E-1   -5.096958873856668E-1
 4.088716350947158E8     8.600537744292798E-1   -5.131255894470629E-1    1.937871702898458E-5   -1.135689025887583E-6    1.046780794811160E-5    6.634203336222050E-6    8.543409702941528E-1   -5.207625034536990E-1
 4.188416749750748E8     8.534222137490398E-1   -5.249292145281595E-1   -6.716674078519675E-6    1.875342744848981E-5    3.568729235799956E-6    1.622757259451291E-5    8.476930048176629E-1   -5.315699087621513E-1
 4.288117148554337E8     8.462349820821193E-1   -5.366823163541875E-1    8.999186516345696E-6    2.241594391753853E-6   -8.127316931328619E-6    7.228807056885361E-6    8.406978267278913E-1   -5.419221969172044E-1
 4.387817547357926E8     8.383234077381474E-1   -5.478998410217648E-1   -7.051402530275830E-6   -1.683306775981388E-5    4.585500996881126E-6   -1.418903775701793E-5    8.326950833124079E-1   -5.523570695290627E-1
 4.487517946161516E8     8.304506736881845E-1   -5.597089775281796E-1    1.010857548466680E-5    1.368194369646729E-5    1.572518080157234E-5    1.232149594005135E-5    8.242238544603553E-1   -5.634892045695997E-1
 4.587218344965104E8     8.235856089883932E-1   -5.717677414674268E-1    1.210738795030339E-5   -2.348375688593807E-6   -2.182468342977069E-5   -8.343754208722104E-7    8.160705619750175E-1   -5.752772689403773E-1
 4.686918743768694E8     8.172463653309762E-1   -5.832646028839460E-1    9.587131771493907E-6   -8.351019629270008E-6    1.297939080995156E-5    8.922434441289731E-6    8.078658169493247E-1   -5.867699080883366E-1
 4.786619142572283E8     8.100141824880557E-1   -5.939576232679239E-1    1.201488633228332E-5    5.109641919308640E-6   -2.241648035525865E-7   -8.216563417371289E-6    7.992388455740852E-1   -5.980263131758150E-1
 4.886319541375872E8     8.023381564055446E-1   -6.043002971923656E-1    9.900208269687139E-6   -8.236124764692090E-6    7.410005374435573E-6    3.267886977445188E-6    7.905297403868694E-1   -6.089075251810353E-1
 4.986019940179462E8     7.940351532890305E-1   -6.150331365307845E-1    1.317329427780782E-5   -6.630852810372279E-6   -9.132766484342789E-6   -1.070607474890119E-6    7.823359087630811E-1   -6.197328540751279E-1
 5.085720338983051E8     7.857861799174843E-1   -6.242164602124994E-1    1.168303200997809E-5   -1.516023052253990E-6    2.218673460464476E-6   -7.392532739500136E-6    7.746877176249607E-1   -6.303228483062507E-1
 5.185420737786640E8     7.784048252204148E-1   -6.333183995320595E-1   -1.313107593878065E-5   -6.914368048057711E-7    8.172679871702898E-6   -9.990119212269582E-6    7.669763535367369E-1   -6.401002030855331E-1
 5.285121136590229E8     7.701079841414006E-1   -6.428907048916015E-1   -1.069742174718737E-5    2.816198946015887E-6    8.409268345246747E-6    2.114047803723009E-6    7.590591552380533E-1   -6.497669589277514E-1
 5.384821535393819E8     7.615600354028836E-1   -6.529612894308624E-1    4.731684761305009E-7    5.374136632803403E-7    3.689737299488504E-6    5.037361096984558E-6    7.509624085752817E-1   -6.594683914068702E-1
 5.484521934197408E8     7.533738999712580E-1   -6.634965454578426E-1    2.244664933838924E-6    6.399984103435712E-6    7.925121999818223E-6    3.350948001713806E-6    7.424836207934972E-1   -6.692506539841149E-1
 5.584222333000997E8     7.448652298153766E-1   -6.744715908614208E-1   -1.044909097021346E-5    3.335617350688626E-6   -7.687569538131547E-6   -4.608928495485811E-6    7.333736706056435E-1   -6.792624858541209E-1
 5.683922731804587E8     7.357790705780357E-1   -6.849567483669187E-1    5.502267711442208E-6    4.595386508785653E-6   -1.423155264320586E-5    1.722535122076572E-5    7.232155009190482E-1   -6.892069555819161E-1
 5.783623130608176E8     7.264330616163642E-1   -6.948600611523695E-1    1.124640055283913E-5    2.347911861117341E-7    1.206813679049436E-5    3.083589949318771E-6    7.127514406829678E-1   -6.989107692224439E-1
 5.883323529411764E8     7.171815638302454E-1   -7.048166332848348E-1   -1.059054778027020E-5   -8.742904840638143E-6   -4.678360842840485E-6    7.019302390331735E-7    7.021640244603879E-1   -7.086354061310602E-1
 5.983023928215353E8     7.081462249752453E-1   -7.149525018613381E-1   -8.234120659688505E-6   -5.580577013263093E-6   -8.739103141086957E-6    2.021294013777513E-5    6.919073801949994E-1   -7.182544977706273E-1
 6.082724327018943E8     6.985640213636978E-1   -7.246797667907149E-1   -4.206619326342541E-7   -7.357488243329111E-6   -1.303778087962512E-5   -5.785879444245688E-6    6.817812740909920E-1   -7.277997403790324E-1
 6.182424725822532E8     6.888076234594639E-1   -7.343280010894369E-1   -3.888366437418173E-6   -1.198651392192351E-5   -9.012693145261748E-6   -4.662574977767211E-6    6.718157682278555E-1   -7.371496220836184E-1
 6.282125124626122E8     6.782711656671598E-1   -7.436825114048282E-1    3.637054691583226E-6   -8.057220887243988E-6    2.557008860877194E-7    1.019477975827333E-5    6.628335436825411E-1   -7.467126086445970E-1
 6.381825523429711E8     6.685618590052161E-1   -7.508952592591631E-1    3.484525768829061E-6   -7.370923701237792E-6    1.500073647847175E-5    4.382783382298723E-8    6.538344384559913E-1   -7.556049862518404E-1
 6.481525922233300E8     6.596152862692261E-1   -7.594422314438249E-1    7.807173912185998E-6   -1.536904290439975E-6   -5.083986932796401E-6    1.178843964188994E-5    6.446254608775195E-1   -7.639642981338799E-1
 6.581226321036890E8     6.499710139200369E-1   -7.683928248767984E-1   -2.411309214847965E-6   -8.420361977597967E-8    1.021479980040300E-5   -6.318070515384758E-6    6.346126368280474E-1   -7.723031354867729E-1
 6.680926719840479E8     6.399993151866261E-1   -7.771496780208562E-1   -1.101314925019648E-5    4.280716279794366E-8   -1.347373358718346E-5    5.807104208844858E-6    6.240508697937208E-1   -7.804226656818131E-1
 6.780627118644068E8     6.302250378159809E-1   -7.852760623663074E-1    8.744891531645913E-6    4.486853274141989E-6    1.264810591297398E-5    2.617029684704095E-6    6.130865301950618E-1   -7.882436674655440E-1
 6.880327517447658E8     6.198161456724403E-1   -7.935301109527926E-1    1.141129080780571E-5    3.013322565209415E-6    3.434412396211200E-6   -2.542741705799789E-6    6.017359774020895E-1   -7.958667841008313E-1
 6.980027916251246E8     6.088235126620024E-1   -8.016945853579515E-1    1.462425324356179E-5    6.798413912091084E-6    1.243501811601996E-6    1.379002314926112E-5    5.900522144683167E-1   -8.035457991429092E-1
 7.079728315054835E8     5.974998771138280E-1   -8.101301812329733E-1   -8.927491563849370E-6    1.074981354076496E-5   -3.648663783673150E-6   -1.646662090882483E-5    5.787026351148582E-1   -8.115687027913638E-1
 7.179428713858424E8     5.862676269357060E-1   -8.185454847274607E-1    7.688959524651333E-6   -1.924994569588475E-5    1.005388367331747E-5    1.394068841083977E-5    5.673681033240285E-1   -8.201353274491657E-1
 7.279129112662014E8     5.753115080575332E-1   -8.269326690333402E-1   -2.263779441927463E-6    1.534766547910604E-5   -1.074909299307517E-5   -5.935871281035386E-6    5.560789874440968E-1   -8.288209808711906E-1
 7.378829511465603E8     5.640376981846525E-1   -8.357449656461768E-1   -8.843784559150299E-7    1.264394593838395E-6   -1.191936689358410E-5    1.164106198734777E-6    5.448629357902008E-1   -8.371149139259307E-1
 7.478529910269192E8     5.521217559477726E-1   -8.442067061736197E-1    1.411005884407179E-5   -6.836585059367307E-6   -1.118040046010766E-5   -1.374519104664849E-5    5.336467935657334E-1   -8.448028990159157E-1
 7.578230309072782E8     5.395268369456452E-1   -8.514294385397264E-1   -3.613824320370323E-6   -8.909762618508659E-6    1.243151716484062E-5   -9.056153094060828E-6    5.225065334604134E-1   -8.516608591507985E-1
 7.677930707876371E8     5.290738402759978E-1   -8.568252661356974E-1   -2.789366851199363E-6   -1.563739926209706E-5    1.283372588593252E-5    1.983223150037800E-5    5.112404334340139E-1   -8.581157895718129E-1
 7.777631106679960E8     5.194180979576217E-1   -8.637663513073744E-1    1.879686248050204E-6    1.335801235831334E-5    6.823446114322819E-8    9.097246331809217E-6    4.997368790075443E-1   -8.646456936650039E-1
 7.877331505483550E8     5.091388456879524E-1   -8.706810537889433E-1    2.370230925382034E-6   -2.887179118947070E-6   -7.709217787657393E-6   -1.513578987845187E-5    4.878798050822079E-1   -8.713529488733143E-1
 7.977031904287138E8     4.979322907419649E-1   -8.771508005316644E-1   -7.698733984654857E-6   -3.677010473891339E-6    1.684715653509333E-5   -1.587237450768903E-6    4.751137256482401E-1   -8.778047380348887E-1
 8.076732303090727E8     4.862699037813959E-1   -8.830154955727286E-1   -1.025608838827111E-5   -1.291520406786473E-5   -1.829538776007110E-6    9.233101775208937E-7    4.622166331327521E-1   -8.839131008375850E-1
 8.176432701894317E8     4.743009970862216E-1   -8.889118142343411E-1    6.455006979092168E-6    1.542991294546018E-5   -1.981646325885468E-6    9.201037571272519E-7    4.493790176882685E-1   -8.902374214041219E-1
 8.276133100697906E8     4.619047961234146E-1   -8.953819654702314E-1   -1.689732719191167E-6    1.729430432126594E-6    1.251472443226791E-5   -4.909719347719880E-7    4.368639510537169E-1   -8.969862684765827E-1
 8.375833499501495E8     4.493646553124618E-1   -9.018482479171696E-1   -3.553414452755442E-6    1.996198151492575E-6   -8.443519919899072E-7   -1.457729963036314E-5    4.246450285585807E-1   -9.036176144423101E-1
 8.475533898305085E8     4.365552509429704E-1   -9.083130299696123E-1    1.211620364162627E-7    8.024495486350915E-6   -3.740553312974801E-6   -7.294400888040990E-6    4.128520270996895E-1   -9.096984171368815E-1
 8.575234297108674E8     4.237191606500526E-1   -9.146293915344826E-1   -1.172979915105591E-5    1.077095561703584E-5    9.404825060787389E-6    8.907547366207470E-6    4.010544115798454E-1   -9.149894739143163E-1
 8.674934695912263E8     4.108903506523041E-1   -9.213459006504335E-1   -1.474024501809399E-5    1.427435558629439E-5    9.756248579971058E-6   -1.139407961317384E-5    3.890054777715516E-1   -9.199205797219163E-1
 8.774635094715853E8     3.977763698559495E-1   -9.278474426487165E-1    1.180562217850348E-5    9.799510777731719E-6   -2.601876166805144E-6    1.227879644676696E-5    3.763678045218030E-1   -9.246403533010545E-1
 8.874335493519442E8     3.846752729768529E-1   -9.324688521518893E-1   -1.454110168232450E-6   -1.549725575486430E-5   -8.154426583299475E-6   -6.887619813383469E-6    3.632566663132262E-1   -9.290619156602057E-1
 8.974035892323031E8     3.735325867921940E-1   -9.362459013036271E-1   -1.177160192599695E-5    7.205749761812597E-6   -2.935316935773780E-6    1.312582934555111E-5    3.496588729135862E-1   -9.333756640057093E-1
