#  HZ   S   RI   R     50.00 
! Rohde & Schwarz Vector Network Analyzer 
! Rohde-Schwarz,ZNB20-2Port,1311601062102128,3.60
! Created: UTC 4/29/2024, 3:48:44 PM
! freq[Hz]                re:S11                  im:S11                  re:S21                  im:S21                  re:S12                  im:S12                  re:S22                  im:S22
 1.000000000000000E5     9.962837409548845E-1    4.600136067355353E-3   -1.156607030751248E-4   -1.771490225163686E-4    1.048703355432533E-4   -1.176200422029742E-4    1.010951165153891      -1.112759470278112E-2
 1.007003988035892E7     9.975665056663091E-1   -1.391336553245643E-2   -3.520080713079030E-6    2.848977611883052E-6    3.471639419936874E-6    7.996299923385846E-7    9.958913318315310E-1   -1.456255610222897E-2
 2.004007976071785E7     9.997867742715869E-1   -2.723193264095036E-2    2.853537647290145E-6   -1.789659907000946E-5   -2.093524837090705E-6    1.501343277674798E-5    9.987462615755150E-1   -2.773175225582390E-2
 3.001011964107677E7     9.977863544154377E-1   -4.099811180272150E-2    3.192241450029737E-8   -7.769189441220746E-6    1.037682193407624E-5   -8.526594978348557E-7    9.975639865501675E-1   -4.202175845903663E-2
 3.998015952143569E7     9.975626344720613E-1   -5.298899435293044E-2    2.440163130616578E-6    1.601774452851066E-5   -1.037397810243313E-5    3.487802768914131E-6    9.975828738631223E-1   -5.676065108266563E-2
 4.995019940179461E7     9.960357748221385E-1   -6.584285784929557E-2   -2.442538781351748E-6    1.141273030819307E-5   -8.336715690170000E-6   -1.587125792554675E-5    9.965614651896735E-1   -6.921917082597220E-2
 5.992023928215354E7     9.942519585457436E-1   -7.866563782219094E-2    1.949226330565438E-6    1.071750839205135E-5    1.683659501754704E-5    8.081822835728843E-7    9.946487421319071E-1   -8.214663232158025E-2
 6.989027916251247E7     9.930840217419294E-1   -9.176145579165565E-2    1.150318926633354E-5    6.729566333146603E-6   -1.302337174495440E-5    9.333024991675952E-6    9.934121348994412E-1   -9.494570959968052E-2
 7.986031904287139E7     9.924727127607073E-1   -1.051331016966556E-1    5.658323196282174E-6   -1.104684091474766E-5    1.057063953670731E-5    1.964877484232974E-5    9.924334922756336E-1   -1.081042194643085E-1
 8.983035892323031E7     9.914328268509620E-1   -1.186311949758308E-1   -2.245495634169850E-6    3.596955333001468E-6   -7.540109056116340E-6   -9.898380998676426E-6    9.908789440672001E-1   -1.212676882947634E-1
 9.980039880358922E7     9.893479483271340E-1   -1.322377354201167E-1   -9.070536503803365E-6   -4.998589400215950E-6   -2.005418597576782E-7   -1.050508243319872E-6    9.885949905951787E-1   -1.345870743498426E-1
 1.097704386839482E8     9.864595423877700E-1   -1.454333847522112E-1    8.089965992260549E-6   -2.296177645292036E-6    3.214039445426439E-6   -9.562077588767968E-6    9.860314154394935E-1   -1.479232707649152E-1
 1.197404785643071E8     9.847848304017004E-1   -1.587639949877313E-1    5.261384081815976E-6    2.500217601165360E-5   -2.708657763355675E-6   -2.546243890402661E-5    9.841991367515679E-1   -1.612378507941416E-1
 1.297105184446660E8     9.829290098275650E-1   -1.717128310234742E-1   -7.531388456848358E-6    8.338103869661907E-6   -5.920951678228678E-6   -1.763273383980596E-5    9.828479435116039E-1   -1.745970198480822E-1
 1.396805583250249E8     9.815592160399718E-1   -1.845409914533156E-1   -7.005837612100761E-6    5.328800203165728E-6   -1.380231842251155E-5    1.918575079275508E-6    9.809307760720959E-1   -1.876608624900686E-1
 1.496505982053838E8     9.789749683831780E-1   -1.969974611565473E-1    1.645302091394368E-6   -4.133943060479921E-6    9.783698702716204E-6   -1.599799430958850E-5    9.785762904788824E-1   -2.005350599198384E-1
 1.596206380857428E8     9.761328458101420E-1   -2.093359139792850E-1    4.756004221924063E-6    7.040227451825799E-6    2.536149216962349E-5   -1.922500241582320E-6    9.757933326126945E-1   -2.133644722661056E-1
 1.695906779661017E8     9.732254697828576E-1   -2.222095992665586E-1    1.412180617821819E-5   -3.085203710149435E-5   -3.468760305591512E-6   -1.234666331955621E-5    9.728844021784859E-1   -2.262893080136081E-1
 1.795607178464606E8     9.706823919770194E-1   -2.346671111945156E-1    1.861130348834284E-6   -7.051274609528999E-6   -1.182191350810481E-6   -6.817494274607981E-6    9.701226024467869E-1   -2.381363991588564E-1
 1.895307577268195E8     9.676943484530354E-1   -2.468646918117591E-1   -6.485644532694287E-6   -8.900273580817107E-6    1.137953741024075E-5    1.739985555729634E-5    9.667140717583524E-1   -2.506055028499850E-1
 1.995007976071784E8     9.639176222523259E-1   -2.593939737428242E-1    1.773611446259906E-6    2.262809878320348E-6    1.273170987930020E-6   -3.201310809550342E-6    9.627259401569140E-1   -2.632885461888024E-1
 2.094708374875374E8     9.604236765329309E-1   -2.721947762929757E-1    5.242459530388480E-6   -7.597755719329387E-6   -1.801639759796472E-5   -1.830672229324241E-5    9.588660016033541E-1   -2.763100720035747E-1
 2.194408773678963E8     9.573720113092927E-1   -2.849647146323200E-1   -5.117045129178360E-6    2.367815284929097E-7    7.747913686527632E-6    4.998892492862424E-6    9.550930988862026E-1   -2.892873438935442E-1
 2.294109172482552E8     9.537412228825468E-1   -2.972794038837638E-1    1.211828013127039E-5   -1.986394209939748E-6   -6.987099928026261E-6    1.433535606586941E-6    9.508942786452022E-1   -3.019318096488585E-1
 2.393809571286142E8     9.506902428808629E-1   -3.093120599799511E-1   -6.280391356940268E-6    1.348950864943422E-6   -5.531920173983062E-6   -9.163035381652208E-6    9.469322383627744E-1   -3.141137774890553E-1
 2.493509970089731E8     9.467540576907897E-1   -3.231400386498550E-1   -2.381191554910705E-6    4.424916446350110E-6   -2.846081173212984E-6   -1.555876085564704E-5    9.440962854442873E-1   -3.277327868718964E-1
 2.593210368893320E8     9.426583158347278E-1   -3.351137669383037E-1   -2.312310262205375E-5   -9.918243219275287E-6   -1.329757622482181E-5   -6.680528869732221E-7    9.399062452043278E-1   -3.409801634710052E-1
 2.692910767696909E8     9.386088024228190E-1   -3.465728683285921E-1   -4.586642219873881E-6    1.019402217459075E-5    1.207913910006314E-5    6.547183502832218E-6    9.354422760671613E-1   -3.529163348202683E-1
 2.792611166500499E8     9.339526410562196E-1   -3.581685678031159E-1    1.871447696245233E-5    6.757428107517855E-6    7.542510608123193E-6    2.307184199576612E-8    9.309185967175461E-1   -3.647762497796376E-1
 2.892311565304088E8     9.290033893660702E-1   -3.702014645988000E-1   -1.787271417437981E-5   -1.463246273602039E-5   -9.973032705131629E-6    1.240537067689460E-5    9.263543993565306E-1   -3.768828992607025E-1
 2.992011964107677E8     9.241279530404658E-1   -3.823524065295330E-1    5.481781506619969E-6   -4.001608312521402E-6   -9.938430147195100E-6    1.489201923470205E-5    9.213070422675860E-1   -3.887347492985547E-1
 3.091712362911266E8     9.189820036593814E-1   -3.947052068640893E-1    8.558747414906583E-7    2.502768060116421E-6    3.937189444216078E-6    6.265824634060304E-6    9.157283408441758E-1   -4.002553525513476E-1
 3.191412761714855E8     9.133285904202627E-1   -4.070677208077468E-1   -6.506646985256976E-6   -1.176713576168148E-5   -1.874132491200382E-6    5.132319671339948E-6    9.098551442005041E-1   -4.120368436137690E-1
 3.291113160518445E8     9.076464521215146E-1   -4.196659074416254E-1    5.848978186652129E-6   -6.733570428377369E-6   -8.768023374517520E-7    7.350867241096223E-6    9.034375937869200E-1   -4.245088248484619E-1
 3.390813559322034E8     9.019941474218361E-1   -4.325243282248329E-1   -5.938472331511045E-6    3.151440616330810E-6   -1.819104040651520E-5   -7.660492887398547E-6    8.968562229150010E-1   -4.370271035464605E-1
 3.490513958125623E8     8.969006298408463E-1   -4.452117499452204E-1    2.708271896328084E-6    6.369603271917881E-6   -1.138001895880672E-5    4.915721285336476E-6    8.904703222866306E-1   -4.495414451179054E-1
 3.590214356929212E8     8.914033549882374E-1   -4.576793264625876E-1   -1.886440387708383E-6    8.045180378442655E-6   -1.104151180582556E-5    4.921916879270526E-6    8.845226366639927E-1   -4.622111095665147E-1
 3.689914755732802E8     8.858678236590434E-1   -4.698118386146681E-1   -2.243633343426388E-6    1.000804305316531E-5   -4.883091301283388E-6   -1.122158385377478E-6    8.791036897870912E-1   -4.748448454294893E-1
 3.789615154536391E8     8.798095271616413E-1   -4.810748628053184E-1    4.626619852169449E-6   -2.024709910215724E-7   -1.143502271412805E-5    5.270934071979239E-6    8.738536311313833E-1   -4.868477133382321E-1
 3.889315553339980E8     8.741883114708640E-1   -4.917465865749701E-1    2.629143110066450E-7    2.886078029860301E-6    1.184286547371646E-5   -3.483531673051970E-6    8.680241818666153E-1   -4.988958785098341E-1
 3.989015952143569E8     8.675259567430579E-1   -5.025009103098333E-1   -4.397310181902128E-6    4.572802885570713E-6   -2.135267143516562E-6   -3.959106619593247E-6    8.611409174040783E-1   -5.097430151546154E-1
 4.088716350947158E8     8.602304420821564E-1   -5.132852489528404E-1    5.818707016938450E-6   -5.794584808238895E-6   -1.976984232705644E-6   -2.853209543229828E-6    8.542586257747335E-1   -5.207456896112134E-1
 4.188416749750748E8     8.533530465044584E-1   -5.248574746236012E-1    6.254839965820812E-7    8.165210872309318E-6   -4.743135065357865E-6   -1.013076716259889E-5    8.476682652890940E-1   -5.315782588374678E-1
 4.288117148554337E8     8.461257233571780E-1   -5.365585516667315E-1   -1.327863745881246E-5    2.588653165771537E-6   -7.040172680443747E-7   -1.601132019850052E-5    8.406066972990144E-1   -5.418758770935630E-1
 4.387817547357926E8     8.383744268741014E-1   -5.479703720813065E-1   -6.334686693461021E-6    9.330481788846789E-6    7.456374580606652E-6   -3.850963076586419E-6    8.327318366430326E-1   -5.523428851590573E-1
 4.487517946161516E8     8.305981439649793E-1   -5.598405957297263E-1    2.908634498267343E-6   -9.055274795648361E-6   -1.540000619699832E-5    7.816524847875314E-6    8.242448253500313E-1   -5.635382880785119E-1
 4.587218344965104E8     8.236383865198309E-1   -5.717147316264364E-1    5.347257130926423E-6   -8.477813258218286E-6   -8.958456811523590E-6    1.224962411692814E-5    8.159964807128582E-1   -5.752675699314906E-1
 4.686918743768694E8     8.170261224931734E-1   -5.831246594368860E-1    1.014163844912305E-5    1.598686842585749E-6   -2.371027093141875E-5    8.015548055440918E-6    8.078117442229652E-1   -5.868173581416560E-1
 4.786619142572283E8     8.099990484338504E-1   -5.939646589432270E-1   -3.175914241368995E-6    5.736753922214741E-7   -8.774375626673432E-6    5.509528714638695E-6    7.994186232599619E-1   -5.980631534308022E-1
 4.886319541375872E8     8.025346637052190E-1   -6.043568066851827E-1   -1.875114850657954E-6    2.638865902661900E-6    8.165493930933716E-6    4.491449972340486E-6    7.905774425834524E-1   -6.089509208047679E-1
 4.986019940179462E8     7.941086147115496E-1   -6.150624701661004E-1   -1.281847746637386E-5   -1.274982585710390E-6    4.895954552265880E-6    1.582090250374925E-5    7.824077366291554E-1   -6.197674176175761E-1
 5.085720338983051E8     7.857770183433374E-1   -6.242456372063322E-1   -2.231515998344951E-6   -2.148627773548532E-5    1.356801590007290E-5   -1.007329870741873E-5    7.746179350391191E-1   -6.302832223077125E-1
 5.185420737786640E8     7.784660573836850E-1   -6.332968635212224E-1   -6.450020958648029E-6   -2.738345562317203E-7    1.337307135164892E-5   -1.311923134944086E-5    7.670526030223358E-1   -6.401153625634028E-1
 5.285121136590229E8     7.701653772083684E-1   -6.428529877035900E-1    1.744661698829724E-6    1.018204916048258E-5   -8.797835701283068E-7    1.226036480555990E-5    7.589998388702337E-1   -6.497910969563564E-1
 5.384821535393819E8     7.616696017267318E-1   -6.529877393321850E-1    8.467959218917470E-6    3.904601837463835E-6    1.005583687643731E-5   -5.026010953173032E-6    7.509897694985734E-1   -6.594653847044623E-1
 5.484521934197408E8     7.533441280041108E-1   -6.635765160792532E-1    2.768252750304939E-6   -4.176387013346938E-6    4.764315511835653E-6   -1.300505523319675E-5    7.424334297745014E-1   -6.692615273416249E-1
 5.584222333000997E8     7.447757768250793E-1   -6.744526468616108E-1   -2.888450826930226E-6   -2.458738091301095E-6   -1.492195591466380E-5    5.084957532680021E-6    7.333296097356643E-1   -6.792618370625750E-1
 5.683922731804587E8     7.357245136554942E-1   -6.848962828923253E-1   -7.488057270299795E-6   -1.548357348534078E-5    8.703367548873305E-6   -1.100157449514236E-6    7.231822574651271E-1   -6.892491710806450E-1
 5.783623130608176E8     7.265135850519293E-1   -6.948230785756004E-1   -6.850785986657414E-6   -1.109303348179074E-5   -1.239505871405732E-5   -7.049498996132995E-6    7.127295836186768E-1   -6.989635873063964E-1
 5.883323529411764E8     7.172640880111303E-1   -7.048402952207243E-1   -8.261612695635693E-6    1.111076416639783E-6    5.492886266842229E-6    1.114197405657195E-6    7.022364061485615E-1   -7.085908700176151E-1
 5.983023928215353E8     7.080272062879588E-1   -7.149341406773003E-1   -1.214841486059976E-5    3.804503355472603E-6   -1.374157846145147E-5   -1.468657598047257E-5    6.918484456700940E-1   -7.182625569980945E-1
 6.082724327018943E8     6.985541848808550E-1   -7.245911964098783E-1    7.148765033667443E-6    2.607127058557441E-6    5.971924527018080E-6   -5.556742221923400E-6    6.817402527915044E-1   -7.277099323293252E-1
 6.182424725822532E8     6.888581454099778E-1   -7.343278706529669E-1   -6.379348591506666E-6   -2.459141555148819E-7    2.372756354275712E-7    1.455768695642567E-5    6.718353058257089E-1   -7.371441954934232E-1
 6.282125124626122E8     6.783008411178362E-1   -7.437377178244513E-1    7.329780237315222E-6    5.451671313090761E-6    9.759281495863888E-7   -3.832297099917085E-6    6.628570358464047E-1   -7.466632490816144E-1
 6.381825523429711E8     6.685653495540175E-1   -7.508505602499788E-1   -5.522297130936427E-6    5.127345236065999E-6    2.021363373913407E-5   -1.601390687595391E-6    6.538818005784459E-1   -7.555230330281936E-1
 6.481525922233300E8     6.596100217998045E-1   -7.595373167624699E-1   -8.830275284521100E-6    2.765903899918332E-6    7.098003242590246E-6   -5.938245110548292E-6    6.446312053256453E-1   -7.640017604539184E-1
 6.581226321036890E8     6.499677759772695E-1   -7.683528414989804E-1    4.977504439863182E-6    3.308280752154134E-6   -7.782049389228248E-7    2.465565513643238E-6    6.347013080890808E-1   -7.724171243372673E-1
 6.680926719840479E8     6.399169967801130E-1   -7.770631533900695E-1   -5.114104446726377E-6   -2.699875174632937E-6    4.178233233736704E-6    5.587863335529096E-6    6.240211081168918E-1   -7.803675105607611E-1
 6.780627118644068E8     6.302143949582866E-1   -7.852829778664846E-1   -5.123899128058585E-7    1.321235196809010E-5   -1.095743801301137E-5   -2.036589574101516E-6    6.130407831057817E-1   -7.882835867369153E-1
 6.880327517447658E8     6.197700005927436E-1   -7.935274571137572E-1    2.143548887165800E-6   -9.608044224841347E-6    4.718447317957967E-6    1.450171292323614E-5    6.017344227742092E-1   -7.958905543753505E-1
 6.980027916251246E8     6.087336045838121E-1   -8.017140431005433E-1    8.450046945614868E-6   -4.910324793945213E-6   -5.121298079950678E-6    6.479270419780155E-6    5.901205756435223E-1   -8.036146714865702E-1
 7.079728315054835E8     5.973183314769355E-1   -8.099822896198874E-1   -4.803174253842617E-6    7.600380894075679E-6   -9.799363628228501E-6   -1.535984027027712E-6    5.785884083676149E-1   -8.116051499610553E-1
 7.179428713858424E8     5.863006663837216E-1   -8.185661060876438E-1   -8.150194977126346E-6    1.263617988922608E-7   -6.770139210840082E-6    1.321131734356474E-5    5.673396767916514E-1   -8.199549298708317E-1
 7.279129112662014E8     5.752897979423872E-1   -8.269659399320300E-1   -3.289917131756262E-7   -6.420974663237718E-6   -4.176592213609724E-6    1.328709384878416E-5    5.559322308693554E-1   -8.286784202053337E-1
 7.378829511465603E8     5.640084215914123E-1   -8.356918241467395E-1    1.028700068920850E-6    4.919262190494988E-6    1.120636520126767E-5   -3.169681437293796E-6    5.447840168591428E-1   -8.369753426390250E-1
 7.478529910269192E8     5.519999028884746E-1   -8.441791867543894E-1   -1.035028423171590E-5   -2.462814479453912E-6    2.189884987234161E-6    9.829732269586058E-7    5.336025833207984E-1   -8.447348970518521E-1
 7.578230309072782E8     5.394462848818187E-1   -8.513686798868711E-1   -6.433564304710023E-6   -9.410573671175940E-6    9.832047566046096E-6    3.627767085451624E-6    5.225224461705065E-1   -8.517346785140071E-1
 7.677930707876371E8     5.290475851104364E-1   -8.567962929195879E-1    1.012598899234063E-5   -9.204089173211979E-6    3.587670861439557E-6    2.243730255616217E-6    5.112197643488325E-1   -8.580582726898665E-1
 7.777631106679960E8     5.194463319314752E-1   -8.637132407762090E-1    8.717194272925800E-6    1.580862903241413E-6    2.010114457493252E-5   -9.200855560883327E-6    4.996600976609083E-1   -8.646818904027305E-1
 7.877331505483550E8     5.090758273973877E-1   -8.706407009715613E-1   -3.854495603115173E-6   -1.221241166168297E-5    9.346533907371478E-6    3.141818367774686E-6    4.879166589404090E-1   -8.714206473470620E-1
 7.977031904287138E8     4.979449721628220E-1   -8.770399422923942E-1    1.021788058140259E-5    2.560127379961214E-6   -7.180985989346933E-7    7.296162158736044E-6    4.751439915443836E-1   -8.779466745074497E-1
 8.076732303090727E8     4.861697131301101E-1   -8.828213746375604E-1    6.899220605385553E-6   -4.410663727867200E-6   -1.522427996483894E-5   -6.362915997310781E-6    4.622191678262749E-1   -8.840413496121970E-1
 8.176432701894317E8     4.741673715939820E-1   -8.889477194721873E-1    6.860410716417008E-7    8.058412450335898E-6   -1.414777485343209E-5   -2.716096217063483E-5    4.493467440350490E-1   -8.901700430206017E-1
 8.276133100697906E8     4.619238420607026E-1   -8.953979048349686E-1    7.503348203255154E-6    7.541656044988519E-6    1.503334251677316E-6   -2.766425379258967E-6    4.368765910177058E-1   -8.969951869927595E-1
 8.375833499501495E8     4.493602598235041E-1   -9.017946269684688E-1   -9.009267609094809E-6   -3.290496914801454E-6   -2.844630252932869E-6   -4.503248637474100E-6    4.246511355818711E-1   -9.036845413930220E-1
 8.475533898305085E8     4.365058566259285E-1   -9.081918841858518E-1    1.683111673933967E-6    5.484585067713964E-6    7.765057428842048E-6    9.407717855578937E-7    4.128652096246695E-1   -9.097661212015479E-1
 8.575234297108674E8     4.237437377965638E-1   -9.146345515189869E-1   -7.085323606397938E-6    1.021836479582487E-5   -2.415222640388348E-6    2.332805476647582E-6    4.010864709270681E-1   -9.150294705029968E-1
 8.674934695912263E8     4.108804474910924E-1   -9.212654808548649E-1    2.727788605861191E-6    8.368760616880590E-6    5.503822734265375E-6   -2.593223913431199E-6    3.889824327461165E-1   -9.198776536360149E-1
 8.774635094715853E8     3.978004432326621E-1   -9.278568244036816E-1   -4.644539706783413E-6   -7.236912844303045E-6    5.060211958848516E-6   -6.309166458942865E-6    3.763216235257130E-1   -9.245618349453298E-1
 8.874335493519442E8     3.847098858617177E-1   -9.324651746852367E-1    1.497406771506900E-5    1.134549612720298E-5    4.560120529067336E-6   -5.601074171752157E-6    3.632142096394566E-1   -9.289810401221293E-1
 8.974035892323031E8     3.734036195644583E-1   -9.362044425137103E-1    1.561169868506950E-6   -1.608490502393085E-8   -1.957023494528780E-6   -1.188805818475770E-5    3.497269732267300E-1   -9.333976641596411E-1
