#  HZ   S   RI   R     50.00 
! Rohde & Schwarz Vector Network Analyzer 
! Rohde-Schwarz,ZNB20-2Port,1311601062102128,3.60
! Created: UTC 4/29/2024, 3:48:37 PM
! freq[Hz]                re:S11                  im:S11                  re:S21                  im:S21                  re:S12                  im:S12                  re:S22                  im:S22
 1.000000000000000E5     9.959832504994367E-1    4.595064752492609E-3   -1.103715573954226E-4   -9.644457369626294E-5    3.726092044934742E-5    1.008213901523767E-4    1.010775027869274      -1.105723923639772E-2
 1.007003988035892E7     9.980854377226865E-1   -1.395418599737427E-2    4.753006108535347E-6    1.408802836479042E-6   -2.389892157696611E-6    5.014636374444737E-7    9.959223211299414E-1   -1.477642379564420E-2
 2.004007976071785E7     1.000088775997586      -2.717464681615456E-2    1.410499519921171E-5    7.559415748322420E-6   -8.710940643768236E-6    2.362836529660640E-5    9.988151987768989E-1   -2.757935342537505E-2
 3.001011964107677E7     9.980230394147002E-1   -4.100739177866111E-2   -7.084441521410498E-7   -2.995755749015871E-6    9.244001712468063E-6   -9.641543086306203E-6    9.973722607592101E-1   -4.205279372925695E-2
 3.998015952143569E7     9.975475132058087E-1   -5.304228707904190E-2    2.387001708777742E-5   -4.200032933010421E-6   -3.792417140174946E-6    1.030893771957557E-5    9.977030187993381E-1   -5.680513133151498E-2
 4.995019940179461E7     9.957704790054436E-1   -6.592081336744932E-2   -4.622993151757179E-6   -7.398216641837031E-6    8.324116106635123E-6   -1.988520317404815E-6    9.966636176334016E-1   -6.923870393190908E-2
 5.992023928215354E7     9.940310884321498E-1   -7.871828662262441E-2   -2.127236190664314E-5    3.776495324855207E-6    1.492155861791429E-5   -1.308980637549765E-5    9.946106940134908E-1   -8.211217896011454E-2
 6.989027916251247E7     9.930568008979881E-1   -9.177355043808214E-2   -5.006223368240305E-6   -4.961872577273182E-6   -8.926869893485238E-6   -4.098503093405295E-6    9.934225490467317E-1   -9.494802524451100E-2
 7.986031904287139E7     9.925440521909360E-1   -1.050662290831217E-1    9.747595457988547E-6    1.174821709776604E-5    6.836775257842042E-6   -7.412763683419282E-6    9.922800777217673E-1   -1.081603904102087E-1
 8.983035892323031E7     9.916081948982108E-1   -1.186747410131411E-1    2.092573364931834E-6    1.599511927008713E-6    2.078929443406070E-8    9.813132992304824E-7    9.907979429745178E-1   -1.212778604310185E-1
 9.980039880358922E7     9.892222736583626E-1   -1.323022222886707E-1    6.226696867439881E-6   -9.449505797730430E-7    7.325949451151498E-6    3.328789276254475E-6    9.887156617090416E-1   -1.346026944693469E-1
 1.097704386839482E8     9.862615479117034E-1   -1.453556203961543E-1   -8.116662562437388E-7    6.270840889967438E-6   -1.501920400852465E-5   -9.910503159749563E-7    9.860128331150652E-1   -1.480117921116087E-1
 1.197404785643071E8     9.847084482330644E-1   -1.588193420645770E-1   -1.178287629304357E-6    9.698600249410875E-6    4.126314389180203E-6    1.530519356510612E-5    9.842058719903468E-1   -1.613200657946568E-1
 1.297105184446660E8     9.829874724451948E-1   -1.716744444692289E-1   -5.247941476041809E-6    5.429201564824218E-6   -3.417140654881528E-6   -8.227202236496646E-6    9.828551913415456E-1   -1.745521592380856E-1
 1.396805583250249E8     9.816282475489323E-1   -1.845752518969368E-1   -2.431148519502913E-6    2.311899116490384E-5    4.643305825192135E-6   -4.353991411554167E-6    9.809649929348722E-1   -1.876100656128205E-1
 1.496505982053838E8     9.788028296350126E-1   -1.969566200573713E-1    1.563033144783462E-5   -6.508928769359103E-6    1.013521839467584E-5    1.142888022652470E-5    9.784771066921014E-1   -2.004475347072860E-1
 1.596206380857428E8     9.760837308399857E-1   -2.094348562048662E-1    1.157400972483931E-5   -1.510443843000221E-5    5.409920494861016E-6   -1.164309155600258E-5    9.757347577048461E-1   -2.134250216502753E-1
 1.695906779661017E8     9.731382488915401E-1   -2.222107275402624E-1    2.994207346284607E-6   -1.972151683741096E-6   -9.922043134252354E-6   -3.678790689242957E-6    9.729446326021736E-1   -2.262521574777331E-1
 1.795607178464606E8     9.707255912458262E-1   -2.346771445871088E-1   -7.693830104331939E-6    2.568599921183593E-6    1.432305500122468E-5   -3.527787390853913E-6    9.702157988190264E-1   -2.381868780368032E-1
 1.895307577268195E8     9.675594096640429E-1   -2.468608124190940E-1   -1.011689960460416E-5    2.147541183667517E-5    1.101379969545252E-5   -1.253424945317136E-6    9.668342714333976E-1   -2.506032833592704E-1
 1.995007976071784E8     9.636731458527856E-1   -2.593885098876134E-1   -7.711659982329581E-6   -1.361159944787353E-5    4.312565761461195E-6    2.275092952802982E-5    9.627268109256988E-1   -2.632487790092184E-1
 2.094708374875374E8     9.604423811808849E-1   -2.722489276255186E-1   -1.234727942483444E-5   -6.245339760115923E-6    2.555034815921939E-7   -6.852202184413026E-6    9.589538951277896E-1   -2.763067002223240E-1
 2.194408773678963E8     9.573227124583585E-1   -2.850074233612454E-1    9.199209301475563E-6   -4.706494009037280E-6   -1.599120811775788E-5   -6.811431026092031E-6    9.551282522123045E-1   -2.892848153248734E-1
 2.294109172482552E8     9.535569866649790E-1   -2.972826289537251E-1    9.411331230716141E-6   -9.795105188245702E-6    1.221585109853277E-5    6.646343559101550E-6    9.508415835639158E-1   -3.018755575608580E-1
 2.393809571286142E8     9.504819880747215E-1   -3.094162397846749E-1   -1.667972478409634E-6    6.048861577530413E-6    2.125964011819920E-6   -3.156849456433383E-6    9.471547336438357E-1   -3.141362538575833E-1
 2.493509970089731E8     9.468369138583077E-1   -3.232025135695515E-1   -6.459605369400746E-6   -9.189564333012476E-6   -6.367309760497009E-6    3.783117661218907E-6    9.440944488555707E-1   -3.278193835473486E-1
 2.593210368893320E8     9.426286072376860E-1   -3.352144617069131E-1    2.236114157097218E-7    2.060518851694048E-5    4.666803482925675E-6   -3.051006895142369E-6    9.398073790067676E-1   -3.409366162017362E-1
 2.692910767696909E8     9.384362654528420E-1   -3.466035481513458E-1   -1.597477625914195E-5    2.473461006514833E-6    7.196455040345392E-7    1.623899018371901E-5    9.355869423803377E-1   -3.529656346032300E-1
 2.792611166500499E8     9.337138997257927E-1   -3.581940577846299E-1   -1.354476740627852E-5    1.247974728567787E-5   -8.806654976347374E-6    2.211440339752454E-7    9.309852928387226E-1   -3.646872170767285E-1
 2.892311565304088E8     9.290386688408939E-1   -3.702371511731125E-1   -4.570111593894884E-6    4.287476894844108E-6    1.398878850089403E-5    2.778254439873972E-6    9.261086516083559E-1   -3.768443220981656E-1
 2.992011964107677E8     9.241182712634880E-1   -3.824115974377098E-1    4.078063321533710E-6   -7.701357639529650E-6    1.553117296921498E-5    7.085914191823194E-6    9.212114065027099E-1   -3.886509037452049E-1
 3.091712362911266E8     9.188053721675092E-1   -3.946433457533783E-1    1.591242455565183E-6   -6.133124082060022E-6   -7.924002028532450E-6    1.260841892314970E-5    9.158528054665008E-1   -4.002506960373278E-1
 3.191412761714855E8     9.133196477850188E-1   -4.070667716961724E-1   -8.928962639422641E-6   -9.325607940389288E-6    1.568980712376225E-7    1.036504249487383E-5    9.098076137709841E-1   -4.120323818298950E-1
 3.291113160518445E8     9.077534462951639E-1   -4.197454144020272E-1   -3.551117837207610E-6    6.984097430869611E-6    7.053222058110641E-6    7.978629772402339E-6    9.033003696879280E-1   -4.243803570148008E-1
 3.390813559322034E8     9.021338704488071E-1   -4.327183211270872E-1    1.892906775699142E-6   -9.032099967034165E-6   -3.335850908205481E-7   -3.408525787804731E-6    8.967867752741250E-1   -4.369054359417644E-1
 3.490513958125623E8     8.967812901246610E-1   -4.452232042176612E-1    1.076589830226123E-5    3.059865927775051E-6   -5.484011584674225E-6    1.652453412971929E-5    8.904701471941701E-1   -4.494293830879758E-1
 3.590214356929212E8     8.913487275048168E-1   -4.576083482981037E-1   -5.327286910517965E-6   -4.026437634285612E-6   -1.059252720925623E-5    3.099587878211669E-6    8.845506048446913E-1   -4.622102950252283E-1
 3.689914755732802E8     8.860997181521781E-1   -4.698777923714931E-1   -5.191944459400110E-6    2.003176374686502E-7   -6.286458089223150E-6   -8.915329128854886E-6    8.791268531877834E-1   -4.748047982354673E-1
 3.789615154536391E8     8.799305628330600E-1   -4.810485310123638E-1    1.916104942759224E-5    9.973808162685453E-7    7.996021339302918E-7   -3.144494735099534E-6    8.737421221673560E-1   -4.868372528772253E-1
 3.889315553339980E8     8.742717279226087E-1   -4.917700127288043E-1   -7.877143586321382E-6   -6.860104898016038E-7    1.256762118275079E-5   -3.700872469623813E-7    8.679008243670546E-1   -4.988482079255240E-1
 3.989015952143569E8     8.674627713798188E-1   -5.023450021535414E-1   -1.223186836923140E-5   -4.437293439746533E-7    4.857747502647146E-6   -5.455992773999534E-6    8.612242066021252E-1   -5.098212920155355E-1
 4.088716350947158E8     8.603164681934432E-1   -5.132902560865041E-1    1.109600401152770E-5    4.684803829312779E-6   -1.238858387983215E-5    2.932981827532880E-5    8.542338582173055E-1   -5.207364230348162E-1
 4.188416749750748E8     8.534037790580712E-1   -5.249014470478552E-1   -1.637433549707200E-5   -1.580133364633790E-5   -1.471470255436249E-5    1.845351411191279E-5    8.476472259003272E-1   -5.314334056558545E-1
 4.288117148554337E8     8.460994885603027E-1   -5.365790698730319E-1    7.585499687529022E-6    3.864302093178883E-6   -1.577641762039163E-5   -4.541107793108573E-6    8.406258704797456E-1   -5.418483909389581E-1
 4.387817547357926E8     8.382720623044312E-1   -5.479266261921274E-1   -1.501606878944910E-5   -2.721347630314920E-6    1.938499952004132E-5   -1.867604232797097E-5    8.326087798897187E-1   -5.523025920434399E-1
 4.487517946161516E8     8.305489558185567E-1   -5.598464492859755E-1    4.642606610658415E-6    1.078946732159936E-5   -1.245984019230398E-7    2.518013306079648E-6    8.241896383935891E-1   -5.634777143048958E-1
 4.587218344965104E8     8.237638735039391E-1   -5.717720530666266E-1    2.800593758612573E-6    3.543991096681982E-7    5.675317518199400E-6   -9.234558570799911E-6    8.160095696403276E-1   -5.753092491703078E-1
 4.686918743768694E8     8.171491950742013E-1   -5.831718158627216E-1   -2.811702638477963E-6    9.012530024298604E-8   -9.285709417522158E-6    1.088021902434185E-5    8.078836896174878E-1   -5.867990509895367E-1
 4.786619142572283E8     8.098833009490938E-1   -5.938345782621299E-1    1.767869090432021E-6   -2.913052931981118E-6   -4.417084157838024E-6   -8.488325617592052E-6    7.991819634702577E-1   -5.980111185208067E-1
 4.886319541375872E8     8.023617573172329E-1   -6.043224797636857E-1    3.515236753697901E-6   -4.120774885711740E-6   -2.509868928519946E-6   -1.483032331576917E-5    7.904894950219132E-1   -6.088366426405435E-1
 4.986019940179462E8     7.941796926202561E-1   -6.151185104072560E-1   -8.315415103992313E-6   -4.125563421516040E-6   -6.607701849727725E-6    1.529893850085498E-5    7.823470507480516E-1   -6.196971743609562E-1
 5.085720338983051E8     7.858631955321370E-1   -6.242923290082635E-1    7.424104462072581E-6   -1.330732497290267E-6    4.285926472495526E-6    6.828377448780757E-6    7.747911457072665E-1   -6.302231010533880E-1
 5.185420737786640E8     7.782714258204400E-1   -6.331841858164883E-1   -5.919492435537673E-6   -4.284203720104007E-6   -6.731645961812977E-6    6.940410809754227E-6    7.670195221893057E-1   -6.401501677132843E-1
 5.285121136590229E8     7.701330248265087E-1   -6.427841262168915E-1    7.218563437112960E-6   -1.535182673248582E-6   -4.704067285477812E-6    2.340524214730048E-5    7.589684982803533E-1   -6.496102485134492E-1
 5.384821535393819E8     7.615719393187299E-1   -6.530019463077374E-1   -5.635986364360645E-6   -1.939463082354784E-5   -5.887078117633754E-6    1.307423360069191E-5    7.510260890987965E-1   -6.593270786555060E-1
 5.484521934197408E8     7.534279359727026E-1   -6.635719450358043E-1    3.149011835169105E-6    7.913590190459726E-6    3.118199100900202E-6    7.892243273794718E-6    7.425431077433172E-1   -6.693536136632665E-1
 5.584222333000997E8     7.448344781023805E-1   -6.744908488453244E-1   -6.000644169971748E-6   -5.130761726549870E-7    2.035966031695354E-6    1.677081208464288E-5    7.334358692627759E-1   -6.793718672057659E-1
 5.683922731804587E8     7.357736589381034E-1   -6.849178276366854E-1   -2.121152185513335E-6   -2.228243893245783E-6   -8.605586191698263E-6   -6.271566807260124E-6    7.231220299656174E-1   -6.890514447536876E-1
 5.783623130608176E8     7.264108361841933E-1   -6.948805095113114E-1   -5.525772322544170E-6   -5.375448155448196E-6    4.218021912408471E-6    1.012226061665946E-5    7.125255900851076E-1   -6.988535565064012E-1
 5.883323529411764E8     7.172695498581330E-1   -7.049226707033762E-1   -2.885032911224437E-6   -4.514252095482869E-6   -1.572193410038134E-6   -5.574392796998547E-6    7.022687351182324E-1   -7.086123796810427E-1
 5.983023928215353E8     7.080057965722338E-1   -7.149492187203107E-1   -5.024493331054883E-6    5.816362219980874E-6    2.825745572062508E-7   -4.411336442070120E-6    6.920219422226862E-1   -7.183656874376795E-1
 6.082724327018943E8     6.986352413564310E-1   -7.246580732815034E-1   -1.285011176879661E-7    7.649150889904296E-7   -3.582561789949849E-6   -2.121121424247768E-6    6.817351565613297E-1   -7.276910467464234E-1
 6.182424725822532E8     6.888675102450623E-1   -7.343132884884807E-1   -1.032796077618335E-5   -1.217944220335043E-5   -5.512499092868095E-6   -7.304659975400209E-6    6.718385921615962E-1   -7.371071018546790E-1
 6.282125124626122E8     6.783235940881901E-1   -7.437375624364374E-1    9.645138220925479E-6   -1.416397285382171E-6   -2.880707479203100E-5    6.675320406480977E-6    6.627007439335231E-1   -7.465948282564585E-1
 6.381825523429711E8     6.685854850278602E-1   -7.508343326815694E-1   -1.305514912990638E-5    4.998183629708273E-6    8.967878993161422E-6   -7.760564961304503E-6    6.537996154159045E-1   -7.555295838806521E-1
 6.481525922233300E8     6.595691988478110E-1   -7.594572879214180E-1    5.293242610266310E-6    1.525481498297100E-6    1.377126278197300E-5    6.922017109196513E-6    6.447336258682924E-1   -7.640183033595488E-1
 6.581226321036890E8     6.498796614972574E-1   -7.684000039430725E-1   -1.905510233700583E-6   -7.268697644592320E-6   -7.800880784903531E-7    1.301356424735081E-5    6.346902500238200E-1   -7.723763170519892E-1
 6.680926719840479E8     6.399943608867108E-1   -7.770947546829725E-1   -1.629095396373519E-5   -3.227065650521090E-6   -6.053203626904137E-6   -1.794089036083125E-6    6.240411215600574E-1   -7.804079767480440E-1
 6.780627118644068E8     6.301535302231571E-1   -7.852242708222023E-1    5.617203800130619E-6   -8.242468197514611E-6    1.185643638163549E-5   -7.865247140617956E-6    6.130363436049245E-1   -7.883013759257897E-1
 6.880327517447658E8     6.197761294894638E-1   -7.935621445867207E-1    1.066044057769632E-6    1.491190458913119E-5    2.000610258101019E-5    1.707866863941147E-5    6.016860864408352E-1   -7.958942468449564E-1
 6.980027916251246E8     6.087729255069357E-1   -8.017146569171084E-1    1.167535441413673E-5   -7.614699081918140E-6   -5.532878226070784E-6   -8.236204386932941E-6    5.900992655383570E-1   -8.036302814618966E-1
 7.079728315054835E8     5.975401581773326E-1   -8.101133077357933E-1    8.076028116892066E-6    7.678081979899771E-7   -4.951426146357026E-6    2.150532024406473E-6    5.786072853848807E-1   -8.116258798182804E-1
 7.179428713858424E8     5.863402207678693E-1   -8.184810494518190E-1   -4.381890406785504E-7    7.926874902296491E-7    1.446590415854788E-5    1.298378123511022E-5    5.672816358388415E-1   -8.200682597356821E-1
 7.279129112662014E8     5.752273713954763E-1   -8.267845742444557E-1   -3.960635488113883E-6   -1.174592094481677E-5    5.423112042542069E-6    1.374980218802931E-5    5.560143723827380E-1   -8.286963127147472E-1
 7.378829511465603E8     5.640882874177160E-1   -8.357031620944047E-1   -2.524959734438754E-6    1.208196775691971E-5    2.104330380483157E-6   -2.405083787603811E-6    5.447812213164024E-1   -8.369666526906999E-1
 7.478529910269192E8     5.520859124672488E-1   -8.441734692627882E-1   -2.498676577684795E-5    2.866559277562948E-6    6.273299929351914E-6    9.757789413470717E-6    5.336276359789869E-1   -8.446810492618226E-1
 7.578230309072782E8     5.394812335077553E-1   -8.513679036850712E-1   -2.438993090365462E-5    4.680307066332044E-6    9.721910117305889E-6    4.244135010317121E-6    5.225926216639020E-1   -8.517598361607753E-1
 7.677930707876371E8     5.290301170424883E-1   -8.567881543377059E-1   -6.145762254615123E-7    2.059995933111691E-5    2.330497994925312E-5   -4.892843594897560E-6    5.112192333111477E-1   -8.581003452575139E-1
 7.777631106679960E8     5.194659456215613E-1   -8.637316473941665E-1   -2.527290419749914E-6   -9.246227667439176E-6   -3.940183925351531E-6    1.330180933432222E-5    4.995872579820845E-1   -8.646057965369722E-1
 7.877331505483550E8     5.091259381591754E-1   -8.706086414650924E-1    1.391234335644140E-6   -9.673764543183125E-6    9.465471681242165E-6   -2.912331720733810E-6    4.878573050930402E-1   -8.712974641223350E-1
 7.977031904287138E8     4.979308932886646E-1   -8.770563817147790E-1   -1.846236954119048E-6    2.700192957204838E-6    9.370227923726510E-6    9.685667653635330E-7    4.750879136873814E-1   -8.778917282118852E-1
 8.076732303090727E8     4.861758563902684E-1   -8.829112386829244E-1    6.517742292685094E-6   -3.093585867625323E-6    8.494247791610356E-7    3.108694240495864E-6    4.622717152238727E-1   -8.839651313436189E-1
 8.176432701894317E8     4.742776508919151E-1   -8.889284626612365E-1   -3.298232973085026E-6   -1.482134175469137E-5    9.143665155708091E-6    1.053449874638672E-5    4.493828303508778E-1   -8.902586773150031E-1
 8.276133100697906E8     4.619480154840774E-1   -8.953392096826164E-1    6.130995004264069E-6   -5.976468822487924E-6   -5.186327578325969E-8   -7.209059065478865E-6    4.367837215647777E-1   -8.969360961223484E-1
 8.375833499501495E8     4.493033006799754E-1   -9.018390037299121E-1    7.740481788437673E-7   -1.024300511337229E-5    2.839271479729320E-6   -1.286328116440118E-5    4.246971238208553E-1   -9.036859945410725E-1
 8.475533898305085E8     4.365727974818840E-1   -9.082068038195619E-1    3.601203631954306E-6   -6.163969435731781E-7    3.991295789156486E-6   -2.396711940674408E-6    4.127470121654976E-1   -9.096888960773971E-1
 8.575234297108674E8     4.236904384249193E-1   -9.144849484124200E-1    6.951850681982548E-7    1.355566499961505E-5    4.166912202115589E-6   -5.477713900972767E-6    4.010732565133617E-1   -9.150046503655247E-1
 8.674934695912263E8     4.108386742132082E-1   -9.212799176028230E-1    3.792355723343540E-6    2.185118017952124E-6    8.666383992124327E-6    6.560241137673292E-6    3.889459601020077E-1   -9.198383371394632E-1
 8.774635094715853E8     3.977522453404232E-1   -9.277932872321623E-1   -1.797969718088051E-6   -9.278418076154984E-6   -1.110778258064122E-5   -8.088621602587936E-6    3.763824423919769E-1   -9.245220011413662E-1
 8.874335493519442E8     3.846871263225554E-1   -9.324875248728711E-1   -9.940968280336707E-6    4.212470484031575E-6   -5.837231185559264E-6    3.844620028837517E-6    3.632217618167271E-1   -9.289316050160574E-1
 8.974035892323031E8     3.734567467893328E-1   -9.362311265904310E-1   -6.461566655861159E-6    4.567207368082059E-6    1.770259337652160E-6   -5.130120575613118E-6    3.497028278763807E-1   -9.333035655670455E-1
