#  HZ   S   RI   R     50.00 
! Rohde & Schwarz Vector Network Analyzer 
! Rohde-Schwarz,ZNB20-2Port,1311601062102128,3.60
! Created: UTC 4/29/2024, 3:48:40 PM
! freq[Hz]                re:S11                  im:S11                  re:S21                  im:S21                  re:S12                  im:S12                  re:S22                  im:S22
 1.000000000000000E5     9.963438820235997E-1    4.525969760241733E-3   -1.479824888132999E-5    1.072476647754682E-4   -7.350299679171342E-5   -3.586622268482387E-5    1.010959753879037      -1.111924999257444E-2
 1.007003988035892E7     9.973299558907788E-1   -1.390993300141752E-2    4.890822058576296E-6    1.264669194378445E-5    8.465487829773082E-6   -1.062251280913813E-5    9.956958872958529E-1   -1.451654166766769E-2
 2.004007976071785E7     9.998565900543142E-1   -2.717429350409581E-2    2.915311131113638E-7   -9.526514779538888E-6    3.543818958587016E-6   -2.297364752729931E-5    9.988185539582543E-1   -2.781085583034608E-2
 3.001011964107677E7     9.976733734793457E-1   -4.105436089728186E-2    8.083399958826616E-7   -1.866908985522217E-5    1.389403846823004E-5   -4.009003117735620E-6    9.975668019969565E-1   -4.201358044221596E-2
 3.998015952143569E7     9.977074697644235E-1   -5.296205569392234E-2    1.447173254543696E-5   -5.382177193417471E-6    1.164800170806533E-5    5.386706815071901E-6    9.976865539916714E-1   -5.680600294493239E-2
 4.995019940179461E7     9.961952639927669E-1   -6.592407560067894E-2   -7.892479926091058E-7   -7.085730915395607E-6   -3.142877185900471E-6    1.884263994284540E-5    9.965269071406473E-1   -6.917751506613856E-2
 5.992023928215354E7     9.942107959456550E-1   -7.865707496048320E-2    2.960448337899070E-5   -4.957538436752613E-6   -1.888771022956549E-8   -3.840002292128928E-6    9.947448366219286E-1   -8.206083804437768E-2
 6.989027916251247E7     9.929980382974830E-1   -9.159427603504081E-2    1.399676820476706E-5    2.005805455704878E-5    1.632719835516383E-6   -3.615674207944590E-6    9.934294704848787E-1   -9.487181129413678E-2
 7.986031904287139E7     9.923056152188958E-1   -1.051223024574693E-1   -6.607528710621702E-7    2.109454745058003E-6   -4.715116919083135E-6    8.916503433952758E-6    9.923311744354877E-1   -1.081412505161327E-1
 8.983035892323031E7     9.913263283476204E-1   -1.186517991299744E-1    5.296307863305983E-6    1.644666187339537E-5    1.492313984602376E-5    1.298180267982963E-5    9.908212394231524E-1   -1.212832006752124E-1
 9.980039880358922E7     9.892216065205756E-1   -1.322707682993799E-1    4.785979020083448E-6   -9.803541148011505E-6    1.577984254204987E-6   -2.063035318094383E-6    9.885563309227232E-1   -1.346761975759827E-1
 1.097704386839482E8     9.866101222512798E-1   -1.453960424353470E-1   -4.026324502318044E-6    1.050650557161285E-5   -9.851237217185889E-6   -1.269171655179448E-5    9.860201223608616E-1   -1.479586675699181E-1
 1.197404785643071E8     9.848288676747110E-1   -1.588014042354113E-1   -1.952048192303931E-5   -1.759754304144987E-7   -2.743602365102661E-6   -9.937585484780754E-6    9.844203221311192E-1   -1.612475032165421E-1
 1.297105184446660E8     9.830130998630354E-1   -1.716297676784202E-1   -3.027071491789781E-6   -1.487589652309811E-7   -6.966715362553501E-6   -1.111950669702917E-5    9.828018963560000E-1   -1.745770924517682E-1
 1.396805583250249E8     9.815269708951918E-1   -1.845487105938748E-1    4.259179474268630E-6    6.726149242166608E-6    6.355754500495522E-6    4.480229998913364E-6    9.809590618185803E-1   -1.876014617920884E-1
 1.496505982053838E8     9.790064884920490E-1   -1.969989399972093E-1   -1.716175530522586E-5   -4.271592807251785E-7    9.401684681217765E-6    1.662590832258730E-5    9.784864879605171E-1   -2.003856581023341E-1
 1.596206380857428E8     9.761432140897033E-1   -2.093669199198556E-1   -9.696470245212483E-6   -3.215120500639423E-6    8.487016390587572E-6   -4.794449335803781E-6    9.757466678685141E-1   -2.133109453410852E-1
 1.695906779661017E8     9.731820099360436E-1   -2.221627813591555E-1    9.071144849529622E-6    8.958277071050498E-7   -5.088909883658008E-6   -5.611024861449463E-6    9.729145617119286E-1   -2.261585354863496E-1
 1.795607178464606E8     9.706044342050059E-1   -2.345946189306451E-1   -3.826212967656739E-6   -4.815329745969234E-6   -3.946223346650208E-6   -1.167950259339486E-5    9.701878271291564E-1   -2.381495421722568E-1
 1.895307577268195E8     9.677711075060099E-1   -2.468062003180901E-1   -4.173042589412162E-6   -1.812070081758864E-6    6.902729349157975E-6   -1.971994651293341E-5    9.667082871909727E-1   -2.506796015138672E-1
 1.995007976071784E8     9.639804923862269E-1   -2.593944578445321E-1    4.206060985758779E-6    5.921010699038752E-6    1.410705349319891E-5    1.304266325476506E-5    9.627173690763443E-1   -2.632456203803845E-1
 2.094708374875374E8     9.603351108165183E-1   -2.721412256347636E-1    5.148659875564252E-6   -2.688874270952577E-6   -5.757695419258600E-6   -6.395081742141731E-6    9.588238387819161E-1   -2.762847946472043E-1
 2.194408773678963E8     9.571293295812207E-1   -2.848849584318784E-1   -2.522163396524400E-6    5.492210584532493E-6    7.657063098490928E-6    2.177771474363528E-5    9.550267396095417E-1   -2.891923117176921E-1
 2.294109172482552E8     9.536950051947303E-1   -2.972258926241673E-1    1.070391146502001E-5   -2.494336837975829E-5   -1.197065626814131E-5    1.452507362229495E-6    9.509290628942578E-1   -3.018386748345224E-1
 2.393809571286142E8     9.506050677206159E-1   -3.093438158630163E-1    4.438674546628182E-6    1.964846775773268E-5    1.786822932999029E-5   -1.000616658068766E-5    9.469882932329592E-1   -3.141545401531708E-1
 2.493509970089731E8     9.467651270925181E-1   -3.230063457181012E-1   -1.011861778420971E-5   -3.471246408980805E-6   -6.248036088166759E-6   -1.913904617167871E-6    9.440892718104098E-1   -3.277415562938916E-1
 2.593210368893320E8     9.425753479922010E-1   -3.351075601437162E-1   -4.398149162793771E-6    1.501351669968712E-5    3.305652910996997E-6   -2.874547270306163E-5    9.396768871110122E-1   -3.409281168343625E-1
 2.692910767696909E8     9.385113075361873E-1   -3.465133076904499E-1    3.534904179001148E-6    8.107002164070610E-6   -1.950521895355618E-5   -2.920321257621967E-6    9.354313798798776E-1   -3.528672565960349E-1
 2.792611166500499E8     9.339143755854995E-1   -3.581811314910970E-1    8.011219649129519E-6    8.693811099325355E-6    1.307934510831115E-5   -2.055533586970601E-6    9.311200320955892E-1   -3.647563849277174E-1
 2.892311565304088E8     9.289119355343833E-1   -3.701699945530467E-1   -1.985301421732190E-6    4.337807383452215E-6   -1.075133283162716E-5    7.426457766877092E-6    9.262489358722832E-1   -3.768700244590887E-1
 2.992011964107677E8     9.240573660534283E-1   -3.823247395892251E-1   -6.622457248582702E-6   -1.525133243841233E-5    1.253703676748810E-5   -7.500142799538920E-6    9.210638593661534E-1   -3.886009666118052E-1
 3.091712362911266E8     9.189514075335729E-1   -3.946824034579258E-1   -5.996212996169943E-6   -6.709105788230450E-6   -1.087211532342154E-5    3.588881872822545E-7    9.156961789625697E-1   -4.001697823842360E-1
 3.191412761714855E8     9.133699947021244E-1   -4.070098648455240E-1    5.323329801790784E-6    1.691762246563200E-7   -2.302002144237611E-5    1.527223506043726E-5    9.097613985740896E-1   -4.119584177314645E-1
 3.291113160518445E8     9.076300867119202E-1   -4.197149396748197E-1   -2.195063345044965E-6   -7.867475860958776E-6   -1.069384831612365E-5    1.547525690845020E-5    9.034497984571531E-1   -4.243734290990779E-1
 3.390813559322034E8     9.020230743620902E-1   -4.325364656403485E-1    2.858825449591065E-6   -7.422863316580987E-6   -9.300728453973262E-6    1.427434079281208E-7    8.967072786456436E-1   -4.368477744620157E-1
 3.490513958125623E8     8.967147104804478E-1   -4.450623516105865E-1   -1.778595245360420E-5   -1.106965885855058E-5   -7.720982732398082E-6   -5.863637660224893E-7    8.903726893894693E-1   -4.493332937030651E-1
 3.590214356929212E8     8.912831933278702E-1   -4.576182109201383E-1   -8.480873556821997E-6   -2.385816437578424E-6   -5.514139198763988E-6    1.161835060628350E-5    8.844566103786572E-1   -4.621601846569157E-1
 3.689914755732802E8     8.860770480407508E-1   -4.698019498137688E-1    1.016714683642109E-6    1.295708131385550E-6    9.928979628457761E-6    8.425369911864708E-6    8.790362874273079E-1   -4.747693855811461E-1
 3.789615154536391E8     8.797549812836387E-1   -4.809578313650935E-1    9.441146183505484E-6    1.498713111362775E-6   -6.761450847135518E-6   -8.172163334283802E-6    8.737149469109302E-1   -4.868061928082515E-1
 3.889315553339980E8     8.741247663980412E-1   -4.916291413027592E-1    5.814708333164983E-6    2.645998278365449E-6    1.697877359914048E-5   -1.512123781041121E-5    8.680236579319101E-1   -4.987460277115134E-1
 3.989015952143569E8     8.675323586895363E-1   -5.024101705350781E-1   -1.542181927395210E-5    1.711814610328168E-5    1.738404853360554E-5   -9.187712907786748E-6    8.611100644928825E-1   -5.097076228399514E-1
 4.088716350947158E8     8.602671940873885E-1   -5.133155945831821E-1   -7.891903265936561E-6   -1.931724019856330E-6    1.554704135848667E-5    4.105548693505323E-6    8.543544377813347E-1   -5.206019401161474E-1
 4.188416749750748E8     8.533092124863449E-1   -5.248608517468729E-1   -1.429539023044901E-6    9.394681262731604E-6   -5.198065131916895E-6   -3.852781019700839E-8    8.476648325558311E-1   -5.315437916620237E-1
 4.288117148554337E8     8.460495966782502E-1   -5.364628478134551E-1   -9.708401354306629E-6    1.250871405703320E-7   -1.179532270908029E-5   -3.351874662245535E-6    8.406314602379419E-1   -5.417433472999499E-1
 4.387817547357926E8     8.382917267288834E-1   -5.479377239133612E-1   -1.224787251253248E-5    5.526587006828633E-6    8.201575822804462E-6    3.082858348359784E-5    8.325664241729128E-1   -5.522489278648733E-1
 4.487517946161516E8     8.306219597573227E-1   -5.598500416050999E-1   -3.752145894705783E-6   -9.785123302099317E-6    1.993894718157884E-5    2.730594239694777E-5    8.241324043519702E-1   -5.634392806009504E-1
 4.587218344965104E8     8.236963478759343E-1   -5.718188905958448E-1   -5.495030190230836E-7    5.324656231728992E-6    4.960538042159928E-6    2.714287336065192E-5    8.160916987454523E-1   -5.752779547053979E-1
 4.686918743768694E8     8.170611652075741E-1   -5.831499473572417E-1   -1.213578074220888E-5   -6.039274158234376E-6    1.438280537722386E-5    1.442049907993246E-5    8.078400189122756E-1   -5.867234872447205E-1
 4.786619142572283E8     8.098810974013637E-1   -5.938396206912153E-1   -5.618179641090876E-6    6.183994372702581E-6   -4.567666001577557E-6   -1.170915460958994E-5    7.993250826797722E-1   -5.980209832425838E-1
 4.886319541375872E8     8.023413590135425E-1   -6.043182074565372E-1    1.594022767598231E-5   -1.173646777216278E-6   -8.887219904171324E-6   -4.071583546877210E-6    7.904806758405862E-1   -6.088295337074555E-1
 4.986019940179462E8     7.942384297256500E-1   -6.150780524790327E-1    6.841425630480300E-8   -1.676712138463670E-5   -1.253341692229561E-5   -9.612174731697494E-7    7.822924426348795E-1   -6.197276993357863E-1
 5.085720338983051E8     7.857750091789141E-1   -6.241795183365019E-1    8.046231242469890E-7   -8.848326462861693E-7   -1.894250946468365E-5    3.898987662536674E-7    7.747016352476686E-1   -6.303108146799269E-1
 5.185420737786640E8     7.782988721572961E-1   -6.331827824776257E-1   -2.123599381093041E-6   -3.866499178043425E-6    3.022389937308624E-5   -9.238240861038735E-6    7.669264751628974E-1   -6.400632477667678E-1
 5.285121136590229E8     7.700759967925457E-1   -6.427526914680317E-1   -5.518229015646703E-6   -4.889988169381014E-6   -8.494255748165298E-6   -1.828190016377303E-5    7.589606899642011E-1   -6.496777803622805E-1
 5.384821535393819E8     7.615257267258257E-1   -6.529207886355538E-1    2.808570269949695E-6    6.312100185040206E-6   -9.308299554951582E-6   -2.864888779277803E-6    7.509652304167886E-1   -6.593197205262554E-1
 5.484521934197408E8     7.533298301536496E-1   -6.635529955383977E-1   -1.156389372538185E-5   -1.056474093576588E-5    1.269767069075858E-5   -2.683765331400428E-5    7.424856297552961E-1   -6.692498900064846E-1
 5.584222333000997E8     7.448099061551040E-1   -6.744375799161907E-1   -2.698154535944514E-6    3.737718171975863E-6   -2.292717481356010E-6    9.727120103024311E-8    7.333272118141791E-1   -6.791874965856507E-1
 5.683922731804587E8     7.356558627667726E-1   -6.847355328957389E-1    7.788374811188096E-6    1.221366542987091E-5   -5.818942729614016E-6   -5.461884319939752E-9    7.231915843667113E-1   -6.891063644585966E-1
 5.783623130608176E8     7.264607943493482E-1   -6.948214465509218E-1    9.683443046917206E-6    6.458488529645202E-6   -1.474831389212089E-5   -6.817899359838321E-6    7.126257394861644E-1   -6.989587002722092E-1
 5.883323529411764E8     7.173189130981756E-1   -7.048888808105389E-1   -1.049481214321006E-5    4.763665563251180E-6   -3.093877685425233E-6    8.885907117699553E-7    7.021421688444032E-1   -7.086174697987471E-1
 5.983023928215353E8     7.080805569372286E-1   -7.150096085016820E-1   -1.470651477523166E-5   -3.838996112684460E-6   -2.163498527478031E-5    1.711631155810664E-5    6.920185045508429E-1   -7.182258155843578E-1
 6.082724327018943E8     6.986341220757633E-1   -7.245316415029344E-1   -1.401364081005738E-6   -1.728685052475174E-5   -9.013959446773384E-6   -7.703104686967298E-6    6.817670388015622E-1   -7.276726636718136E-1
 6.182424725822532E8     6.886936306224172E-1   -7.341550043582278E-1   -1.023962466012460E-6    7.580259639044237E-6    1.641146184882009E-5    2.143942378051123E-5    6.718233181046631E-1   -7.370889195635851E-1
 6.282125124626122E8     6.783234585244584E-1   -7.436670058091639E-1    1.308014204292269E-5   -6.384104562026847E-6    1.541651197953833E-5    1.369739898019590E-6    6.627211107935529E-1   -7.466550455453909E-1
 6.381825523429711E8     6.686552313126066E-1   -7.509089040094473E-1    8.749172069623190E-6    4.087477834882297E-6   -9.171693376250368E-6   -1.153857841634912E-5    6.538029317974076E-1   -7.555076687884086E-1
 6.481525922233300E8     6.596583862029890E-1   -7.594026530434127E-1   -2.169614083432037E-6    2.715471368962825E-6   -1.269819079497618E-5    8.772797489906245E-6    6.447084524001387E-1   -7.639836555215769E-1
 6.581226321036890E8     6.496830973954469E-1   -7.681968692206741E-1   -3.265897282165800E-6   -1.678183900056663E-6   -3.053524022915588E-5   -1.215887426810746E-5    6.347492708658630E-1   -7.724051352566310E-1
 6.680926719840479E8     6.398107869448240E-1   -7.769446700663754E-1    7.378877462619555E-7    7.092050685260337E-6   -7.333446111643509E-6   -6.777154247329992E-6    6.240706687459804E-1   -7.803651145208057E-1
 6.780627118644068E8     6.301536080867964E-1   -7.852495234682874E-1    1.296394356913112E-5    1.019134465646406E-5   -9.358210009663323E-6   -6.050886214674816E-6    6.130155899509376E-1   -7.882316351285237E-1
 6.880327517447658E8     6.198643352175089E-1   -7.935859319106197E-1    8.170771994762507E-6    7.808909036805386E-6    8.925061527298363E-8    1.668993263624278E-6    6.016631515166019E-1   -7.958308054565961E-1
 6.980027916251246E8     6.088198873662074E-1   -8.016271855182768E-1   -1.588452409390501E-5    1.171154112859557E-5   -1.088310695499341E-5   -1.440883974663180E-5    5.901916097636599E-1   -8.036942639615925E-1
 7.079728315054835E8     5.973186032820792E-1   -8.098292532689904E-1   -9.506829953688546E-7   -9.852445730086278E-6    7.324232625248264E-6    7.117459451993239E-6    5.786284851062783E-1   -8.115670470368085E-1
 7.179428713858424E8     5.861540018911060E-1   -8.183596313354690E-1   -1.089936567461104E-5    2.700493087791742E-6   -9.521035405995494E-6    1.379121016148901E-5    5.672701202900265E-1   -8.199745422276418E-1
 7.279129112662014E8     5.753520697963180E-1   -8.269793272034031E-1   -1.105514316274095E-6   -1.393716858402449E-5   -1.930873688727993E-5    7.064736620513066E-6    5.560308771948996E-1   -8.287420382046263E-1
 7.378829511465603E8     5.640517036478832E-1   -8.356765237863092E-1    5.252383399688020E-6    8.510681561178949E-7   -1.419329067162206E-5   -2.807677379689570E-6    5.447366050729499E-1   -8.370349650711031E-1
 7.478529910269192E8     5.519320599519673E-1   -8.440554839927410E-1   -1.395853455152300E-5   -2.064625004493316E-6    1.215097120170722E-5   -8.683354569469158E-6    5.335671775325076E-1   -8.447182475907131E-1
 7.578230309072782E8     5.393378334490806E-1   -8.512385734431752E-1   -8.098644675146575E-6    3.508179217225240E-6   -2.176471439896077E-5    1.085229599033315E-5    5.224741235381813E-1   -8.516190400361556E-1
 7.677930707876371E8     5.289807774883151E-1   -8.567386775792128E-1    6.003278003630467E-6   -4.406089478274636E-6   -4.877641319275246E-9    1.623654763448004E-5    5.112392133694966E-1   -8.580433411317356E-1
 7.777631106679960E8     5.194438067824602E-1   -8.637476007942998E-1    8.424637764399627E-7    6.499447417412826E-6   -2.180688170066883E-5   -2.185546946467193E-5    4.997667547124800E-1   -8.646448328746796E-1
 7.877331505483550E8     5.091146473798627E-1   -8.706514032397713E-1    1.207549034469799E-5    1.636746800702390E-5   -1.251342458685721E-5   -1.504872202137775E-5    4.878336109332502E-1   -8.713614218651239E-1
 7.977031904287138E8     4.978446232556536E-1   -8.768816383824779E-1    8.533093898533678E-6   -8.678235674991393E-6   -7.867736105597295E-6    1.344143147095252E-6    4.751018759746593E-1   -8.778967148866698E-1
 8.076732303090727E8     4.860608961647312E-1   -8.826925357896349E-1    4.711903708155238E-6   -1.187317773220645E-5    4.131474173513240E-6    1.540765826929293E-5    4.621642670842120E-1   -8.839416411072631E-1
 8.176432701894317E8     4.742243255076014E-1   -8.888933988566868E-1   -7.002140118843134E-6   -7.202621713897247E-6    1.171312995999626E-5    2.262669559126583E-7    4.493691536044284E-1   -8.902224195920657E-1
 8.276133100697906E8     4.619433214796790E-1   -8.953141616136514E-1   -1.081419732897567E-6    1.167600220642278E-5   -4.700984008181255E-6   -1.074912031017713E-5    4.368140787448544E-1   -8.970877184053387E-1
 8.375833499501495E8     4.493669160463320E-1   -9.017597828469153E-1    3.042703964995464E-6    3.349080664904968E-6    2.790376143285508E-6   -9.674289800263250E-6    4.246229414301568E-1   -9.037914328139701E-1
 8.475533898305085E8     4.364503443713051E-1   -9.080312805933762E-1    3.481037119340984E-6    1.850877508135546E-6   -1.279307590245405E-6    4.188537168252740E-6    4.127961544035233E-1   -9.097081432999408E-1
 8.575234297108674E8     4.236091219403582E-1   -9.144360611691604E-1    4.263315809757649E-6    9.515481531804429E-6   -4.196360153453292E-7    9.208992292366047E-6    4.009894647508144E-1   -9.148973904353596E-1
 8.674934695912263E8     4.108832173189880E-1   -9.211808936076487E-1   -1.126916919489438E-5   -2.069922762882160E-5   -1.627126939495017E-5   -1.087733676364587E-6    3.889881200881722E-1   -9.198305485128567E-1
 8.774635094715853E8     3.978360767569010E-1   -9.278467149309738E-1   -8.938006793843701E-6    4.676859255187696E-6   -4.284736759847250E-7   -1.026399806783253E-5    3.763137973453234E-1   -9.245374722820617E-1
 8.874335493519442E8     3.846499855412749E-1   -9.323085903183694E-1    4.863115214803265E-6    9.879533313493238E-6    6.770597640284715E-6   -1.266749382948787E-6    3.632515393191158E-1   -9.290683829569425E-1
 8.974035892323031E8     3.733214300286870E-1   -9.359180348697096E-1    4.476638326693382E-6    4.844123243095358E-6    6.924059365645534E-6    1.708347240663520E-5    3.495784399275540E-1   -9.332712379196546E-1
