#  HZ   S   RI   R     50.00 
! Rohde & Schwarz Vector Network Analyzer 
! Rohde-Schwarz,ZNB20-2Port,1311601062102128,3.60
! Created: UTC 4/29/2024, 3:50:03 PM
! freq[Hz]                re:S11                  im:S11                  re:S21                  im:S21                  re:S12                  im:S12                  re:S22                  im:S22
 1.000000000000000E5     9.963784554974501E-1    4.633125169412580E-3    1.646028643913246E-5   -1.423518101869538E-4    9.952915883453975E-5    9.659923063679615E-5    1.010855729097531      -1.100243473635713E-2
 1.007003988035892E7     9.975731477006574E-1   -1.402583827167034E-2    9.241984781317126E-6    3.154335113358959E-6   -8.272998458723906E-6    1.169482496561640E-5    9.957556733237513E-1   -1.447364169390971E-2
 2.004007976071785E7     9.998022133406855E-1   -2.730468853715635E-2   -1.351770375919100E-5    2.618708482743501E-5    2.463475810795543E-5    1.508376162222105E-5    9.988592200365897E-1   -2.777684718824268E-2
 3.001011964107677E7     9.977562694936639E-1   -4.112484849547874E-2   -3.073074422438606E-6   -8.820556622918507E-6   -8.060209781546973E-6    1.540909904563799E-6    9.975930670215469E-1   -4.209852951658170E-2
 3.998015952143569E7     9.976433833675576E-1   -5.297608499913390E-2    6.952118238112637E-6    1.221188534851490E-5    5.327585473960878E-6   -2.139532585455269E-5    9.976640411380030E-1   -5.680442613895666E-2
 4.995019940179461E7     9.959548053206339E-1   -6.586253571474737E-2    8.883714306617105E-6    2.108581933747722E-5   -1.087302207976142E-5    1.146210624334664E-5    9.964954052873418E-1   -6.926069351382425E-2
 5.992023928215354E7     9.941315295547153E-1   -7.882178710966541E-2   -1.491078820707152E-5    7.763332264380201E-6   -7.917332040415227E-6    1.248454977645107E-5    9.946286844346047E-1   -8.206910599850384E-2
 6.989027916251247E7     9.929325741061884E-1   -9.177528695503688E-2    2.100758849258366E-6    1.745764536398803E-6    1.186535045072219E-5    7.032488260199737E-6    9.934613309082957E-1   -9.494012692563289E-2
 7.986031904287139E7     9.923623294192518E-1   -1.051365062175935E-1   -2.025271013947537E-5    1.959300547534298E-6   -3.547506007851589E-6   -2.635419339718906E-5    9.923497869386747E-1   -1.080790984212599E-1
 8.983035892323031E7     9.913406954297469E-1   -1.186476870501374E-1    1.069576618578137E-5    4.619105317439780E-6    1.751060146839452E-6   -1.212231855602954E-5    9.907584830719900E-1   -1.212870474871019E-1
 9.980039880358922E7     9.892061952428632E-1   -1.322512661278823E-1   -5.947816700722140E-6   -9.378837927840299E-6    2.823557533266132E-6    1.143091069233313E-5    9.885325792125934E-1   -1.346029445556952E-1
 1.097704386839482E8     9.863069870114012E-1   -1.453633977580935E-1    5.021030024805405E-6    7.697093096012647E-6    6.615744688293661E-6    1.657443973554250E-5    9.860581466393438E-1   -1.480336871223080E-1
 1.197404785643071E8     9.846717443709325E-1   -1.588018398314277E-1   -1.329515069593615E-5   -6.766582786911765E-6    3.222109390351930E-6    3.679237209591607E-6    9.844206258222378E-1   -1.612772636678068E-1
 1.297105184446660E8     9.830036949262386E-1   -1.716019070666755E-1   -1.570716796216581E-6    3.482409948683626E-6    3.622405761811108E-6    8.461960717804000E-6    9.827982823309753E-1   -1.744969852159835E-1
 1.396805583250249E8     9.815054017235766E-1   -1.844676486295130E-1   -8.815277570772242E-6   -1.821671214915726E-6   -1.729285575383307E-5    1.212078660407276E-6    9.808774579039578E-1   -1.877358986331311E-1
 1.496505982053838E8     9.788545524857872E-1   -1.969547621383638E-1    4.558792135018538E-6    5.004626037161147E-8   -7.261492747147051E-6    1.250783578433606E-5    9.784765369181998E-1   -2.004616110987930E-1
 1.596206380857428E8     9.761570676873882E-1   -2.094112810801055E-1   -7.919943116789349E-6    5.494569356210428E-7    8.393163837268717E-6    1.164790961020178E-6    9.758233884175287E-1   -2.133925429641368E-1
 1.695906779661017E8     9.730587261801029E-1   -2.222125060262155E-1   -3.233157610194112E-6   -8.466292367084379E-6    1.068669429647910E-5    1.338192109729855E-5    9.728724898725346E-1   -2.261530927304874E-1
 1.795607178464606E8     9.705899172272092E-1   -2.346301959922876E-1    8.711329980504468E-7    1.899324561306334E-6    1.147774116796064E-6    3.904049403857976E-6    9.701653497358069E-1   -2.380860951697629E-1
 1.895307577268195E8     9.677066877066073E-1   -2.468552055387394E-1   -2.166722785143194E-7    1.786871125258828E-6    7.954427076241453E-6   -5.985212996560920E-6    9.666904867145120E-1   -2.505724783709424E-1
 1.995007976071784E8     9.638923145040300E-1   -2.593152877520364E-1    1.064178813600422E-5   -1.081713468564119E-5   -1.449914098120416E-5    1.796657866503356E-5    9.628433094278465E-1   -2.633326037630102E-1
 2.094708374875374E8     9.603790144231813E-1   -2.721683777734309E-1    1.806716910499640E-5   -1.636174320384175E-5    6.049904516870103E-6   -8.553753607401239E-6    9.589433273221827E-1   -2.763845821028316E-1
 2.194408773678963E8     9.572050793497349E-1   -2.849136251000652E-1   -7.784727201752979E-6    4.630747544803875E-6    9.328005806676865E-6    1.182781731481551E-5    9.550203639876579E-1   -2.891484915120640E-1
 2.294109172482552E8     9.536592151359236E-1   -2.971710564510696E-1   -1.443578650679489E-5   -5.605413921193487E-6    7.183279637031743E-6   -1.136325171534821E-5    9.508680057009892E-1   -3.019422264478638E-1
 2.393809571286142E8     9.506369624267829E-1   -3.093542884806494E-1   -5.601371117000263E-7   -3.366209498502004E-6   -1.734076947827635E-5   -6.972241046720277E-6    9.469420656806786E-1   -3.141794182975601E-1
 2.493509970089731E8     9.466994610083959E-1   -3.230362136611095E-1    4.745678168401738E-6    2.243311675151407E-6    1.395671285949487E-5    1.381122535655391E-5    9.440646919643814E-1   -3.276990222246224E-1
 2.593210368893320E8     9.425303493088671E-1   -3.351157100934419E-1    9.334513785339295E-6   -5.778304831928177E-6    7.469816749466652E-8    2.848501941490841E-5    9.396943566287862E-1   -3.409515454741310E-1
 2.692910767696909E8     9.385912126601742E-1   -3.465220547212084E-1   -3.980779827411698E-7   -8.761304988841788E-8    6.073927056531002E-6   -1.217298077117164E-5    9.355100800635796E-1   -3.529661404875676E-1
 2.792611166500499E8     9.338557313761098E-1   -3.582014405610084E-1    4.750730263399591E-6   -3.081291272160703E-6   -2.107292850070521E-6    9.881053659859400E-6    9.310216168618591E-1   -3.647957744920619E-1
 2.892311565304088E8     9.288396216048911E-1   -3.701250362246601E-1    1.720139727316809E-5   -1.353358636027098E-5    1.663094823771005E-7   -1.510325112359812E-5    9.262931652101075E-1   -3.769068618671647E-1
 2.992011964107677E8     9.239717251779500E-1   -3.823205269387705E-1   -3.547260472645710E-6   -1.255443878895512E-7   -1.652924159488502E-5    1.029770276183433E-5    9.211261447407781E-1   -3.885928430102020E-1
 3.091712362911266E8     9.189915145793423E-1   -3.946177716482037E-1   -1.722825832247158E-5    5.376827219896606E-6    1.149236567092667E-5    3.598162559107704E-6    9.158242810146412E-1   -4.003101165253464E-1
 3.191412761714855E8     9.134651993714964E-1   -4.070255558260921E-1    7.128147126825459E-6    1.844745494300929E-6   -7.408993032969443E-6    2.838918760857592E-6    9.098041439556670E-1   -4.119798861413114E-1
 3.291113160518445E8     9.075211053712054E-1   -4.195883477641214E-1   -4.160203982122447E-6   -7.261098495269599E-6    2.342590959467036E-5   -1.920191409576023E-5    9.033990764270087E-1   -4.244618940835566E-1
 3.390813559322034E8     9.019127596016767E-1   -4.324442139415502E-1   -2.658718043979475E-6   -5.185405336306075E-6   -5.562175897748722E-6   -1.100888381848549E-5    8.967352897938101E-1   -4.369747605205305E-1
 3.490513958125623E8     8.967358978650088E-1   -4.451107784919468E-1   -4.042623745728270E-6    8.281856193737369E-6    2.377312863479632E-6    1.516752103054855E-5    8.903458307976668E-1   -4.493516261012269E-1
 3.590214356929212E8     8.914019526165604E-1   -4.576146741359979E-1   -1.121875516928627E-5    2.503918510293206E-6    3.833391938334224E-6   -3.826779430886193E-7    8.845856428039182E-1   -4.622498501892500E-1
 3.689914755732802E8     8.859768563589485E-1   -4.697991994850772E-1   -1.671000900220922E-5   -7.568770481859496E-6    2.124484826816392E-5   -5.778330252637150E-6    8.791134284402293E-1   -4.747734350394265E-1
 3.789615154536391E8     8.798174865918017E-1   -4.810407288942191E-1    4.823612615951035E-6    7.124028695591041E-6    1.126126166113527E-5   -7.924610898101869E-6    8.737604395876182E-1   -4.868986874801930E-1
 3.889315553339980E8     8.741260617922452E-1   -4.917207471056192E-1    4.876919479791415E-6   -4.635179728894179E-6    1.109836915366134E-5   -7.086363306983582E-6    8.679010327614493E-1   -4.988020251522330E-1
 3.989015952143569E8     8.675044044038992E-1   -5.024125095131053E-1   -1.748778661997716E-5    1.484307188382167E-5   -1.729651611870352E-5    6.317351105144564E-6    8.612673955796245E-1   -5.096941603667906E-1
 4.088716350947158E8     8.602318707274658E-1   -5.131950346618140E-1    5.555999818796550E-6    1.302544051422679E-5    4.896258477041412E-6   -1.397442667026261E-6    8.544191460314773E-1   -5.206667742591562E-1
 4.188416749750748E8     8.533484637910642E-1   -5.247909012599555E-1   -3.947520700832026E-6    3.966727175702400E-6   -6.479677160582652E-6    3.649408679197511E-6    8.476442317860355E-1   -5.314587959067067E-1
 4.288117148554337E8     8.460383483575941E-1   -5.364837864066587E-1   -4.046838544509937E-6    1.485069971977971E-5   -3.757862772500603E-6    1.644663810384673E-5    8.406013517950813E-1   -5.418320027285433E-1
 4.387817547357926E8     8.382721358427783E-1   -5.480132867170889E-1   -5.410616168158085E-6   -8.947451915941918E-6    1.238358390732609E-5    5.317108842852069E-6    8.326027012959084E-1   -5.523666954274770E-1
 4.487517946161516E8     8.306473393092528E-1   -5.598124737192623E-1   -7.764300457763858E-6    1.089915594537489E-5    1.469485394534653E-5   -1.391767813864630E-5    8.242838065443555E-1   -5.635043697218620E-1
 4.587218344965104E8     8.236378757446278E-1   -5.718236945849744E-1   -5.359233147247780E-6   -2.468619584428255E-6   -5.989184426915485E-6    1.937530769427371E-5    8.160131673471447E-1   -5.752382220289780E-1
 4.686918743768694E8     8.170486990477986E-1   -5.831576798850553E-1    1.114093886021107E-5   -5.310495767914773E-6   -1.271615098650289E-5    5.599315411390168E-6    8.078099773786710E-1   -5.868044248589782E-1
 4.786619142572283E8     8.099392338771222E-1   -5.938779698616380E-1   -2.275939638460227E-6   -7.401724848707789E-6   -1.155872123704203E-5    1.077536416975833E-5    7.993453380120061E-1   -5.980151523723567E-1
 4.886319541375872E8     8.025151035768724E-1   -6.043924458295653E-1    2.653974021111489E-6    4.539585199298856E-6   -8.946079154447203E-6    6.873067671321173E-6    7.905861548793290E-1   -6.089626218605195E-1
 4.986019940179462E8     7.942951838235650E-1   -6.151129613695049E-1   -4.222644125000689E-6    8.221769159580704E-6    2.097185104534741E-6   -2.642171451294087E-8    7.822695726984648E-1   -6.196734691029091E-1
 5.085720338983051E8     7.857661922485730E-1   -6.241460564152791E-1   -3.781844320612834E-6   -3.180319795517896E-6   -7.265324970854380E-6   -9.718086368222260E-6    7.746298344442984E-1   -6.302660115432468E-1
 5.185420737786640E8     7.783692399470830E-1   -6.331812101300730E-1   -5.263479669281097E-6    1.738943191347082E-6   -2.910240443182468E-5    1.834720994313645E-5    7.669300835815447E-1   -6.401360001152774E-1
 5.285121136590229E8     7.701592770569453E-1   -6.428234183808043E-1    1.842480685060950E-5    3.746114395338256E-6    3.652826469366690E-7    1.197381336193247E-5    7.589751880781134E-1   -6.497254671814161E-1
 5.384821535393819E8     7.615738250369298E-1   -6.529765113899978E-1   -8.859952477665303E-6    5.460336961587969E-6   -5.195288357614423E-6    8.534264475634577E-6    7.508646702539602E-1   -6.594088617889841E-1
 5.484521934197408E8     7.533997179663603E-1   -6.635278469566926E-1    5.344883611651104E-6   -1.170011502270108E-5   -1.028473043017227E-5    6.714887785239453E-6    7.425111737268683E-1   -6.692625869146649E-1
 5.584222333000997E8     7.447591539309869E-1   -6.744146866071244E-1   -2.460029072898353E-6   -2.271693250192945E-6   -1.291734833507579E-5   -5.564575650322817E-7    7.333043891812862E-1   -6.792721869675667E-1
 5.683922731804587E8     7.356480377133405E-1   -6.848155876364057E-1   -1.726860579774894E-5    1.732998182266491E-5   -4.712841822678095E-6    1.240927107426784E-5    7.231405547026957E-1   -6.891224375731975E-1
 5.783623130608176E8     7.264194035261762E-1   -6.947881252527255E-1   -2.473557273222794E-5   -9.316370667029890E-6    1.884943467759075E-5    2.060172406472103E-5    7.127571315249104E-1   -6.989354594421199E-1
 5.883323529411764E8     7.171366166768458E-1   -7.048599589054655E-1   -1.226118195025266E-5    6.362249765346583E-7    2.306821924150668E-6    1.313075531544109E-5    7.022333681615143E-1   -7.086208152257649E-1
 5.983023928215353E8     7.079496367285859E-1   -7.148946006882169E-1    1.498364938193896E-5    3.116990406498626E-6    1.134850091760397E-6   -3.029039648097609E-5    6.919311631986808E-1   -7.182595387345894E-1
 6.082724327018943E8     6.984869525154843E-1   -7.245092800469772E-1   -1.693129532101091E-5    1.027048700312765E-5    1.250796791601553E-5   -5.943597431216545E-6    6.816694859413172E-1   -7.276811260349692E-1
 6.182424725822532E8     6.887540899029866E-1   -7.342569635308425E-1    1.598034861242826E-5    1.201295421426326E-5    1.867787704974048E-6    1.090078109388982E-5    6.718103783883362E-1   -7.370870648483969E-1
 6.282125124626122E8     6.782943010860755E-1   -7.436325387927715E-1    1.727576565601271E-5   -1.634864434160608E-7   -9.617260920412503E-6   -2.302493861777975E-5    6.628202102880624E-1   -7.466813998026636E-1
 6.381825523429711E8     6.685772726186018E-1   -7.508019365249495E-1    8.739744278864065E-6    1.335449688938058E-6    8.047933265825127E-6    6.386258992540009E-6    6.538610466575852E-1   -7.554443441372526E-1
 6.481525922233300E8     6.595497033044371E-1   -7.593049287425958E-1    1.171755122743503E-5    4.456010675646980E-7    1.404904256811487E-5   -3.150067470864121E-6    6.447443456889648E-1   -7.640531126472166E-1
 6.581226321036890E8     6.498380146738623E-1   -7.683194634691292E-1    4.764951267365358E-7   -9.528195487244777E-6    1.717631026104737E-5    1.100468058352959E-5    6.346355465515174E-1   -7.723875217711456E-1
 6.680926719840479E8     6.399069027566766E-1   -7.770074895397429E-1    5.651612603876884E-6   -4.885843124980338E-6   -1.314845470697866E-6    7.745352773812596E-6    6.241662986912115E-1   -7.803778719820703E-1
 6.780627118644068E8     6.302092210711975E-1   -7.852311049232890E-1    1.549777827411031E-5    2.036769744152606E-5   -8.464027043484496E-6   -1.232679347273236E-5    6.130273752953198E-1   -7.882806693842007E-1
 6.880327517447658E8     6.197563059874113E-1   -7.935478626736302E-1   -3.473730378008054E-6   -2.083990054430068E-7   -6.915185710803568E-6    1.481767214300273E-5    6.016955122460500E-1   -7.958688107420764E-1
 6.980027916251246E8     6.088770074906471E-1   -8.016891833299280E-1   -5.556873811913489E-6   -2.316927852184312E-6    9.978245354351895E-6   -5.125041288713976E-6    5.901564214103366E-1   -8.037534890935880E-1
 7.079728315054835E8     5.973482477233811E-1   -8.098760924596849E-1    1.028947320584991E-5    2.252093206234113E-6    3.606035929225991E-6   -7.810894696296336E-6    5.785189711709754E-1   -8.116219075686573E-1
 7.179428713858424E8     5.862230487586818E-1   -8.184447465529678E-1    3.592571101796562E-6    3.298371784350100E-6    9.726958386675672E-6    6.150569499214071E-6    5.673263918009738E-1   -8.200727822493302E-1
 7.279129112662014E8     5.752624988819696E-1   -8.269516779345490E-1   -9.746613838131989E-6   -2.283068371462920E-5    3.158959566422755E-6    2.895921695308481E-6    5.558951905609099E-1   -8.287580360715268E-1
 7.378829511465603E8     5.641077855977553E-1   -8.356359658932492E-1   -7.668660182543485E-7    7.062736073704649E-6   -1.773152841159737E-5   -2.283149606989925E-6    5.446821961886312E-1   -8.370453293257458E-1
 7.478529910269192E8     5.520301061262741E-1   -8.441091474347344E-1   -1.321571174601815E-6    2.358623358109267E-7   -1.278889388983068E-6   -1.709498761218143E-5    5.336410904050733E-1   -8.447585407530795E-1
 7.578230309072782E8     5.393695786378996E-1   -8.512593603230020E-1   -6.497381558973729E-6   -1.232541749470736E-5   -4.803557531860535E-6    3.606174651111648E-6    5.225242724201415E-1   -8.516624770574730E-1
 7.677930707876371E8     5.289851833629322E-1   -8.567626847494491E-1   -6.941768205087276E-6    1.916352762249996E-6   -3.886325350387027E-6    1.260191262099338E-5    5.112746792034740E-1   -8.581560510190204E-1
 7.777631106679960E8     5.194067753186546E-1   -8.636485151708666E-1    7.163990805598324E-6    8.203338717378050E-6   -1.026959571875815E-6    1.573185603600814E-5    4.997226429832685E-1   -8.647104759128537E-1
 7.877331505483550E8     5.090245594018716E-1   -8.706117463189184E-1    6.206080134337991E-6    8.825371345200035E-6    1.566912942307590E-6   -1.096712490186046E-6    4.877963914186939E-1   -8.713184051406831E-1
 7.977031904287138E8     4.978492786181430E-1   -8.769145985634378E-1   -7.301214382511357E-7   -7.577190258711282E-6    3.084244290079880E-6    1.189578460255215E-6    4.751432971573817E-1   -8.778756494068221E-1
 8.076732303090727E8     4.861588312623864E-1   -8.828534223601916E-1   -4.591157697470951E-7   -8.214143100412113E-6    1.232061855310231E-5    4.402672859444539E-6    4.621354764821520E-1   -8.839115621715646E-1
 8.176432701894317E8     4.742014430478526E-1   -8.888553552147285E-1   -8.002720850426888E-7   -7.157919624669573E-6    1.583499006489548E-8   -6.849110836215442E-6    4.494917691294743E-1   -8.902442699918717E-1
 8.276133100697906E8     4.618791131842502E-1   -8.953236487825307E-1   -3.882225532750438E-6   -1.640109735327379E-5   -6.102863050474988E-6    7.425425284775890E-6    4.368208142159672E-1   -8.970099239813648E-1
 8.375833499501495E8     4.493039476405617E-1   -9.017848307969480E-1    6.115990133892051E-6   -2.292488877794130E-6    3.634901021757534E-6    9.893931431043696E-6    4.246012429219333E-1   -9.037265792288414E-1
 8.475533898305085E8     4.364792546861602E-1   -9.081795704496448E-1   -1.129709207805506E-5   -1.175505745925164E-5   -3.350080657205711E-6   -1.905745882546788E-7    4.129014278666749E-1   -9.096994872718139E-1
 8.575234297108674E8     4.237225429094578E-1   -9.145285660992089E-1   -1.144958629325967E-5    2.790128058755245E-6   -1.444375217311842E-5   -1.674224357179586E-6    4.010443327001686E-1   -9.150045980881925E-1
 8.674934695912263E8     4.108950031263791E-1   -9.212641041301128E-1    1.433977633450655E-6   -9.092939373649017E-6   -1.173932317376181E-6    2.501839732569347E-6    3.889905626809168E-1   -9.198859317314740E-1
 8.774635094715853E8     3.977947428076103E-1   -9.278307434126740E-1    1.451385335089172E-5   -4.992493845041608E-6   -3.928768430398031E-6    5.552973271890930E-6    3.763214242137421E-1   -9.245532886864057E-1
 8.874335493519442E8     3.846379571060736E-1   -9.323480367938402E-1   -1.433382472505382E-5   -2.120846177591078E-6    3.959766571116987E-6   -1.254776159433984E-5    3.632007863215036E-1   -9.290763047861333E-1
 8.974035892323031E8     3.734256558221659E-1   -9.360636188356123E-1    7.489712414973121E-7    1.997941177363639E-6   -2.757199582653660E-6   -2.105837769835365E-6    3.497048178070246E-1   -9.334591861592643E-1
