#  HZ   S   RI   R     50.00 
! Rohde & Schwarz Vector Network Analyzer 
! Rohde-Schwarz,ZNB20-2Port,1311601062102128,3.60
! Created: UTC 4/29/2024, 3:50:09 PM
! freq[Hz]                re:S11                  im:S11                  re:S21                  im:S21                  re:S12                  im:S12                  re:S22                  im:S22
 1.000000000000000E5     9.957577156940260E-1    4.404481985525710E-3    3.124792247391024E-5   -1.781526880121162E-4    1.314215734144104E-4    4.342146115346136E-5    1.011049843161487      -1.135575322828815E-2
 1.007003988035892E7     9.988267662278854E-1   -1.394527022288315E-2    3.331348393889114E-6    7.834133127060933E-6    1.124808364565693E-5   -1.960272558624470E-6    9.957159503178005E-1   -1.458048486578323E-2
 2.004007976071785E7     9.997704586968195E-1   -2.720448773104641E-2    9.325485694014197E-6    5.511263681711830E-6    1.087066930001371E-5    1.808370164351749E-5    9.988928809936816E-1   -2.779334678383972E-2
 3.001011964107677E7     9.983790340629367E-1   -4.102777166139977E-2    2.011157494012462E-6    9.257860579240397E-6    5.221250347222187E-6    1.653744897582854E-5    9.975186121967577E-1   -4.208230623962503E-2
 3.998015952143569E7     9.973326594039639E-1   -5.304374276944609E-2   -7.668699410379855E-6    3.153994669447957E-6   -4.783176181388998E-6   -5.688484647767179E-6    9.977846301510873E-1   -5.673433785322404E-2
 4.995019940179461E7     9.953911104475601E-1   -6.591856882657723E-2    2.681526427020476E-5    8.430317277553863E-6   -2.729058610852564E-6    6.614638251619323E-6    9.966216132730821E-1   -6.918819526816722E-2
 5.992023928215354E7     9.938595033780545E-1   -7.880203740944493E-2   -2.718538852408484E-6    5.705392204528663E-6   -5.782389012950311E-6    9.736917614974844E-6    9.946518154011671E-1   -8.197270494062441E-2
 6.989027916251247E7     9.932838358803340E-1   -9.178027776724774E-2   -4.057334451686063E-6    2.284915739089059E-6   -6.669334265737783E-6   -1.194769870634468E-5    9.934210366954443E-1   -9.497697110796570E-2
 7.986031904287139E7     9.929763966594557E-1   -1.052549083217518E-1    4.324841885303134E-6    2.703733396054074E-6   -3.071019800508934E-6    1.598684569274378E-5    9.924410582693953E-1   -1.080733743115959E-1
 8.983035892323031E7     9.915501699861583E-1   -1.187048519659924E-1    7.754084310864174E-6    3.034973220762219E-6   -7.411239700787309E-6   -2.029793380319562E-5    9.907592533271560E-1   -1.213368500186432E-1
 9.980039880358922E7     9.889240151687553E-1   -1.321883355789611E-1   -2.485166124123797E-5    2.459327072581938E-6   -4.903318413635415E-7   -7.901832573628322E-7    9.885511730214371E-1   -1.346319051947396E-1
 1.097704386839482E8     9.861945299499966E-1   -1.454241843404645E-1    4.315650725926896E-6   -2.175345605013577E-6    2.334310969169667E-5    8.005273032848906E-6    9.860868119155768E-1   -1.479893814327638E-1
 1.197404785643071E8     9.848327693844116E-1   -1.588325081071211E-1   -5.295424169356099E-6    5.115821806603467E-6    5.325093359020145E-6   -1.087683308480217E-5    9.842912476654385E-1   -1.613188930663528E-1
 1.297105184446660E8     9.830131448560893E-1   -1.716868559357612E-1   -2.787593838315816E-6    9.168407300745678E-6   -1.830984708234472E-6   -1.086665994427135E-5    9.828010865060710E-1   -1.746016488711579E-1
 1.396805583250249E8     9.817334818757322E-1   -1.846149867647680E-1    1.818244237412042E-6    1.512272033071220E-5    8.614818197754302E-6   -4.101906073658795E-6    9.809098332958207E-1   -1.876735551541709E-1
 1.496505982053838E8     9.785889805814364E-1   -1.969770247109875E-1    9.127996132805176E-6    7.567573785852412E-6    3.537935015846509E-6   -1.781796421280471E-5    9.785300043195073E-1   -2.004685463496989E-1
 1.596206380857428E8     9.759245005520623E-1   -2.093536280734334E-1   -6.005236983170374E-6   -6.898764839007910E-6    7.014363020858942E-6   -8.934578405669575E-6    9.757559279185043E-1   -2.134835732287535E-1
 1.695906779661017E8     9.731884078805446E-1   -2.222162444779784E-1    4.023154076154475E-6   -1.513123819737430E-5   -1.190767986205584E-5    1.809311543526539E-5    9.727447092182243E-1   -2.262453411468217E-1
 1.795607178464606E8     9.707887591900668E-1   -2.346803360403222E-1    1.084574783637518E-5   -7.150623131016854E-6   -2.572764568566368E-6    9.389648798527313E-6    9.702070140171873E-1   -2.381673594102342E-1
 1.895307577268195E8     9.675652619597270E-1   -2.468587405792499E-1   -7.337968667765659E-6    4.130390572967309E-6    1.200667723390478E-5    4.759187851691379E-7    9.668465953319253E-1   -2.506238190092079E-1
 1.995007976071784E8     9.635914238944016E-1   -2.592199356631450E-1   -2.445012946342827E-6    1.261397997745194E-5   -5.455960884148316E-6    3.264241357129971E-5    9.627269493091674E-1   -2.633260986616030E-1
 2.094708374875374E8     9.604170890070298E-1   -2.721609253084276E-1    3.987636218311823E-7    5.080404365634762E-6    1.249347514907311E-6    1.674627444424269E-6    9.588127866148988E-1   -2.762337275581822E-1
 2.194408773678963E8     9.574211967171224E-1   -2.849769641419973E-1   -3.422754599066019E-6    7.358581125131625E-6    5.730819927645895E-6    9.163734412290803E-6    9.549342321518450E-1   -2.892189543505284E-1
 2.294109172482552E8     9.537159169229565E-1   -2.973065565050704E-1    6.578567725685651E-6   -7.915293674744065E-6    1.133606947689035E-5   -1.548973665719573E-6    9.508773504110077E-1   -3.019141872177757E-1
 2.393809571286142E8     9.504320205746293E-1   -3.093525550271710E-1   -1.276984357027909E-5    1.172106196685396E-5    2.259636550854581E-5   -1.111410517783353E-6    9.469802323351973E-1   -3.141350745607721E-1
 2.493509970089731E8     9.466326869943220E-1   -3.230764734024487E-1    3.832923882367093E-6   -4.086288007399843E-6    9.793226170818135E-6    3.531166297993013E-6    9.441308179272445E-1   -3.277199569768346E-1
 2.593210368893320E8     9.427280328069639E-1   -3.351614190656110E-1   -1.596025018197456E-6    2.421123105957143E-7   -2.003815684986023E-5   -1.064424472125082E-5    9.397712353721942E-1   -3.409752363959369E-1
 2.692910767696909E8     9.384010509131369E-1   -3.465067526385172E-1    1.290419049302821E-5   -1.188951698539497E-5    3.883055394960322E-6    4.179138221228838E-6    9.355576707231914E-1   -3.529779902247855E-1
 2.792611166500499E8     9.336799828783326E-1   -3.580743821981329E-1    5.280355473738053E-6   -1.011614056673261E-5    9.803498533042043E-6    1.110584259737516E-5    9.309898683601876E-1   -3.647100107997864E-1
 2.892311565304088E8     9.288961502425755E-1   -3.701743696978250E-1    1.746581160519565E-8   -1.267987283057083E-5    1.124612586257712E-5   -8.889312805899392E-6    9.261674088117532E-1   -3.768963769647145E-1
 2.992011964107677E8     9.240502196976881E-1   -3.823231892211275E-1   -2.363230811105161E-5    1.001373235926288E-5    2.069427218091184E-5   -1.316672330495083E-5    9.212609939453007E-1   -3.885992332271960E-1
 3.091712362911266E8     9.187789201530618E-1   -3.946330982884586E-1    1.894871740077907E-5    1.169311344128934E-6    1.244569404082365E-5   -1.289555199246581E-5    9.158054046437226E-1   -4.002758608753547E-1
 3.191412761714855E8     9.134229367502484E-1   -4.070993906121415E-1   -4.089546595594066E-6    9.128202601027927E-6    6.289425419165035E-6    1.278469165481548E-5    9.097955842772499E-1   -4.120442612615850E-1
 3.291113160518445E8     9.076721685708081E-1   -4.197513499546544E-1    9.162257250036909E-6   -1.657768020330221E-5    3.823427242428663E-7    6.628218704104419E-6    9.033951523685765E-1   -4.244131888195870E-1
 3.390813559322034E8     9.019629370049782E-1   -4.325291159037626E-1    9.340593527875138E-6   -1.850022500953865E-5    3.384665487388926E-6    9.050235273194767E-6    8.967691456885593E-1   -4.369623395108489E-1
 3.490513958125623E8     8.967129960103736E-1   -4.451265886244486E-1    1.074884369050863E-5    1.455992948606108E-5    2.593362912212509E-6    8.171266937072500E-6    8.904881446407904E-1   -4.495114916750780E-1
 3.590214356929212E8     8.913604369514641E-1   -4.576682368987273E-1   -8.254272785831337E-7    9.824731018442048E-6   -1.494391061458236E-6   -2.083362191980310E-6    8.845213691296135E-1   -4.621068624394651E-1
 3.689914755732802E8     8.859917604141537E-1   -4.698900490932370E-1   -6.528006026050140E-7    9.344052554453823E-6   -4.368782546509429E-6   -6.246993869783310E-6    8.790338057479131E-1   -4.747293506015873E-1
 3.789615154536391E8     8.797493259808656E-1   -4.811003378673597E-1    1.612041024022489E-5   -1.343743397766186E-5   -2.104563795431635E-6   -2.295279009994477E-6    8.738519345771740E-1   -4.867801968611280E-1
 3.889315553339980E8     8.741309650341540E-1   -4.916875871230633E-1    9.092170094710337E-6    1.213281388803493E-5    1.280068880364397E-5   -7.104803302917963E-6    8.680868511694941E-1   -4.988293472967407E-1
 3.989015952143569E8     8.675045598136710E-1   -5.024252324062252E-1   -6.143797412634520E-6   -5.721663204598296E-6   -8.098057870421007E-7   -1.281749251852201E-5    8.612593522511885E-1   -5.097688816868755E-1
 4.088716350947158E8     8.602602679546498E-1   -5.132524801766576E-1    1.164106935688302E-6   -4.105740663557244E-6   -6.572431983047140E-6   -2.170264977726405E-5    8.541642981018978E-1   -5.206483700688335E-1
 4.188416749750748E8     8.533917005559116E-1   -5.249022287029219E-1   -7.628774585343971E-6   -6.978849828579082E-6   -2.732662320346804E-6    2.883881447728465E-7    8.477094495831640E-1   -5.314837527166038E-1
 4.288117148554337E8     8.461133122686013E-1   -5.365844834063280E-1   -5.696686895402546E-7    3.911931509231938E-6    9.245987984504254E-6    1.163078064404253E-5    8.406856376048235E-1   -5.418902510345537E-1
 4.387817547357926E8     8.382493872526900E-1   -5.479376502059055E-1   -6.309568250644405E-7    1.107298400122733E-5    2.631930379659192E-7    8.483491996975881E-6    8.325791702246536E-1   -5.523242252324629E-1
 4.487517946161516E8     8.306109243797952E-1   -5.597749276249826E-1   -2.864162239052114E-6    1.527410775799864E-6    9.985113112790949E-6   -2.534042891816032E-5    8.241687219729951E-1   -5.634164212268574E-1
 4.587218344965104E8     8.237426841988588E-1   -5.718478024987357E-1    7.108475148598141E-6   -1.213846288256150E-5    1.904582690317587E-5   -2.139411099920369E-6    8.160917552002067E-1   -5.752713742527539E-1
 4.686918743768694E8     8.170860029299644E-1   -5.831924012666472E-1   -1.160053878939996E-5    5.566691971644002E-6    1.723823909602378E-5   -2.205353655861780E-5    8.078644048471755E-1   -5.868564894545890E-1
 4.786619142572283E8     8.099481693151060E-1   -5.939472486063029E-1   -4.261710252582072E-6    6.835045853213883E-6   -2.995210598405365E-7   -1.908227400675695E-6    7.994690641640100E-1   -5.981897224074814E-1
 4.886319541375872E8     8.024351513793879E-1   -6.043612434226424E-1   -8.078044238836149E-6   -2.121760238167987E-6   -3.196201576247150E-7   -3.689236315113350E-6    7.904977896881188E-1   -6.088840446422552E-1
 4.986019940179462E8     7.940931405300549E-1   -6.151041305457038E-1    2.430219957236393E-6    6.277587773058103E-6   -1.506156990382039E-7    1.049341072745862E-5    7.821171738886589E-1   -6.197085859325128E-1
 5.085720338983051E8     7.857985997695907E-1   -6.241875309578044E-1    1.461938198489819E-5    6.016889099584979E-8   -1.487749598731133E-5    4.609862321452525E-6    7.746861818985464E-1   -6.302487219564085E-1
 5.185420737786640E8     7.783900184087713E-1   -6.332688019657522E-1    4.731112843400202E-6   -3.976339462020154E-6   -2.034487929460248E-6    5.315252465262982E-6    7.670377289245600E-1   -6.401096252841867E-1
 5.285121136590229E8     7.701271281261575E-1   -6.428142892370341E-1    1.136358104772329E-5    1.592473278365552E-5    9.484530086429249E-6    1.172580838347707E-5    7.591423478820355E-1   -6.498430282195662E-1
 5.384821535393819E8     7.615575670061112E-1   -6.529883509340823E-1    6.142122231161360E-7    5.701832729789892E-7   -3.163353333806790E-7   -1.735223784088692E-6    7.509315500756455E-1   -6.593583314527813E-1
 5.484521934197408E8     7.533622931792818E-1   -6.635058929683304E-1    3.663169229823276E-6    3.633325126433669E-6   -3.183503657663322E-6   -4.449348153668300E-6    7.423876113892977E-1   -6.691627011811191E-1
 5.584222333000997E8     7.448440205541337E-1   -6.744774373617871E-1    1.942656296664876E-6    7.928517525140309E-6    8.265559167735689E-6   -1.462947290779635E-5    7.334119066648171E-1   -6.793582215757233E-1
 5.683922731804587E8     7.356307920315819E-1   -6.849107403122195E-1   -4.426354467941610E-7    5.395980175530447E-6   -2.794502698295515E-6   -1.891561203385130E-5    7.232599172125339E-1   -6.892739747236170E-1
 5.783623130608176E8     7.264330704220704E-1   -6.948933077510215E-1    2.618969184601264E-6    1.447341206984490E-6   -9.039381730222184E-6    7.082120240196069E-6    7.126985827833932E-1   -6.989827280137355E-1
 5.883323529411764E8     7.172076362734487E-1   -7.048875230008383E-1    8.821950993426896E-6    1.280580551479129E-5   -1.537856567712602E-6    1.472206021439303E-5    7.021188692525621E-1   -7.085048788141201E-1
 5.983023928215353E8     7.079618618269081E-1   -7.148952834620199E-1   -1.143957618659304E-5    1.807193711570352E-5    5.659852486623384E-6    2.906748189610771E-5    6.918767472938198E-1   -7.183139793140807E-1
 6.082724327018943E8     6.986397550845519E-1   -7.246674419405199E-1   -7.735014468070607E-7    2.385310715890965E-6    1.195685787414146E-5    3.305018801997334E-6    6.818468695966056E-1   -7.278307437181544E-1
 6.182424725822532E8     6.888145432651318E-1   -7.343183967595079E-1    1.002220884681748E-5    1.357402803211952E-6    8.248391712513073E-6   -1.679301171583555E-5    6.719112858179348E-1   -7.371371840693994E-1
 6.282125124626122E8     6.781747180918288E-1   -7.436589951289160E-1    5.729762580825800E-6   -1.327329293146545E-6    6.101456406550686E-6   -6.375520842804393E-6    6.628357197372423E-1   -7.467726034615102E-1
 6.381825523429711E8     6.684956075112189E-1   -7.507998089018798E-1   -1.309010813605502E-5    1.013292701324224E-5   -6.539404034018260E-6    1.788342477777270E-5    6.538707216727846E-1   -7.555059718228373E-1
 6.481525922233300E8     6.595937064928212E-1   -7.594651005963093E-1    1.509381596139806E-5    9.498928309100796E-6   -1.035796511690206E-5    8.430722745023449E-6    6.447361078559743E-1   -7.640668496006756E-1
 6.581226321036890E8     6.499651990377462E-1   -7.684470723915237E-1    9.175935921350511E-6    7.248672054472429E-6   -1.204296025366414E-5    1.788476551009411E-6    6.348482061545283E-1   -7.724793781636208E-1
 6.680926719840479E8     6.398990598164729E-1   -7.771012003953207E-1    2.526311120672516E-6   -3.994687638619913E-6   -9.279709907511750E-6   -3.799174936655812E-6    6.241741673105917E-1   -7.804107622901870E-1
 6.780627118644068E8     6.300342420084238E-1   -7.851582316585221E-1    7.198287824807902E-6   -9.717968218277741E-6   -1.410827019368478E-5    3.667198883395523E-5    6.129996593669966E-1   -7.882010948974881E-1
 6.880327517447658E8     6.196996137683887E-1   -7.934383835581049E-1   -3.983988134475024E-6    5.991501095858668E-6    1.900324824632078E-6   -1.038540561631195E-5    6.016736616489385E-1   -7.957428344363541E-1
 6.980027916251246E8     6.088234804882507E-1   -8.016699817022678E-1   -2.428520825090089E-6    1.148436402356330E-6    7.802156514369401E-6    1.709922675821687E-5    5.901266594468102E-1   -8.035983623168151E-1
 7.079728315054835E8     5.974908575443112E-1   -8.100949351043342E-1    2.594385565274978E-6   -8.721145325323792E-7    3.070006555141535E-6   -9.036075777727597E-6    5.787105012862320E-1   -8.116819321483147E-1
 7.179428713858424E8     5.861962517706435E-1   -8.185099365613588E-1   -1.132860276226530E-5    1.858268197093464E-6    1.367611837434947E-5   -3.282692569892207E-6    5.673157016259306E-1   -8.200737088382035E-1
 7.279129112662014E8     5.751628752731737E-1   -8.268065805491065E-1    1.077423041369177E-5   -1.039931338813505E-5    3.956663673942841E-7   -1.267576005889999E-7    5.559938447582394E-1   -8.287746121115080E-1
 7.378829511465603E8     5.639207443198290E-1   -8.356598786193571E-1    2.503772927042961E-6   -2.052916767576602E-7    4.325460391797583E-6   -1.254237987809000E-6    5.447861936548244E-1   -8.370054694928970E-1
 7.478529910269192E8     5.520556270523463E-1   -8.441864219771068E-1   -4.602568465442713E-6    4.140739533759555E-6    6.923260592594244E-6    1.075570707755973E-5    5.336884185424940E-1   -8.447703472985743E-1
 7.578230309072782E8     5.394610372140066E-1   -8.513982719498642E-1   -5.191847577937212E-6    4.957173027651045E-6    1.421948068180507E-5    4.305666472564300E-6    5.225117371808805E-1   -8.517274812010736E-1
 7.677930707876371E8     5.290511554858391E-1   -8.569081612046481E-1    2.796493577471024E-6    7.703482081533915E-6   -1.234921384851961E-5   -4.408413987780459E-6    5.112250050481394E-1   -8.581102742639021E-1
 7.777631106679960E8     5.193317392768569E-1   -8.636684399981680E-1    1.251849760502985E-5    1.596808534804532E-5    1.525086603801789E-5   -2.679261078674095E-6    4.996958418623155E-1   -8.647074655432356E-1
 7.877331505483550E8     5.091274369124126E-1   -8.705971815412721E-1   -4.782321631180927E-6   -9.895631632173674E-7   -1.238818681306031E-5   -5.004626914026115E-6    4.877335663331276E-1   -8.712835527526755E-1
 7.977031904287138E8     4.978632599132218E-1   -8.770593258252944E-1    6.861859499268814E-6   -7.347192088643215E-6    1.142278630604466E-5   -5.567947362424256E-7    4.751607335950423E-1   -8.778532722789372E-1
 8.076732303090727E8     4.861775041167557E-1   -8.830001418245754E-1   -8.061851321415589E-6   -1.874402831146969E-6    9.397825521356831E-6    4.216990270752320E-6    4.622395138128575E-1   -8.839545725660525E-1
 8.176432701894317E8     4.741145120991607E-1   -8.889296407095030E-1   -7.053727482008025E-7    1.388365652868613E-5   -4.477688554904844E-6   -1.299134802068996E-5    4.493989373823710E-1   -8.903790356744837E-1
 8.276133100697906E8     4.618721617767487E-1   -8.953242706240536E-1   -4.214085586803202E-6   -4.294400937072782E-6   -8.845849206725247E-6   -1.020875725113410E-5    4.367918707063922E-1   -8.969292052557977E-1
 8.375833499501495E8     4.492730797263949E-1   -9.017365371090793E-1    5.592602821158300E-6    7.864758188927248E-6   -1.252260442068774E-5    7.322041498101901E-6    4.246228115847829E-1   -9.036724966296268E-1
 8.475533898305085E8     4.364673521214493E-1   -9.082415773228414E-1    2.364911585138204E-6    2.173905650754346E-6   -1.124142145340537E-5    1.439657786492805E-5    4.127666008376303E-1   -9.097935344641280E-1
 8.575234297108674E8     4.236949817962316E-1   -9.145988641797768E-1   -2.608042684013695E-6   -5.488935094513544E-6    4.130679657274739E-6   -6.425357260868373E-6    4.010499350100979E-1   -9.150733932015349E-1
 8.674934695912263E8     4.108518981825950E-1   -9.212457157705231E-1   -3.973685870798912E-6   -5.740995389466811E-6   -9.150758022068028E-6   -4.361717307433813E-7    3.890379810859267E-1   -9.198495782294985E-1
 8.774635094715853E8     3.977289441012133E-1   -9.277696259252015E-1   -6.056364124019311E-6    7.513089100606557E-6   -7.579613144597940E-6   -1.526063793704768E-5    3.763030251969990E-1   -9.244843887516210E-1
 8.874335493519442E8     3.846095325033888E-1   -9.324896967253418E-1    3.850849567892668E-6    1.138372194210275E-5    6.605178950670800E-6    1.129916325653985E-5    3.632311467808662E-1   -9.289431193629294E-1
 8.974035892323031E8     3.733823379383843E-1   -9.362153140000000E-1   -5.523372246077429E-6   -4.647889971818564E-6    9.497192270809504E-6   -9.857278157680282E-6    3.497604722002041E-1   -9.333758612221915E-1
