#  HZ   S   RI   R     50.00 
! Rohde & Schwarz Vector Network Analyzer 
! Rohde-Schwarz,ZNB20-2Port,1311601062102128,3.60
! Created: UTC 4/29/2024, 3:49:50 PM
! freq[Hz]                re:S11                  im:S11                  re:S21                  im:S21                  re:S12                  im:S12                  re:S22                  im:S22
 1.000000000000000E5     9.962594911992616E-1    4.499147367478373E-3    3.463383730965013E-6    1.104308430957668E-4   -2.042976755487910E-5    7.071580789800491E-5    1.011021607292616      -1.113889872866179E-2
 1.007003988035892E7     9.976898229026662E-1   -1.386368342762967E-2    1.339341915478171E-5   -6.478838681046005E-6    1.428743332342759E-5   -3.789700120076548E-6    9.958746679504323E-1   -1.446327706844460E-2
 2.004007976071785E7     9.998452720155073E-1   -2.734619389905642E-2    3.095536645359806E-6   -9.675375482895164E-6    6.130183748876172E-6    2.000224669867802E-5    9.987057001629125E-1   -2.776935611485246E-2
 3.001011964107677E7     9.978351144185567E-1   -4.101569965437741E-2   -3.259644854186888E-6    1.505809985155261E-6    8.036524337457818E-6    1.105242914484505E-5    9.976340411817017E-1   -4.195201392900855E-2
 3.998015952143569E7     9.975636380038776E-1   -5.298762023761400E-2    1.149288124061368E-5   -1.421049713034157E-6    1.010031001444116E-6   -1.825979316043612E-5    9.976384817672510E-1   -5.685658152225349E-2
 4.995019940179461E7     9.959832882380186E-1   -6.590330976233298E-2   -1.323569748736262E-5   -8.962710866394188E-6   -9.767385321159631E-6    1.032480042380780E-5    9.966116194070558E-1   -6.923816396256431E-2
 5.992023928215354E7     9.940083391122895E-1   -7.881297470226371E-2   -1.122471679446848E-5   -3.831627551712160E-6    1.081843196894399E-5    1.492988997122275E-6    9.947171718249682E-1   -8.201729524142261E-2
 6.989027916251247E7     9.929631349965869E-1   -9.169561766469891E-2   -9.593411818147471E-6    2.431611091744229E-7   -1.175063235985321E-6   -1.890907019071029E-5    9.933731214151719E-1   -9.490418574739275E-2
 7.986031904287139E7     9.924014202104249E-1   -1.051494407042700E-1    1.192345855384549E-5   -1.537173970153175E-5    2.763459643206227E-5   -1.632240012088931E-5    9.924226293323554E-1   -1.081035536095494E-1
 8.983035892323031E7     9.915505320811014E-1   -1.186715465463405E-1   -2.222287627123017E-5    6.023348920273565E-6    2.943732600828580E-6   -1.358800765279326E-6    9.908482415028104E-1   -1.212803449000686E-1
 9.980039880358922E7     9.894599285521030E-1   -1.322556683167936E-1    7.575181922381412E-6   -5.388828346718567E-6    7.130811208597040E-6    6.241166868065314E-6    9.885457695344990E-1   -1.346727114176394E-1
 1.097704386839482E8     9.863769821774051E-1   -1.453483556902155E-1    3.603799743783616E-6    1.431879953879727E-5    2.066377085444112E-5    2.174622189884234E-5    9.861332853232041E-1   -1.479514238189054E-1
 1.197404785643071E8     9.847572994231090E-1   -1.588042821575564E-1    4.908973688731454E-7   -2.255586261155064E-6    1.472337332293470E-5    1.150019892164513E-6    9.842067334609492E-1   -1.612653465542455E-1
 1.297105184446660E8     9.829556937302083E-1   -1.716554686043902E-1   -4.910603618721351E-7    6.219206667283426E-6   -7.557162192319759E-6   -1.671247165598984E-7    9.829050502932289E-1   -1.745579829245504E-1
 1.396805583250249E8     9.815514753920760E-1   -1.845308989914068E-1    2.582024440564391E-6    1.426388698967113E-5    1.008215426814911E-5   -2.599424198666301E-6    9.809617533578457E-1   -1.876340372596562E-1
 1.496505982053838E8     9.788747221452861E-1   -1.969763024205375E-1    5.585145693027138E-6    1.667806010104583E-6   -1.799720207830349E-5    1.284180532368162E-6    9.785301425328879E-1   -2.005448791196720E-1
 1.596206380857428E8     9.761263881811119E-1   -2.093259404059723E-1   -9.239646003551756E-6   -1.171266624415851E-6    2.586839621258522E-6   -3.412417308157261E-6    9.758200931545704E-1   -2.133334189945661E-1
 1.695906779661017E8     9.732348881591818E-1   -2.222201250426662E-1   -7.412862653016472E-6   -8.043197769513050E-7   -6.382760053520583E-6    2.003925945730344E-6    9.729191207620385E-1   -2.262515449547686E-1
 1.795607178464606E8     9.706465120587223E-1   -2.347388691258573E-1    8.498716630245546E-6   -4.810794746335871E-6    7.070569099459843E-6    6.645090052785899E-6    9.702332276056324E-1   -2.381741425135117E-1
 1.895307577268195E8     9.674968371839925E-1   -2.468721219773097E-1   -1.255682165966906E-5    9.629588152101397E-6   -8.857682394985552E-6   -7.301720357178020E-6    9.667203629314528E-1   -2.505653450181613E-1
 1.995007976071784E8     9.637679077478578E-1   -2.593529692306596E-1    9.479173410688592E-6   -2.175915369660750E-6   -5.866976620477198E-6    5.999302468812086E-6    9.628568628875195E-1   -2.633884765455943E-1
 2.094708374875374E8     9.605024404101312E-1   -2.721872331979866E-1   -6.653886454119363E-6    5.778981592898160E-6   -1.562444464458481E-6    1.403280890898245E-5    9.588504848721966E-1   -2.763283260426130E-1
 2.194408773678963E8     9.572847666386739E-1   -2.849614182163751E-1    1.625177651835721E-5   -3.292086980730933E-6   -4.314995868031256E-6    2.164613787877493E-5    9.550323506149959E-1   -2.892123116246978E-1
 2.294109172482552E8     9.535265813461961E-1   -2.972630389048825E-1    7.278431311883587E-6   -1.168621863939951E-5    2.579657214616300E-5    7.154013635477081E-6    9.509327882886488E-1   -3.018510597550843E-1
 2.393809571286142E8     9.503600899305140E-1   -3.092857689030562E-1    2.383494181967470E-6   -1.958188881082948E-6    9.521002284511517E-6    1.095132237796874E-6    9.469888376244264E-1   -3.141027711670928E-1
 2.493509970089731E8     9.469027551979974E-1   -3.231519447867832E-1    3.355941548027931E-6   -3.159362202248560E-6   -9.311494289883730E-6   -3.851673372562068E-6    9.441438936426578E-1   -3.277380282090251E-1
 2.593210368893320E8     9.426388424149699E-1   -3.351175619992469E-1    3.655411287848155E-6    1.006885522613112E-5    7.208305534491870E-6    6.717900782308966E-6    9.397882688007322E-1   -3.409195922022278E-1
 2.692910767696909E8     9.383687921486755E-1   -3.465168119898197E-1    5.539558306646406E-6   -1.431130652216299E-5    2.971046816538487E-5    7.602004666818886E-6    9.356517611993058E-1   -3.529592358413869E-1
 2.792611166500499E8     9.337699116549008E-1   -3.581360409719138E-1   -3.121535619640265E-6   -2.296837592482967E-5    1.266661465179086E-5    5.027317487204122E-6    9.310649753519047E-1   -3.646843174942140E-1
 2.892311565304088E8     9.289214963909187E-1   -3.702053797777528E-1    6.468742548149412E-6   -3.209728951958051E-6    7.345690818982299E-6   -2.720919249718984E-6    9.262312577035275E-1   -3.769271267630185E-1
 2.992011964107677E8     9.240506217173399E-1   -3.824478364477886E-1    1.245099341518348E-5   -1.827027733370869E-5   -4.021707660562255E-6   -1.693315431692773E-6    9.212378242501483E-1   -3.887186729486405E-1
 3.091712362911266E8     9.189856840812750E-1   -3.945954863674104E-1    1.482242204391557E-5   -4.914865239913968E-7    2.841858339323602E-6   -6.770337024346640E-6    9.156141119533451E-1   -4.001355148045582E-1
 3.191412761714855E8     9.134092952614727E-1   -4.070651802760869E-1    2.761054043064026E-6    1.018437316471837E-5    5.086153526611050E-6    1.918303037975186E-6    9.097912600950082E-1   -4.119655422340562E-1
 3.291113160518445E8     9.075758695567822E-1   -4.197465836150148E-1    8.550529682076281E-6    2.638863682968810E-6   -1.242392351174580E-6   -1.896204513522710E-5    9.033995133405933E-1   -4.244564748387596E-1
 3.390813559322034E8     9.020778058841976E-1   -4.326031127483798E-1    1.558681233722220E-7    2.336786336202190E-6   -1.312606409620830E-5    3.827329167247762E-6    8.969066008710058E-1   -4.369447165109196E-1
 3.490513958125623E8     8.968192914382782E-1   -4.451708505409058E-1    1.148941857006124E-5    8.747454811125183E-7   -4.333442253768774E-7    5.515296073225731E-6    8.904830460224310E-1   -4.494410985477983E-1
 3.590214356929212E8     8.914243679086360E-1   -4.576396265314273E-1   -1.032551294028482E-5   -9.018329541718941E-6   -9.549464729202118E-6    7.200872413361051E-6    8.845992293167984E-1   -4.622331898655437E-1
 3.689914755732802E8     8.859498356815245E-1   -4.698719424172823E-1    2.597677497235200E-6    3.652748159309380E-6   -1.291540321827868E-5   -2.837283097640353E-6    8.790706162038576E-1   -4.748092452909481E-1
 3.789615154536391E8     8.797791686382858E-1   -4.810178989401846E-1    6.964775126797370E-6   -7.057214777175142E-6   -5.811014321201403E-6    1.323174972416794E-5    8.737627660119719E-1   -4.868210733152220E-1
 3.889315553339980E8     8.742192832571205E-1   -4.917289439992377E-1   -3.488847269627923E-6    7.838691205362348E-8   -5.193796969837606E-7   -1.197938130399551E-5    8.678818662322687E-1   -4.987018184055451E-1
 3.989015952143569E8     8.675237298183492E-1   -5.024622237908745E-1   -6.463081892037920E-6   -1.700793259323209E-6   -4.928760661149024E-6   -1.025694202203842E-7    8.611197089332218E-1   -5.097170697127580E-1
 4.088716350947158E8     8.602942738520699E-1   -5.133227450170311E-1   -1.181194129454990E-5    3.531808280513326E-7    5.655775289285281E-6    2.416870596906344E-6    8.543186369194496E-1   -5.207251720842730E-1
 4.188416749750748E8     8.532849865310942E-1   -5.248010593105559E-1    1.491099000215528E-5    9.643422731342387E-6    1.633021156007324E-5    5.650234630020979E-6    8.475973795654029E-1   -5.314978380130730E-1
 4.288117148554337E8     8.460307691939470E-1   -5.365589277537760E-1    2.320064715167916E-7    6.564883556685264E-6    1.355143384012082E-5   -7.683293092263057E-7    8.407053189643302E-1   -5.418187032102112E-1
 4.387817547357926E8     8.382775966784088E-1   -5.480115072480388E-1   -2.038148607859665E-5   -9.298321975949542E-6   -6.917334968985428E-6   -7.575792952084701E-6    8.326499047552052E-1   -5.523735131407082E-1
 4.487517946161516E8     8.305662590397243E-1   -5.598526781980812E-1    4.907601344727368E-6    2.766485611356226E-6    4.030280644088616E-6   -6.633084761418885E-6    8.241977405523423E-1   -5.634759525407756E-1
 4.587218344965104E8     8.236105842861848E-1   -5.717641339445324E-1   -1.565383518969549E-5   -9.760033874848808E-7    6.676918293630386E-6    5.028644939287367E-6    8.160647196136334E-1   -5.752652513264990E-1
 4.686918743768694E8     8.170295763517837E-1   -5.831866670913977E-1    4.729711576976224E-6   -4.865677041837003E-6   -3.514823202048433E-6   -9.595498766908007E-6    8.079449258728864E-1   -5.868423422899702E-1
 4.786619142572283E8     8.099116068141906E-1   -5.939630722780233E-1   -5.491904710170273E-6   -5.459091125335478E-6   -2.553746740300071E-5   -2.131285843408268E-6    7.992339781300759E-1   -5.979848465361004E-1
 4.886319541375872E8     8.024733577530910E-1   -6.044176213480660E-1    8.984462023884142E-6   -6.007691020971634E-6   -3.807909753871206E-6    1.904530765193905E-6    7.904391380276451E-1   -6.088773403340243E-1
 4.986019940179462E8     7.941701335740156E-1   -6.151520266416600E-1    8.737639073773762E-6   -1.337798492319513E-6   -5.270015691418664E-6   -1.052888014052359E-5    7.823061237829122E-1   -6.197132416654284E-1
 5.085720338983051E8     7.857714178894808E-1   -6.242145630243934E-1   -5.928059325716762E-6    6.956167197586193E-6    1.446296945617784E-5    1.984654817325264E-6    7.747117001995788E-1   -6.302733017788428E-1
 5.185420737786640E8     7.783148410100322E-1   -6.332045560347778E-1   -1.026287079891558E-5   -2.246187624703110E-6    6.711617302958552E-6    1.996014751799029E-6    7.670094364611103E-1   -6.401089187636186E-1
 5.285121136590229E8     7.701415133634069E-1   -6.428815007763411E-1   -5.914753355240440E-6    8.350799059879434E-6    1.683847521221561E-5   -5.991010800115770E-7    7.590159634957081E-1   -6.497035016103377E-1
 5.384821535393819E8     7.615094987248638E-1   -6.529844511812545E-1   -6.902894518624374E-6   -1.986162198398225E-5    6.910907475079030E-6    8.936735448878100E-6    7.509155665100866E-1   -6.593656004940462E-1
 5.484521934197408E8     7.533560693193946E-1   -6.635865008411272E-1    6.946721753508878E-6    1.114517610821209E-5    1.294444182814530E-5    1.635177973520907E-5    7.424085230762197E-1   -6.692093859590058E-1
 5.584222333000997E8     7.448002967919845E-1   -6.744628525397479E-1   -7.016449895722694E-6    2.302295001149550E-6    3.397531400860846E-6   -1.202964700935692E-5    7.333083356228021E-1   -6.791872987449180E-1
 5.683922731804587E8     7.356531069432605E-1   -6.848559359734915E-1   -2.427433186265994E-6   -9.408164386659032E-6   -1.616284407881933E-6   -1.099029759765557E-5    7.232646604153538E-1   -6.891860767821494E-1
 5.783623130608176E8     7.263596174568666E-1   -6.948139450616526E-1   -2.402026417602516E-6    1.101439641776113E-5   -1.368207994960769E-5    7.154853765910884E-6    7.127000407319845E-1   -6.989623839115323E-1
 5.883323529411764E8     7.171363407825199E-1   -7.049795333501978E-1    1.157445377979281E-5   -1.068143993369430E-5    3.238029606883417E-5    3.780779066200325E-6    7.020468172704013E-1   -7.084488188454987E-1
 5.983023928215353E8     7.079758285579686E-1   -7.148515198186740E-1   -2.422537875861401E-6   -8.228089825535073E-6    5.997136324523326E-6   -6.273885537234582E-6    6.919175111091099E-1   -7.181590361861652E-1
 6.082724327018943E8     6.985051583521401E-1   -7.246603029231367E-1   -2.981150236010042E-6    3.829600547018862E-6    3.401250869752124E-6    1.292420678781872E-5    6.817100878926479E-1   -7.278012816690824E-1
 6.182424725822532E8     6.887384683558876E-1   -7.343633646298474E-1    1.889899748768042E-5   -9.240881477205788E-7   -1.455626464961707E-5   -1.135000488210983E-5    6.719264246252276E-1   -7.371375660511625E-1
 6.282125124626122E8     6.783243160748837E-1   -7.436746903613702E-1   -2.973935183113359E-6   -7.014014275557674E-7   -1.339564669962627E-5   -1.039042948364566E-5    6.627800042246778E-1   -7.466403873975773E-1
 6.381825523429711E8     6.685945688508171E-1   -7.508694016222850E-1    1.148311089594625E-5   -7.627325950065027E-6    6.402297989818246E-6   -2.401028005828863E-5    6.538073625722481E-1   -7.555035362190985E-1
 6.481525922233300E8     6.595642693285327E-1   -7.594240412702739E-1    3.329529141322270E-6    3.374735675078628E-6   -5.892354995806900E-6   -5.783772951497011E-6    6.447499128084599E-1   -7.640171912692666E-1
 6.581226321036890E8     6.497937147593805E-1   -7.682553755086807E-1    2.277845805557782E-6    2.853200147259076E-6   -9.435363008429970E-6    8.552080456364511E-6    6.347707472522671E-1   -7.724060158962371E-1
 6.680926719840479E8     6.398701206592322E-1   -7.770475774354789E-1   -4.650193345036020E-6    1.686119577669845E-6   -4.279738772333483E-6    6.349751164226474E-7    6.241771299646276E-1   -7.804230595482091E-1
 6.780627118644068E8     6.300666244700603E-1   -7.852781303978169E-1    1.199500531448266E-5    4.607849333824790E-6   -4.057357195050625E-6   -4.796208136537262E-6    6.130722755776901E-1   -7.883212717595758E-1
 6.880327517447658E8     6.198838467901393E-1   -7.935054924931815E-1    6.638643038253515E-6    1.311381242594533E-5   -1.222157881667534E-5   -1.863065996837374E-5    6.016845182742385E-1   -7.959631735780341E-1
 6.980027916251246E8     6.088359596408447E-1   -8.017205219126332E-1    1.966764986782195E-5   -3.698513678059536E-6   -1.072562506612716E-5    6.555155864867878E-6    5.901260166712891E-1   -8.036460461857802E-1
 7.079728315054835E8     5.973747389107471E-1   -8.098813342690379E-1   -1.943529036200209E-5   -1.285268477763172E-5    6.502417085907006E-6   -1.064893360906400E-5    5.786474949565299E-1   -8.114994554212935E-1
 7.179428713858424E8     5.862112957603305E-1   -8.183807261101224E-1   -2.913538595022371E-6    8.217203361172715E-8   -1.403178149623483E-5    8.874491805477731E-6    5.674074956940780E-1   -8.202063903018135E-1
 7.279129112662014E8     5.753242701343357E-1   -8.269070940703348E-1    7.414032566416309E-6   -1.814377882070857E-5    7.055503654859369E-7    1.773602506358247E-9    5.560532713634753E-1   -8.287113485157210E-1
 7.378829511465603E8     5.640823556507191E-1   -8.356941922652926E-1    2.067585175275681E-6   -1.926533178027948E-6    4.971634488879010E-6   -6.591163923518097E-6    5.447784002201694E-1   -8.369929404498617E-1
 7.478529910269192E8     5.520614245321730E-1   -8.441582141217600E-1   -9.592877349663613E-7   -1.287465089583164E-6    1.027488030050067E-5    1.457548633995562E-5    5.336172800772593E-1   -8.447556400758898E-1
 7.578230309072782E8     5.393572434388011E-1   -8.512990587167711E-1    2.297912575135650E-6    5.488011198233859E-6    1.323724499873054E-5   -6.471254933190593E-6    5.225455171188850E-1   -8.517129662820632E-1
 7.677930707876371E8     5.290269407026967E-1   -8.566889003836961E-1   -4.202294350630018E-6   -8.116338693205894E-6   -1.216028715131196E-5   -5.971440627684593E-7    5.113615903722798E-1   -8.581412699231068E-1
 7.777631106679960E8     5.194159664548480E-1   -8.637135502227067E-1   -2.401886149727605E-6   -7.162508780087335E-6    2.313529127770659E-6   -2.494245311460626E-6    4.997082112746897E-1   -8.646451612797338E-1
 7.877331505483550E8     5.091092578074666E-1   -8.706125427453841E-1   -1.872846549534333E-5   -3.523871125202956E-6   -2.219737704247719E-5    4.161550375791762E-6    4.878576159906511E-1   -8.713629481454973E-1
 7.977031904287138E8     4.978735053898234E-1   -8.770181297500294E-1    3.332219953571303E-5   -5.765529873596030E-6   -7.912162229494237E-6   -5.562693550823583E-6    4.751904600079422E-1   -8.778692154341451E-1
 8.076732303090727E8     4.861465224319438E-1   -8.828068075696387E-1   -1.902723954344729E-6    1.895359051611558E-5   -1.823953165958093E-6    1.543311777598397E-6    4.622935048442142E-1   -8.839980943482733E-1
 8.176432701894317E8     4.741919831743097E-1   -8.889581979317465E-1    8.890172450551577E-6   -2.659993652050436E-6   -2.750601505652356E-6    1.738724081034957E-7    4.494440110156923E-1   -8.904009553272798E-1
 8.276133100697906E8     4.619546493945275E-1   -8.954542495226694E-1    2.848476098870827E-6    3.495532339365913E-6    2.116444347841157E-5    9.555717331837787E-7    4.367898831978222E-1   -8.970585093495292E-1
 8.375833499501495E8     4.492914605316747E-1   -9.017548771497781E-1    1.044097010901356E-6    6.958676893296939E-6    9.892050909600169E-6   -9.490993482537856E-7    4.245954593526982E-1   -9.036389443332893E-1
 8.475533898305085E8     4.364987772400326E-1   -9.081699515673171E-1    4.536068205285939E-6    1.032382996183145E-6    4.283333126830613E-6    6.193433909672603E-6    4.127786481177990E-1   -9.097367926309045E-1
 8.575234297108674E8     4.236639625370751E-1   -9.145282608859766E-1   -5.867789403122781E-6    1.125408882550363E-5    6.546897807166227E-6   -1.011410487399485E-5    4.010466065360297E-1   -9.151756844128811E-1
 8.674934695912263E8     4.108863415686164E-1   -9.213402221846382E-1   -6.125371819679468E-6    8.054452214001403E-6   -7.308725682624363E-6   -1.310963926234697E-7    3.889813110317903E-1   -9.199304725086118E-1
 8.774635094715853E8     3.978057035420933E-1   -9.278945344202068E-1   -1.420513633097834E-6   -1.092142410056110E-5    8.172092987665354E-6   -2.557956640576550E-7    3.763953521310012E-1   -9.244944885816412E-1
 8.874335493519442E8     3.846452832498046E-1   -9.324012918999588E-1    6.821109698319788E-6   -1.482400832730852E-6    6.566954847350627E-6    4.059080502220219E-7    3.631978211149811E-1   -9.289726421628228E-1
 8.974035892323031E8     3.733934222765154E-1   -9.361018406983741E-1   -4.694767580249761E-6   -4.076572104928255E-6    6.990279895235459E-7   -1.084003613473179E-5    3.496696379415717E-1   -9.332920199050779E-1
