#  HZ   S   RI   R     50.00 
! Rohde & Schwarz Vector Network Analyzer 
! Rohde-Schwarz,ZNB20-2Port,1311601062102128,3.60
! Created: UTC 4/29/2024, 3:50:06 PM
! freq[Hz]                re:S11                  im:S11                  re:S21                  im:S21                  re:S12                  im:S12                  re:S22                  im:S22
 1.000000000000000E5     9.956485908542623E-1    4.661620342927906E-3    1.151969890509436E-4    1.759266449953453E-4   -1.041948421847177E-5    6.815054022953784E-5    1.010970901919813      -1.124527040875247E-2
 1.007003988035892E7     9.987866607131477E-1   -1.389481486182442E-2   -2.426646832003611E-5    1.996143067245074E-5    3.225785512189011E-6   -1.481388057472054E-5    9.959127656337523E-1   -1.449731615587573E-2
 2.004007976071785E7     9.997499062575946E-1   -2.722699894973647E-2    2.401946988193003E-5    6.691289321953353E-7    6.673452236319667E-6   -1.759815678486573E-5    9.988930945896279E-1   -2.769111369918633E-2
 3.001011964107677E7     9.983162676954211E-1   -4.104574780044042E-2   -5.071149981851493E-6    2.754146709652061E-6   -5.549027590613250E-6    4.938599674656826E-6    9.975982240855814E-1   -4.203446451432001E-2
 3.998015952143569E7     9.974314915023385E-1   -5.300317684835614E-2   -1.878688660246633E-5    1.278197288999330E-5    5.913306385176802E-6    3.724385384718348E-6    9.977120996545031E-1   -5.668808652157971E-2
 4.995019940179461E7     9.953696648325439E-1   -6.593302662495032E-2   -1.082843836780641E-5   -1.043856942642676E-5    1.110765415519610E-5   -4.522816506013777E-6    9.965217911741042E-1   -6.921686151915069E-2
 5.992023928215354E7     9.937552947412757E-1   -7.861914006162635E-2   -7.318884481784357E-6    2.273354741756873E-6   -2.032465463289684E-5    2.897510264774108E-5    9.947350629131073E-1   -8.210490238975809E-2
 6.989027916251247E7     9.932761158099129E-1   -9.177321465036418E-2   -1.294960861908613E-5   -6.976208275484149E-6    4.134706695922444E-6    5.476517429449537E-6    9.934551997745927E-1   -9.497399822462804E-2
 7.986031904287139E7     9.930401267185416E-1   -1.051915553109858E-1   -1.275495189244186E-5    1.347173695615459E-5   -3.889427198371792E-7   -1.447346532934975E-5    9.922180886707246E-1   -1.080863883650829E-1
 8.983035892323031E7     9.916585723094630E-1   -1.187178081986134E-1   -8.863986531040564E-7    1.383768795855298E-6   -1.290447589789690E-5   -1.000424898124909E-5    9.907865984358913E-1   -1.212170131666928E-1
 9.980039880358922E7     9.890900837112904E-1   -1.321308673803972E-1   -1.606103520364905E-5    9.955988154990114E-6   -1.048965361558490E-5    7.626221808669681E-6    9.884870024047727E-1   -1.345905519518538E-1
 1.097704386839482E8     9.860557825923788E-1   -1.454711110169698E-1   -3.617324760693652E-6    4.971983096368628E-6    5.610208407396117E-6    3.138181986074676E-6    9.861121724694640E-1   -1.479227078587113E-1
 1.197404785643071E8     9.849630324950426E-1   -1.588868310617169E-1   -5.227390498991715E-6    1.813982901942478E-6   -1.124550756307823E-5    1.271000888039343E-5    9.841439064033604E-1   -1.611987519622330E-1
 1.297105184446660E8     9.830514151479348E-1   -1.716544152565025E-1   -9.827573825586690E-7    1.296079817200948E-5   -6.954465546659279E-6    9.098183388678588E-6    9.828106681590032E-1   -1.745634674099463E-1
 1.396805583250249E8     9.817425537771884E-1   -1.845203801691797E-1    4.732055326542097E-6    5.215929396509759E-6   -4.114823467828782E-6   -1.594650893793048E-6    9.809111091828246E-1   -1.875954281641221E-1
 1.496505982053838E8     9.786541388508639E-1   -1.969154209325014E-1    9.767630014760565E-6   -3.011307110674559E-6   -5.576849553469241E-6    1.298007703477655E-5    9.785063415560294E-1   -2.004928726641736E-1
 1.596206380857428E8     9.760101337508136E-1   -2.093369965087784E-1   -1.151097777936204E-5    4.057555253451077E-6    1.535302281849307E-5    7.636431650517192E-6    9.757987151519275E-1   -2.133062749445382E-1
 1.695906779661017E8     9.732552779880382E-1   -2.222189088302343E-1   -1.251403351564528E-5   -4.999164942867603E-6    3.342875688037738E-8    1.351212235779846E-6    9.728928021758597E-1   -2.261636036337065E-1
 1.795607178464606E8     9.709044277163872E-1   -2.347618374096105E-1    5.943110345495820E-6    1.119549466160773E-5   -7.024879457155729E-6   -1.428976026378542E-5    9.703042256907524E-1   -2.381274331596246E-1
 1.895307577268195E8     9.675310852521051E-1   -2.468834590277066E-1    1.671175126900931E-5    5.582095474379247E-6    6.147733585098272E-6   -3.082884051465872E-6    9.667789380312306E-1   -2.506204324800455E-1
 1.995007976071784E8     9.635921634901021E-1   -2.592751146279960E-1    5.423876325728859E-6   -1.839924931827961E-6    5.364679267691037E-6   -5.708667084274588E-6    9.628239576446626E-1   -2.633796452090806E-1
 2.094708374875374E8     9.605967708434533E-1   -2.722196400471837E-1    6.308377331412093E-6   -6.185316288271897E-6   -1.383109237052244E-5    3.146117299593835E-7    9.588913782336511E-1   -2.762307109728870E-1
 2.194408773678963E8     9.574448943965919E-1   -2.848951577260932E-1   -2.226865036386549E-5   -4.551682504349357E-6   -1.391335480812039E-5   -1.500206183061750E-5    9.550946147096828E-1   -2.891402663115089E-1
 2.294109172482552E8     9.536007181716692E-1   -2.972774461297409E-1   -1.015295157212326E-5    5.061390209305335E-6    4.188348748667679E-6    8.838391417848946E-6    9.509697026747708E-1   -3.018467605950183E-1
 2.393809571286142E8     9.505120044479919E-1   -3.093414838051347E-1   -1.187553714019217E-5   -2.807322968824749E-6    8.203026219827776E-6   -2.370895299923609E-6    9.469290950602898E-1   -3.141393013033654E-1
 2.493509970089731E8     9.468928969220195E-1   -3.231084234612636E-1   -1.356780321478177E-7   -5.893524141724801E-6    5.252262309636896E-7    1.656714545338121E-6    9.439469805395497E-1   -3.277681126032007E-1
 2.593210368893320E8     9.427422294394717E-1   -3.351634507221022E-1    8.461741332628887E-6   -1.025480618202587E-5   -1.417935586059762E-5    3.120682488411136E-6    9.398405558318107E-1   -3.409598697480363E-1
 2.692910767696909E8     9.384669375290806E-1   -3.465494789459956E-1    1.042670209552226E-5   -6.874500146028238E-6   -9.577264188967325E-6    1.730518359486830E-6    9.355845380699327E-1   -3.529295771948985E-1
 2.792611166500499E8     9.337258573084887E-1   -3.581610028215980E-1    5.818718232700184E-6   -3.071681865525463E-6   -6.824173600027638E-6   -1.668769642195614E-5    9.310678929868048E-1   -3.648136223329647E-1
 2.892311565304088E8     9.290005634883888E-1   -3.701384071419307E-1   -3.299347791285483E-6    4.383664656672902E-6    1.230873874504476E-5   -8.679092290284543E-6    9.260176540621843E-1   -3.768382373270220E-1
 2.992011964107677E8     9.243252712086627E-1   -3.823999337490925E-1    1.268053713258533E-5   -2.312664226840975E-6    1.319241821076396E-5    2.981303580587335E-5    9.213375942794272E-1   -3.886434996195417E-1
 3.091712362911266E8     9.189554123731848E-1   -3.945575493972446E-1   -6.364045834452195E-6    6.819660716450565E-6    1.423197295279416E-6    1.043291348900981E-5    9.158191826599845E-1   -4.002367253438935E-1
 3.191412761714855E8     9.133097707328441E-1   -4.070191748993660E-1   -7.799116585313866E-6    9.291353854601544E-6   -2.615234540751249E-6   -6.910625043006587E-6    9.097889947148101E-1   -4.119241440534250E-1
 3.291113160518445E8     9.076870099958761E-1   -4.196940770606807E-1   -1.777017925723679E-6   -4.899360512384165E-6    3.125690580250439E-6    6.536069425139288E-6    9.033263840779424E-1   -4.243592633529317E-1
 3.390813559322034E8     9.021637536323329E-1   -4.326068141780957E-1    7.451050362988122E-6   -1.604677741560501E-6   -8.487660305129178E-6   -9.548505166901731E-6    8.969169823584321E-1   -4.369136489152227E-1
 3.490513958125623E8     8.969406149491534E-1   -4.452204018534216E-1   -7.081248649628134E-6    1.715028598917412E-5    7.011931496579141E-6    1.034216176744457E-5    8.905550791464367E-1   -4.495121188086100E-1
 3.590214356929212E8     8.914054349026405E-1   -4.575977890850435E-1   -3.861333985251653E-6    4.804106328842334E-6   -1.081212499637745E-5    1.392484559333822E-6    8.846291379896417E-1   -4.621840834078300E-1
 3.689914755732802E8     8.858987668415191E-1   -4.698454493054637E-1   -5.498138976116830E-6    6.689415450641939E-6   -1.143459419636915E-5    8.344007097669881E-6    8.789588449051738E-1   -4.748076538506397E-1
 3.789615154536391E8     8.798868368351036E-1   -4.810498884477153E-1   -1.448948392022091E-5    2.159620100273698E-6   -2.045583364175469E-6    4.890288252297565E-6    8.737677994316495E-1   -4.868149541226056E-1
 3.889315553339980E8     8.741905311302842E-1   -4.917159107736558E-1    2.880487938224662E-6    6.498719646243810E-6    1.048696625660657E-5   -9.534193151376702E-6    8.680317602183966E-1   -4.987353332084478E-1
 3.989015952143569E8     8.675370475991083E-1   -5.024425430845225E-1   -6.350417374960041E-6   -2.146730360699181E-6   -5.907120478859210E-6    3.789001124921388E-6    8.611973173910007E-1   -5.097409342473941E-1
 4.088716350947158E8     8.603341250779770E-1   -5.132942947528757E-1    5.895590285640286E-6    7.136818675695990E-6   -5.440588432403830E-6    7.320983489389061E-6    8.542357045416802E-1   -5.206287239417285E-1
 4.188416749750748E8     8.533676925828350E-1   -5.247436085540944E-1   -3.857835168564420E-6   -4.235830956115509E-6   -1.332017012462480E-7    1.767048314123316E-6    8.476560871855899E-1   -5.314797857300880E-1
 4.288117148554337E8     8.460842637229503E-1   -5.365960619276072E-1    8.698502206484092E-6   -1.321487582676523E-6   -2.310290911985420E-6   -4.808826687451482E-7    8.406306811070650E-1   -5.419510989504418E-1
 4.387817547357926E8     8.383125139900832E-1   -5.479951352878886E-1    7.168610283416110E-6   -2.237498820062466E-6    1.407626273770425E-5   -1.876888865072909E-6    8.327542869136798E-1   -5.522909331831600E-1
 4.487517946161516E8     8.305863786426141E-1   -5.597597464479749E-1    9.699439241987332E-6   -1.671912591678155E-5   -5.066828387367329E-6    7.505562676092244E-6    8.242518008274891E-1   -5.635051265654395E-1
 4.587218344965104E8     8.237334057133766E-1   -5.717574640848981E-1    1.909367278756176E-6    1.890220884842670E-6    3.536730821813633E-6   -5.497005278847317E-7    8.159830717484648E-1   -5.752206288932198E-1
 4.686918743768694E8     8.172224194044289E-1   -5.832229447671800E-1   -6.542518934636481E-6   -4.907930969536059E-6    2.368864270152040E-6    1.848229170082618E-5    8.078413220042692E-1   -5.868147504130863E-1
 4.786619142572283E8     8.099981142216284E-1   -5.938742314466485E-1    1.060318697472841E-5    2.860948334774269E-6    2.471654019181425E-6    7.772207445407048E-7    7.993772593380705E-1   -5.980423991552734E-1
 4.886319541375872E8     8.023460617432288E-1   -6.042968385758364E-1   -6.711439171495349E-7    8.696907925315462E-7   -1.058759237066084E-5    3.855649658500669E-6    7.905728270145131E-1   -6.088259206745757E-1
 4.986019940179462E8     7.941248182355974E-1   -6.150286321551667E-1   -3.342290855091242E-6   -3.057446857845345E-6    1.038837684857596E-5    7.986417611635290E-6    7.823021655282979E-1   -6.196956765589500E-1
 5.085720338983051E8     7.857895759669773E-1   -6.242169114847019E-1    1.189610907717818E-5   -4.320082469531483E-6   -1.670969731340608E-6   -1.048957161845820E-5    7.746499699245561E-1   -6.303174553891674E-1
 5.185420737786640E8     7.784354285521327E-1   -6.333314272544136E-1   -1.341541597031224E-5    3.111365316523148E-6    9.278838121652982E-6   -1.118349832564543E-6    7.669302381757399E-1   -6.400534440959839E-1
 5.285121136590229E8     7.701379209046545E-1   -6.428646871946863E-1   -2.039694177058766E-6    8.878366920770375E-6   -2.419708606103901E-6    2.430263650587084E-6    7.589757280488091E-1   -6.496317596849455E-1
 5.384821535393819E8     7.615710594221844E-1   -6.530102728497427E-1   -6.729489021206600E-6    1.424197666983327E-6   -9.916126193849191E-6   -1.012392095443808E-5    7.509551320134549E-1   -6.594448023446826E-1
 5.484521934197408E8     7.533389583621879E-1   -6.635199894279084E-1   -2.194932967457525E-6    2.376670708079795E-5   -8.232074967231914E-6   -5.325308991616890E-6    7.425173856894045E-1   -6.693123767529431E-1
 5.584222333000997E8     7.449004187452912E-1   -6.744569497329578E-1    3.512844503847398E-6    3.785110355157918E-6   -1.326418104417637E-5    6.103757235275214E-6    7.333335161932876E-1   -6.792441792200444E-1
 5.683922731804587E8     7.357911971601527E-1   -6.849402086170018E-1    5.398492426390957E-6   -5.643834859553259E-6   -2.937853801238712E-6   -1.063779081610433E-5    7.231035683101598E-1   -6.890550867078614E-1
 5.783623130608176E8     7.264004242012897E-1   -6.948680466211173E-1   -1.091873653659818E-5   -4.689440881812094E-6    1.572585236397456E-6    8.221457399925745E-6    7.126257784564849E-1   -6.989104765053514E-1
 5.883323529411764E8     7.171924758960879E-1   -7.048026230814821E-1    2.504009638703115E-6    4.485817418865204E-6   -1.489277718236333E-5    4.844225586075956E-6    7.022664974628884E-1   -7.086264206714247E-1
 5.983023928215353E8     7.081061723719908E-1   -7.149964721757689E-1   -1.731731726838673E-6    2.056044114392110E-5   -2.205195306780794E-5   -1.725421564143110E-5    6.920398282293041E-1   -7.183822830176674E-1
 6.082724327018943E8     6.985427828285824E-1   -7.245969660943261E-1    4.630379323251957E-6    7.991126769912689E-6   -4.902695974951679E-6   -1.526201472302055E-5    6.817603289514889E-1   -7.277387364314573E-1
 6.182424725822532E8     6.887921551661069E-1   -7.343450649629277E-1    1.647626016272791E-5   -1.021053559147215E-5    4.625026731294317E-6   -5.662494412425665E-6    6.717400408146023E-1   -7.370713262142057E-1
 6.282125124626122E8     6.782474947662670E-1   -7.437651721785411E-1    2.051495355814829E-6    5.789359890679707E-6   -1.957260809750668E-5    1.219881748952591E-5    6.628091878020926E-1   -7.466262454456991E-1
 6.381825523429711E8     6.684904034864575E-1   -7.508945902189397E-1   -5.867029122415845E-6    3.931912246429392E-6    9.853685421888290E-7    9.210031290357858E-6    6.538715111865172E-1   -7.555531658551484E-1
 6.481525922233300E8     6.595525441763186E-1   -7.594590415562998E-1    2.490101148661374E-6    9.584670032265560E-7    3.589023109519206E-6    1.205331134278638E-5    6.446919581378548E-1   -7.639894404619016E-1
 6.581226321036890E8     6.498197672349152E-1   -7.683193989267888E-1   -1.970066695484522E-6    7.969499962223409E-6    1.425526333443423E-6    5.692464817472748E-6    6.347112439038959E-1   -7.724342376094181E-1
 6.680926719840479E8     6.399782205074306E-1   -7.771430383269320E-1   -1.059591607882663E-5    9.196980791459391E-7   -2.119745693980558E-5   -7.284987038590891E-7    6.240899466517033E-1   -7.803342252707859E-1
 6.780627118644068E8     6.301900736865608E-1   -7.851984873105974E-1   -2.542557333606983E-6    5.404494837174931E-6    1.162979796188418E-5    1.212899081174423E-5    6.130965818031512E-1   -7.883152386682494E-1
 6.880327517447658E8     6.197187030605479E-1   -7.934332645586735E-1    3.573746173435397E-6    2.597762027863202E-6   -2.387603495837324E-5   -3.333073902930167E-6    6.017409188964458E-1   -7.959901716776691E-1
 6.980027916251246E8     6.087349062603399E-1   -8.017142770004266E-1    2.849931815818315E-7    7.914809538923751E-6   -6.569827148001912E-6    1.721108227743955E-5    5.901634644066276E-1   -8.036646965597473E-1
 7.079728315054835E8     5.974614074582137E-1   -8.100877785246304E-1   -8.483038463536950E-6   -1.345950208642803E-6   -3.166425441283344E-6    8.743003713070593E-6    5.785855535706184E-1   -8.115689738710405E-1
 7.179428713858424E8     5.861884420376595E-1   -8.184552269121176E-1   -5.107955271799570E-6    1.046772853865711E-6    9.101395843191996E-7   -5.365578507922330E-6    5.673755589214635E-1   -8.200187787583653E-1
 7.279129112662014E8     5.752629930523818E-1   -8.269150682503701E-1    7.099180306746421E-6   -7.258369109336648E-6   -2.038126013771087E-6   -1.486209380018422E-5    5.560350752648870E-1   -8.287554112809101E-1
 7.378829511465603E8     5.639779223691773E-1   -8.356125658236763E-1    6.544618558624394E-8    1.638482849189640E-5   -1.074788811967470E-6   -9.570524318478612E-7    5.447330677700998E-1   -8.371266321217431E-1
 7.478529910269192E8     5.520229585451375E-1   -8.441289634093585E-1    5.280470916647277E-6    4.223087700635358E-7   -1.406942504324833E-6    7.765829401601419E-7    5.336855340075478E-1   -8.448393469760611E-1
 7.578230309072782E8     5.394604969824994E-1   -8.514356100257846E-1   -8.223401022774421E-6   -2.744507411176087E-6    7.787776029503143E-6   -6.492647967376091E-6    5.224894019638915E-1   -8.516461517696295E-1
 7.677930707876371E8     5.289966007136352E-1   -8.567913857568512E-1    1.363828949708545E-7    7.008133045798726E-6   -1.503742510917438E-6    7.387788803543177E-6    5.111545009845601E-1   -8.580518470867486E-1
 7.777631106679960E8     5.193821570878211E-1   -8.636175331173499E-1   -7.841069286541089E-6    1.162566681310217E-5    1.823891748376067E-6    8.032385864153797E-6    4.996437520141178E-1   -8.646895613413405E-1
 7.877331505483550E8     5.090562901196882E-1   -8.705642222595842E-1   -1.725522331732300E-6    7.955861275793771E-6    7.787053633539759E-7   -8.841454013991171E-6    4.878436744458300E-1   -8.713747932223120E-1
 7.977031904287138E8     4.978882175966953E-1   -8.769989204820664E-1    2.443840748119524E-6    2.962863289123526E-6    7.447231874625889E-6   -4.003929801753761E-6    4.752175579272237E-1   -8.779141575336397E-1
 8.076732303090727E8     4.861812189548895E-1   -8.829468164297981E-1   -1.224666598070051E-6   -3.577633978894608E-6   -1.067891481110190E-5   -1.034141405742298E-5    4.622926630169720E-1   -8.839945054272268E-1
 8.176432701894317E8     4.741974301234507E-1   -8.889334284294842E-1   -3.895664061951075E-6   -2.200113526690887E-6    5.107523985569732E-6    8.586296551169397E-6    4.493357038862535E-1   -8.902048140933124E-1
 8.276133100697906E8     4.618346415195426E-1   -8.953269004538661E-1   -1.450367214816334E-6   -6.005215342744827E-6   -8.950264852217446E-6   -5.728472611575359E-6    4.368251843103815E-1   -8.970260842749808E-1
 8.375833499501495E8     4.492804476239631E-1   -9.018124392583611E-1   -4.251431813969327E-6   -1.120417001194071E-6    1.444272324546938E-5   -8.791060701208948E-6    4.246154687745991E-1   -9.036506649507879E-1
 8.475533898305085E8     4.364894639866260E-1   -9.082273675749467E-1    3.928534838715938E-6    2.676615649481719E-6    1.565195662776971E-6    1.293630799900327E-5    4.127306127287000E-1   -9.097191174084945E-1
 8.575234297108674E8     4.237242941452115E-1   -9.146162586052271E-1    4.834905124306587E-6   -1.859755648876980E-6    4.474425506054596E-6   -1.658042451185081E-6    4.010698991644256E-1   -9.149646239934084E-1
 8.674934695912263E8     4.108570320759321E-1   -9.211171859420182E-1   -4.405342663409127E-6   -4.783449934166063E-8   -5.459752037574682E-6   -2.131785114049538E-5    3.888607426616029E-1   -9.198011461061404E-1
 8.774635094715853E8     3.977909697642153E-1   -9.277717243111073E-1    1.895708111014225E-6   -3.883002950016149E-7    3.970858152521337E-6    6.685090637302531E-6    3.763674209812476E-1   -9.245611323285451E-1
 8.874335493519442E8     3.846221950399617E-1   -9.323907314143508E-1    1.021701502954840E-5    7.880744447374169E-6   -1.783902708593205E-6    3.629040278181726E-6    3.631966685844757E-1   -9.291061094647146E-1
 8.974035892323031E8     3.733907944991612E-1   -9.361575721125374E-1   -7.015001481017032E-6    5.361874067308774E-6   -8.850115245063299E-6   -4.304975475699726E-6    3.496578130949686E-1   -9.333994895079475E-1
