[Version] 2.0
! Rohde & Schwarz Vector Network Analyzer
! Rohde-Schwarz,ZNL20-2Port,1323001220200009,1.71.1.10-23.02.1.238
! 
! Port Assignments:
! Nominal Port -> Actual Test Port
! --------------------------------
!   1 -> 1

! Created: GMT 2024-09-04 10:34:27

# Hz S DB R 50

[Number of Ports] 1
[Number of Frequencies] 2001

[Network Data] 
! freq[Hz]               S11[mag dB]              S11[ang]                 
1.000000000000000e+10    -1.801423858377431e+01   -1.014435308362927e+02   
1.000100000000000e+10    -1.803938894934065e+01   -1.017721069183084e+02   
1.000200000000000e+10    -1.807881591167947e+01   -1.018651458928590e+02   
1.000300000000000e+10    -1.810618388522786e+01   -1.020092893310826e+02   
1.000400000000000e+10    -1.814792109403977e+01   -1.022635764896602e+02   
1.000500000000000e+10    -1.816432181711973e+01   -1.024573823591286e+02   
1.000600000000000e+10    -1.822760631288346e+01   -1.025411014048324e+02   
1.000700000000000e+10    -1.823059388980852e+01   -1.026897340983590e+02   
1.000800000000000e+10    -1.829902776220912e+01   -1.028092166067573e+02   
1.000900000000000e+10    -1.831172343173779e+01   -1.025511167800763e+02   
1.001000000000000e+10    -1.835433193001397e+01   -1.027697187155826e+02   
1.001100000000000e+10    -1.839079182235993e+01   -1.026131191652011e+02   
1.001200000000000e+10    -1.841844407546195e+01   -1.025750765837038e+02   
1.001300000000000e+10    -1.844064946765425e+01   -1.024607794370643e+02   
1.001400000000000e+10    -1.848269327771881e+01   -1.022747408358608e+02   
1.001500000000000e+10    -1.847566957166615e+01   -1.023016280054860e+02   
1.001600000000000e+10    -1.850349841883580e+01   -1.020417203753132e+02   
1.001700000000000e+10    -1.851568374989516e+01   -1.018575979921275e+02   
1.001800000000000e+10    -1.851102383854196e+01   -1.016945440851364e+02   
1.001900000000000e+10    -1.850729550829432e+01   -1.015711367161773e+02   
1.002000000000000e+10    -1.851102734056514e+01   -1.012606038420878e+02   
1.002100000000000e+10    -1.848729937676195e+01   -1.010522021454755e+02   
1.002200000000000e+10    -1.844789936558490e+01   -1.010047413951738e+02   
1.002300000000000e+10    -1.843214441048912e+01   -1.008418698423264e+02   
1.002400000000000e+10    -1.839285532133168e+01   -1.009022876065583e+02   
1.002500000000000e+10    -1.835510652897047e+01   -1.007503333349024e+02   
1.002600000000000e+10    -1.830836704844152e+01   -1.006698327254024e+02   
1.002700000000000e+10    -1.826693224436440e+01   -1.005920317278465e+02   
1.002800000000000e+10    -1.820186192448732e+01   -1.006991872185127e+02   
1.002900000000000e+10    -1.816761932200005e+01   -1.006840615705238e+02   
1.003000000000000e+10    -1.811920004003818e+01   -1.008568171046279e+02   
1.003100000000000e+10    -1.806303395963413e+01   -1.010871154424227e+02   
1.003200000000000e+10    -1.802999504640530e+01   -1.011407634803175e+02   
1.003300000000000e+10    -1.800739711281317e+01   -1.013611974189938e+02   
1.003400000000000e+10    -1.794330561146096e+01   -1.016408012339431e+02   
1.003500000000000e+10    -1.791584279160163e+01   -1.017842732425963e+02   
1.003600000000000e+10    -1.790105964696279e+01   -1.021233324995908e+02   
1.003700000000000e+10    -1.785595852587198e+01   -1.024286523854435e+02   
1.003800000000000e+10    -1.785037299774742e+01   -1.026719129933292e+02   
1.003900000000000e+10    -1.781342277356524e+01   -1.031230712317640e+02   
1.004000000000000e+10    -1.782133346446523e+01   -1.031966061457273e+02   
1.004100000000000e+10    -1.778654883620203e+01   -1.035563571905762e+02   
1.004200000000000e+10    -1.781304780784089e+01   -1.037211066190496e+02   
1.004300000000000e+10    -1.780753497642238e+01   -1.041604591301001e+02   
1.004400000000000e+10    -1.780235525396490e+01   -1.045004311207074e+02   
1.004500000000000e+10    -1.784056155383326e+01   -1.047581139555967e+02   
1.004600000000000e+10    -1.784768859800249e+01   -1.048837244699212e+02   
1.004700000000000e+10    -1.786192458344974e+01   -1.052840434635284e+02   
1.004800000000000e+10    -1.788939346090920e+01   -1.054861857222950e+02   
1.004900000000000e+10    -1.794499683059975e+01   -1.056566698105550e+02   
1.005000000000000e+10    -1.798358759480584e+01   -1.057649274280091e+02   
1.005100000000000e+10    -1.799664742182532e+01   -1.057467594443685e+02   
1.005200000000000e+10    -1.802411517681973e+01   -1.058528744870905e+02   
1.005300000000000e+10    -1.806003516697282e+01   -1.059656488776248e+02   
1.005400000000000e+10    -1.810854765809513e+01   -1.060037643050897e+02   
1.005500000000000e+10    -1.813799235260946e+01   -1.060472375424133e+02   
1.005600000000000e+10    -1.818172228862290e+01   -1.057901447238751e+02   
1.005700000000000e+10    -1.822281143665541e+01   -1.057589638445276e+02   
1.005800000000000e+10    -1.823946143164279e+01   -1.054234872793325e+02   
1.005900000000000e+10    -1.825644194783959e+01   -1.054007403962497e+02   
1.006000000000000e+10    -1.827323919747008e+01   -1.052252951658539e+02   
1.006100000000000e+10    -1.829736008657839e+01   -1.049733665414116e+02   
1.006200000000000e+10    -1.831001824219379e+01   -1.046236827054144e+02   
1.006300000000000e+10    -1.829193514464223e+01   -1.042713217269980e+02   
1.006400000000000e+10    -1.830623458427963e+01   -1.040881438571689e+02   
1.006500000000000e+10    -1.828756032114853e+01   -1.039358663391679e+02   
1.006600000000000e+10    -1.828136323731123e+01   -1.036512964458165e+02   
1.006700000000000e+10    -1.827779847885721e+01   -1.033260816318377e+02   
1.006800000000000e+10    -1.825127985511827e+01   -1.034086882058630e+02   
1.006900000000000e+10    -1.820899022404839e+01   -1.029818810103684e+02   
1.007000000000000e+10    -1.816983341058066e+01   -1.028760465278944e+02   
1.007100000000000e+10    -1.812950227299904e+01   -1.027240466743441e+02   
1.007200000000000e+10    -1.809635990413742e+01   -1.027968028782765e+02   
1.007300000000000e+10    -1.805368439341652e+01   -1.026179690514900e+02   
1.007400000000000e+10    -1.800620825841451e+01   -1.026385214787833e+02   
1.007500000000000e+10    -1.797617706182477e+01   -1.026690848807846e+02   
1.007600000000000e+10    -1.792024979475804e+01   -1.028212302974625e+02   
1.007700000000000e+10    -1.788462295468483e+01   -1.028226796695413e+02   
1.007800000000000e+10    -1.783820843846244e+01   -1.029381206308544e+02   
1.007900000000000e+10    -1.780094349857184e+01   -1.029635525247287e+02   
1.008000000000000e+10    -1.777568270322164e+01   -1.032085401320384e+02   
1.008100000000000e+10    -1.774565799381631e+01   -1.037171593452588e+02   
1.008200000000000e+10    -1.772380914863322e+01   -1.039590005152933e+02   
1.008300000000000e+10    -1.772150147151218e+01   -1.040800717150359e+02   
1.008400000000000e+10    -1.769716550178034e+01   -1.045137007706643e+02   
1.008500000000000e+10    -1.768226082738724e+01   -1.047647973537554e+02   
1.008600000000000e+10    -1.768267614697410e+01   -1.050681248369608e+02   
1.008700000000000e+10    -1.768808395078850e+01   -1.053584769710006e+02   
1.008800000000000e+10    -1.769002791197302e+01   -1.058141271959728e+02   
1.008900000000000e+10    -1.771453948066929e+01   -1.059539917976447e+02   
1.009000000000000e+10    -1.771655581826056e+01   -1.063214952766684e+02   
1.009100000000000e+10    -1.773678259309638e+01   -1.066819743749077e+02   
1.009200000000000e+10    -1.777083732433197e+01   -1.068578185446556e+02   
1.009300000000000e+10    -1.781300999556363e+01   -1.071151064863127e+02   
1.009400000000000e+10    -1.784801246070425e+01   -1.074211537387246e+02   
1.009500000000000e+10    -1.788044101256240e+01   -1.076422595383406e+02   
1.009600000000000e+10    -1.791757081316312e+01   -1.076536454103247e+02   
1.009700000000000e+10    -1.796223526273377e+01   -1.078277136060807e+02   
1.009800000000000e+10    -1.802219714488199e+01   -1.078789558435912e+02   
1.009900000000000e+10    -1.806320430843684e+01   -1.079436409995283e+02   
1.010000000000000e+10    -1.809235165571585e+01   -1.080160255174481e+02   
1.010100000000000e+10    -1.813594450516034e+01   -1.079073421070265e+02   
1.010200000000000e+10    -1.818681208410073e+01   -1.078625866635000e+02   
1.010300000000000e+10    -1.821749177309868e+01   -1.078048544457104e+02   
1.010400000000000e+10    -1.823842762420179e+01   -1.076183984830538e+02   
1.010500000000000e+10    -1.826988364601274e+01   -1.075519286015500e+02   
1.010600000000000e+10    -1.828353517144576e+01   -1.071233555772436e+02   
1.010700000000000e+10    -1.829799731057334e+01   -1.072357347869956e+02   
1.010800000000000e+10    -1.832798903744631e+01   -1.068552439487519e+02   
1.010900000000000e+10    -1.830722708106662e+01   -1.066973539402040e+02   
1.011000000000000e+10    -1.830192850012661e+01   -1.063293865308394e+02   
1.011100000000000e+10    -1.826444096201720e+01   -1.062548622977923e+02   
1.011200000000000e+10    -1.826786942563460e+01   -1.060544972834515e+02   
1.011300000000000e+10    -1.821872475981214e+01   -1.059263200893338e+02   
1.011400000000000e+10    -1.821405870885832e+01   -1.056643510154608e+02   
1.011500000000000e+10    -1.816774067611325e+01   -1.055709261375610e+02   
1.011600000000000e+10    -1.815169102106717e+01   -1.054167257464730e+02   
1.011700000000000e+10    -1.812435416440387e+01   -1.054504282241399e+02   
1.011800000000000e+10    -1.807088071927954e+01   -1.053782116539999e+02   
1.011900000000000e+10    -1.802144870576149e+01   -1.053961668742437e+02   
1.012000000000000e+10    -1.795687066593401e+01   -1.054139124748228e+02   
1.012100000000000e+10    -1.792907005569889e+01   -1.055891622935729e+02   
1.012200000000000e+10    -1.787459309845898e+01   -1.055080244717815e+02   
1.012300000000000e+10    -1.783918783007675e+01   -1.056950434818170e+02   
1.012400000000000e+10    -1.781091045827753e+01   -1.059034449769144e+02   
1.012500000000000e+10    -1.777169998757921e+01   -1.060476304111473e+02   
1.012600000000000e+10    -1.775046418322073e+01   -1.062488922250194e+02   
1.012700000000000e+10    -1.771438892967398e+01   -1.066341167568523e+02   
1.012800000000000e+10    -1.768951419052525e+01   -1.067828763309562e+02   
1.012900000000000e+10    -1.766386623536722e+01   -1.071369382439161e+02   
1.013000000000000e+10    -1.766352637622623e+01   -1.073160395035610e+02   
1.013100000000000e+10    -1.765346953486689e+01   -1.076722597702696e+02   
1.013200000000000e+10    -1.765789776518540e+01   -1.080135893178583e+02   
1.013300000000000e+10    -1.766391125745962e+01   -1.083899437879945e+02   
1.013400000000000e+10    -1.765676002077261e+01   -1.085719826027789e+02   
1.013500000000000e+10    -1.767472049995253e+01   -1.089136370849263e+02   
1.013600000000000e+10    -1.769377051400519e+01   -1.090984517693786e+02   
1.013700000000000e+10    -1.770741954143321e+01   -1.093268046162987e+02   
1.013800000000000e+10    -1.773427457223515e+01   -1.095932062380572e+02   
1.013900000000000e+10    -1.776826102412957e+01   -1.098178656214018e+02   
1.014000000000000e+10    -1.780237710403865e+01   -1.098738236556944e+02   
1.014100000000000e+10    -1.785229066824784e+01   -1.101071300189851e+02   
1.014200000000000e+10    -1.787665598381049e+01   -1.101327680688203e+02   
1.014300000000000e+10    -1.792952073899824e+01   -1.102064873772099e+02   
1.014400000000000e+10    -1.796568676785682e+01   -1.101800634773981e+02   
1.014500000000000e+10    -1.800883012559935e+01   -1.103015537889084e+02   
1.014600000000000e+10    -1.803619354626659e+01   -1.101408772586706e+02   
1.014700000000000e+10    -1.807603019990975e+01   -1.099647953817869e+02   
1.014800000000000e+10    -1.812844324968910e+01   -1.099555987276995e+02   
1.014900000000000e+10    -1.813732104889186e+01   -1.097976195264068e+02   
1.015000000000000e+10    -1.816899724893272e+01   -1.096484063002629e+02   
1.015100000000000e+10    -1.819023807483715e+01   -1.094144159591734e+02   
1.015200000000000e+10    -1.819953554927372e+01   -1.091357369060105e+02   
1.015300000000000e+10    -1.821343892330880e+01   -1.090425577200262e+02   
1.015400000000000e+10    -1.821007910244521e+01   -1.086976174344555e+02   
1.015500000000000e+10    -1.824161057433905e+01   -1.086382588777969e+02   
1.015600000000000e+10    -1.822205639168445e+01   -1.083549887938957e+02   
1.015700000000000e+10    -1.820468386999578e+01   -1.080043435094811e+02   
1.015800000000000e+10    -1.818015321140645e+01   -1.079186782143696e+02   
1.015900000000000e+10    -1.815859200527807e+01   -1.077068166613867e+02   
1.016000000000000e+10    -1.812112617194896e+01   -1.075878248247641e+02   
1.016100000000000e+10    -1.810128035033663e+01   -1.074980750979157e+02   
1.016200000000000e+10    -1.806249831154836e+01   -1.072642976758257e+02   
1.016300000000000e+10    -1.802464597675384e+01   -1.072007960567939e+02   
1.016400000000000e+10    -1.801204741660101e+01   -1.072680475003820e+02   
1.016500000000000e+10    -1.795256228003959e+01   -1.071938569429859e+02   
1.016600000000000e+10    -1.792748211311885e+01   -1.073516357154657e+02   
1.016700000000000e+10    -1.787202695593729e+01   -1.073802053182144e+02   
1.016800000000000e+10    -1.783576057852221e+01   -1.074755101184413e+02   
1.016900000000000e+10    -1.780812779583928e+01   -1.076067951888843e+02   
1.017000000000000e+10    -1.777989781269693e+01   -1.078811519454571e+02   
1.017100000000000e+10    -1.773514543935769e+01   -1.081843085681549e+02   
1.017200000000000e+10    -1.771231696348599e+01   -1.082846979766692e+02   
1.017300000000000e+10    -1.769197457435786e+01   -1.086500563123513e+02   
1.017400000000000e+10    -1.767107224876052e+01   -1.088613890918758e+02   
1.017500000000000e+10    -1.764757651946275e+01   -1.091990252725628e+02   
1.017600000000000e+10    -1.762999123081552e+01   -1.093773318463776e+02   
1.017700000000000e+10    -1.764954988391438e+01   -1.097629547120746e+02   
1.017800000000000e+10    -1.763869227239368e+01   -1.100940836313688e+02   
1.017900000000000e+10    -1.764553076759349e+01   -1.103033010416487e+02   
1.018000000000000e+10    -1.765294678578116e+01   -1.106529373244444e+02   
1.018100000000000e+10    -1.766862731024194e+01   -1.108941530743063e+02   
1.018200000000000e+10    -1.769738555137148e+01   -1.111767244139085e+02   
1.018300000000000e+10    -1.770555124543558e+01   -1.114174258659192e+02   
1.018400000000000e+10    -1.774638367248880e+01   -1.116817717709499e+02   
1.018500000000000e+10    -1.776625617075564e+01   -1.119163446710235e+02   
1.018600000000000e+10    -1.779031361877553e+01   -1.122483344557246e+02   
1.018700000000000e+10    -1.782839148439525e+01   -1.122311585636810e+02   
1.018800000000000e+10    -1.786741143265514e+01   -1.124414972477686e+02   
1.018900000000000e+10    -1.791082592399522e+01   -1.125098023120548e+02   
1.019000000000000e+10    -1.794047420682093e+01   -1.124710347649439e+02   
1.019100000000000e+10    -1.796634213432516e+01   -1.124977142364615e+02   
1.019200000000000e+10    -1.800109572905844e+01   -1.124113153079662e+02   
1.019300000000000e+10    -1.803698951858761e+01   -1.125502420891440e+02   
1.019400000000000e+10    -1.806018160618056e+01   -1.123458466631265e+02   
1.019500000000000e+10    -1.808424501704036e+01   -1.122842213553185e+02   
1.019600000000000e+10    -1.807857755118999e+01   -1.120880853303781e+02   
1.019700000000000e+10    -1.810631273544558e+01   -1.119324744602757e+02   
1.019800000000000e+10    -1.811403508335078e+01   -1.117822112071608e+02   
1.019900000000000e+10    -1.812076048725699e+01   -1.115098292660645e+02   
1.020000000000000e+10    -1.811756769608663e+01   -1.114503884434581e+02   
1.020100000000000e+10    -1.811435031998843e+01   -1.112153248597239e+02   
1.020200000000000e+10    -1.809387199876175e+01   -1.109472202145080e+02   
1.020300000000000e+10    -1.809544628482966e+01   -1.107956101071294e+02   
1.020400000000000e+10    -1.806074582896576e+01   -1.106215827945717e+02   
1.020500000000000e+10    -1.804760629355202e+01   -1.105444599767219e+02   
1.020600000000000e+10    -1.800021588584754e+01   -1.102907510305984e+02   
1.020700000000000e+10    -1.798848164489308e+01   -1.102361063036342e+02   
1.020800000000000e+10    -1.796267236636075e+01   -1.102016446289153e+02   
1.020900000000000e+10    -1.791373968287295e+01   -1.101031343473900e+02   
1.021000000000000e+10    -1.787344484540536e+01   -1.100778769364929e+02   
1.021100000000000e+10    -1.784334091942990e+01   -1.101012857442753e+02   
1.021200000000000e+10    -1.781529603768509e+01   -1.100362903364586e+02   
1.021300000000000e+10    -1.775620680415648e+01   -1.101647370569670e+02   
1.021400000000000e+10    -1.774072096102564e+01   -1.101744777251918e+02   
1.021500000000000e+10    -1.768224044944834e+01   -1.104125698623203e+02   
1.021600000000000e+10    -1.765523410967364e+01   -1.106300555013769e+02   
1.021700000000000e+10    -1.762901902552864e+01   -1.106422113742587e+02   
1.021800000000000e+10    -1.761242698521883e+01   -1.108724124683608e+02   
1.021900000000000e+10    -1.757998183930808e+01   -1.109719009751814e+02   
1.022000000000000e+10    -1.757761058352333e+01   -1.112474747451310e+02   
1.022100000000000e+10    -1.753723643451953e+01   -1.114871921030352e+02   
1.022200000000000e+10    -1.754224988248484e+01   -1.117063217245648e+02   
1.022300000000000e+10    -1.753865124975709e+01   -1.119861946735667e+02   
1.022400000000000e+10    -1.754007351132532e+01   -1.122743953593621e+02   
1.022500000000000e+10    -1.754342681163482e+01   -1.124870184247752e+02   
1.022600000000000e+10    -1.756433432486051e+01   -1.127617074517367e+02   
1.022700000000000e+10    -1.756994518350655e+01   -1.130123092043406e+02   
1.022800000000000e+10    -1.761074321158736e+01   -1.131455941953480e+02   
1.022900000000000e+10    -1.760369710821698e+01   -1.133828197198975e+02   
1.023000000000000e+10    -1.764808610214643e+01   -1.136199908240368e+02   
1.023100000000000e+10    -1.765680246107900e+01   -1.137102321802948e+02   
1.023200000000000e+10    -1.771815054637795e+01   -1.139041706452890e+02   
1.023300000000000e+10    -1.771925773024311e+01   -1.140405300147225e+02   
1.023400000000000e+10    -1.778002981182912e+01   -1.142122234310927e+02   
1.023500000000000e+10    -1.779252679719992e+01   -1.142248998188049e+02   
1.023600000000000e+10    -1.785263113151009e+01   -1.142538405439945e+02   
1.023700000000000e+10    -1.788560862648689e+01   -1.142620590585820e+02   
1.023800000000000e+10    -1.792575049969729e+01   -1.143484329853168e+02   
1.023900000000000e+10    -1.795748561406969e+01   -1.142056956134502e+02   
1.024000000000000e+10    -1.800140310846069e+01   -1.141335611437042e+02   
1.024100000000000e+10    -1.801686803587377e+01   -1.141586707359201e+02   
1.024200000000000e+10    -1.803641994321329e+01   -1.139843720197026e+02   
1.024300000000000e+10    -1.806129593329216e+01   -1.137342671587618e+02   
1.024400000000000e+10    -1.807104345297903e+01   -1.136974158171459e+02   
1.024500000000000e+10    -1.809237110676958e+01   -1.134943515599281e+02   
1.024600000000000e+10    -1.808438476163135e+01   -1.134512478819133e+02   
1.024700000000000e+10    -1.810127276316502e+01   -1.132487049644954e+02   
1.024800000000000e+10    -1.810712418222005e+01   -1.132905947810318e+02   
1.024900000000000e+10    -1.807681005513993e+01   -1.130747645051481e+02   
1.025000000000000e+10    -1.806970763283947e+01   -1.128668534296157e+02   
1.025100000000000e+10    -1.807625520226125e+01   -1.127191850279505e+02   
1.025200000000000e+10    -1.805003913719533e+01   -1.127689669857428e+02   
1.025300000000000e+10    -1.800981063355978e+01   -1.126296880467819e+02   
1.025400000000000e+10    -1.797865621421462e+01   -1.125286554591490e+02   
1.025500000000000e+10    -1.796862748556149e+01   -1.125415020562038e+02   
1.025600000000000e+10    -1.793679427892834e+01   -1.126010215737616e+02   
