[Version] 2.0
! Rohde & Schwarz Vector Network Analyzer
! Rohde-Schwarz,ZNL20-2Port,1323001220200009,1.71.1.10-23.02.1.238
! 
! Port Assignments:
! Nominal Port -> Actual Test Port
! --------------------------------
!   1 -> 1

! Created: GMT 2024-09-04 10:34:55

# Hz S DB R 50

[Number of Ports] 1
[Number of Frequencies] 2001

[Network Data] 
! freq[Hz]               S11[mag dB]              S11[ang]                 
1.000000000000000e+10    -1.800843665719264e+01   -1.014089048783052e+02   
1.000100000000000e+10    -1.803199114957947e+01   -1.017410522865594e+02   
1.000200000000000e+10    -1.806992679850243e+01   -1.018349386392401e+02   
1.000300000000000e+10    -1.809746288369676e+01   -1.019895676337794e+02   
1.000400000000000e+10    -1.813812526077297e+01   -1.022530028053056e+02   
1.000500000000000e+10    -1.815542760481731e+01   -1.024513440587673e+02   
1.000600000000000e+10    -1.821962706790838e+01   -1.025423468040636e+02   
1.000700000000000e+10    -1.822190153140001e+01   -1.026964380971696e+02   
1.000800000000000e+10    -1.828982710241219e+01   -1.028273419581694e+02   
1.000900000000000e+10    -1.830370201620007e+01   -1.025693985067128e+02   
1.001000000000000e+10    -1.834709776261388e+01   -1.027973299392291e+02   
1.001100000000000e+10    -1.838336947859931e+01   -1.026507191547085e+02   
1.001200000000000e+10    -1.841084906615694e+01   -1.026143522217262e+02   
1.001300000000000e+10    -1.843544311431578e+01   -1.025085102767827e+02   
1.001400000000000e+10    -1.847673466183948e+01   -1.023334459443093e+02   
1.001500000000000e+10    -1.847206773692818e+01   -1.023579998348478e+02   
1.001600000000000e+10    -1.850114880586233e+01   -1.021068986143924e+02   
1.001700000000000e+10    -1.851482763098730e+01   -1.019351018527973e+02   
1.001800000000000e+10    -1.851162589865214e+01   -1.017612407510732e+02   
1.001900000000000e+10    -1.850982480777094e+01   -1.016342620441321e+02   
1.002000000000000e+10    -1.851408786278574e+01   -1.013224943289068e+02   
1.002100000000000e+10    -1.849292647003061e+01   -1.011126676128682e+02   
1.002200000000000e+10    -1.845396334785176e+01   -1.010536412575543e+02   
1.002300000000000e+10    -1.843752888612050e+01   -1.008890738542529e+02   
1.002400000000000e+10    -1.840029945901188e+01   -1.009463567370456e+02   
1.002500000000000e+10    -1.836496640648575e+01   -1.007868640840035e+02   
1.002600000000000e+10    -1.831768782644706e+01   -1.006953916692828e+02   
1.002700000000000e+10    -1.827869736824685e+01   -1.006016935324239e+02   
1.002800000000000e+10    -1.821351553559232e+01   -1.007033481034957e+02   
1.002900000000000e+10    -1.817937906658216e+01   -1.006830289119741e+02   
1.003000000000000e+10    -1.813114385811366e+01   -1.008462630538735e+02   
1.003100000000000e+10    -1.807299560613708e+01   -1.010642235797762e+02   
1.003200000000000e+10    -1.804039264739314e+01   -1.011151766810783e+02   
1.003300000000000e+10    -1.801673349298974e+01   -1.013257446025779e+02   
1.003400000000000e+10    -1.795313648064079e+01   -1.016040275975589e+02   
1.003500000000000e+10    -1.792381880630340e+01   -1.017451002647537e+02   
1.003600000000000e+10    -1.790797261030356e+01   -1.020736148206576e+02   
1.003700000000000e+10    -1.786303129022878e+01   -1.023626811935780e+02   
1.003800000000000e+10    -1.785446244949614e+01   -1.026113858831249e+02   
1.003900000000000e+10    -1.781775530098584e+01   -1.030527036985142e+02   
1.004000000000000e+10    -1.782326921177605e+01   -1.031390687719665e+02   
1.004100000000000e+10    -1.778760503849769e+01   -1.034912013357030e+02   
1.004200000000000e+10    -1.781343578893081e+01   -1.036636056657560e+02   
1.004300000000000e+10    -1.780652517886589e+01   -1.041038237419971e+02   
1.004400000000000e+10    -1.779954793227575e+01   -1.044450649853223e+02   
1.004500000000000e+10    -1.783727714359608e+01   -1.046966374846314e+02   
1.004600000000000e+10    -1.784403425740640e+01   -1.048418231115539e+02   
1.004700000000000e+10    -1.785837718904195e+01   -1.052435771760759e+02   
1.004800000000000e+10    -1.788446529991382e+01   -1.054611269970788e+02   
1.004900000000000e+10    -1.793792685350702e+01   -1.056353254338296e+02   
1.005000000000000e+10    -1.797542439627018e+01   -1.057484267014177e+02   
1.005100000000000e+10    -1.798915881296097e+01   -1.057354598898489e+02   
1.005200000000000e+10    -1.801563574890974e+01   -1.058530149538550e+02   
1.005300000000000e+10    -1.805282876331472e+01   -1.059780065463347e+02   
1.005400000000000e+10    -1.810037975782590e+01   -1.060198889519409e+02   
1.005500000000000e+10    -1.813149470462940e+01   -1.060740189174488e+02   
1.005600000000000e+10    -1.817557654299565e+01   -1.058187686096975e+02   
1.005700000000000e+10    -1.821721153576944e+01   -1.057995879275669e+02   
1.005800000000000e+10    -1.823493591551758e+01   -1.054658679456491e+02   
1.005900000000000e+10    -1.825417420719812e+01   -1.054499626154390e+02   
1.006000000000000e+10    -1.826946413652590e+01   -1.052847202585187e+02   
1.006100000000000e+10    -1.829505340104113e+01   -1.050377847649317e+02   
1.006200000000000e+10    -1.830834076300561e+01   -1.046974900214969e+02   
1.006300000000000e+10    -1.829388919882062e+01   -1.043386552862029e+02   
1.006400000000000e+10    -1.830811653637520e+01   -1.041542068110789e+02   
1.006500000000000e+10    -1.829284337262871e+01   -1.040075942213689e+02   
1.006600000000000e+10    -1.828731044583269e+01   -1.037159529280613e+02   
1.006700000000000e+10    -1.828184317548451e+01   -1.033968566017961e+02   
1.006800000000000e+10    -1.825964304302672e+01   -1.034561747821463e+02   
1.006900000000000e+10    -1.821665310804197e+01   -1.030397052298860e+02   
1.007000000000000e+10    -1.817894172550189e+01   -1.029204332802266e+02   
1.007100000000000e+10    -1.813929068217646e+01   -1.027598296538483e+02   
1.007200000000000e+10    -1.810643045079477e+01   -1.028314802351368e+02   
1.007300000000000e+10    -1.806402957405444e+01   -1.026425306499668e+02   
1.007400000000000e+10    -1.801725158413165e+01   -1.026507401787928e+02   
1.007500000000000e+10    -1.798873503226241e+01   -1.026746576395066e+02   
1.007600000000000e+10    -1.793128362818487e+01   -1.028130501321212e+02   
1.007700000000000e+10    -1.789447657391941e+01   -1.028111274988897e+02   
1.007800000000000e+10    -1.784803996886878e+01   -1.029189767800983e+02   
1.007900000000000e+10    -1.781082709280842e+01   -1.029318954021908e+02   
1.008000000000000e+10    -1.778191137488209e+01   -1.031833504507742e+02   
1.008100000000000e+10    -1.775260041857809e+01   -1.036766805115929e+02   
1.008200000000000e+10    -1.772895990537179e+01   -1.039104948364077e+02   
1.008300000000000e+10    -1.772594473796371e+01   -1.040319784989067e+02   
1.008400000000000e+10    -1.770090578246500e+01   -1.044637716861071e+02   
1.008500000000000e+10    -1.768451883462687e+01   -1.047032382579863e+02   
1.008600000000000e+10    -1.768351857215797e+01   -1.050069616491458e+02   
1.008700000000000e+10    -1.768847680731774e+01   -1.053045302702104e+02   
1.008800000000000e+10    -1.768889409828338e+01   -1.057650211481740e+02   
1.008900000000000e+10    -1.771224285418106e+01   -1.059065402187173e+02   
1.009000000000000e+10    -1.771279351942663e+01   -1.062714534059435e+02   
1.009100000000000e+10    -1.773194286792415e+01   -1.066417463614876e+02   
1.009200000000000e+10    -1.776520579298755e+01   -1.068048258184215e+02   
1.009300000000000e+10    -1.780442981952634e+01   -1.070812704433047e+02   
1.009400000000000e+10    -1.784017945297597e+01   -1.073927704758650e+02   
1.009500000000000e+10    -1.787174534539049e+01   -1.076266600913609e+02   
1.009600000000000e+10    -1.790871474116292e+01   -1.076330461997725e+02   
1.009700000000000e+10    -1.795402582322932e+01   -1.078291117005995e+02   
1.009800000000000e+10    -1.801204274377906e+01   -1.078773626616582e+02   
1.009900000000000e+10    -1.805255717560670e+01   -1.079625175064084e+02   
1.010000000000000e+10    -1.808252952473242e+01   -1.080489824278480e+02   
1.010100000000000e+10    -1.812809955382560e+01   -1.079437837549495e+02   
1.010200000000000e+10    -1.817708158807823e+01   -1.079097213729559e+02   
1.010300000000000e+10    -1.820992107070482e+01   -1.078626936502311e+02   
1.010400000000000e+10    -1.823280691527761e+01   -1.076767840054103e+02   
1.010500000000000e+10    -1.826553899047334e+01   -1.076147232646858e+02   
1.010600000000000e+10    -1.828023502618414e+01   -1.071935801329438e+02   
1.010700000000000e+10    -1.829652507513063e+01   -1.073140298232971e+02   
1.010800000000000e+10    -1.832784907633458e+01   -1.069352142672290e+02   
1.010900000000000e+10    -1.830855833842008e+01   -1.067676959107530e+02   
1.011000000000000e+10    -1.830395320084686e+01   -1.064020406390072e+02   
1.011100000000000e+10    -1.826905855617757e+01   -1.063276425055939e+02   
1.011200000000000e+10    -1.827254963313339e+01   -1.061267275760339e+02   
1.011300000000000e+10    -1.822542207036799e+01   -1.059918844768574e+02   
1.011400000000000e+10    -1.822169708174969e+01   -1.057264341183231e+02   
1.011500000000000e+10    -1.817709486955767e+01   -1.056139974972098e+02   
1.011600000000000e+10    -1.816176234028493e+01   -1.054604950469206e+02   
1.011700000000000e+10    -1.813373918404092e+01   -1.054887879364292e+02   
1.011800000000000e+10    -1.808076999127826e+01   -1.054087992281738e+02   
1.011900000000000e+10    -1.803074160242823e+01   -1.054108009372642e+02   
1.012000000000000e+10    -1.796821021988565e+01   -1.054115001879935e+02   
1.012100000000000e+10    -1.793919069571793e+01   -1.055898157501235e+02   
1.012200000000000e+10    -1.788424255617513e+01   -1.054974683913072e+02   
1.012300000000000e+10    -1.784733271598569e+01   -1.056760766008986e+02   
1.012400000000000e+10    -1.781988428307346e+01   -1.058762663965587e+02   
1.012500000000000e+10    -1.777858227992498e+01   -1.060165461119384e+02   
1.012600000000000e+10    -1.775763468110189e+01   -1.062096532563312e+02   
1.012700000000000e+10    -1.772053262304376e+01   -1.065838124823494e+02   
1.012800000000000e+10    -1.769505610153825e+01   -1.067320095097506e+02   
1.012900000000000e+10    -1.766919492138690e+01   -1.070870451921471e+02   
1.013000000000000e+10    -1.766712963740938e+01   -1.072656207065290e+02   
1.013100000000000e+10    -1.765470612301689e+01   -1.076228833906173e+02   
1.013200000000000e+10    -1.765774458840425e+01   -1.079602648039235e+02   
1.013300000000000e+10    -1.766243273046213e+01   -1.083388737087673e+02   
1.013400000000000e+10    -1.765487148187766e+01   -1.085214794996186e+02   
1.013500000000000e+10    -1.767069911008748e+01   -1.088625321117634e+02   
1.013600000000000e+10    -1.768953916510097e+01   -1.090521127013315e+02   
1.013700000000000e+10    -1.770289478303440e+01   -1.092867921375277e+02   
1.013800000000000e+10    -1.772754782820574e+01   -1.095597097007472e+02   
1.013900000000000e+10    -1.776156755595832e+01   -1.097935074377159e+02   
1.014000000000000e+10    -1.779479079503158e+01   -1.098538837463369e+02   
1.014100000000000e+10    -1.784364356223980e+01   -1.100872439904554e+02   
1.014200000000000e+10    -1.786842446068757e+01   -1.101173735909408e+02   
1.014300000000000e+10    -1.792127983412929e+01   -1.102072859126727e+02   
1.014400000000000e+10    -1.795721074673336e+01   -1.101914261857471e+02   
1.014500000000000e+10    -1.799939120918695e+01   -1.103164052871557e+02   
1.014600000000000e+10    -1.802802072995612e+01   -1.101680410060684e+02   
1.014700000000000e+10    -1.806729665275307e+01   -1.099952919013464e+02   
1.014800000000000e+10    -1.812040145698236e+01   -1.100005102296837e+02   
1.014900000000000e+10    -1.813006768900330e+01   -1.098388821385482e+02   
1.015000000000000e+10    -1.816185205447953e+01   -1.096999962180695e+02   
1.015100000000000e+10    -1.818615738705039e+01   -1.094699475175842e+02   
1.015200000000000e+10    -1.819665141989154e+01   -1.092030584397706e+02   
1.015300000000000e+10    -1.821176279055394e+01   -1.091085048259873e+02   
1.015400000000000e+10    -1.821124231405397e+01   -1.087597112051811e+02   
1.015500000000000e+10    -1.824271932105400e+01   -1.087138083036650e+02   
1.015600000000000e+10    -1.822397387016420e+01   -1.084336839036749e+02   
1.015700000000000e+10    -1.820749354209871e+01   -1.080738936121790e+02   
1.015800000000000e+10    -1.818455507992731e+01   -1.079934684794337e+02   
1.015900000000000e+10    -1.816402217108277e+01   -1.077634551488970e+02   
1.016000000000000e+10    -1.812954375435847e+01   -1.076462466235912e+02   
1.016100000000000e+10    -1.810909612365750e+01   -1.075457010420004e+02   
1.016200000000000e+10    -1.807208517509207e+01   -1.072929610623780e+02   
1.016300000000000e+10    -1.803439138941143e+01   -1.072421544556603e+02   
1.016400000000000e+10    -1.802246305848753e+01   -1.072932125304001e+02   
1.016500000000000e+10    -1.796239170924542e+01   -1.072077520151412e+02   
1.016600000000000e+10    -1.793755193979769e+01   -1.073630874654486e+02   
1.016700000000000e+10    -1.788285656366286e+01   -1.073811402778185e+02   
1.016800000000000e+10    -1.784494000123642e+01   -1.074652020398679e+02   
1.016900000000000e+10    -1.781931002475329e+01   -1.075935147935494e+02   
1.017000000000000e+10    -1.778937291365544e+01   -1.078623251527037e+02   
1.017100000000000e+10    -1.774368371472829e+01   -1.081579591355543e+02   
1.017200000000000e+10    -1.772055536918739e+01   -1.082384007374081e+02   
1.017300000000000e+10    -1.769947076540413e+01   -1.086156342196647e+02   
1.017400000000000e+10    -1.767735008432429e+01   -1.088140858830449e+02   
1.017500000000000e+10    -1.765300997099016e+01   -1.091512737706911e+02   
1.017600000000000e+10    -1.763543740008547e+01   -1.093264929055779e+02   
1.017700000000000e+10    -1.765254890210622e+01   -1.097003799914878e+02   
1.017800000000000e+10    -1.764065592049464e+01   -1.100458952681065e+02   
1.017900000000000e+10    -1.764635074908175e+01   -1.102418269280886e+02   
1.018000000000000e+10    -1.765191019612746e+01   -1.105905594978451e+02   
1.018100000000000e+10    -1.766749071591883e+01   -1.108353210231746e+02   
1.018200000000000e+10    -1.769474416195509e+01   -1.111164739521203e+02   
1.018300000000000e+10    -1.770127307251927e+01   -1.113651855152690e+02   
1.018400000000000e+10    -1.774197422366532e+01   -1.116436242871322e+02   
1.018500000000000e+10    -1.776065582747998e+01   -1.118857332009739e+02   
1.018600000000000e+10    -1.778320004731603e+01   -1.122272162416509e+02   
1.018700000000000e+10    -1.782099675568096e+01   -1.122202227301954e+02   
1.018800000000000e+10    -1.786137949067032e+01   -1.124270966193427e+02   
1.018900000000000e+10    -1.790320172794491e+01   -1.125088554634475e+02   
1.019000000000000e+10    -1.793192061402722e+01   -1.124816390579535e+02   
1.019100000000000e+10    -1.795940962752101e+01   -1.125241959426016e+02   
1.019200000000000e+10    -1.799262484011348e+01   -1.124511468796254e+02   
1.019300000000000e+10    -1.803023112219816e+01   -1.125867676184684e+02   
1.019400000000000e+10    -1.805237638104486e+01   -1.123910461888508e+02   
1.019500000000000e+10    -1.807689737395701e+01   -1.123410177115766e+02   
1.019600000000000e+10    -1.807347106839857e+01   -1.121492657704154e+02   
1.019700000000000e+10    -1.810373876361254e+01   -1.119983542264833e+02   
1.019800000000000e+10    -1.811183131499045e+01   -1.118517303412168e+02   
1.019900000000000e+10    -1.811956974103316e+01   -1.115908546164304e+02   
1.020000000000000e+10    -1.811751065534605e+01   -1.115311780081777e+02   
1.020100000000000e+10    -1.811552506858840e+01   -1.113024864851231e+02   
1.020200000000000e+10    -1.809684386976405e+01   -1.110306366532769e+02   
1.020300000000000e+10    -1.809959227508006e+01   -1.108823632001220e+02   
1.020400000000000e+10    -1.806522679614119e+01   -1.106948587062543e+02   
1.020500000000000e+10    -1.805538284671979e+01   -1.106143841391965e+02   
1.020600000000000e+10    -1.800989086340636e+01   -1.103596012726127e+02   
1.020700000000000e+10    -1.799693951739548e+01   -1.102847004771327e+02   
1.020800000000000e+10    -1.797224983648021e+01   -1.102563638212146e+02   
1.020900000000000e+10    -1.792199617479560e+01   -1.101426751451886e+02   
1.021000000000000e+10    -1.788378175894739e+01   -1.101158104553307e+02   
1.021100000000000e+10    -1.785274828289809e+01   -1.101259942439934e+02   
1.021200000000000e+10    -1.782638489804002e+01   -1.100520306303431e+02   
1.021300000000000e+10    -1.776690462778818e+01   -1.101739319579957e+02   
1.021400000000000e+10    -1.775077250693926e+01   -1.101830366561944e+02   
1.021500000000000e+10    -1.769043025961075e+01   -1.104053328600104e+02   
1.021600000000000e+10    -1.766470905182207e+01   -1.106158267642135e+02   
1.021700000000000e+10    -1.763765891293717e+01   -1.106234946153678e+02   
1.021800000000000e+10    -1.761981924419288e+01   -1.108456244889958e+02   
1.021900000000000e+10    -1.758643965914495e+01   -1.109262899582703e+02   
1.022000000000000e+10    -1.758166670789497e+01   -1.112031128602790e+02   
1.022100000000000e+10    -1.754107949570282e+01   -1.114385671090460e+02   
1.022200000000000e+10    -1.754641831636388e+01   -1.116583776917501e+02   
1.022300000000000e+10    -1.753967778832028e+01   -1.119317838591542e+02   
1.022400000000000e+10    -1.754194011123244e+01   -1.122273969453949e+02   
1.022500000000000e+10    -1.754094981127532e+01   -1.124366463465588e+02   
1.022600000000000e+10    -1.756205621493879e+01   -1.127082503068023e+02   
1.022700000000000e+10    -1.756578653437663e+01   -1.129599049499213e+02   
1.022800000000000e+10    -1.760572725920934e+01   -1.131014683467254e+02   
1.022900000000000e+10    -1.759751002521153e+01   -1.133398437663299e+02   
1.023000000000000e+10    -1.763993952288830e+01   -1.135789880907218e+02   
1.023100000000000e+10    -1.764745538078933e+01   -1.136824268072850e+02   
1.023200000000000e+10    -1.770828559964642e+01   -1.138767342870133e+02   
1.023300000000000e+10    -1.770846799468922e+01   -1.140277665707630e+02   
1.023400000000000e+10    -1.776870542013813e+01   -1.142058339090149e+02   
1.023500000000000e+10    -1.778177071160917e+01   -1.142268531188925e+02   
1.023600000000000e+10    -1.784193086142571e+01   -1.142744668760698e+02   
1.023700000000000e+10    -1.787453987286912e+01   -1.142839010800976e+02   
1.023800000000000e+10    -1.791687901380563e+01   -1.143787736131575e+02   
1.023900000000000e+10    -1.794791598686897e+01   -1.142396262086211e+02   
1.024000000000000e+10    -1.799444437245227e+01   -1.141831446006380e+02   
1.024100000000000e+10    -1.800902770286334e+01   -1.142166630831864e+02   
1.024200000000000e+10    -1.802969366352681e+01   -1.140499845108276e+02   
1.024300000000000e+10    -1.805609759726943e+01   -1.137995755350549e+02   
1.024400000000000e+10    -1.806804067851266e+01   -1.137731627101040e+02   
1.024500000000000e+10    -1.809057640895918e+01   -1.135658171943136e+02   
1.024600000000000e+10    -1.808408187837351e+01   -1.135281330629905e+02   
1.024700000000000e+10    -1.810194937524115e+01   -1.133192807664320e+02   
1.024800000000000e+10    -1.810933183894778e+01   -1.133638916317335e+02   
1.024900000000000e+10    -1.808134283890330e+01   -1.131583797230145e+02   
1.025000000000000e+10    -1.807506777351218e+01   -1.129294671964499e+02   
1.025100000000000e+10    -1.808392302811482e+01   -1.127814848449926e+02   
1.025200000000000e+10    -1.805765496991434e+01   -1.128156946650148e+02   
1.025300000000000e+10    -1.801849055098352e+01   -1.126784423298222e+02   
1.025400000000000e+10    -1.798874604646301e+01   -1.125640187583587e+02   
1.025500000000000e+10    -1.797937271333803e+01   -1.125590371066973e+02   
1.025600000000000e+10    -1.794718400610992e+01   -1.126223351267123e+02   
