[Version] 2.0
! Rohde & Schwarz Vector Network Analyzer
! Rohde-Schwarz,ZNL20-2Port,1323001220200009,1.71.1.10-23.02.1.238
! 
! Port Assignments:
! Nominal Port -> Actual Test Port
! --------------------------------
!   1 -> 1

! Created: GMT 2024-09-04 10:38:01

# Hz S DB R 50

[Number of Ports] 1
[Number of Frequencies] 2001

[Network Data] 
! freq[Hz]               S11[mag dB]              S11[ang]                 
1.000000000000000e+10    -1.798250910969744e+01   -1.012035595952977e+02   
1.000100000000000e+10    -1.800342975357693e+01   -1.015512153101180e+02   
1.000200000000000e+10    -1.803889658554536e+01   -1.016605072377821e+02   
1.000300000000000e+10    -1.806331878678175e+01   -1.018384639904619e+02   
1.000400000000000e+10    -1.810080297706559e+01   -1.021198743334924e+02   
1.000500000000000e+10    -1.811564114547119e+01   -1.023442280797317e+02   
1.000600000000000e+10    -1.817840258617388e+01   -1.024606409952702e+02   
1.000700000000000e+10    -1.818030411997931e+01   -1.026365502512958e+02   
1.000800000000000e+10    -1.824754357595871e+01   -1.028007310077456e+02   
1.000900000000000e+10    -1.826076875227120e+01   -1.025795882200769e+02   
1.001000000000000e+10    -1.830517577726958e+01   -1.028329535812942e+02   
1.001100000000000e+10    -1.834375372364524e+01   -1.027139834241881e+02   
1.001200000000000e+10    -1.837361176945041e+01   -1.027161892679971e+02   
1.001300000000000e+10    -1.840012573555953e+01   -1.026189701081810e+02   
1.001400000000000e+10    -1.844552212029295e+01   -1.024734903114313e+02   
1.001500000000000e+10    -1.844324604151368e+01   -1.025190413780988e+02   
1.001600000000000e+10    -1.847788279157991e+01   -1.022754514605806e+02   
1.001700000000000e+10    -1.849590313041199e+01   -1.021113008426324e+02   
1.001800000000000e+10    -1.849770720317390e+01   -1.019517227501714e+02   
1.001900000000000e+10    -1.849943305911107e+01   -1.018221302484703e+02   
1.002000000000000e+10    -1.850901760627722e+01   -1.015089389924372e+02   
1.002100000000000e+10    -1.849235237277651e+01   -1.012944205795988e+02   
1.002200000000000e+10    -1.845781804619011e+01   -1.012254295567591e+02   
1.002300000000000e+10    -1.844658546963155e+01   -1.010417858392439e+02   
1.002400000000000e+10    -1.841206511082445e+01   -1.010830554294598e+02   
1.002500000000000e+10    -1.837971308927653e+01   -1.008944765397383e+02   
1.002600000000000e+10    -1.833558485142291e+01   -1.007727655962220e+02   
1.002700000000000e+10    -1.829888503823722e+01   -1.006659318449900e+02   
1.002800000000000e+10    -1.823409717936185e+01   -1.007336240805385e+02   
1.002900000000000e+10    -1.820150450318667e+01   -1.006814477426577e+02   
1.003000000000000e+10    -1.815253710595192e+01   -1.008142177872431e+02   
1.003100000000000e+10    -1.809633049360245e+01   -1.010017448572273e+02   
1.003200000000000e+10    -1.806215579861044e+01   -1.010289102090373e+02   
1.003300000000000e+10    -1.803648344701586e+01   -1.012139345282529e+02   
1.003400000000000e+10    -1.797025602162699e+01   -1.014697549588013e+02   
1.003500000000000e+10    -1.793931242024784e+01   -1.015860690691708e+02   
1.003600000000000e+10    -1.791976784481031e+01   -1.018938703623321e+02   
1.003700000000000e+10    -1.787087178322215e+01   -1.021751083955100e+02   
1.003800000000000e+10    -1.786069997742199e+01   -1.024014267611849e+02   
1.003900000000000e+10    -1.781967143363587e+01   -1.028301333816213e+02   
1.004000000000000e+10    -1.782072969247689e+01   -1.028967143036317e+02   
1.004100000000000e+10    -1.778149902930191e+01   -1.032582231875249e+02   
1.004200000000000e+10    -1.780372359997059e+01   -1.034211658099346e+02   
1.004300000000000e+10    -1.779206917221197e+01   -1.038693838685284e+02   
1.004400000000000e+10    -1.778165210406772e+01   -1.042132258068221e+02   
1.004500000000000e+10    -1.781491615101343e+01   -1.044726408323120e+02   
1.004600000000000e+10    -1.781726316061272e+01   -1.046318683251971e+02   
1.004700000000000e+10    -1.782694195176472e+01   -1.050448128113999e+02   
1.004800000000000e+10    -1.785158824660164e+01   -1.052702007924096e+02   
1.004900000000000e+10    -1.790205498928454e+01   -1.054705862076238e+02   
1.005000000000000e+10    -1.793688544379416e+01   -1.056075364332487e+02   
1.005100000000000e+10    -1.794813995906424e+01   -1.056238955693104e+02   
1.005200000000000e+10    -1.797299980055054e+01   -1.057659766755729e+02   
1.005300000000000e+10    -1.800909963316469e+01   -1.059191535239703e+02   
1.005400000000000e+10    -1.805673326396135e+01   -1.060004784308972e+02   
1.005500000000000e+10    -1.808681170296503e+01   -1.060801695435063e+02   
1.005600000000000e+10    -1.813184493738870e+01   -1.058601023843727e+02   
1.005700000000000e+10    -1.817528406155199e+01   -1.058600764801717e+02   
1.005800000000000e+10    -1.819526355288027e+01   -1.055601997720647e+02   
1.005900000000000e+10    -1.821667995437391e+01   -1.055659074477641e+02   
1.006000000000000e+10    -1.823572859304156e+01   -1.054282361938674e+02   
1.006100000000000e+10    -1.826598530400332e+01   -1.051871394742444e+02   
1.006200000000000e+10    -1.828421614203927e+01   -1.048617224832485e+02   
1.006300000000000e+10    -1.827291381689438e+01   -1.045151587608478e+02   
1.006400000000000e+10    -1.829251660817162e+01   -1.043301739566144e+02   
1.006500000000000e+10    -1.827998377418544e+01   -1.041827605413854e+02   
1.006600000000000e+10    -1.828058377304794e+01   -1.038907418392340e+02   
1.006700000000000e+10    -1.828054911926909e+01   -1.035589612054720e+02   
1.006800000000000e+10    -1.826075690811656e+01   -1.036166553096397e+02   
1.006900000000000e+10    -1.822162638062613e+01   -1.031841052287958e+02   
1.007000000000000e+10    -1.818824120561475e+01   -1.030387670995472e+02   
1.007100000000000e+10    -1.815185810893390e+01   -1.028497964136315e+02   
1.007200000000000e+10    -1.812045802640797e+01   -1.028961082793336e+02   
1.007300000000000e+10    -1.808099218450020e+01   -1.026766674643057e+02   
1.007400000000000e+10    -1.803463431153698e+01   -1.026555023785084e+02   
1.007500000000000e+10    -1.800712965520491e+01   -1.026510935018945e+02   
1.007600000000000e+10    -1.794983110710972e+01   -1.027651976301999e+02   
1.007700000000000e+10    -1.791467921464113e+01   -1.027304069320145e+02   
1.007800000000000e+10    -1.786631702621998e+01   -1.028145667564811e+02   
1.007900000000000e+10    -1.782670810602509e+01   -1.027979805659078e+02   
1.008000000000000e+10    -1.779712323762542e+01   -1.030170975483875e+02   
1.008100000000000e+10    -1.776513302125959e+01   -1.034956032789446e+02   
1.008200000000000e+10    -1.773783679458891e+01   -1.037003941753473e+02   
1.008300000000000e+10    -1.773226081550343e+01   -1.038089370850073e+02   
1.008400000000000e+10    -1.770342959573215e+01   -1.042111153990825e+02   
1.008500000000000e+10    -1.768401286133034e+01   -1.044493751347782e+02   
1.008600000000000e+10    -1.767872172263987e+01   -1.047397346898600e+02   
1.008700000000000e+10    -1.767924222458539e+01   -1.050344164309342e+02   
1.008800000000000e+10    -1.767484435699788e+01   -1.054862126212798e+02   
1.008900000000000e+10    -1.769439069127422e+01   -1.056301367870491e+02   
1.009000000000000e+10    -1.769037215770338e+01   -1.059978574426159e+02   
1.009100000000000e+10    -1.770584053747815e+01   -1.063834376816711e+02   
1.009200000000000e+10    -1.773656369047498e+01   -1.065622397672628e+02   
1.009300000000000e+10    -1.777232376730082e+01   -1.068535097391258e+02   
1.009400000000000e+10    -1.780435706960175e+01   -1.071764598474782e+02   
1.009500000000000e+10    -1.783257847639159e+01   -1.074242018537855e+02   
1.009600000000000e+10    -1.786835556809867e+01   -1.074640221043746e+02   
1.009700000000000e+10    -1.791032914479713e+01   -1.076838274785943e+02   
1.009800000000000e+10    -1.796781147354410e+01   -1.077669084789589e+02   
1.009900000000000e+10    -1.800865895950897e+01   -1.078743367837752e+02   
1.010000000000000e+10    -1.803855059459713e+01   -1.079896017868558e+02   
1.010100000000000e+10    -1.808383906403498e+01   -1.079164308484524e+02   
1.010200000000000e+10    -1.813534628811852e+01   -1.079108410289141e+02   
1.010300000000000e+10    -1.816895891094579e+01   -1.078874393572791e+02   
1.010400000000000e+10    -1.819427345172164e+01   -1.077411009446189e+02   
1.010500000000000e+10    -1.823115147835055e+01   -1.076972284462172e+02   
1.010600000000000e+10    -1.824761759992904e+01   -1.072951219437652e+02   
1.010700000000000e+10    -1.826905846441642e+01   -1.074340816693055e+02   
1.010800000000000e+10    -1.830527810689404e+01   -1.070689586308046e+02   
1.010900000000000e+10    -1.829048875250793e+01   -1.069157773150638e+02   
1.011000000000000e+10    -1.829028432737399e+01   -1.065475018740554e+02   
1.011100000000000e+10    -1.825912775989634e+01   -1.064844531186331e+02   
1.011200000000000e+10    -1.826859037832695e+01   -1.062775669799299e+02   
1.011300000000000e+10    -1.822588128952972e+01   -1.061336762577451e+02   
1.011400000000000e+10    -1.822638382236107e+01   -1.058544517198951e+02   
1.011500000000000e+10    -1.818615268034796e+01   -1.057349726634368e+02   
1.011600000000000e+10    -1.817456789199048e+01   -1.055603875275780e+02   
1.011700000000000e+10    -1.814901352422258e+01   -1.055607958878023e+02   
1.011800000000000e+10    -1.809890310647545e+01   -1.054564333949427e+02   
1.011900000000000e+10    -1.805219844622562e+01   -1.054387002481117e+02   
1.012000000000000e+10    -1.799087029305126e+01   -1.054086960555686e+02   
1.012100000000000e+10    -1.796301719225022e+01   -1.055593190846469e+02   
1.012200000000000e+10    -1.790770748623742e+01   -1.054409726360121e+02   
1.012300000000000e+10    -1.787033541030313e+01   -1.055863043455545e+02   
1.012400000000000e+10    -1.784265433261783e+01   -1.057547715414992e+02   
1.012500000000000e+10    -1.779971861247258e+01   -1.058740750244525e+02   
1.012600000000000e+10    -1.777615546882140e+01   -1.060400921361379e+02   
1.012700000000000e+10    -1.773601038996735e+01   -1.063879571802624e+02   
1.012800000000000e+10    -1.770762520776152e+01   -1.065162947594133e+02   
1.012900000000000e+10    -1.767886033933024e+01   -1.068530416397519e+02   
1.013000000000000e+10    -1.767247204838394e+01   -1.070148323905505e+02   
1.013100000000000e+10    -1.765683113593198e+01   -1.073588316120945e+02   
1.013200000000000e+10    -1.765478533362024e+01   -1.076946679392968e+02   
1.013300000000000e+10    -1.765462481948090e+01   -1.080699970313934e+02   
1.013400000000000e+10    -1.764246227799076e+01   -1.082545337890929e+02   
1.013500000000000e+10    -1.765476027716567e+01   -1.085984609556472e+02   
1.013600000000000e+10    -1.766810799162418e+01   -1.087942783977542e+02   
1.013700000000000e+10    -1.767761145240114e+01   -1.090357280198787e+02   
1.013800000000000e+10    -1.769981853864533e+01   -1.093303492118438e+02   
1.013900000000000e+10    -1.772888482314865e+01   -1.095708444472441e+02   
1.014000000000000e+10    -1.775864982462351e+01   -1.096488129321681e+02   
1.014100000000000e+10    -1.780438958473652e+01   -1.099160140467377e+02   
1.014200000000000e+10    -1.782686344343663e+01   -1.099751742972873e+02   
1.014300000000000e+10    -1.787695410735435e+01   -1.100841682757640e+02   
1.014400000000000e+10    -1.791136562767707e+01   -1.100985396702677e+02   
1.014500000000000e+10    -1.795338266135717e+01   -1.102508337533447e+02   
1.014600000000000e+10    -1.798131406187312e+01   -1.101379732825503e+02   
1.014700000000000e+10    -1.802146523879898e+01   -1.099973245932413e+02   
1.014800000000000e+10    -1.807450162368956e+01   -1.100331826427574e+02   
1.014900000000000e+10    -1.808769844939178e+01   -1.099004889848321e+02   
1.015000000000000e+10    -1.812273973201616e+01   -1.097836551566550e+02   
1.015100000000000e+10    -1.814771209111389e+01   -1.095799786865227e+02   
1.015200000000000e+10    -1.816316533137407e+01   -1.093380893360396e+02   
1.015300000000000e+10    -1.818153578549809e+01   -1.092592310147339e+02   
1.015400000000000e+10    -1.818548640492471e+01   -1.089221831779965e+02   
1.015500000000000e+10    -1.822170147216092e+01   -1.088826103522525e+02   
1.015600000000000e+10    -1.820721396808747e+01   -1.085985671997632e+02   
1.015700000000000e+10    -1.819625132078676e+01   -1.082413392539172e+02   
1.015800000000000e+10    -1.817779663346709e+01   -1.081465531376035e+02   
1.015900000000000e+10    -1.816191714763794e+01   -1.079169685658296e+02   
1.016000000000000e+10    -1.813120756587149e+01   -1.077713988811497e+02   
1.016100000000000e+10    -1.811537067616974e+01   -1.076634594796073e+02   
1.016200000000000e+10    -1.808124533302349e+01   -1.073871942780069e+02   
1.016300000000000e+10    -1.804712936461738e+01   -1.073037731136272e+02   
1.016400000000000e+10    -1.803676070648904e+01   -1.073337396657954e+02   
1.016500000000000e+10    -1.797860341596000e+01   -1.072217710893508e+02   
1.016600000000000e+10    -1.795566795967129e+01   -1.073427989191580e+02   
1.016700000000000e+10    -1.790055834107221e+01   -1.073243271053517e+02   
1.016800000000000e+10    -1.786405593056458e+01   -1.073820187678653e+02   
1.016900000000000e+10    -1.783587540606437e+01   -1.074696430800427e+02   
1.017000000000000e+10    -1.780488574767476e+01   -1.077102567122677e+02   
1.017100000000000e+10    -1.775963256573010e+01   -1.079799334638172e+02   
1.017200000000000e+10    -1.773267624106194e+01   -1.080436065136099e+02   
1.017300000000000e+10    -1.770934519328514e+01   -1.083876428615508e+02   
1.017400000000000e+10    -1.768458557808791e+01   -1.085654877534515e+02   
1.017500000000000e+10    -1.765754563364672e+01   -1.088825836152689e+02   
1.017600000000000e+10    -1.763438801239425e+01   -1.090430981585275e+02   
1.017700000000000e+10    -1.764876099737444e+01   -1.094094942122433e+02   
1.017800000000000e+10    -1.763162444466550e+01   -1.097358622417189e+02   
1.017900000000000e+10    -1.763308391785260e+01   -1.099273719519244e+02   
1.018000000000000e+10    -1.763554659293745e+01   -1.102791812828018e+02   
1.018100000000000e+10    -1.764700701139650e+01   -1.105299402285562e+02   
1.018200000000000e+10    -1.766898199630147e+01   -1.108111268819775e+02   
1.018300000000000e+10    -1.767202937515312e+01   -1.110682516403227e+02   
1.018400000000000e+10    -1.770877575304480e+01   -1.113648775409451e+02   
1.018500000000000e+10    -1.772330833651005e+01   -1.116154270834498e+02   
1.018600000000000e+10    -1.774375158854725e+01   -1.119721928935463e+02   
1.018700000000000e+10    -1.777765209220894e+01   -1.120006030673257e+02   
1.018800000000000e+10    -1.781588878833632e+01   -1.122375096002704e+02   
1.018900000000000e+10    -1.785682677588740e+01   -1.123388465837273e+02   
1.019000000000000e+10    -1.788432507269302e+01   -1.123526251429485e+02   
1.019100000000000e+10    -1.791087149640576e+01   -1.124198652989921e+02   
1.019200000000000e+10    -1.794612090361806e+01   -1.123757951453532e+02   
1.019300000000000e+10    -1.798440523665931e+01   -1.125387423958396e+02   
1.019400000000000e+10    -1.800834193268069e+01   -1.123821112725427e+02   
1.019500000000000e+10    -1.803702616943490e+01   -1.123524868541340e+02   
1.019600000000000e+10    -1.803617478075760e+01   -1.121972386888709e+02   
1.019700000000000e+10    -1.806870261890305e+01   -1.120540616289880e+02   
1.019800000000000e+10    -1.808161993122851e+01   -1.119382627551035e+02   
1.019900000000000e+10    -1.809367803295608e+01   -1.116846756333834e+02   
1.020000000000000e+10    -1.809494779393563e+01   -1.116471182715302e+02   
1.020100000000000e+10    -1.810067182634985e+01   -1.114142955559120e+02   
1.020200000000000e+10    -1.808558503145020e+01   -1.111496434677948e+02   
1.020300000000000e+10    -1.809256466412837e+01   -1.109978918406757e+02   
1.020400000000000e+10    -1.806429064877726e+01   -1.108108972255357e+02   
1.020500000000000e+10    -1.805692547782822e+01   -1.107161558405287e+02   
1.020600000000000e+10    -1.801597579176183e+01   -1.104398079984237e+02   
1.020700000000000e+10    -1.800911921738840e+01   -1.103696101463723e+02   
1.020800000000000e+10    -1.798856900597995e+01   -1.103092860511129e+02   
1.020900000000000e+10    -1.794121993457896e+01   -1.101756461476484e+02   
1.021000000000000e+10    -1.790586803019668e+01   -1.101181237831267e+02   
1.021100000000000e+10    -1.787543517645756e+01   -1.101079387234908e+02   
1.021200000000000e+10    -1.784981485178699e+01   -1.100035129230397e+02   
1.021300000000000e+10    -1.779294086980674e+01   -1.100899179004326e+02   
1.021400000000000e+10    -1.777745643896467e+01   -1.100636333515454e+02   
1.021500000000000e+10    -1.771677714156933e+01   -1.102628845717375e+02   
1.021600000000000e+10    -1.768844142952064e+01   -1.104446609769190e+02   
1.021700000000000e+10    -1.766018695497783e+01   -1.104262394428726e+02   
1.021800000000000e+10    -1.763941412101340e+01   -1.106256116906301e+02   
1.021900000000000e+10    -1.760311650918768e+01   -1.106854586556634e+02   
1.022000000000000e+10    -1.759546457490849e+01   -1.109409263475181e+02   
1.022100000000000e+10    -1.755064654140609e+01   -1.111599223865258e+02   
1.022200000000000e+10    -1.755105751450216e+01   -1.113677038761453e+02   
1.022300000000000e+10    -1.754061978956677e+01   -1.116373929498623e+02   
1.022400000000000e+10    -1.753791607327216e+01   -1.119145391323086e+02   
1.022500000000000e+10    -1.753279533326929e+01   -1.121330388938077e+02   
1.022600000000000e+10    -1.754852572901558e+01   -1.124038376332072e+02   
1.022700000000000e+10    -1.754892573263178e+01   -1.126645367914420e+02   
1.022800000000000e+10    -1.758341816409881e+01   -1.128092354967496e+02   
1.022900000000000e+10    -1.757194209954518e+01   -1.130712386268482e+02   
1.023000000000000e+10    -1.761091231964459e+01   -1.133267736602653e+02   
1.023100000000000e+10    -1.761486222120226e+01   -1.134477171780220e+02   
1.023200000000000e+10    -1.767320909140319e+01   -1.136635888026066e+02   
1.023300000000000e+10    -1.766955252109693e+01   -1.138443961336412e+02   
1.023400000000000e+10    -1.772879996561745e+01   -1.140535094935388e+02   
1.023500000000000e+10    -1.773924186926298e+01   -1.141002810235301e+02   
1.023600000000000e+10    -1.779826727208986e+01   -1.141760600483692e+02   
1.023700000000000e+10    -1.783061964058963e+01   -1.142179033206952e+02   
1.023800000000000e+10    -1.787314426829127e+01   -1.143407392783836e+02   
1.023900000000000e+10    -1.790588886343615e+01   -1.142332066799087e+02   
1.024000000000000e+10    -1.795350863590359e+01   -1.142041288638724e+02   
1.024100000000000e+10    -1.796944670916649e+01   -1.142591877559153e+02   
1.024200000000000e+10    -1.799333618579589e+01   -1.141224537275452e+02   
1.024300000000000e+10    -1.802235104646295e+01   -1.138965074658191e+02   
1.024400000000000e+10    -1.803793282805128e+01   -1.138866589703399e+02   
1.024500000000000e+10    -1.806431674831397e+01   -1.136915184802486e+02   
1.024600000000000e+10    -1.806235386079696e+01   -1.136631169242536e+02   
1.024700000000000e+10    -1.808421435922893e+01   -1.134656859015627e+02   
1.024800000000000e+10    -1.809645196364513e+01   -1.135098970811194e+02   
1.024900000000000e+10    -1.807211222945741e+01   -1.132985221340257e+02   
1.025000000000000e+10    -1.807112972952566e+01   -1.130763602742110e+02   
1.025100000000000e+10    -1.808402432183025e+01   -1.129108380589057e+02   
1.025200000000000e+10    -1.806271145629464e+01   -1.129403018417345e+02   
1.025300000000000e+10    -1.802621717182463e+01   -1.127764242410460e+02   
1.025400000000000e+10    -1.800127749165456e+01   -1.126414963618465e+02   
1.025500000000000e+10    -1.799353704252298e+01   -1.126111853873996e+02   
1.025600000000000e+10    -1.796474571564146e+01   -1.126416504098510e+02   
