[Version] 2.0
! Rohde & Schwarz Vector Network Analyzer
! Rohde-Schwarz,ZNL20-2Port,1323001220200009,1.71.1.10-23.02.1.238
! 
! Port Assignments:
! Nominal Port -> Actual Test Port
! --------------------------------
!   1 -> 1

! Created: GMT 2024-09-04 10:31:00

# Hz S DB R 50

[Number of Ports] 1
[Number of Frequencies] 2001

[Network Data] 
! freq[Hz]               S11[mag dB]              S11[ang]                 
1.000000000000000e+10    -1.809400893783482e+01   -1.017466917781979e+02   
1.000100000000000e+10    -1.812572413422095e+01   -1.020161768373488e+02   
1.000200000000000e+10    -1.816874774090765e+01   -1.020382265296451e+02   
1.000300000000000e+10    -1.819897344931892e+01   -1.021152333594848e+02   
1.000400000000000e+10    -1.824334367900180e+01   -1.023019408757081e+02   
1.000500000000000e+10    -1.825910990553545e+01   -1.024166249804809e+02   
1.000600000000000e+10    -1.832267996974182e+01   -1.024314586002170e+02   
1.000700000000000e+10    -1.832264874254878e+01   -1.024960800616895e+02   
1.000800000000000e+10    -1.838538447585786e+01   -1.025443956965792e+02   
1.000900000000000e+10    -1.839133299316532e+01   -1.022213742333857e+02   
1.001000000000000e+10    -1.842659180102486e+01   -1.023862747060400e+02   
1.001100000000000e+10    -1.845308095302896e+01   -1.021630391622934e+02   
1.001200000000000e+10    -1.846914759385928e+01   -1.020878397185346e+02   
1.001300000000000e+10    -1.848027416881758e+01   -1.019455463831201e+02   
1.001400000000000e+10    -1.851039263124388e+01   -1.017311199951581e+02   
1.001500000000000e+10    -1.849178253140013e+01   -1.017494039813607e+02   
1.001600000000000e+10    -1.850624483178230e+01   -1.014909648527326e+02   
1.001700000000000e+10    -1.850702364355072e+01   -1.013227944794064e+02   
1.001800000000000e+10    -1.848969225724099e+01   -1.011886499119031e+02   
1.001900000000000e+10    -1.847509361204587e+01   -1.010905264700251e+02   
1.002000000000000e+10    -1.846733568522043e+01   -1.008224916911303e+02   
1.002100000000000e+10    -1.843630041645197e+01   -1.006855644467975e+02   
1.002200000000000e+10    -1.838852674420012e+01   -1.006951785008358e+02   
1.002300000000000e+10    -1.836536449785761e+01   -1.006025147481012e+02   
1.002400000000000e+10    -1.832158019426933e+01   -1.007488354732941e+02   
1.002500000000000e+10    -1.828191969503965e+01   -1.006710626649769e+02   
1.002600000000000e+10    -1.823375267752803e+01   -1.006647046816741e+02   
1.002700000000000e+10    -1.819486360306056e+01   -1.006656761427346e+02   
1.002800000000000e+10    -1.813123879510535e+01   -1.008543712854651e+02   
1.002900000000000e+10    -1.809999997375678e+01   -1.009120999455466e+02   
1.003000000000000e+10    -1.805721874249697e+01   -1.011473800164029e+02   
1.003100000000000e+10    -1.800884764386789e+01   -1.014424219447791e+02   
1.003200000000000e+10    -1.798162893350008e+01   -1.015573144233548e+02   
1.003300000000000e+10    -1.796710979510749e+01   -1.018236172216425e+02   
1.003400000000000e+10    -1.791288431274306e+01   -1.021443426646250e+02   
1.003500000000000e+10    -1.789573920821604e+01   -1.023306775976746e+02   
1.003600000000000e+10    -1.789089286886554e+01   -1.026808542859658e+02   
1.003700000000000e+10    -1.785549419498648e+01   -1.029941846649240e+02   
1.003800000000000e+10    -1.786121760130548e+01   -1.032622103426777e+02   
1.003900000000000e+10    -1.783592081806946e+01   -1.036929808374055e+02   
1.004000000000000e+10    -1.785356787609319e+01   -1.037609055089073e+02   
1.004100000000000e+10    -1.782830390219292e+01   -1.040974134565527e+02   
1.004200000000000e+10    -1.786597862543107e+01   -1.042317470213639e+02   
1.004300000000000e+10    -1.787006519787335e+01   -1.046395366148031e+02   
1.004400000000000e+10    -1.787396098067651e+01   -1.049342156656254e+02   
1.004500000000000e+10    -1.791868806727285e+01   -1.051298092562706e+02   
1.004600000000000e+10    -1.793375720306798e+01   -1.052008052180484e+02   
1.004700000000000e+10    -1.795212592785452e+01   -1.055416956860549e+02   
1.004800000000000e+10    -1.798487705601545e+01   -1.056651883378999e+02   
1.004900000000000e+10    -1.804212071670713e+01   -1.057772985225914e+02   
1.005000000000000e+10    -1.808224335447437e+01   -1.057968902211539e+02   
1.005100000000000e+10    -1.809521236257282e+01   -1.056994768022473e+02   
1.005200000000000e+10    -1.812066763096696e+01   -1.057361548111537e+02   
1.005300000000000e+10    -1.815279383012177e+01   -1.057695727566557e+02   
1.005400000000000e+10    -1.819627369153875e+01   -1.057386205257025e+02   
1.005500000000000e+10    -1.821912214319969e+01   -1.057170952981191e+02   
1.005600000000000e+10    -1.825335567225167e+01   -1.053945498901852e+02   
1.005700000000000e+10    -1.828474368650419e+01   -1.053007684378670e+02   
1.005800000000000e+10    -1.829113507363233e+01   -1.049358662895485e+02   
1.005900000000000e+10    -1.829637970385668e+01   -1.048655036101179e+02   
1.006000000000000e+10    -1.830033015147810e+01   -1.046883027239122e+02   
1.006100000000000e+10    -1.831313885736531e+01   -1.044280291502379e+02   
1.006200000000000e+10    -1.831053176047456e+01   -1.040710026000396e+02   
1.006300000000000e+10    -1.828080054871979e+01   -1.037454492867077e+02   
1.006400000000000e+10    -1.828358638262189e+01   -1.035762423197276e+02   
1.006500000000000e+10    -1.825363001369665e+01   -1.034741197586152e+02   
1.006600000000000e+10    -1.823819973569030e+01   -1.032449714603313e+02   
1.006700000000000e+10    -1.822268176462605e+01   -1.029798002011478e+02   
1.006800000000000e+10    -1.819144185180951e+01   -1.031281832076750e+02   
1.006900000000000e+10    -1.814066760290503e+01   -1.027816916150999e+02   
1.007000000000000e+10    -1.809884821786970e+01   -1.027488918157614e+02   
1.007100000000000e+10    -1.805628828497474e+01   -1.026738965964828e+02   
1.007200000000000e+10    -1.802243594892463e+01   -1.028342112252129e+02   
1.007300000000000e+10    -1.797990590598423e+01   -1.027324927664135e+02   
1.007400000000000e+10    -1.793498923636358e+01   -1.028282367649067e+02   
1.007500000000000e+10    -1.791035985311584e+01   -1.029358152515055e+02   
1.007600000000000e+10    -1.785894990637640e+01   -1.031543001647526e+02   
1.007700000000000e+10    -1.783118421068424e+01   -1.032222536611821e+02   
1.007800000000000e+10    -1.779321582036606e+01   -1.033924426638329e+02   
1.007900000000000e+10    -1.776368141177367e+01   -1.034658841493214e+02   
1.008000000000000e+10    -1.774589275728068e+01   -1.037539262410812e+02   
1.008100000000000e+10    -1.772738156830382e+01   -1.043007562653933e+02   
1.008200000000000e+10    -1.771564126295150e+01   -1.045599871224282e+02   
1.008300000000000e+10    -1.772583849455249e+01   -1.047027230290500e+02   
1.008400000000000e+10    -1.771327179058121e+01   -1.051326051733500e+02   
1.008500000000000e+10    -1.771061809852555e+01   -1.053718575922968e+02   
1.008600000000000e+10    -1.772080395678640e+01   -1.056623470415549e+02   
1.008700000000000e+10    -1.773840897850206e+01   -1.059310681275452e+02   
1.008800000000000e+10    -1.775072844963181e+01   -1.063602795751144e+02   
1.008900000000000e+10    -1.778424647618808e+01   -1.064521644058899e+02   
1.009000000000000e+10    -1.779308963894423e+01   -1.067566714519149e+02   
1.009100000000000e+10    -1.782147831815265e+01   -1.070682439168498e+02   
1.009200000000000e+10    -1.786389245512256e+01   -1.071701766955467e+02   
1.009300000000000e+10    -1.790869216518633e+01   -1.073714352764532e+02   
1.009400000000000e+10    -1.794733395955812e+01   -1.075925942179057e+02   
1.009500000000000e+10    -1.798204724047579e+01   -1.077400263549289e+02   
1.009600000000000e+10    -1.802045160476838e+01   -1.076629563821931e+02   
1.009700000000000e+10    -1.806381512511553e+01   -1.077703839133026e+02   
1.009800000000000e+10    -1.812161732880802e+01   -1.077334778418519e+02   
1.009900000000000e+10    -1.815763940455863e+01   -1.077203441525350e+02   
1.010000000000000e+10    -1.818043861692779e+01   -1.077222097798486e+02   
1.010100000000000e+10    -1.821744595072606e+01   -1.075441619421865e+02   
1.010200000000000e+10    -1.825671518163711e+01   -1.074414702972522e+02   
1.010300000000000e+10    -1.827706855645277e+01   -1.073294290480577e+02   
1.010400000000000e+10    -1.828784424858066e+01   -1.071094565250505e+02   
1.010500000000000e+10    -1.830640623304958e+01   -1.070157231772062e+02   
1.010600000000000e+10    -1.830593704241639e+01   -1.065614654197534e+02   
1.010700000000000e+10    -1.830798979668347e+01   -1.066786616147944e+02   
1.010800000000000e+10    -1.832511196517026e+01   -1.063077836114936e+02   
1.010900000000000e+10    -1.829304889121932e+01   -1.061680998394257e+02   
1.011000000000000e+10    -1.827347446744564e+01   -1.058296927448185e+02   
1.011100000000000e+10    -1.822457951981731e+01   -1.058094412938799e+02   
1.011200000000000e+10    -1.821870413059661e+01   -1.056651104209327e+02   
1.011300000000000e+10    -1.816124569944941e+01   -1.056009301683247e+02   
1.011400000000000e+10    -1.814760609401929e+01   -1.054136289210835e+02   
1.011500000000000e+10    -1.809795539819497e+01   -1.053882068498327e+02   
1.011600000000000e+10    -1.807809778274673e+01   -1.053148744011830e+02   
1.011700000000000e+10    -1.804807174153387e+01   -1.054326184036506e+02   
1.011800000000000e+10    -1.799353926477938e+01   -1.054474036528328e+02   
1.011900000000000e+10    -1.794445955102193e+01   -1.055389039976220e+02   
1.012000000000000e+10    -1.788472721043486e+01   -1.056263034539196e+02   
1.012100000000000e+10    -1.786065669110587e+01   -1.058889652077782e+02   
1.012200000000000e+10    -1.781275745524895e+01   -1.058852501935278e+02   
1.012300000000000e+10    -1.778315249540286e+01   -1.061389051923247e+02   
1.012400000000000e+10    -1.776492444350277e+01   -1.063991787294211e+02   
1.012500000000000e+10    -1.773463561971018e+01   -1.065884345675083e+02   
1.012600000000000e+10    -1.772467704258638e+01   -1.068372294109332e+02   
1.012700000000000e+10    -1.769835025076532e+01   -1.072475474577229e+02   
1.012800000000000e+10    -1.768623881592340e+01   -1.074173414486477e+02   
1.012900000000000e+10    -1.767340595063997e+01   -1.077909946530100e+02   
1.013000000000000e+10    -1.768439246547065e+01   -1.079636832576820e+02   
1.013100000000000e+10    -1.768650154240269e+01   -1.083138390825375e+02   
1.013200000000000e+10    -1.770036859661786e+01   -1.086324785062045e+02   
1.013300000000000e+10    -1.771889368055744e+01   -1.089983279748394e+02   
1.013400000000000e+10    -1.772299618403839e+01   -1.091345196115915e+02   
1.013500000000000e+10    -1.775139706151550e+01   -1.094267343224682e+02   
1.013600000000000e+10    -1.777889815062866e+01   -1.095499008100880e+02   
1.013700000000000e+10    -1.780013868048484e+01   -1.097249613876405e+02   
1.013800000000000e+10    -1.783321232611477e+01   -1.099191428717669e+02   
1.013900000000000e+10    -1.787266843172191e+01   -1.100710544169667e+02   
1.014000000000000e+10    -1.790967408189319e+01   -1.100377874419253e+02   
1.014100000000000e+10    -1.796140521229757e+01   -1.101976617233411e+02   
1.014200000000000e+10    -1.798541276284178e+01   -1.101299468458791e+02   
1.014300000000000e+10    -1.803679908365945e+01   -1.101237747637526e+02   
1.014400000000000e+10    -1.806827435571779e+01   -1.100174069292399e+02   
1.014500000000000e+10    -1.810614624422071e+01   -1.100561166965759e+02   
1.014600000000000e+10    -1.812746589502478e+01   -1.098290666932624e+02   
1.014700000000000e+10    -1.815669064220600e+01   -1.095787736699311e+02   
1.014800000000000e+10    -1.819899635465192e+01   -1.095187937367632e+02   
1.014900000000000e+10    -1.819794665246710e+01   -1.093156364235428e+02   
1.015000000000000e+10    -1.821686837016416e+01   -1.091274045677336e+02   
1.015100000000000e+10    -1.822518185929800e+01   -1.088701280572674e+02   
1.015200000000000e+10    -1.822186933582800e+01   -1.085789280115719e+02   
1.015300000000000e+10    -1.822048874668683e+01   -1.084964327896606e+02   
1.015400000000000e+10    -1.820419185658959e+01   -1.081599782605132e+02   
1.015500000000000e+10    -1.822260851411734e+01   -1.081401206188537e+02   
1.015600000000000e+10    -1.818983053107419e+01   -1.078954799074565e+02   
1.015700000000000e+10    -1.816088940885106e+01   -1.075865180832536e+02   
1.015800000000000e+10    -1.812716171732139e+01   -1.075687045869561e+02   
1.015900000000000e+10    -1.809673714011551e+01   -1.074187878304053e+02   
1.016000000000000e+10    -1.805289312986065e+01   -1.073803700748730e+02   
1.016100000000000e+10    -1.802822662295626e+01   -1.073680930635870e+02   
1.016200000000000e+10    -1.798617288630373e+01   -1.072130983054055e+02   
1.016300000000000e+10    -1.794679862718895e+01   -1.072467118672803e+02   
1.016400000000000e+10    -1.793312656670460e+01   -1.073924534876204e+02   
1.016500000000000e+10    -1.787569732581229e+01   -1.074054400968816e+02   
1.016600000000000e+10    -1.785368074932510e+01   -1.076563877752564e+02   
1.016700000000000e+10    -1.780294340323620e+01   -1.077536903772554e+02   
1.016800000000000e+10    -1.777289835649058e+01   -1.079212329034071e+02   
1.016900000000000e+10    -1.775503473227036e+01   -1.081101754723600e+02   
1.017000000000000e+10    -1.773443424338522e+01   -1.084505877742920e+02   
1.017100000000000e+10    -1.770056050794233e+01   -1.088045711990092e+02   
1.017200000000000e+10    -1.768863165217925e+01   -1.089316744220413e+02   
1.017300000000000e+10    -1.767990543962401e+01   -1.093384529975434e+02   
1.017400000000000e+10    -1.767117013710198e+01   -1.095561690841002e+02   
1.017500000000000e+10    -1.765918222602750e+01   -1.099143317957412e+02   
1.017600000000000e+10    -1.765486027053404e+01   -1.100806073944456e+02   
1.017700000000000e+10    -1.768787621753232e+01   -1.104529161458620e+02   
1.017800000000000e+10    -1.768753293382563e+01   -1.107639716459643e+02   
1.017900000000000e+10    -1.770605273218142e+01   -1.109305859168165e+02   
1.018000000000000e+10    -1.772303758406866e+01   -1.112357577382751e+02   
1.018100000000000e+10    -1.775093615154297e+01   -1.114116729336336e+02   
1.018200000000000e+10    -1.778670152806007e+01   -1.116387776561771e+02   
1.018300000000000e+10    -1.780143920308768e+01   -1.117961574317872e+02   
1.018400000000000e+10    -1.785020256917676e+01   -1.120001414968808e+02   
1.018500000000000e+10    -1.787158425540986e+01   -1.121529310660070e+02   
1.018600000000000e+10    -1.789857638695294e+01   -1.123977698584569e+02   
1.018700000000000e+10    -1.793535336007428e+01   -1.122995446545429e+02   
1.018800000000000e+10    -1.797643390341543e+01   -1.124260246893925e+02   
1.018900000000000e+10    -1.801559440957268e+01   -1.124031399180494e+02   
1.019000000000000e+10    -1.803982132172475e+01   -1.122873923538799e+02   
1.019100000000000e+10    -1.806064772272724e+01   -1.122381569774101e+02   
1.019200000000000e+10    -1.808559861149767e+01   -1.120776425046102e+02   
1.019300000000000e+10    -1.811399849537554e+01   -1.121445683368674e+02   
1.019400000000000e+10    -1.812445913562950e+01   -1.118879884268099e+02   
1.019500000000000e+10    -1.813852452586814e+01   -1.117787286016783e+02   
1.019600000000000e+10    -1.811814744948118e+01   -1.115601782469654e+02   
1.019700000000000e+10    -1.813334896578989e+01   -1.113730851320153e+02   
1.019800000000000e+10    -1.812848864833522e+01   -1.112247784154565e+02   
1.019900000000000e+10    -1.811972288173182e+01   -1.109469568648543e+02   
1.020000000000000e+10    -1.810419174714495e+01   -1.109201445715323e+02   
1.020100000000000e+10    -1.808799735678870e+01   -1.107096211862294e+02   
1.020200000000000e+10    -1.805574808256881e+01   -1.104851242285924e+02   
1.020300000000000e+10    -1.804628224886969e+01   -1.103788484262859e+02   
1.020400000000000e+10    -1.800118449867995e+01   -1.102768264414333e+02   
1.020500000000000e+10    -1.798007885076811e+01   -1.102676047910495e+02   
1.020600000000000e+10    -1.792691027044657e+01   -1.100840865014883e+02   
1.020700000000000e+10    -1.790913963395080e+01   -1.101261172672467e+02   
1.020800000000000e+10    -1.788129341986037e+01   -1.101777788650007e+02   
1.020900000000000e+10    -1.782867360183214e+01   -1.101559096561607e+02   
1.021000000000000e+10    -1.779104226590474e+01   -1.102171820377471e+02   
1.021100000000000e+10    -1.776163347824133e+01   -1.103296511092524e+02   
1.021200000000000e+10    -1.773832012249444e+01   -1.103443556499851e+02   
1.021300000000000e+10    -1.768611337020534e+01   -1.105556603003244e+02   
1.021400000000000e+10    -1.767824907192143e+01   -1.106365425069529e+02   
1.021500000000000e+10    -1.762816258585623e+01   -1.109358821787389e+02   
1.021600000000000e+10    -1.761216382765299e+01   -1.112159415809352e+02   
1.021700000000000e+10    -1.759571296005425e+01   -1.112721828285559e+02   
1.021800000000000e+10    -1.758993692688367e+01   -1.115509641644260e+02   
1.021900000000000e+10    -1.757128029635257e+01   -1.116616549099125e+02   
1.022000000000000e+10    -1.758011723671682e+01   -1.119585795298030e+02   
1.022100000000000e+10    -1.755398559769706e+01   -1.122042344915069e+02   
1.022200000000000e+10    -1.757219401479559e+01   -1.124180811172765e+02   
1.022300000000000e+10    -1.758133236336509e+01   -1.126670221172584e+02   
1.022400000000000e+10    -1.759776941864386e+01   -1.129326558471241e+02   
1.022500000000000e+10    -1.761026351543466e+01   -1.131105305768325e+02   
1.022600000000000e+10    -1.764179285033561e+01   -1.133219150299204e+02   
1.022700000000000e+10    -1.765711724463499e+01   -1.135169491466567e+02   
1.022800000000000e+10    -1.770696739824457e+01   -1.135761025558918e+02   
1.022900000000000e+10    -1.770629374653596e+01   -1.137428424018411e+02   
1.023000000000000e+10    -1.775542937305184e+01   -1.139005802223813e+02   
1.023100000000000e+10    -1.776668591407183e+01   -1.139120235814841e+02   
1.023200000000000e+10    -1.783122681166065e+01   -1.140219369720679e+02   
1.023300000000000e+10    -1.782944004377669e+01   -1.140704023035456e+02   
1.023400000000000e+10    -1.789170972762296e+01   -1.141699112206392e+02   
1.023500000000000e+10    -1.789951960643160e+01   -1.140983503215174e+02   
1.023600000000000e+10    -1.795443849222160e+01   -1.140397444584421e+02   
1.023700000000000e+10    -1.798028228338930e+01   -1.139722318638153e+02   
1.023800000000000e+10    -1.801241502397334e+01   -1.139894072644748e+02   
1.023900000000000e+10    -1.803386974914865e+01   -1.137803287505198e+02   
1.024000000000000e+10    -1.806817697977786e+01   -1.136686213482605e+02   
1.024100000000000e+10    -1.807058856687546e+01   -1.136549587034654e+02   
1.024200000000000e+10    -1.807661937626646e+01   -1.134451691553996e+02   
1.024300000000000e+10    -1.808825614082902e+01   -1.131807020257239e+02   
1.024400000000000e+10    -1.808441105470780e+01   -1.131463099375403e+02   
1.024500000000000e+10    -1.809324626876404e+01   -1.129469127285257e+02   
1.024600000000000e+10    -1.807070403478877e+01   -1.129146286107662e+02   
1.024700000000000e+10    -1.807501537898377e+01   -1.127477415839254e+02   
1.024800000000000e+10    -1.806892742702070e+01   -1.128433146949993e+02   
1.024900000000000e+10    -1.802675565972872e+01   -1.126802821378534e+02   
1.025000000000000e+10    -1.800763061969446e+01   -1.125447602914201e+02   
1.025100000000000e+10    -1.800686496659665e+01   -1.124659791915720e+02   
1.025200000000000e+10    -1.797398326611251e+01   -1.125867221554194e+02   
1.025300000000000e+10    -1.792748955496257e+01   -1.125462544729648e+02   
1.025400000000000e+10    -1.789404717809038e+01   -1.125294961939049e+02   
1.025500000000000e+10    -1.788266925300124e+01   -1.126375850378033e+02   
1.025600000000000e+10    -1.785141280303428e+01   -1.127975603922384e+02   
