[Version] 2.0
! Rohde & Schwarz Vector Network Analyzer
! Rohde-Schwarz,ZNL20-2Port,1323001220200009,1.71.1.10-23.02.1.238
! 
! Port Assignments:
! Nominal Port -> Actual Test Port
! --------------------------------
!   1 -> 1

! Created: GMT 2024-09-04 10:31:32

# Hz S DB R 50

[Number of Ports] 1
[Number of Frequencies] 2001

[Network Data] 
! freq[Hz]               S11[mag dB]              S11[ang]                 
1.000000000000000e+10    -1.807828518229459e+01   -1.017077747652638e+02   
1.000100000000000e+10    -1.810730690701712e+01   -1.019838445403752e+02   
1.000200000000000e+10    -1.815198903641008e+01   -1.020160495659522e+02   
1.000300000000000e+10    -1.818172261132339e+01   -1.021067662399566e+02   
1.000400000000000e+10    -1.822393792512636e+01   -1.023000161519426e+02   
1.000500000000000e+10    -1.824206353736411e+01   -1.024260128537358e+02   
1.000600000000000e+10    -1.830496615985612e+01   -1.024544364710047e+02   
1.000700000000000e+10    -1.830497702979707e+01   -1.025344751017023e+02   
1.000800000000000e+10    -1.836949607030865e+01   -1.025952150738352e+02   
1.000900000000000e+10    -1.837652827210085e+01   -1.022763109519644e+02   
1.001000000000000e+10    -1.841340947485539e+01   -1.024467144689549e+02   
1.001100000000000e+10    -1.844176495162552e+01   -1.022389079297737e+02   
1.001200000000000e+10    -1.846047106501433e+01   -1.021725459274272e+02   
1.001300000000000e+10    -1.847434047732244e+01   -1.020218712053493e+02   
1.001400000000000e+10    -1.850554226846402e+01   -1.018123973552040e+02   
1.001500000000000e+10    -1.848704990742171e+01   -1.018292698911464e+02   
1.001600000000000e+10    -1.850686917592015e+01   -1.015589308816339e+02   
1.001700000000000e+10    -1.850671359931562e+01   -1.013971131054985e+02   
1.001800000000000e+10    -1.849197568574603e+01   -1.012410225568503e+02   
1.001900000000000e+10    -1.847863405282323e+01   -1.011470816088044e+02   
1.002000000000000e+10    -1.847167280048615e+01   -1.008606070521170e+02   
1.002100000000000e+10    -1.844122605616148e+01   -1.007241211219448e+02   
1.002200000000000e+10    -1.839436319229421e+01   -1.007142930336833e+02   
1.002300000000000e+10    -1.837157120645961e+01   -1.006156324446207e+02   
1.002400000000000e+10    -1.832821175223308e+01   -1.007363904819326e+02   
1.002500000000000e+10    -1.828847279358122e+01   -1.006596338874516e+02   
1.002600000000000e+10    -1.824088164846454e+01   -1.006361707251002e+02   
1.002700000000000e+10    -1.820016886608154e+01   -1.006340742557039e+02   
1.002800000000000e+10    -1.813632134565050e+01   -1.008063189264459e+02   
1.002900000000000e+10    -1.810524878400426e+01   -1.008550547640188e+02   
1.003000000000000e+10    -1.806088664346840e+01   -1.010793921522343e+02   
1.003100000000000e+10    -1.801058095541805e+01   -1.013534893881898e+02   
1.003200000000000e+10    -1.798344695700203e+01   -1.014766767201813e+02   
1.003300000000000e+10    -1.796671546407245e+01   -1.017286260201015e+02   
1.003400000000000e+10    -1.791184570639106e+01   -1.020525276034632e+02   
1.003500000000000e+10    -1.789293363893868e+01   -1.022275810242677e+02   
1.003600000000000e+10    -1.788604547610527e+01   -1.025786676803573e+02   
1.003700000000000e+10    -1.785026170188969e+01   -1.028970786021725e+02   
1.003800000000000e+10    -1.785246612320863e+01   -1.031564995089166e+02   
1.003900000000000e+10    -1.782550006875611e+01   -1.035953435838978e+02   
1.004000000000000e+10    -1.784304125062771e+01   -1.036608678648805e+02   
1.004100000000000e+10    -1.781629377018920e+01   -1.040054925923149e+02   
1.004200000000000e+10    -1.785278366851131e+01   -1.041575176846431e+02   
1.004300000000000e+10    -1.785556712283602e+01   -1.045622634096409e+02   
1.004400000000000e+10    -1.785637696009675e+01   -1.048580583940349e+02   
1.004500000000000e+10    -1.790262123440260e+01   -1.050662249361880e+02   
1.004600000000000e+10    -1.791598692117874e+01   -1.051580117967606e+02   
1.004700000000000e+10    -1.793411870595066e+01   -1.054948325500349e+02   
1.004800000000000e+10    -1.796564996538481e+01   -1.056405062920499e+02   
1.004900000000000e+10    -1.802354474522594e+01   -1.057610739179084e+02   
1.005000000000000e+10    -1.806300941926448e+01   -1.057974889182060e+02   
1.005100000000000e+10    -1.807727083762945e+01   -1.057096209396854e+02   
1.005200000000000e+10    -1.810286054312499e+01   -1.057480916762391e+02   
1.005300000000000e+10    -1.813678028328170e+01   -1.058016394648533e+02   
1.005400000000000e+10    -1.817989770684973e+01   -1.057721375912062e+02   
1.005500000000000e+10    -1.820482956304966e+01   -1.057573097933535e+02   
1.005600000000000e+10    -1.824190833553070e+01   -1.054429124528117e+02   
1.005700000000000e+10    -1.827424188697053e+01   -1.053695328372960e+02   
1.005800000000000e+10    -1.828190036233714e+01   -1.049872739792734e+02   
1.005900000000000e+10    -1.828916123727319e+01   -1.049333654430947e+02   
1.006000000000000e+10    -1.829430252681754e+01   -1.047565698834076e+02   
1.006100000000000e+10    -1.830851558395778e+01   -1.044781784451402e+02   
1.006200000000000e+10    -1.830939474556416e+01   -1.041281546990799e+02   
1.006300000000000e+10    -1.828126410165646e+01   -1.037959599515372e+02   
1.006400000000000e+10    -1.828444845944388e+01   -1.036271953955271e+02   
1.006500000000000e+10    -1.825614214128480e+01   -1.035211535901287e+02   
1.006600000000000e+10    -1.824256501012420e+01   -1.032768448762039e+02   
1.006700000000000e+10    -1.822788874630672e+01   -1.030002197555318e+02   
1.006800000000000e+10    -1.819706872215369e+01   -1.031360006140827e+02   
1.006900000000000e+10    -1.814820867456691e+01   -1.027796612809890e+02   
1.007000000000000e+10    -1.810593312272539e+01   -1.027314760548758e+02   
1.007100000000000e+10    -1.806367500561515e+01   -1.026457235371995e+02   
1.007200000000000e+10    -1.802864202444449e+01   -1.027936634493199e+02   
1.007300000000000e+10    -1.798556667933509e+01   -1.026782701297134e+02   
1.007400000000000e+10    -1.794081790797031e+01   -1.027684400204527e+02   
1.007500000000000e+10    -1.791619524473908e+01   -1.028621361104361e+02   
1.007600000000000e+10    -1.786181943306156e+01   -1.030754745647404e+02   
1.007700000000000e+10    -1.783380251134535e+01   -1.031313454276382e+02   
1.007800000000000e+10    -1.779470424011744e+01   -1.032980043310957e+02   
1.007900000000000e+10    -1.776398414181288e+01   -1.033573482791734e+02   
1.008000000000000e+10    -1.774581851722060e+01   -1.036462555853722e+02   
1.008100000000000e+10    -1.772386887282473e+01   -1.041814416177537e+02   
1.008200000000000e+10    -1.770997276085657e+01   -1.044354167710969e+02   
1.008300000000000e+10    -1.771919767584635e+01   -1.045820739281264e+02   
1.008400000000000e+10    -1.770471835036188e+01   -1.050131764302320e+02   
1.008500000000000e+10    -1.769905586507183e+01   -1.052619156050469e+02   
1.008600000000000e+10    -1.770812186672903e+01   -1.055512308648709e+02   
1.008700000000000e+10    -1.772273002243016e+01   -1.058359290613429e+02   
1.008800000000000e+10    -1.773364045261680e+01   -1.062585389419295e+02   
1.008900000000000e+10    -1.776640761353185e+01   -1.063573593754682e+02   
1.009000000000000e+10    -1.777631601291002e+01   -1.066832777386535e+02   
1.009100000000000e+10    -1.780325669977713e+01   -1.070046488581257e+02   
1.009200000000000e+10    -1.784324295569149e+01   -1.071175804948595e+02   
1.009300000000000e+10    -1.788909151529807e+01   -1.073266344818497e+02   
1.009400000000000e+10    -1.792747131937889e+01   -1.075604363483065e+02   
1.009500000000000e+10    -1.796313545445453e+01   -1.077099958698669e+02   
1.009600000000000e+10    -1.800202593791976e+01   -1.076529474249145e+02   
1.009700000000000e+10    -1.804466195678354e+01   -1.077623742020469e+02   
1.009800000000000e+10    -1.810194592234677e+01   -1.077479199526200e+02   
1.009900000000000e+10    -1.813984131497899e+01   -1.077428726369445e+02   
1.010000000000000e+10    -1.816387692384472e+01   -1.077569679200542e+02   
1.010100000000000e+10    -1.820190661622928e+01   -1.075946779843660e+02   
1.010200000000000e+10    -1.824431272007452e+01   -1.074881581264956e+02   
1.010300000000000e+10    -1.826585910908824e+01   -1.073863942870503e+02   
1.010400000000000e+10    -1.827898098414325e+01   -1.071692337765281e+02   
1.010500000000000e+10    -1.829885854854039e+01   -1.070695626832050e+02   
1.010600000000000e+10    -1.830038098873193e+01   -1.066275905886721e+02   
1.010700000000000e+10    -1.830622231822215e+01   -1.067493777463398e+02   
1.010800000000000e+10    -1.832475300112559e+01   -1.063644933109868e+02   
1.010900000000000e+10    -1.829258184531051e+01   -1.062214888139170e+02   
1.011000000000000e+10    -1.827552114879914e+01   -1.058855525567477e+02   
1.011100000000000e+10    -1.822920979048157e+01   -1.058427299554537e+02   
1.011200000000000e+10    -1.822401187508549e+01   -1.056900843260675e+02   
1.011300000000000e+10    -1.816767614285647e+01   -1.056159002347963e+02   
1.011400000000000e+10    -1.815590845720425e+01   -1.054066559641525e+02   
1.011500000000000e+10    -1.810615782619122e+01   -1.053790416449634e+02   
1.011600000000000e+10    -1.808616937974622e+01   -1.052934960484877e+02   
1.011700000000000e+10    -1.805558629554860e+01   -1.053957165631179e+02   
1.011800000000000e+10    -1.800157275718738e+01   -1.053979928365295e+02   
1.011900000000000e+10    -1.795183183840436e+01   -1.054809281256366e+02   
1.012000000000000e+10    -1.789118169692617e+01   -1.055547386534254e+02   
1.012100000000000e+10    -1.786675981677696e+01   -1.058052864868942e+02   
1.012200000000000e+10    -1.781587646937160e+01   -1.057902797208922e+02   
1.012300000000000e+10    -1.778561159896545e+01   -1.060289273962524e+02   
1.012400000000000e+10    -1.776539993336753e+01   -1.062817246179104e+02   
1.012500000000000e+10    -1.773294381546118e+01   -1.064732482134622e+02   
1.012600000000000e+10    -1.772124103914444e+01   -1.067098160350948e+02   
1.012700000000000e+10    -1.769349961078246e+01   -1.071153810241921e+02   
1.012800000000000e+10    -1.767847478458562e+01   -1.072904923035823e+02   
1.012900000000000e+10    -1.766331780447036e+01   -1.076646008410106e+02   
1.013000000000000e+10    -1.767455981377438e+01   -1.078438259294640e+02   
1.013100000000000e+10    -1.767298239389624e+01   -1.081956397550537e+02   
1.013200000000000e+10    -1.768784323387287e+01   -1.085264494060247e+02   
1.013300000000000e+10    -1.770279822220954e+01   -1.088848515309578e+02   
1.013400000000000e+10    -1.770507905341762e+01   -1.090350073621186e+02   
1.013500000000000e+10    -1.773138169592708e+01   -1.093309114703892e+02   
1.013600000000000e+10    -1.775789183232006e+01   -1.094719502519698e+02   
1.013700000000000e+10    -1.777893918112406e+01   -1.096509260421485e+02   
1.013800000000000e+10    -1.781170655898468e+01   -1.098659732106833e+02   
1.013900000000000e+10    -1.785119478807788e+01   -1.100283411409623e+02   
1.014000000000000e+10    -1.788826999968736e+01   -1.100080154856827e+02   
1.014100000000000e+10    -1.793899928515850e+01   -1.101732436976655e+02   
1.014200000000000e+10    -1.796477359743605e+01   -1.101273582539540e+02   
1.014300000000000e+10    -1.801640708926600e+01   -1.101320165319399e+02   
1.014400000000000e+10    -1.804986448282039e+01   -1.100349322457717e+02   
1.014500000000000e+10    -1.808711039863044e+01   -1.100836092100044e+02   
1.014600000000000e+10    -1.810957322058928e+01   -1.098725131887544e+02   
1.014700000000000e+10    -1.814160428628337e+01   -1.096288600920945e+02   
1.014800000000000e+10    -1.818614177258105e+01   -1.095730039886543e+02   
1.014900000000000e+10    -1.818630847705013e+01   -1.093716604902663e+02   
1.015000000000000e+10    -1.820734234073414e+01   -1.091834971368689e+02   
1.015100000000000e+10    -1.821776891059099e+01   -1.089259279546935e+02   
1.015200000000000e+10    -1.821633836104563e+01   -1.086467406542727e+02   
1.015300000000000e+10    -1.821897599572693e+01   -1.085567995593464e+02   
1.015400000000000e+10    -1.820481162073875e+01   -1.082118521319725e+02   
1.015500000000000e+10    -1.822448078134995e+01   -1.081805208127811e+02   
1.015600000000000e+10    -1.819384696338630e+01   -1.079207203298195e+02   
1.015700000000000e+10    -1.816557870796526e+01   -1.076068261193562e+02   
1.015800000000000e+10    -1.813225423469304e+01   -1.075770977375752e+02   
1.015900000000000e+10    -1.810409900033975e+01   -1.074088322702482e+02   
1.016000000000000e+10    -1.806026179414820e+01   -1.073639597564210e+02   
1.016100000000000e+10    -1.803591148899169e+01   -1.073386259979894e+02   
1.016200000000000e+10    -1.799340980722464e+01   -1.071696082694066e+02   
1.016300000000000e+10    -1.795487863830861e+01   -1.071905989685035e+02   
1.016400000000000e+10    -1.794071628934843e+01   -1.073240483519482e+02   
1.016500000000000e+10    -1.788146739227610e+01   -1.073207177506637e+02   
1.016600000000000e+10    -1.785912604205080e+01   -1.075597443298490e+02   
1.016700000000000e+10    -1.780898972834763e+01   -1.076382400736095e+02   
1.016800000000000e+10    -1.777648288664131e+01   -1.078015947794983e+02   
1.016900000000000e+10    -1.775540346609682e+01   -1.079873349184112e+02   
1.017000000000000e+10    -1.773491178244167e+01   -1.083168641718461e+02   
1.017100000000000e+10    -1.769906682827540e+01   -1.086574172436402e+02   
1.017200000000000e+10    -1.768565327664165e+01   -1.087885974808274e+02   
1.017300000000000e+10    -1.767331565180130e+01   -1.091972022568975e+02   
1.017400000000000e+10    -1.766494472082851e+01   -1.094146236392464e+02   
1.017500000000000e+10    -1.765181782239577e+01   -1.097661112307353e+02   
1.017600000000000e+10    -1.764323727327053e+01   -1.099403644214311e+02   
1.017700000000000e+10    -1.767432750969091e+01   -1.103171617433416e+02   
1.017800000000000e+10    -1.767285046561094e+01   -1.106381943049849e+02   
1.017900000000000e+10    -1.768942554373158e+01   -1.108060686350391e+02   
1.018000000000000e+10    -1.770499100795017e+01   -1.111182215756761e+02   
1.018100000000000e+10    -1.773204635528726e+01   -1.113230381587204e+02   
1.018200000000000e+10    -1.776706533709974e+01   -1.115513164529586e+02   
1.018300000000000e+10    -1.778136593940891e+01   -1.117248687064838e+02   
1.018400000000000e+10    -1.782798987474898e+01   -1.119425121260979e+02   
1.018500000000000e+10    -1.785065247869155e+01   -1.121056860481929e+02   
1.018600000000000e+10    -1.787752292739025e+01   -1.123657798411672e+02   
1.018700000000000e+10    -1.791528105082712e+01   -1.122828828705093e+02   
1.018800000000000e+10    -1.795596322776853e+01   -1.124157583115320e+02   
1.018900000000000e+10    -1.799757589550157e+01   -1.124167018541476e+02   
1.019000000000000e+10    -1.802188218706361e+01   -1.123050986813901e+02   
1.019100000000000e+10    -1.804393110395200e+01   -1.122712538419410e+02   
1.019200000000000e+10    -1.807206232022607e+01   -1.121096754324404e+02   
1.019300000000000e+10    -1.810103426559607e+01   -1.121860582618330e+02   
1.019400000000000e+10    -1.811564496516313e+01   -1.119420202723636e+02   
1.019500000000000e+10    -1.812893242794907e+01   -1.118363126559751e+02   
1.019600000000000e+10    -1.811217139227895e+01   -1.116187787946794e+02   
1.019700000000000e+10    -1.813049067188260e+01   -1.114283295086811e+02   
1.019800000000000e+10    -1.812552561212265e+01   -1.112759400087311e+02   
1.019900000000000e+10    -1.812064163783383e+01   -1.109983784639689e+02   
1.020000000000000e+10    -1.810568701799684e+01   -1.109584864440714e+02   
1.020100000000000e+10    -1.809246785364886e+01   -1.107427036035382e+02   
1.020200000000000e+10    -1.806129189113551e+01   -1.105167766246161e+02   
1.020300000000000e+10    -1.805251850921535e+01   -1.104018285196630e+02   
1.020400000000000e+10    -1.800860424479920e+01   -1.102762263485143e+02   
1.020500000000000e+10    -1.798920998894350e+01   -1.102537124175650e+02   
1.020600000000000e+10    -1.793752238970597e+01   -1.100638283518580e+02   
1.020700000000000e+10    -1.791984352899151e+01   -1.100896928926034e+02   
1.020800000000000e+10    -1.789138644892158e+01   -1.101239697436298e+02   
1.020900000000000e+10    -1.783932130007550e+01   -1.100824337752707e+02   
1.021000000000000e+10    -1.780030672810316e+01   -1.101454311133818e+02   
1.021100000000000e+10    -1.777003636515948e+01   -1.102388671569731e+02   
1.021200000000000e+10    -1.774607771085640e+01   -1.102426323659138e+02   
1.021300000000000e+10    -1.769157902798040e+01   -1.104405569418010e+02   
1.021400000000000e+10    -1.768336285742455e+01   -1.105189719224756e+02   
1.021500000000000e+10    -1.762935966913861e+01   -1.108063842729226e+02   
1.021600000000000e+10    -1.761250485250044e+01   -1.110789750597460e+02   
1.021700000000000e+10    -1.759384512614545e+01   -1.111359938924067e+02   
1.021800000000000e+10    -1.758731264745974e+01   -1.114073276788132e+02   
1.021900000000000e+10    -1.756541936282751e+01   -1.115175478892812e+02   
1.022000000000000e+10    -1.757319490326648e+01   -1.118175335183300e+02   
1.022100000000000e+10    -1.754477217748423e+01   -1.120592059607958e+02   
1.022200000000000e+10    -1.756080442250743e+01   -1.122751482814886e+02   
1.022300000000000e+10    -1.756895921471756e+01   -1.125383552390427e+02   
1.022400000000000e+10    -1.758234282097345e+01   -1.128101828906568e+02   
1.022500000000000e+10    -1.759360061833228e+01   -1.129993632473436e+02   
1.022600000000000e+10    -1.762380831137599e+01   -1.132258862217417e+02   
1.022700000000000e+10    -1.763816787935398e+01   -1.134182469650110e+02   
1.022800000000000e+10    -1.768665144314439e+01   -1.135020991880751e+02   
1.022900000000000e+10    -1.768514428403225e+01   -1.136801675629405e+02   
1.023000000000000e+10    -1.773351948308911e+01   -1.138456783798930e+02   
1.023100000000000e+10    -1.774530475848512e+01   -1.138755946687938e+02   
1.023200000000000e+10    -1.780888559565970e+01   -1.139906042229559e+02   
1.023300000000000e+10    -1.780973339006766e+01   -1.140587139360883e+02   
1.023400000000000e+10    -1.787000306137471e+01   -1.141625357099266e+02   
1.023500000000000e+10    -1.788024819628562e+01   -1.140985629912965e+02   
1.023600000000000e+10    -1.793504073862988e+01   -1.140701709075757e+02   
1.023700000000000e+10    -1.796235283521620e+01   -1.139985173056459e+02   
1.023800000000000e+10    -1.799758559563461e+01   -1.140284490021391e+02   
1.023900000000000e+10    -1.802086672668412e+01   -1.138311836299985e+02   
1.024000000000000e+10    -1.805723527260196e+01   -1.137122463699855e+02   
1.024100000000000e+10    -1.806090462400573e+01   -1.137052594558150e+02   
1.024200000000000e+10    -1.807050957090709e+01   -1.135015154656991e+02   
1.024300000000000e+10    -1.808270023255671e+01   -1.132418222579819e+02   
1.024400000000000e+10    -1.808178562815056e+01   -1.131994059600455e+02   
1.024500000000000e+10    -1.809139001211269e+01   -1.129882264094569e+02   
1.024600000000000e+10    -1.807212842354002e+01   -1.129574828427247e+02   
1.024700000000000e+10    -1.807711792696945e+01   -1.127740176866329e+02   
1.024800000000000e+10    -1.807358776304926e+01   -1.128569966738911e+02   
1.024900000000000e+10    -1.803302018870881e+01   -1.127036280713148e+02   
1.025000000000000e+10    -1.801658384509420e+01   -1.125401987047670e+02   
1.025100000000000e+10    -1.801636509596924e+01   -1.124453645236968e+02   
1.025200000000000e+10    -1.798252787412486e+01   -1.125610600585760e+02   
1.025300000000000e+10    -1.793738920173737e+01   -1.124970652582827e+02   
1.025400000000000e+10    -1.790440378366812e+01   -1.124709021946769e+02   
1.025500000000000e+10    -1.789151282848561e+01   -1.125606784732954e+02   
1.025600000000000e+10    -1.785953916238662e+01   -1.126974049751971e+02   
