[Version] 2.0
! Rohde & Schwarz Vector Network Analyzer
! Rohde-Schwarz,ZNL20-2Port,1323001220200009,1.71.1.10-23.02.1.238
! 
! Port Assignments:
! Nominal Port -> Actual Test Port
! --------------------------------
!   1 -> 1

! Created: GMT 2024-09-04 10:32:01

# Hz S DB R 50

[Number of Ports] 1
[Number of Frequencies] 2001

[Network Data] 
! freq[Hz]               S11[mag dB]              S11[ang]                 
1.000000000000000e+10    -1.806350034524136e+01   -1.016606065015570e+02   
1.000100000000000e+10    -1.809255252645404e+01   -1.019574192940726e+02   
1.000200000000000e+10    -1.813448271142876e+01   -1.020032655527646e+02   
1.000300000000000e+10    -1.816440427611731e+01   -1.021004891559071e+02   
1.000400000000000e+10    -1.820798280771202e+01   -1.023042322572417e+02   
1.000500000000000e+10    -1.822524143296949e+01   -1.024536051745291e+02   
1.000600000000000e+10    -1.828969655107857e+01   -1.024912526170467e+02   
1.000700000000000e+10    -1.828997869545406e+01   -1.025840434590309e+02   
1.000800000000000e+10    -1.835497866912789e+01   -1.026573560246246e+02   
1.000900000000000e+10    -1.836468406856535e+01   -1.023490361212639e+02   
1.001000000000000e+10    -1.840179783636173e+01   -1.025265332690964e+02   
1.001100000000000e+10    -1.843300376750695e+01   -1.023297241659982e+02   
1.001200000000000e+10    -1.845322217401206e+01   -1.022706111909151e+02   
1.001300000000000e+10    -1.846969190423852e+01   -1.021243241754872e+02   
1.001400000000000e+10    -1.850274920708408e+01   -1.019179910850656e+02   
1.001500000000000e+10    -1.848754290232358e+01   -1.019331818015302e+02   
1.001600000000000e+10    -1.850750926237229e+01   -1.016609755578347e+02   
1.001700000000000e+10    -1.851223760001175e+01   -1.014936155785960e+02   
1.001800000000000e+10    -1.849853497123788e+01   -1.013333039290354e+02   
1.001900000000000e+10    -1.848742367409636e+01   -1.012336488303664e+02   
1.002000000000000e+10    -1.848247384588239e+01   -1.009451817017122e+02   
1.002100000000000e+10    -1.845204949547813e+01   -1.007825929937552e+02   
1.002200000000000e+10    -1.840716961777628e+01   -1.007639169063625e+02   
1.002300000000000e+10    -1.838567585812858e+01   -1.006469853550044e+02   
1.002400000000000e+10    -1.834293070211270e+01   -1.007596349545909e+02   
1.002500000000000e+10    -1.830331715174963e+01   -1.006554510843325e+02   
1.002600000000000e+10    -1.825454630755883e+01   -1.006263849007494e+02   
1.002700000000000e+10    -1.821543486109555e+01   -1.006067140146457e+02   
1.002800000000000e+10    -1.815036317156552e+01   -1.007645314880136e+02   
1.002900000000000e+10    -1.811957653039739e+01   -1.008005138664855e+02   
1.003000000000000e+10    -1.807208628331978e+01   -1.010138225044672e+02   
1.003100000000000e+10    -1.802091773582901e+01   -1.012853902358670e+02   
1.003200000000000e+10    -1.799239163840078e+01   -1.013895052310583e+02   
1.003300000000000e+10    -1.797425678227492e+01   -1.016388459385869e+02   
1.003400000000000e+10    -1.791711888047658e+01   -1.019505953344620e+02   
1.003500000000000e+10    -1.789573863054992e+01   -1.021297272556278e+02   
1.003600000000000e+10    -1.788633284679242e+01   -1.024725476767729e+02   
1.003700000000000e+10    -1.784783804044778e+01   -1.027931857679878e+02   
1.003800000000000e+10    -1.784961022013798e+01   -1.030502645901165e+02   
1.003900000000000e+10    -1.782076686840573e+01   -1.034926237706538e+02   
1.004000000000000e+10    -1.783546376186913e+01   -1.035636787449445e+02   
1.004100000000000e+10    -1.780772275632578e+01   -1.039108174751324e+02   
1.004200000000000e+10    -1.784213628504875e+01   -1.040653679952512e+02   
1.004300000000000e+10    -1.784309904835072e+01   -1.044844423766422e+02   
1.004400000000000e+10    -1.784323298715319e+01   -1.047947321291353e+02   
1.004500000000000e+10    -1.788730010390703e+01   -1.050130783007830e+02   
1.004600000000000e+10    -1.789856718623980e+01   -1.051101938833627e+02   
1.004700000000000e+10    -1.791712276407273e+01   -1.054660524791840e+02   
1.004800000000000e+10    -1.794801983144839e+01   -1.056228409394318e+02   
1.004900000000000e+10    -1.800607677931813e+01   -1.057544117264503e+02   
1.005000000000000e+10    -1.804551262227261e+01   -1.058097377749315e+02   
1.005100000000000e+10    -1.805947940321678e+01   -1.057311022657011e+02   
1.005200000000000e+10    -1.808591026689266e+01   -1.057842589409783e+02   
1.005300000000000e+10    -1.811958405558149e+01   -1.058540628829002e+02   
1.005400000000000e+10    -1.816593590874416e+01   -1.058355712535050e+02   
1.005500000000000e+10    -1.819212969973343e+01   -1.058431376681793e+02   
1.005600000000000e+10    -1.823055489045308e+01   -1.055361165593544e+02   
1.005700000000000e+10    -1.826619513103513e+01   -1.054688391472998e+02   
1.005800000000000e+10    -1.827549100392944e+01   -1.050936927109154e+02   
1.005900000000000e+10    -1.828576814089810e+01   -1.050441051100865e+02   
1.006000000000000e+10    -1.829193939016069e+01   -1.048564658864761e+02   
1.006100000000000e+10    -1.830878994207531e+01   -1.045901317978374e+02   
1.006200000000000e+10    -1.831207525172327e+01   -1.042430212414421e+02   
1.006300000000000e+10    -1.828601710318499e+01   -1.038929632015645e+02   
1.006400000000000e+10    -1.829258849309579e+01   -1.037194215437055e+02   
1.006500000000000e+10    -1.826667752484199e+01   -1.035960767272876e+02   
1.006600000000000e+10    -1.825338016794205e+01   -1.033482465512552e+02   
1.006700000000000e+10    -1.824108714513770e+01   -1.030567274140833e+02   
1.006800000000000e+10    -1.821119131142995e+01   -1.031752350522949e+02   
1.006900000000000e+10    -1.816198638633828e+01   -1.028023880449042e+02   
1.007000000000000e+10    -1.812181025510172e+01   -1.027505483247880e+02   
1.007100000000000e+10    -1.807944639581527e+01   -1.026400981266591e+02   
1.007200000000000e+10    -1.804312620925227e+01   -1.027749334304502e+02   
1.007300000000000e+10    -1.800041104358023e+01   -1.026482704135253e+02   
1.007400000000000e+10    -1.795468019363360e+01   -1.027187597792789e+02   
1.007500000000000e+10    -1.792846628814464e+01   -1.027984900630609e+02   
1.007600000000000e+10    -1.787405161902367e+01   -1.030059766164052e+02   
1.007700000000000e+10    -1.784382832294672e+01   -1.030490120406969e+02   
1.007800000000000e+10    -1.780244619754140e+01   -1.032103468924826e+02   
1.007900000000000e+10    -1.776956965310422e+01   -1.032661307082768e+02   
1.008000000000000e+10    -1.774931674343274e+01   -1.035464904856198e+02   
1.008100000000000e+10    -1.772613494090061e+01   -1.040768551844049e+02   
1.008200000000000e+10    -1.771094629016203e+01   -1.043268993121485e+02   
1.008300000000000e+10    -1.771713587424489e+01   -1.044699409363721e+02   
1.008400000000000e+10    -1.770012260847294e+01   -1.049050811036135e+02   
1.008500000000000e+10    -1.769298990478458e+01   -1.051544560326793e+02   
1.008600000000000e+10    -1.770040132955513e+01   -1.054425689755588e+02   
1.008700000000000e+10    -1.771297857438116e+01   -1.057420978021895e+02   
1.008800000000000e+10    -1.772154365273552e+01   -1.061738051938848e+02   
1.008900000000000e+10    -1.775264304735438e+01   -1.062844184281009e+02   
1.009000000000000e+10    -1.776087362218124e+01   -1.066187575630569e+02   
1.009100000000000e+10    -1.778586626031261e+01   -1.069529516034805e+02   
1.009200000000000e+10    -1.782636058797973e+01   -1.070728945733123e+02   
1.009300000000000e+10    -1.787081465545488e+01   -1.073011308556496e+02   
1.009400000000000e+10    -1.790935460837335e+01   -1.075533664186315e+02   
1.009500000000000e+10    -1.794455154564871e+01   -1.077233510967216e+02   
1.009600000000000e+10    -1.798287912924003e+01   -1.076770197211537e+02   
1.009700000000000e+10    -1.802722948568686e+01   -1.077977557221438e+02   
1.009800000000000e+10    -1.808570297070024e+01   -1.077998395203803e+02   
1.009900000000000e+10    -1.812442980248145e+01   -1.078076694547995e+02   
1.010000000000000e+10    -1.814889652881594e+01   -1.078341309737080e+02   
1.010100000000000e+10    -1.818963155796733e+01   -1.076777831316642e+02   
1.010200000000000e+10    -1.823407433896070e+01   -1.075900197998423e+02   
1.010300000000000e+10    -1.825816891418729e+01   -1.074957115621172e+02   
1.010400000000000e+10    -1.827320564427131e+01   -1.072841870566100e+02   
1.010500000000000e+10    -1.829518287920174e+01   -1.071826369775627e+02   
1.010600000000000e+10    -1.830049584640283e+01   -1.067478335295184e+02   
1.010700000000000e+10    -1.830717704860925e+01   -1.068632933171831e+02   
1.010800000000000e+10    -1.832847588617377e+01   -1.064737779521222e+02   
1.010900000000000e+10    -1.829953644285342e+01   -1.063203831812168e+02   
1.011000000000000e+10    -1.828538154011778e+01   -1.059720973312855e+02   
1.011100000000000e+10    -1.824016045687673e+01   -1.059328678254373e+02   
1.011200000000000e+10    -1.823559157638256e+01   -1.057613705907223e+02   
1.011300000000000e+10    -1.818082927590452e+01   -1.056701637504213e+02   
1.011400000000000e+10    -1.817048700700679e+01   -1.054528458601753e+02   
1.011500000000000e+10    -1.812063055287201e+01   -1.054036985285652e+02   
1.011600000000000e+10    -1.810099198573877e+01   -1.053045913858758e+02   
1.011700000000000e+10    -1.807089183978693e+01   -1.053881596910808e+02   
1.011800000000000e+10    -1.801685139733310e+01   -1.053704407479412e+02   
1.011900000000000e+10    -1.796692800152156e+01   -1.054444999206568e+02   
1.012000000000000e+10    -1.790476628752594e+01   -1.055027566977061e+02   
1.012100000000000e+10    -1.787933359377525e+01   -1.057433670441432e+02   
1.012200000000000e+10    -1.782703026966798e+01   -1.057128196349896e+02   
1.012300000000000e+10    -1.779502791287498e+01   -1.059391400600069e+02   
1.012400000000000e+10    -1.777322258107547e+01   -1.061902122707823e+02   
1.012500000000000e+10    -1.773981437811656e+01   -1.063694453109865e+02   
1.012600000000000e+10    -1.772485170962162e+01   -1.066037665675130e+02   
1.012700000000000e+10    -1.769537447152300e+01   -1.070024216589816e+02   
1.012800000000000e+10    -1.767739352537352e+01   -1.071815570353422e+02   
1.012900000000000e+10    -1.766093777714638e+01   -1.075420133950107e+02   
1.013000000000000e+10    -1.766828049994279e+01   -1.077272344333909e+02   
1.013100000000000e+10    -1.766673520756639e+01   -1.080888348506935e+02   
1.013200000000000e+10    -1.767707499313005e+01   -1.084172005570088e+02   
1.013300000000000e+10    -1.769030997145299e+01   -1.087885353869601e+02   
1.013400000000000e+10    -1.769139429544814e+01   -1.089455157964259e+02   
1.013500000000000e+10    -1.771623674929251e+01   -1.092556122070324e+02   
1.013600000000000e+10    -1.774160633279743e+01   -1.093999349045878e+02   
1.013700000000000e+10    -1.776138020404633e+01   -1.095918072120091e+02   
1.013800000000000e+10    -1.779319005241162e+01   -1.098203264710755e+02   
1.013900000000000e+10    -1.783098533285058e+01   -1.100003593926986e+02   
1.014000000000000e+10    -1.786774516143313e+01   -1.099966849409641e+02   
1.014100000000000e+10    -1.791890129913037e+01   -1.101784256999645e+02   
1.014200000000000e+10    -1.794530586030424e+01   -1.101547491420725e+02   
1.014300000000000e+10    -1.799749885604186e+01   -1.101706639607476e+02   
1.014400000000000e+10    -1.803175282747598e+01   -1.100877733526347e+02   
1.014500000000000e+10    -1.807102746494423e+01   -1.101548032840350e+02   
1.014600000000000e+10    -1.809448652254025e+01   -1.099435328433258e+02   
1.014700000000000e+10    -1.812922222103938e+01   -1.097245273631173e+02   
1.014800000000000e+10    -1.817523971079672e+01   -1.096713885110161e+02   
1.014900000000000e+10    -1.817787858173079e+01   -1.094764873475394e+02   
1.015000000000000e+10    -1.820145594268136e+01   -1.092931265669200e+02   
1.015100000000000e+10    -1.821516673847949e+01   -1.090422106196375e+02   
1.015200000000000e+10    -1.821595757826847e+01   -1.087603149523071e+02   
1.015300000000000e+10    -1.822014645590648e+01   -1.086575879550229e+02   
1.015400000000000e+10    -1.820984953410668e+01   -1.083155284913439e+02   
1.015500000000000e+10    -1.823130262620875e+01   -1.082813938130364e+02   
1.015600000000000e+10    -1.820227593391013e+01   -1.080034735377834e+02   
1.015700000000000e+10    -1.817693138849470e+01   -1.076830960596737e+02   
1.015800000000000e+10    -1.814665124329285e+01   -1.076428822595030e+02   
1.015900000000000e+10    -1.811827122920229e+01   -1.074642806039462e+02   
1.016000000000000e+10    -1.807641021484741e+01   -1.073894980278307e+02   
1.016100000000000e+10    -1.805127849865812e+01   -1.073577933155238e+02   
1.016200000000000e+10    -1.801059850218601e+01   -1.071695752885493e+02   
1.016300000000000e+10    -1.797130314496707e+01   -1.071728867352401e+02   
1.016400000000000e+10    -1.795716317255165e+01   -1.072836246357814e+02   
1.016500000000000e+10    -1.789763457759247e+01   -1.072696384639291e+02   
1.016600000000000e+10    -1.787448183713381e+01   -1.074923960426656e+02   
1.016700000000000e+10    -1.782191003550572e+01   -1.075709031442873e+02   
1.016800000000000e+10    -1.778844446983254e+01   -1.077076294796157e+02   
1.016900000000000e+10    -1.776592009797788e+01   -1.078849543746985e+02   
1.017000000000000e+10    -1.774318066357260e+01   -1.082068539636164e+02   
1.017100000000000e+10    -1.770531049461103e+01   -1.085412148010021e+02   
1.017200000000000e+10    -1.768907071405182e+01   -1.086601354535745e+02   
1.017300000000000e+10    -1.767548660063373e+01   -1.090689312933537e+02   
1.017400000000000e+10    -1.766267218835280e+01   -1.092891617841042e+02   
1.017500000000000e+10    -1.764762766013121e+01   -1.096371446195537e+02   
1.017600000000000e+10    -1.763801086193735e+01   -1.098173572086985e+02   
1.017700000000000e+10    -1.766650118895651e+01   -1.102006505244695e+02   
1.017800000000000e+10    -1.766183115376464e+01   -1.105215176859266e+02   
1.017900000000000e+10    -1.767799825874549e+01   -1.107084353194777e+02   
1.018000000000000e+10    -1.769136904835891e+01   -1.110295610519062e+02   
1.018100000000000e+10    -1.771587419881387e+01   -1.112387968072234e+02   
1.018200000000000e+10    -1.774933781585149e+01   -1.114852291728694e+02   
1.018300000000000e+10    -1.776290604784343e+01   -1.116757174242503e+02   
1.018400000000000e+10    -1.780918486541409e+01   -1.119057883951130e+02   
1.018500000000000e+10    -1.783151011902045e+01   -1.120853646677929e+02   
1.018600000000000e+10    -1.785776774674250e+01   -1.123728537180033e+02   
1.018700000000000e+10    -1.789679644799612e+01   -1.123029362381507e+02   
1.018800000000000e+10    -1.793694870568087e+01   -1.124439631407380e+02   
1.018900000000000e+10    -1.797919459919978e+01   -1.124572962172367e+02   
1.019000000000000e+10    -1.800620163980513e+01   -1.123726913118077e+02   
1.019100000000000e+10    -1.802914817814737e+01   -1.123455076752352e+02   
1.019200000000000e+10    -1.805870775178663e+01   -1.122058643065463e+02   
1.019300000000000e+10    -1.809013746840878e+01   -1.123058299062026e+02   
1.019400000000000e+10    -1.810538166484517e+01   -1.120534359681314e+02   
1.019500000000000e+10    -1.812309552874824e+01   -1.119637711359785e+02   
1.019600000000000e+10    -1.810812720999373e+01   -1.117333267058425e+02   
1.019700000000000e+10    -1.812919178843859e+01   -1.115532115634968e+02   
1.019800000000000e+10    -1.812728476381182e+01   -1.114004276233623e+02   
1.019900000000000e+10    -1.812565735264507e+01   -1.111225028144476e+02   
1.020000000000000e+10    -1.811263368097517e+01   -1.110693750311332e+02   
1.020100000000000e+10    -1.810222063147595e+01   -1.108569489801288e+02   
1.020200000000000e+10    -1.807159894532908e+01   -1.106021112837754e+02   
1.020300000000000e+10    -1.806531718701422e+01   -1.104843143830802e+02   
1.020400000000000e+10    -1.802340763791453e+01   -1.103430679634402e+02   
1.020500000000000e+10    -1.800394603090641e+01   -1.103023403330292e+02   
1.020600000000000e+10    -1.795371223734788e+01   -1.100958501025252e+02   
1.020700000000000e+10    -1.793758659303536e+01   -1.101004403167108e+02   
1.020800000000000e+10    -1.790930339037112e+01   -1.101278945263204e+02   
1.020900000000000e+10    -1.785674807178454e+01   -1.100750964456851e+02   
1.021000000000000e+10    -1.781710019618189e+01   -1.101113610118314e+02   
1.021100000000000e+10    -1.778524050038930e+01   -1.101893038556454e+02   
1.021200000000000e+10    -1.776037435147797e+01   -1.101839663322936e+02   
1.021300000000000e+10    -1.770437780915164e+01   -1.103602371563622e+02   
1.021400000000000e+10    -1.769388851732343e+01   -1.104257825885688e+02   
1.021500000000000e+10    -1.763901005770726e+01   -1.107015351990980e+02   
1.021600000000000e+10    -1.761812515696432e+01   -1.109684004115968e+02   
1.021700000000000e+10    -1.759842671333627e+01   -1.110166450937606e+02   
1.021800000000000e+10    -1.758862847634999e+01   -1.112769422549100e+02   
1.021900000000000e+10    -1.756450544699471e+01   -1.113898895177713e+02   
1.022000000000000e+10    -1.757042435481124e+01   -1.116863874592750e+02   
1.022100000000000e+10    -1.753790849326644e+01   -1.119379224520909e+02   
1.022200000000000e+10    -1.755208199897248e+01   -1.121521070436659e+02   
1.022300000000000e+10    -1.755667206076937e+01   -1.124257745675963e+02   
1.022400000000000e+10    -1.756896726560121e+01   -1.127051350973696e+02   
1.022500000000000e+10    -1.757742786115640e+01   -1.128988452627188e+02   
1.022600000000000e+10    -1.760728606496467e+01   -1.131326008058484e+02   
1.022700000000000e+10    -1.761900039769368e+01   -1.133515397621467e+02   
1.022800000000000e+10    -1.766645708534864e+01   -1.134371569059095e+02   
1.022900000000000e+10    -1.766399477964181e+01   -1.136317127711436e+02   
1.023000000000000e+10    -1.771216686630973e+01   -1.138219269340787e+02   
1.023100000000000e+10    -1.772433657831192e+01   -1.138599837547808e+02   
1.023200000000000e+10    -1.778666860699300e+01   -1.139953617223031e+02   
1.023300000000000e+10    -1.778820398636316e+01   -1.140836182597743e+02   
1.023400000000000e+10    -1.784995855870500e+01   -1.142033159172781e+02   
1.023500000000000e+10    -1.786020871842692e+01   -1.141556414002856e+02   
1.023600000000000e+10    -1.791934906853127e+01   -1.141303628828486e+02   
1.023700000000000e+10    -1.794633535885020e+01   -1.140834219031530e+02   
1.023800000000000e+10    -1.798341547506016e+01   -1.141219622664257e+02   
1.023900000000000e+10    -1.800848088094158e+01   -1.139353117086807e+02   
1.024000000000000e+10    -1.804750252593549e+01   -1.138254172315802e+02   
1.024100000000000e+10    -1.805409606444692e+01   -1.138137847133066e+02   
1.024200000000000e+10    -1.806681927818993e+01   -1.136249331004929e+02   
1.024300000000000e+10    -1.808274363461016e+01   -1.133548617421157e+02   
1.024400000000000e+10    -1.808426443024055e+01   -1.133135159428284e+02   
1.024500000000000e+10    -1.809679463414471e+01   -1.131010595211567e+02   
1.024600000000000e+10    -1.807965846229635e+01   -1.130581515951185e+02   
1.024700000000000e+10    -1.808568233264711e+01   -1.128727579687168e+02   
1.024800000000000e+10    -1.808433611191199e+01   -1.129467994799178e+02   
1.024900000000000e+10    -1.804698939850632e+01   -1.127712570210271e+02   
1.025000000000000e+10    -1.803243469698552e+01   -1.125870156869923e+02   
1.025100000000000e+10    -1.803266322348593e+01   -1.124864513766963e+02   
1.025200000000000e+10    -1.800072777446877e+01   -1.125778001455639e+02   
1.025300000000000e+10    -1.795449249319741e+01   -1.124976731901844e+02   
1.025400000000000e+10    -1.792291530254444e+01   -1.124575853807094e+02   
1.025500000000000e+10    -1.791010886153698e+01   -1.125278982516997e+02   
1.025600000000000e+10    -1.787774987629345e+01   -1.126472229729375e+02   
