[Version] 2.0
! Rohde & Schwarz Vector Network Analyzer
! Rohde-Schwarz,ZNL20-2Port,1323001220200009,1.71.1.10-23.02.1.238
! 
! Port Assignments:
! Nominal Port -> Actual Test Port
! --------------------------------
!   1 -> 1

! Created: GMT 2024-08-27 13:52:45

# Hz S DB R 50

[Number of Ports] 1
[Number of Frequencies] 2001

[Network Data] 
! freq[Hz]               S11[mag dB]              S11[ang]                 
1.000000000000000e+10    -2.072945788274371e+01   -1.347830472119512e+02   
1.000100000000000e+10    -2.076372682990759e+01   -1.343465330522143e+02   
1.000200000000000e+10    -2.077952299602360e+01   -1.338441759354362e+02   
1.000300000000000e+10    -2.081901837790249e+01   -1.336802141725796e+02   
1.000400000000000e+10    -2.083520168606728e+01   -1.335461086788204e+02   
1.000500000000000e+10    -2.084335525510538e+01   -1.332673495023938e+02   
1.000600000000000e+10    -2.087860923468860e+01   -1.329061068752966e+02   
1.000700000000000e+10    -2.089672405476419e+01   -1.325294460680906e+02   
1.000800000000000e+10    -2.092222173778920e+01   -1.322899049477942e+02   
1.000900000000000e+10    -2.095892915080976e+01   -1.321725137435425e+02   
1.001000000000000e+10    -2.097272644645095e+01   -1.316690214168260e+02   
1.001100000000000e+10    -2.099613566637353e+01   -1.314340005768500e+02   
1.001200000000000e+10    -2.099770474681526e+01   -1.311783720279466e+02   
1.001300000000000e+10    -2.104966205211044e+01   -1.309265803342466e+02   
1.001400000000000e+10    -2.104634553079314e+01   -1.308002258171053e+02   
1.001500000000000e+10    -2.106101622378210e+01   -1.304312140506785e+02   
1.001600000000000e+10    -2.104440045787268e+01   -1.301131537525147e+02   
1.001700000000000e+10    -2.108326106895316e+01   -1.300113756948939e+02   
1.001800000000000e+10    -2.108168403303423e+01   -1.297607217694579e+02   
1.001900000000000e+10    -2.108995269083987e+01   -1.294341256785142e+02   
1.002000000000000e+10    -2.110281954951727e+01   -1.293496755092175e+02   
1.002100000000000e+10    -2.110076957398110e+01   -1.290889651256900e+02   
1.002200000000000e+10    -2.109223093829620e+01   -1.287581370107493e+02   
1.002300000000000e+10    -2.107637222983335e+01   -1.286004709679076e+02   
1.002400000000000e+10    -2.105963291523157e+01   -1.284477046937778e+02   
1.002500000000000e+10    -2.108392483716720e+01   -1.280630403598251e+02   
1.002600000000000e+10    -2.108301938300277e+01   -1.281418870044979e+02   
1.002700000000000e+10    -2.106790114631284e+01   -1.279373094537779e+02   
1.002800000000000e+10    -2.106269609524061e+01   -1.275990679636788e+02   
1.002900000000000e+10    -2.104207996323302e+01   -1.273167201143857e+02   
1.003000000000000e+10    -2.105572861336447e+01   -1.269986266055183e+02   
1.003100000000000e+10    -2.101379226893435e+01   -1.270820066206578e+02   
1.003200000000000e+10    -2.101816452374196e+01   -1.268805622898029e+02   
1.003300000000000e+10    -2.096892590160294e+01   -1.267351696961703e+02   
1.003400000000000e+10    -2.094880000723594e+01   -1.263921512970148e+02   
1.003500000000000e+10    -2.095796804340880e+01   -1.261856878347178e+02   
1.003600000000000e+10    -2.088009805945208e+01   -1.259327723532812e+02   
1.003700000000000e+10    -2.088852797076262e+01   -1.257951533250831e+02   
1.003800000000000e+10    -2.086756650326796e+01   -1.256649668585201e+02   
1.003900000000000e+10    -2.085664649318781e+01   -1.254887321156436e+02   
1.004000000000000e+10    -2.079940735630298e+01   -1.254511212067613e+02   
1.004100000000000e+10    -2.079169154936945e+01   -1.251622840858043e+02   
1.004200000000000e+10    -2.073321809879682e+01   -1.250055393326465e+02   
1.004300000000000e+10    -2.071630542002331e+01   -1.248466192922147e+02   
1.004400000000000e+10    -2.069744869020850e+01   -1.247210763855207e+02   
1.004500000000000e+10    -2.063299661261611e+01   -1.245013320775891e+02   
1.004600000000000e+10    -2.060993959877504e+01   -1.242680089857401e+02   
1.004700000000000e+10    -2.057774636464384e+01   -1.241681851776214e+02   
1.004800000000000e+10    -2.052981166022795e+01   -1.239720551996880e+02   
1.004900000000000e+10    -2.048311707693263e+01   -1.238580621316452e+02   
1.005000000000000e+10    -2.046370135838902e+01   -1.238301497380198e+02   
1.005100000000000e+10    -2.038331902556017e+01   -1.236921658618752e+02   
1.005200000000000e+10    -2.035216930930965e+01   -1.233108926690441e+02   
1.005300000000000e+10    -2.031981801809760e+01   -1.232646032725418e+02   
1.005400000000000e+10    -2.027673650367896e+01   -1.231641183971086e+02   
1.005500000000000e+10    -2.023150558688679e+01   -1.229552909090391e+02   
1.005600000000000e+10    -2.021767482080612e+01   -1.227611996451998e+02   
1.005700000000000e+10    -2.014460941545416e+01   -1.226073963556540e+02   
1.005800000000000e+10    -2.010510274632595e+01   -1.225739167528176e+02   
1.005900000000000e+10    -2.007739416800785e+01   -1.224882332784247e+02   
1.006000000000000e+10    -2.000936951288472e+01   -1.223015711955043e+02   
1.006100000000000e+10    -1.998233023265516e+01   -1.220328654791850e+02   
1.006200000000000e+10    -1.994352163805665e+01   -1.219460980962229e+02   
1.006300000000000e+10    -1.990359785526018e+01   -1.217424010385243e+02   
1.006400000000000e+10    -1.984405424048330e+01   -1.216911771606060e+02   
1.006500000000000e+10    -1.981198638833473e+01   -1.215156994052567e+02   
1.006600000000000e+10    -1.977142861020522e+01   -1.212826839246758e+02   
1.006700000000000e+10    -1.974252870262786e+01   -1.212986040559778e+02   
1.006800000000000e+10    -1.967688146767217e+01   -1.210212092059126e+02   
1.006900000000000e+10    -1.963808405389249e+01   -1.208164174172668e+02   
1.007000000000000e+10    -1.959639527918919e+01   -1.207851730494869e+02   
1.007100000000000e+10    -1.954639886028056e+01   -1.207405082972349e+02   
1.007200000000000e+10    -1.950299137702821e+01   -1.204634486273429e+02   
1.007300000000000e+10    -1.948386089723679e+01   -1.205007847395876e+02   
1.007400000000000e+10    -1.941316585262290e+01   -1.202661813128806e+02   
1.007500000000000e+10    -1.940111283993184e+01   -1.201012544646321e+02   
1.007600000000000e+10    -1.937234601325681e+01   -1.199697543112477e+02   
1.007700000000000e+10    -1.930402282782051e+01   -1.198698636981731e+02   
1.007800000000000e+10    -1.925867714334873e+01   -1.196865508194231e+02   
1.007900000000000e+10    -1.922629671924370e+01   -1.196904217205272e+02   
1.008000000000000e+10    -1.921750196370474e+01   -1.194487757873771e+02   
1.008100000000000e+10    -1.915326547924732e+01   -1.193622048706812e+02   
1.008200000000000e+10    -1.909476623282653e+01   -1.192218164459644e+02   
1.008300000000000e+10    -1.907797186025350e+01   -1.191872649194749e+02   
1.008400000000000e+10    -1.906497746216897e+01   -1.190214735419814e+02   
1.008500000000000e+10    -1.900512687021514e+01   -1.190168151767216e+02   
1.008600000000000e+10    -1.896714070026939e+01   -1.188809230620114e+02   
1.008700000000000e+10    -1.893476301012441e+01   -1.188746687977338e+02   
1.008800000000000e+10    -1.890086532616631e+01   -1.188428250462201e+02   
1.008900000000000e+10    -1.888232978282976e+01   -1.186526909909823e+02   
1.009000000000000e+10    -1.885027179894719e+01   -1.186488526509412e+02   
1.009100000000000e+10    -1.882137161566935e+01   -1.184516682234641e+02   
1.009200000000000e+10    -1.880398198471242e+01   -1.185299318312247e+02   
1.009300000000000e+10    -1.874907861921042e+01   -1.185846687323259e+02   
1.009400000000000e+10    -1.873637199969135e+01   -1.184789228754450e+02   
1.009500000000000e+10    -1.869555812915189e+01   -1.183327132220544e+02   
1.009600000000000e+10    -1.866045631608008e+01   -1.183625227645934e+02   
1.009700000000000e+10    -1.864439257096993e+01   -1.183342014276510e+02   
1.009800000000000e+10    -1.860519844038849e+01   -1.183831209473849e+02   
1.009900000000000e+10    -1.858010688761025e+01   -1.181677627606817e+02   
1.010000000000000e+10    -1.856080060529943e+01   -1.183398497495825e+02   
1.010100000000000e+10    -1.854281501902852e+01   -1.181918916959653e+02   
1.010200000000000e+10    -1.850116303376018e+01   -1.182777140787158e+02   
1.010300000000000e+10    -1.847746830455984e+01   -1.181253876529752e+02   
1.010400000000000e+10    -1.844648050005696e+01   -1.182135322352727e+02   
1.010500000000000e+10    -1.842534662068389e+01   -1.183969164206006e+02   
1.010600000000000e+10    -1.840186085621714e+01   -1.182409765664462e+02   
1.010700000000000e+10    -1.836702250028471e+01   -1.182760164849628e+02   
1.010800000000000e+10    -1.833222790253039e+01   -1.185117099121798e+02   
1.010900000000000e+10    -1.829787612244019e+01   -1.184538184810986e+02   
1.011000000000000e+10    -1.827361956163488e+01   -1.185572183542917e+02   
1.011100000000000e+10    -1.824827354664101e+01   -1.185418411416173e+02   
1.011200000000000e+10    -1.822771240597695e+01   -1.187283248674191e+02   
1.011300000000000e+10    -1.820202274667115e+01   -1.186230273783502e+02   
1.011400000000000e+10    -1.814542090035067e+01   -1.187170665055336e+02   
1.011500000000000e+10    -1.813227234853087e+01   -1.187786231070247e+02   
1.011600000000000e+10    -1.811475711605722e+01   -1.189832687482262e+02   
1.011700000000000e+10    -1.806067629316393e+01   -1.189333510527041e+02   
1.011800000000000e+10    -1.805205404192924e+01   -1.190822595279568e+02   
1.011900000000000e+10    -1.800297839056556e+01   -1.192637720531079e+02   
1.012000000000000e+10    -1.796026593937484e+01   -1.193196751572096e+02   
1.012100000000000e+10    -1.795008809154494e+01   -1.194404511393478e+02   
1.012200000000000e+10    -1.790544035320590e+01   -1.195314280836288e+02   
1.012300000000000e+10    -1.787960563832518e+01   -1.197313804780756e+02   
1.012400000000000e+10    -1.783430038382877e+01   -1.197058165538363e+02   
1.012500000000000e+10    -1.780860653668089e+01   -1.197502863923371e+02   
1.012600000000000e+10    -1.777486084132494e+01   -1.199129603871078e+02   
1.012700000000000e+10    -1.773775086557576e+01   -1.201219294038045e+02   
1.012800000000000e+10    -1.770665478921395e+01   -1.201648087853390e+02   
1.012900000000000e+10    -1.766083594584098e+01   -1.203145523551995e+02   
1.013000000000000e+10    -1.765399785059846e+01   -1.204776889478525e+02   
1.013100000000000e+10    -1.759108784930571e+01   -1.204545979499937e+02   
1.013200000000000e+10    -1.755799297491167e+01   -1.207538096323848e+02   
1.013300000000000e+10    -1.751387217379964e+01   -1.207750353598045e+02   
1.013400000000000e+10    -1.749393317081318e+01   -1.209822950146879e+02   
1.013500000000000e+10    -1.745400678507683e+01   -1.210887041138425e+02   
1.013600000000000e+10    -1.741382462832529e+01   -1.212896127617778e+02   
1.013700000000000e+10    -1.737290715674312e+01   -1.212993338500001e+02   
1.013800000000000e+10    -1.734266219847226e+01   -1.215913782192641e+02   
1.013900000000000e+10    -1.729425341557934e+01   -1.216896453179819e+02   
1.014000000000000e+10    -1.728744073754585e+01   -1.218114689317370e+02   
1.014100000000000e+10    -1.724610249315991e+01   -1.219337841616845e+02   
1.014200000000000e+10    -1.722054413115768e+01   -1.221185126135463e+02   
1.014300000000000e+10    -1.717275772381922e+01   -1.222317540454799e+02   
1.014400000000000e+10    -1.715712598659552e+01   -1.224261311144330e+02   
1.014500000000000e+10    -1.710393820014163e+01   -1.225505977320137e+02   
1.014600000000000e+10    -1.707113236544950e+01   -1.226787439338679e+02   
1.014700000000000e+10    -1.704129217076426e+01   -1.228276176997953e+02   
1.014800000000000e+10    -1.701274540977586e+01   -1.230510843902536e+02   
1.014900000000000e+10    -1.695846603374508e+01   -1.230782281265547e+02   
1.015000000000000e+10    -1.693973755343492e+01   -1.232892675349646e+02   
1.015100000000000e+10    -1.689835454563707e+01   -1.233599879388593e+02   
1.015200000000000e+10    -1.686840422471264e+01   -1.235121134922940e+02   
1.015300000000000e+10    -1.682182357922703e+01   -1.237822674828855e+02   
1.015400000000000e+10    -1.681038595361139e+01   -1.238775449252028e+02   
1.015500000000000e+10    -1.676752738427561e+01   -1.240128432733791e+02   
1.015600000000000e+10    -1.673527882162981e+01   -1.240464070349248e+02   
1.015700000000000e+10    -1.669274856885423e+01   -1.241906223591883e+02   
1.015800000000000e+10    -1.665512595346543e+01   -1.243398248890730e+02   
1.015900000000000e+10    -1.662267532774778e+01   -1.246243664256621e+02   
1.016000000000000e+10    -1.660496977328287e+01   -1.247890493396374e+02   
1.016100000000000e+10    -1.657998655083129e+01   -1.248818251697300e+02   
1.016200000000000e+10    -1.654841949746053e+01   -1.250501279142501e+02   
1.016300000000000e+10    -1.650757616213105e+01   -1.251779051209855e+02   
1.016400000000000e+10    -1.648066463188992e+01   -1.252996310749360e+02   
1.016500000000000e+10    -1.644223068755449e+01   -1.254305388382956e+02   
1.016600000000000e+10    -1.642811711416033e+01   -1.255815676648291e+02   
1.016700000000000e+10    -1.639958372895956e+01   -1.257993539774627e+02   
1.016800000000000e+10    -1.636071425970830e+01   -1.258948664353328e+02   
1.016900000000000e+10    -1.634549785082297e+01   -1.261237569173922e+02   
1.017000000000000e+10    -1.631211860858816e+01   -1.262951579371989e+02   
1.017100000000000e+10    -1.630218313515364e+01   -1.265055389001914e+02   
1.017200000000000e+10    -1.626403130388147e+01   -1.265597134459543e+02   
1.017300000000000e+10    -1.623592352785368e+01   -1.266956716332992e+02   
1.017400000000000e+10    -1.620578204063989e+01   -1.268896275344062e+02   
1.017500000000000e+10    -1.621270050077947e+01   -1.270087053214575e+02   
1.017600000000000e+10    -1.615927347535305e+01   -1.273302679277654e+02   
1.017700000000000e+10    -1.615255510763398e+01   -1.274793043998023e+02   
1.017800000000000e+10    -1.612365105584209e+01   -1.275850579437251e+02   
1.017900000000000e+10    -1.608849894104476e+01   -1.278107457266558e+02   
1.018000000000000e+10    -1.609480550352913e+01   -1.279010620468431e+02   
1.018100000000000e+10    -1.606111164409537e+01   -1.281591486512600e+02   
1.018200000000000e+10    -1.606361425706174e+01   -1.283180261850770e+02   
1.018300000000000e+10    -1.603470749176504e+01   -1.285733818753187e+02   
1.018400000000000e+10    -1.600134894259468e+01   -1.288010530349979e+02   
1.018500000000000e+10    -1.599636042438266e+01   -1.290290298911738e+02   
1.018600000000000e+10    -1.597425241261089e+01   -1.292051966012054e+02   
1.018700000000000e+10    -1.597154684651972e+01   -1.294042525272800e+02   
1.018800000000000e+10    -1.594977914483492e+01   -1.295049910474575e+02   
1.018900000000000e+10    -1.592811035041194e+01   -1.297261012618475e+02   
1.019000000000000e+10    -1.591774760134386e+01   -1.299721274028376e+02   
1.019100000000000e+10    -1.590218837873635e+01   -1.302308211313977e+02   
1.019200000000000e+10    -1.587599084564071e+01   -1.304624646184348e+02   
1.019300000000000e+10    -1.585488178361856e+01   -1.306596737543904e+02   
1.019400000000000e+10    -1.585384796155452e+01   -1.308973268930271e+02   
1.019500000000000e+10    -1.583425670272008e+01   -1.310775508656022e+02   
1.019600000000000e+10    -1.583004977377669e+01   -1.313421640708103e+02   
1.019700000000000e+10    -1.580734670136797e+01   -1.315821737943803e+02   
1.019800000000000e+10    -1.578955944100372e+01   -1.318867755485417e+02   
1.019900000000000e+10    -1.577508635294865e+01   -1.320550087782704e+02   
1.020000000000000e+10    -1.577641427802100e+01   -1.323301483764913e+02   
1.020100000000000e+10    -1.574760813899661e+01   -1.324915079289229e+02   
1.020200000000000e+10    -1.574420606216584e+01   -1.327549113057528e+02   
1.020300000000000e+10    -1.571694537026648e+01   -1.329034084047579e+02   
1.020400000000000e+10    -1.571893849867083e+01   -1.331483239605814e+02   
1.020500000000000e+10    -1.570639031955327e+01   -1.334607046469661e+02   
1.020600000000000e+10    -1.568260799325134e+01   -1.337132819464256e+02   
1.020700000000000e+10    -1.566602953402290e+01   -1.340199523066905e+02   
1.020800000000000e+10    -1.565750151543479e+01   -1.341953815269383e+02   
1.020900000000000e+10    -1.566732177679970e+01   -1.344571901159696e+02   
1.021000000000000e+10    -1.565120572221623e+01   -1.347009733229100e+02   
1.021100000000000e+10    -1.563195442318650e+01   -1.349460444924904e+02   
1.021200000000000e+10    -1.563653149574282e+01   -1.351454723315804e+02   
1.021300000000000e+10    -1.562419255056803e+01   -1.354154305970707e+02   
1.021400000000000e+10    -1.561465517778144e+01   -1.356429452326613e+02   
1.021500000000000e+10    -1.560047874376089e+01   -1.358488857371547e+02   
1.021600000000000e+10    -1.559458480535054e+01   -1.361772451541386e+02   
1.021700000000000e+10    -1.558882446809628e+01   -1.364214154108626e+02   
1.021800000000000e+10    -1.557866693801243e+01   -1.366261046508556e+02   
1.021900000000000e+10    -1.558020082874014e+01   -1.368061572897075e+02   
1.022000000000000e+10    -1.557427487970202e+01   -1.370937717993790e+02   
1.022100000000000e+10    -1.555710771587499e+01   -1.374041152818341e+02   
1.022200000000000e+10    -1.557367823033042e+01   -1.375071879372788e+02   
1.022300000000000e+10    -1.556321716943849e+01   -1.377730652099149e+02   
1.022400000000000e+10    -1.556181396667078e+01   -1.380479192569756e+02   
1.022500000000000e+10    -1.555028420120956e+01   -1.382389679218026e+02   
1.022600000000000e+10    -1.556956945385517e+01   -1.385718640479766e+02   
1.022700000000000e+10    -1.555871718656613e+01   -1.387842097979005e+02   
1.022800000000000e+10    -1.555702960626989e+01   -1.390254401365005e+02   
1.022900000000000e+10    -1.556242604918894e+01   -1.393321864642856e+02   
1.023000000000000e+10    -1.554843119367527e+01   -1.395749528906678e+02   
1.023100000000000e+10    -1.554704066493498e+01   -1.398519075133104e+02   
1.023200000000000e+10    -1.555977673728735e+01   -1.401031928476783e+02   
1.023300000000000e+10    -1.555952004310160e+01   -1.402805923961533e+02   
1.023400000000000e+10    -1.556071838341673e+01   -1.405804929693226e+02   
1.023500000000000e+10    -1.558385803969057e+01   -1.406827378050379e+02   
1.023600000000000e+10    -1.555394224901677e+01   -1.409557920444628e+02   
1.023700000000000e+10    -1.557141214633434e+01   -1.412647276653437e+02   
1.023800000000000e+10    -1.556753165552206e+01   -1.414198300977342e+02   
1.023900000000000e+10    -1.557561509964821e+01   -1.417919529041912e+02   
1.024000000000000e+10    -1.559063089066950e+01   -1.419077467723333e+02   
1.024100000000000e+10    -1.557309503945562e+01   -1.420969337316286e+02   
1.024200000000000e+10    -1.558241944110211e+01   -1.423945028121596e+02   
1.024300000000000e+10    -1.559960600289880e+01   -1.426033635416783e+02   
1.024400000000000e+10    -1.560539690263649e+01   -1.428676815445366e+02   
1.024500000000000e+10    -1.559685340761759e+01   -1.431042724158114e+02   
1.024600000000000e+10    -1.560892240141524e+01   -1.433902981549324e+02   
1.024700000000000e+10    -1.561526266831399e+01   -1.436010832780114e+02   
1.024800000000000e+10    -1.562291967516394e+01   -1.437437088748986e+02   
1.024900000000000e+10    -1.565061428388851e+01   -1.440242525997513e+02   
1.025000000000000e+10    -1.564105907351626e+01   -1.442963376498923e+02   
1.025100000000000e+10    -1.563849687854567e+01   -1.443688426420051e+02   
1.025200000000000e+10    -1.565996313513768e+01   -1.447165598729437e+02   
1.025300000000000e+10    -1.565014426645750e+01   -1.448659776316954e+02   
1.025400000000000e+10    -1.566314833208317e+01   -1.450782429808743e+02   
1.025500000000000e+10    -1.569116661861441e+01   -1.452799276913636e+02   
1.025600000000000e+10    -1.569360185804125e+01   -1.455087069746395e+02   
