[Version] 2.0
! Rohde & Schwarz Vector Network Analyzer
! Rohde-Schwarz,ZNL20-2Port,1323001220200009,1.71.1.10-23.02.1.238
! 
! Port Assignments:
! Nominal Port -> Actual Test Port
! --------------------------------
!   1 -> 1

! Created: GMT 2024-08-27 13:53:06

# Hz S DB R 50

[Number of Ports] 1
[Number of Frequencies] 2001

[Network Data] 
! freq[Hz]               S11[mag dB]              S11[ang]                 
1.000000000000000e+10    -2.074965952651833e+01   -1.357452382130152e+02   
1.000100000000000e+10    -2.079287957956728e+01   -1.353089971031992e+02   
1.000200000000000e+10    -2.081114059662889e+01   -1.348215987861883e+02   
1.000300000000000e+10    -2.085379135836026e+01   -1.346226750101113e+02   
1.000400000000000e+10    -2.087153271731761e+01   -1.344740980662859e+02   
1.000500000000000e+10    -2.088269421269803e+01   -1.341880607373620e+02   
1.000600000000000e+10    -2.092227594542697e+01   -1.338232335416571e+02   
1.000700000000000e+10    -2.093979385331330e+01   -1.334274185565611e+02   
1.000800000000000e+10    -2.096684071487047e+01   -1.331685766761540e+02   
1.000900000000000e+10    -2.100559082815074e+01   -1.330526251481622e+02   
1.001000000000000e+10    -2.102021855748573e+01   -1.325383302077896e+02   
1.001100000000000e+10    -2.104367475793555e+01   -1.323048669558308e+02   
1.001200000000000e+10    -2.104895983660975e+01   -1.320294471998260e+02   
1.001300000000000e+10    -2.110438329923671e+01   -1.317739948657806e+02   
1.001400000000000e+10    -2.109854072956004e+01   -1.316118072902445e+02   
1.001500000000000e+10    -2.111717594863529e+01   -1.312443097172286e+02   
1.001600000000000e+10    -2.109932227992824e+01   -1.309353775476690e+02   
1.001700000000000e+10    -2.114251021292319e+01   -1.308068699830756e+02   
1.001800000000000e+10    -2.114098235251978e+01   -1.305640059157231e+02   
1.001900000000000e+10    -2.114700720006772e+01   -1.302414770682865e+02   
1.002000000000000e+10    -2.116168478818349e+01   -1.301234822137681e+02   
1.002100000000000e+10    -2.116459081682263e+01   -1.298679533980973e+02   
1.002200000000000e+10    -2.115411405970468e+01   -1.295210297527379e+02   
1.002300000000000e+10    -2.113771244023194e+01   -1.293584057079619e+02   
1.002400000000000e+10    -2.112181151252453e+01   -1.291917114387968e+02   
1.002500000000000e+10    -2.115004629861284e+01   -1.287889794350901e+02   
1.002600000000000e+10    -2.115129786062545e+01   -1.288768508410830e+02   
1.002700000000000e+10    -2.113352139238685e+01   -1.286817180386755e+02   
1.002800000000000e+10    -2.113301214070217e+01   -1.283288200372310e+02   
1.002900000000000e+10    -2.110751903132194e+01   -1.280125281819902e+02   
1.003000000000000e+10    -2.112042013142240e+01   -1.277103201174698e+02   
1.003100000000000e+10    -2.108086923185617e+01   -1.277897755163429e+02   
1.003200000000000e+10    -2.108049216479515e+01   -1.276014089434341e+02   
1.003300000000000e+10    -2.103784534160070e+01   -1.274326222445433e+02   
1.003400000000000e+10    -2.101642487389262e+01   -1.270947318161073e+02   
1.003500000000000e+10    -2.102514551917828e+01   -1.268819468070188e+02   
1.003600000000000e+10    -2.094808134957519e+01   -1.266159079164552e+02   
1.003700000000000e+10    -2.095981806693040e+01   -1.264724927517977e+02   
1.003800000000000e+10    -2.093482111448363e+01   -1.263491904596598e+02   
1.003900000000000e+10    -2.092674589553354e+01   -1.261845761399717e+02   
1.004000000000000e+10    -2.086840544965625e+01   -1.261560170117369e+02   
1.004100000000000e+10    -2.086544121960468e+01   -1.258693057316869e+02   
1.004200000000000e+10    -2.080688277987322e+01   -1.257247440151218e+02   
1.004300000000000e+10    -2.079139949904650e+01   -1.255354711449273e+02   
1.004400000000000e+10    -2.077594949353199e+01   -1.254076796397568e+02   
1.004500000000000e+10    -2.071171853915387e+01   -1.251947550153234e+02   
1.004600000000000e+10    -2.069212439865958e+01   -1.249676119524549e+02   
1.004700000000000e+10    -2.065922264660432e+01   -1.248542749305281e+02   
1.004800000000000e+10    -2.061362342257691e+01   -1.246688432892619e+02   
1.004900000000000e+10    -2.056877193762667e+01   -1.245600091255607e+02   
1.005000000000000e+10    -2.054934501691751e+01   -1.245112805255322e+02   
1.005100000000000e+10    -2.046946068341296e+01   -1.243763699389164e+02   
1.005200000000000e+10    -2.043962450377615e+01   -1.239980833049908e+02   
1.005300000000000e+10    -2.040831833658456e+01   -1.239487391226257e+02   
1.005400000000000e+10    -2.037042210417116e+01   -1.238566442869605e+02   
1.005500000000000e+10    -2.032547779089863e+01   -1.236377953448459e+02   
1.005600000000000e+10    -2.031460813780896e+01   -1.234241693281599e+02   
1.005700000000000e+10    -2.024047680696022e+01   -1.232650934204095e+02   
1.005800000000000e+10    -2.020625338085572e+01   -1.232243429201331e+02   
1.005900000000000e+10    -2.018005285061043e+01   -1.231525479326151e+02   
1.006000000000000e+10    -2.011678516997879e+01   -1.229435515815164e+02   
1.006100000000000e+10    -2.008645648071685e+01   -1.226351944187596e+02   
1.006200000000000e+10    -2.005195682520885e+01   -1.225595265970109e+02   
1.006300000000000e+10    -2.001316346350331e+01   -1.223581949122920e+02   
1.006400000000000e+10    -1.995342573893840e+01   -1.222848062200170e+02   
1.006500000000000e+10    -1.992742403167017e+01   -1.221164032733803e+02   
1.006600000000000e+10    -1.988605748175637e+01   -1.218550454833417e+02   
1.006700000000000e+10    -1.985894536075477e+01   -1.218694059481668e+02   
1.006800000000000e+10    -1.979445125236909e+01   -1.215792299789632e+02   
1.006900000000000e+10    -1.975901230549302e+01   -1.213568476702406e+02   
1.007000000000000e+10    -1.971770153966848e+01   -1.213157856312351e+02   
1.007100000000000e+10    -1.967229209514682e+01   -1.212538699827764e+02   
1.007200000000000e+10    -1.962986917749551e+01   -1.209622068358744e+02   
1.007300000000000e+10    -1.961284616863448e+01   -1.209907007601753e+02   
1.007400000000000e+10    -1.954140004158896e+01   -1.207543428764056e+02   
1.007500000000000e+10    -1.953311712985577e+01   -1.205398796656545e+02   
1.007600000000000e+10    -1.950631557882330e+01   -1.204021292513552e+02   
1.007700000000000e+10    -1.944318119965746e+01   -1.203016861023674e+02   
1.007800000000000e+10    -1.939857240087871e+01   -1.200698592694471e+02   
1.007900000000000e+10    -1.936721337414923e+01   -1.200675102384027e+02   
1.008000000000000e+10    -1.935924520943125e+01   -1.198094991751019e+02   
1.008100000000000e+10    -1.929786441856429e+01   -1.197005370711478e+02   
1.008200000000000e+10    -1.924023846093717e+01   -1.195420922400971e+02   
1.008300000000000e+10    -1.922127973723357e+01   -1.194863502179910e+02   
1.008400000000000e+10    -1.921111774752733e+01   -1.193102324157766e+02   
1.008500000000000e+10    -1.915360168823760e+01   -1.192431298972330e+02   
1.008600000000000e+10    -1.911425390640872e+01   -1.191049025238547e+02   
1.008700000000000e+10    -1.908414160862822e+01   -1.190612840812038e+02   
1.008800000000000e+10    -1.905232064973617e+01   -1.189945038677467e+02   
1.008900000000000e+10    -1.902879535620825e+01   -1.187858049072967e+02   
1.009000000000000e+10    -1.900011612025810e+01   -1.187721321427996e+02   
1.009100000000000e+10    -1.896924474935998e+01   -1.185354771047306e+02   
1.009200000000000e+10    -1.894967681075903e+01   -1.186041577906746e+02   
1.009300000000000e+10    -1.889674805032952e+01   -1.186388567615346e+02   
1.009400000000000e+10    -1.888419104638943e+01   -1.185114861344758e+02   
1.009500000000000e+10    -1.884247155988379e+01   -1.183374656020969e+02   
1.009600000000000e+10    -1.880659101405478e+01   -1.183544033715476e+02   
1.009700000000000e+10    -1.879148632675501e+01   -1.183100753426254e+02   
1.009800000000000e+10    -1.875185138297366e+01   -1.183415091012031e+02   
1.009900000000000e+10    -1.872552533001327e+01   -1.181067430696548e+02   
1.010000000000000e+10    -1.870729503606275e+01   -1.182692982611194e+02   
1.010100000000000e+10    -1.868887531114917e+01   -1.180904781396454e+02   
1.010200000000000e+10    -1.864500545555438e+01   -1.181483825718474e+02   
1.010300000000000e+10    -1.861969726341964e+01   -1.180003124680549e+02   
1.010400000000000e+10    -1.858912549523475e+01   -1.180594385911621e+02   
1.010500000000000e+10    -1.856672425184872e+01   -1.182243077621378e+02   
1.010600000000000e+10    -1.854432358167544e+01   -1.180354456543431e+02   
1.010700000000000e+10    -1.850449974462108e+01   -1.180292471192437e+02   
1.010800000000000e+10    -1.847136982808636e+01   -1.182541459405960e+02   
1.010900000000000e+10    -1.843820356372839e+01   -1.182041990102930e+02   
1.011000000000000e+10    -1.840780664011517e+01   -1.182854852940814e+02   
1.011100000000000e+10    -1.838304097163190e+01   -1.182397615215188e+02   
1.011200000000000e+10    -1.835961307397612e+01   -1.184154634527637e+02   
1.011300000000000e+10    -1.833174884042807e+01   -1.182904715417518e+02   
1.011400000000000e+10    -1.827060746939560e+01   -1.183706917082750e+02   
1.011500000000000e+10    -1.825590688047286e+01   -1.184111934398405e+02   
1.011600000000000e+10    -1.823891580115895e+01   -1.185990833753192e+02   
1.011700000000000e+10    -1.818169666065210e+01   -1.185448166251221e+02   
1.011800000000000e+10    -1.816992701025270e+01   -1.186909265397839e+02   
1.011900000000000e+10    -1.811973858577507e+01   -1.188353840608990e+02   
1.012000000000000e+10    -1.807526940581902e+01   -1.188811098300308e+02   
1.012100000000000e+10    -1.806420282910081e+01   -1.190121934138635e+02   
1.012200000000000e+10    -1.801457160055054e+01   -1.190864178061632e+02   
1.012300000000000e+10    -1.798578665142539e+01   -1.192715952850139e+02   
1.012400000000000e+10    -1.794104696197769e+01   -1.192471239773719e+02   
1.012500000000000e+10    -1.791268884172020e+01   -1.193004844231022e+02   
1.012600000000000e+10    -1.787489833572238e+01   -1.194445533046353e+02   
1.012700000000000e+10    -1.783672192452168e+01   -1.196529384168670e+02   
1.012800000000000e+10    -1.780582392060914e+01   -1.197091959421157e+02   
1.012900000000000e+10    -1.775674670310633e+01   -1.198357858819953e+02   
1.013000000000000e+10    -1.774705684913572e+01   -1.199903556353879e+02   
1.013100000000000e+10    -1.768182542477476e+01   -1.199748442872564e+02   
1.013200000000000e+10    -1.764713542394199e+01   -1.202562284759380e+02   
1.013300000000000e+10    -1.760085217562741e+01   -1.202993451410032e+02   
1.013400000000000e+10    -1.757764332407936e+01   -1.204960667367876e+02   
1.013500000000000e+10    -1.753737679499032e+01   -1.205915258036137e+02   
1.013600000000000e+10    -1.749547704469091e+01   -1.208004350284282e+02   
1.013700000000000e+10    -1.745140299648178e+01   -1.207851415742819e+02   
1.013800000000000e+10    -1.741945686354940e+01   -1.210939972163305e+02   
1.013900000000000e+10    -1.737127225194936e+01   -1.211953787468512e+02   
1.014000000000000e+10    -1.736162768649824e+01   -1.213058535319765e+02   
1.014100000000000e+10    -1.731797899881494e+01   -1.214351887791017e+02   
1.014200000000000e+10    -1.729039887524707e+01   -1.216171652896791e+02   
1.014300000000000e+10    -1.723968854152927e+01   -1.217428296181989e+02   
1.014400000000000e+10    -1.722376542479314e+01   -1.219196698653248e+02   
1.014500000000000e+10    -1.716759578207154e+01   -1.220601753358111e+02   
1.014600000000000e+10    -1.713004098339430e+01   -1.221948098319613e+02   
1.014700000000000e+10    -1.710090144280870e+01   -1.223218064024572e+02   
1.014800000000000e+10    -1.707184269741693e+01   -1.225595507327869e+02   
1.014900000000000e+10    -1.701569494874232e+01   -1.225981235354640e+02   
1.015000000000000e+10    -1.699619122355591e+01   -1.228054285235054e+02   
1.015100000000000e+10    -1.695222920704556e+01   -1.228856725204398e+02   
1.015200000000000e+10    -1.692269592113524e+01   -1.230573306394369e+02   
1.015300000000000e+10    -1.687472432402783e+01   -1.233114690745005e+02   
1.015400000000000e+10    -1.686165840431370e+01   -1.234254473950442e+02   
1.015500000000000e+10    -1.682034892196280e+01   -1.235495838741247e+02   
1.015600000000000e+10    -1.678834012853550e+01   -1.235892012004291e+02   
1.015700000000000e+10    -1.674426963867988e+01   -1.237548260616325e+02   
1.015800000000000e+10    -1.670448660940827e+01   -1.238973379625643e+02   
1.015900000000000e+10    -1.667195577115492e+01   -1.241675026113000e+02   
1.016000000000000e+10    -1.665566575869178e+01   -1.243549504783923e+02   
1.016100000000000e+10    -1.663126911640249e+01   -1.244265370549944e+02   
1.016200000000000e+10    -1.659810441501273e+01   -1.246095621474282e+02   
1.016300000000000e+10    -1.655532873992252e+01   -1.247445610588287e+02   
1.016400000000000e+10    -1.653094491532033e+01   -1.248637555667417e+02   
1.016500000000000e+10    -1.649017090350021e+01   -1.249851018680356e+02   
1.016600000000000e+10    -1.647462991084835e+01   -1.251362226427919e+02   
1.016700000000000e+10    -1.644600327610688e+01   -1.253560786795873e+02   
1.016800000000000e+10    -1.640665053954707e+01   -1.254452402532122e+02   
1.016900000000000e+10    -1.638969410996496e+01   -1.256768171251596e+02   
1.017000000000000e+10    -1.635486917325906e+01   -1.258422335677497e+02   
1.017100000000000e+10    -1.634468123464429e+01   -1.260592964900049e+02   
1.017200000000000e+10    -1.630654929035664e+01   -1.261050458562955e+02   
1.017300000000000e+10    -1.627734288460395e+01   -1.262636905990837e+02   
1.017400000000000e+10    -1.624849265316392e+01   -1.264625012479970e+02   
1.017500000000000e+10    -1.625053381445838e+01   -1.265741722106224e+02   
1.017600000000000e+10    -1.619950350848252e+01   -1.268935736586018e+02   
1.017700000000000e+10    -1.618890167714866e+01   -1.270347222372722e+02   
1.017800000000000e+10    -1.616367821148279e+01   -1.271608651220015e+02   
1.017900000000000e+10    -1.612864988362575e+01   -1.273947310546102e+02   
1.018000000000000e+10    -1.613509820926295e+01   -1.274576641688260e+02   
1.018100000000000e+10    -1.609975639515282e+01   -1.277298241514964e+02   
1.018200000000000e+10    -1.610326159073308e+01   -1.278862481326642e+02   
1.018300000000000e+10    -1.607436513257390e+01   -1.281432862781964e+02   
1.018400000000000e+10    -1.604157517200523e+01   -1.283492708845218e+02   
1.018500000000000e+10    -1.603700578097609e+01   -1.285966902169159e+02   
1.018600000000000e+10    -1.601410615872861e+01   -1.287637852024966e+02   
1.018700000000000e+10    -1.601119480045161e+01   -1.289523275194790e+02   
1.018800000000000e+10    -1.598924520606101e+01   -1.290698311704737e+02   
1.018900000000000e+10    -1.596773232169184e+01   -1.292751275932709e+02   
1.019000000000000e+10    -1.595631025371981e+01   -1.295208127656869e+02   
1.019100000000000e+10    -1.594150711452292e+01   -1.297567283734784e+02   
1.019200000000000e+10    -1.591467625583830e+01   -1.300038740598873e+02   
1.019300000000000e+10    -1.589366176676378e+01   -1.301997303760316e+02   
1.019400000000000e+10    -1.589348198033408e+01   -1.304110881745517e+02   
1.019500000000000e+10    -1.587131120435983e+01   -1.305831255713108e+02   
1.019600000000000e+10    -1.586656124438653e+01   -1.308446498797814e+02   
1.019700000000000e+10    -1.584586685770820e+01   -1.310755928851555e+02   
1.019800000000000e+10    -1.582697396239537e+01   -1.313653091326101e+02   
1.019900000000000e+10    -1.581088998651865e+01   -1.315428367422020e+02   
1.020000000000000e+10    -1.581120874250550e+01   -1.318035473577675e+02   
1.020100000000000e+10    -1.578061677768611e+01   -1.319503042527834e+02   
1.020200000000000e+10    -1.577486412505926e+01   -1.322167768542043e+02   
1.020300000000000e+10    -1.575057422535282e+01   -1.323506750635317e+02   
1.020400000000000e+10    -1.574757387821237e+01   -1.325894504488049e+02   
1.020500000000000e+10    -1.573495586328691e+01   -1.329001550719078e+02   
1.020600000000000e+10    -1.571290071529237e+01   -1.331447813842479e+02   
1.020700000000000e+10    -1.569232477864677e+01   -1.334419943365386e+02   
1.020800000000000e+10    -1.568362153681251e+01   -1.336225318446225e+02   
1.020900000000000e+10    -1.569220384751393e+01   -1.338751657282207e+02   
1.021000000000000e+10    -1.567640590093716e+01   -1.341168096628699e+02   
1.021100000000000e+10    -1.565732939055740e+01   -1.343567293978292e+02   
1.021200000000000e+10    -1.566032400081788e+01   -1.345452086852947e+02   
1.021300000000000e+10    -1.564568085728733e+01   -1.348191078742578e+02   
1.021400000000000e+10    -1.563823356140229e+01   -1.350427560145285e+02   
1.021500000000000e+10    -1.562197423980416e+01   -1.352248728853407e+02   
1.021600000000000e+10    -1.561519163072324e+01   -1.355528728850872e+02   
1.021700000000000e+10    -1.560504098067822e+01   -1.357995737259887e+02   
1.021800000000000e+10    -1.559612905623810e+01   -1.359895993703907e+02   
1.021900000000000e+10    -1.559512382568144e+01   -1.361561476794252e+02   
1.022000000000000e+10    -1.558768288808777e+01   -1.364437841162652e+02   
1.022100000000000e+10    -1.556989231126747e+01   -1.367381805023750e+02   
1.022200000000000e+10    -1.558198480819929e+01   -1.368494802420535e+02   
1.022300000000000e+10    -1.556874131806178e+01   -1.371092512086328e+02   
1.022400000000000e+10    -1.557063955711977e+01   -1.373750624144726e+02   
1.022500000000000e+10    -1.555415712814786e+01   -1.375521854220614e+02   
1.022600000000000e+10    -1.557133728273409e+01   -1.378789643447049e+02   
1.022700000000000e+10    -1.555982529361544e+01   -1.381021005656654e+02   
1.022800000000000e+10    -1.555442649266293e+01   -1.383321933532574e+02   
1.022900000000000e+10    -1.555927664267361e+01   -1.386314934485469e+02   
1.023000000000000e+10    -1.554107631252309e+01   -1.388762855852793e+02   
1.023100000000000e+10    -1.553788275085127e+01   -1.391485496476565e+02   
1.023200000000000e+10    -1.554925162623509e+01   -1.393918378525509e+02   
1.023300000000000e+10    -1.554657140349689e+01   -1.395758381233627e+02   
1.023400000000000e+10    -1.554617696418717e+01   -1.398711998764903e+02   
1.023500000000000e+10    -1.556692132800086e+01   -1.399730884180819e+02   
1.023600000000000e+10    -1.553672582393295e+01   -1.402573147773276e+02   
1.023700000000000e+10    -1.555055379565765e+01   -1.405597193245202e+02   
1.023800000000000e+10    -1.554421933612139e+01   -1.407148306156579e+02   
1.023900000000000e+10    -1.555007102657232e+01   -1.410970197140821e+02   
1.024000000000000e+10    -1.556383432661651e+01   -1.412161487815488e+02   
1.024100000000000e+10    -1.554368531290741e+01   -1.414161075086467e+02   
1.024200000000000e+10    -1.555169372458549e+01   -1.417161350202254e+02   
1.024300000000000e+10    -1.556572337796634e+01   -1.419229743814801e+02   
1.024400000000000e+10    -1.557002356983113e+01   -1.421854355824575e+02   
1.024500000000000e+10    -1.555996673031197e+01   -1.424266565999414e+02   
1.024600000000000e+10    -1.557228083307068e+01   -1.427106387670631e+02   
1.024700000000000e+10    -1.557263240356897e+01   -1.429267804076274e+02   
1.024800000000000e+10    -1.557840201436655e+01   -1.430675785173411e+02   
1.024900000000000e+10    -1.560324570095088e+01   -1.433606747817840e+02   
1.025000000000000e+10    -1.559032672405383e+01   -1.436430465483442e+02   
1.025100000000000e+10    -1.558635707623620e+01   -1.437118325747648e+02   
1.025200000000000e+10    -1.560693386024788e+01   -1.440598247969929e+02   
1.025300000000000e+10    -1.559447273515165e+01   -1.442375742922946e+02   
1.025400000000000e+10    -1.560599675327467e+01   -1.444515740325737e+02   
1.025500000000000e+10    -1.563038489814181e+01   -1.446624687120588e+02   
1.025600000000000e+10    -1.563378021924956e+01   -1.448963110217280e+02   
