[Version] 2.0
! Rohde & Schwarz Vector Network Analyzer
! Rohde-Schwarz,ZNL20-2Port,1323001220200009,1.71.1.10-23.02.1.238
! 
! Port Assignments:
! Nominal Port -> Actual Test Port
! --------------------------------
!   1 -> 1

! Created: GMT 2024-08-27 13:53:51

# Hz S DB R 50

[Number of Ports] 1
[Number of Frequencies] 2001

[Network Data] 
! freq[Hz]               S11[mag dB]              S11[ang]                 
1.000000000000000e+10    -2.065444797422380e+01   -1.376386450387851e+02   
1.000100000000000e+10    -2.070515956726094e+01   -1.372053506058413e+02   
1.000200000000000e+10    -2.073248475650292e+01   -1.367476814723619e+02   
1.000300000000000e+10    -2.078430581849968e+01   -1.365651128074107e+02   
1.000400000000000e+10    -2.080865516380199e+01   -1.364340332626035e+02   
1.000500000000000e+10    -2.082700896109221e+01   -1.361363072775062e+02   
1.000600000000000e+10    -2.087425382431609e+01   -1.357911060899246e+02   
1.000700000000000e+10    -2.089729634317304e+01   -1.353974793761710e+02   
1.000800000000000e+10    -2.093215910613670e+01   -1.351415229812175e+02   
1.000900000000000e+10    -2.097711532369348e+01   -1.350439844220382e+02   
1.001000000000000e+10    -2.099850416978394e+01   -1.345125519818000e+02   
1.001100000000000e+10    -2.103076447447326e+01   -1.343090259129169e+02   
1.001200000000000e+10    -2.103922758641895e+01   -1.340268265606602e+02   
1.001300000000000e+10    -2.110463741262109e+01   -1.337758541974764e+02   
1.001400000000000e+10    -2.110543058616826e+01   -1.336284803342199e+02   
1.001500000000000e+10    -2.113288616869262e+01   -1.332383354358120e+02   
1.001600000000000e+10    -2.112319488311919e+01   -1.329131949134647e+02   
1.001700000000000e+10    -2.116796929170052e+01   -1.327740252484533e+02   
1.001800000000000e+10    -2.116779581576064e+01   -1.325222169527741e+02   
1.001900000000000e+10    -2.118756633418114e+01   -1.322057952750261e+02   
1.002000000000000e+10    -2.120713144175028e+01   -1.321016930347394e+02   
1.002100000000000e+10    -2.121086704078592e+01   -1.318319598446806e+02   
1.002200000000000e+10    -2.121279864932153e+01   -1.314855296782791e+02   
1.002300000000000e+10    -2.120302719011992e+01   -1.312967768200645e+02   
1.002400000000000e+10    -2.119199228898963e+01   -1.311287554576007e+02   
1.002500000000000e+10    -2.122268281880356e+01   -1.307070831253890e+02   
1.002600000000000e+10    -2.123059993278158e+01   -1.307946896113274e+02   
1.002700000000000e+10    -2.122108966594047e+01   -1.305928617298044e+02   
1.002800000000000e+10    -2.122247454343488e+01   -1.302209279362370e+02   
1.002900000000000e+10    -2.120584696702043e+01   -1.298786374313862e+02   
1.003000000000000e+10    -2.122882465455479e+01   -1.295363450304541e+02   
1.003100000000000e+10    -2.118877243333822e+01   -1.296181687432440e+02   
1.003200000000000e+10    -2.119485580039068e+01   -1.293676347407684e+02   
1.003300000000000e+10    -2.115071274712689e+01   -1.291940442059045e+02   
1.003400000000000e+10    -2.113758753709861e+01   -1.288335139515806e+02   
1.003500000000000e+10    -2.115266215858276e+01   -1.286555657956374e+02   
1.003600000000000e+10    -2.107815892017912e+01   -1.283185152414711e+02   
1.003700000000000e+10    -2.109704110213997e+01   -1.281793053764408e+02   
1.003800000000000e+10    -2.107442637694263e+01   -1.280377959011513e+02   
1.003900000000000e+10    -2.107237983557010e+01   -1.278131092490878e+02   
1.004000000000000e+10    -2.102315278770208e+01   -1.277643018743329e+02   
1.004100000000000e+10    -2.101839206363880e+01   -1.274252380648380e+02   
1.004200000000000e+10    -2.096290313738987e+01   -1.272400297932674e+02   
1.004300000000000e+10    -2.095087550909469e+01   -1.270260576679792e+02   
1.004400000000000e+10    -2.093778407065120e+01   -1.268994163895129e+02   
1.004500000000000e+10    -2.087993899802480e+01   -1.266241030300967e+02   
1.004600000000000e+10    -2.085821747108449e+01   -1.263600088953707e+02   
1.004700000000000e+10    -2.083176768076511e+01   -1.262283786528106e+02   
1.004800000000000e+10    -2.078650962627576e+01   -1.260090489807190e+02   
1.004900000000000e+10    -2.074929104555545e+01   -1.258443808024175e+02   
1.005000000000000e+10    -2.072776772079735e+01   -1.257886676454271e+02   
1.005100000000000e+10    -2.064860954371262e+01   -1.256274812061999e+02   
1.005200000000000e+10    -2.062385032401820e+01   -1.252005831492008e+02   
1.005300000000000e+10    -2.059509966662301e+01   -1.251299947724816e+02   
1.005400000000000e+10    -2.055339318651789e+01   -1.249781831425366e+02   
1.005500000000000e+10    -2.051344170507630e+01   -1.247460780748040e+02   
1.005600000000000e+10    -2.050846115188342e+01   -1.245154950962823e+02   
1.005700000000000e+10    -2.042924456038183e+01   -1.243251803728099e+02   
1.005800000000000e+10    -2.039777416130630e+01   -1.242316281792862e+02   
1.005900000000000e+10    -2.037225674936080e+01   -1.241457594708911e+02   
1.006000000000000e+10    -2.030842445693207e+01   -1.238949176775108e+02   
1.006100000000000e+10    -2.028167166653773e+01   -1.235942639358332e+02   
1.006200000000000e+10    -2.024451527823164e+01   -1.234830918263536e+02   
1.006300000000000e+10    -2.020840191482909e+01   -1.232335233329153e+02   
1.006400000000000e+10    -2.015601445295546e+01   -1.231413199984475e+02   
1.006500000000000e+10    -2.012438086277707e+01   -1.229283688387568e+02   
1.006600000000000e+10    -2.008405059184386e+01   -1.226405658885187e+02   
1.006700000000000e+10    -2.005887419868193e+01   -1.226493729999679e+02   
1.006800000000000e+10    -1.999602202117840e+01   -1.223314781418496e+02   
1.006900000000000e+10    -1.996086906662334e+01   -1.220673906338735e+02   
1.007000000000000e+10    -1.991722490506796e+01   -1.220078888011824e+02   
1.007100000000000e+10    -1.987242969188283e+01   -1.219139962989759e+02   
1.007200000000000e+10    -1.983231721824193e+01   -1.215988389254729e+02   
1.007300000000000e+10    -1.981606055039648e+01   -1.215927560226402e+02   
1.007400000000000e+10    -1.974641185382297e+01   -1.213194964435512e+02   
1.007500000000000e+10    -1.973727309591923e+01   -1.210920604281955e+02   
1.007600000000000e+10    -1.971356221444848e+01   -1.209189429310064e+02   
1.007700000000000e+10    -1.964332543662062e+01   -1.207888564401986e+02   
1.007800000000000e+10    -1.960424052940106e+01   -1.205561117847343e+02   
1.007900000000000e+10    -1.956998815652899e+01   -1.204926673846515e+02   
1.008000000000000e+10    -1.956372716189094e+01   -1.202177753338570e+02   
1.008100000000000e+10    -1.949784654589858e+01   -1.200712992229603e+02   
1.008200000000000e+10    -1.944126428519228e+01   -1.198824909812976e+02   
1.008300000000000e+10    -1.942219895219139e+01   -1.198053239406374e+02   
1.008400000000000e+10    -1.941534522039573e+01   -1.195991854075869e+02   
1.008500000000000e+10    -1.935224427084574e+01   -1.195198325188870e+02   
1.008600000000000e+10    -1.931425550894051e+01   -1.193471919496107e+02   
1.008700000000000e+10    -1.927940130349648e+01   -1.192957352582394e+02   
1.008800000000000e+10    -1.924518328091612e+01   -1.192130642775321e+02   
1.008900000000000e+10    -1.922536681216729e+01   -1.189656038092230e+02   
1.009000000000000e+10    -1.919552254749697e+01   -1.189441021310311e+02   
1.009100000000000e+10    -1.916357428595906e+01   -1.186815277484226e+02   
1.009200000000000e+10    -1.914443217879600e+01   -1.187460575102332e+02   
1.009300000000000e+10    -1.908668159653498e+01   -1.187392726844732e+02   
1.009400000000000e+10    -1.907323159043698e+01   -1.185987091858645e+02   
1.009500000000000e+10    -1.902893242293035e+01   -1.184110695709838e+02   
1.009600000000000e+10    -1.899138813370173e+01   -1.184044444422141e+02   
1.009700000000000e+10    -1.897476253183239e+01   -1.183394904846673e+02   
1.009800000000000e+10    -1.893117064461306e+01   -1.183459574167484e+02   
1.009900000000000e+10    -1.890358741649153e+01   -1.181106022428472e+02   
1.010000000000000e+10    -1.888462462286613e+01   -1.182599825892974e+02   
1.010100000000000e+10    -1.886488494533270e+01   -1.180912783533462e+02   
1.010200000000000e+10    -1.881755544061167e+01   -1.181491465848956e+02   
1.010300000000000e+10    -1.879271315433112e+01   -1.179703537539491e+02   
1.010400000000000e+10    -1.876045920308333e+01   -1.180296323548802e+02   
1.010500000000000e+10    -1.873619227180844e+01   -1.181991386809288e+02   
1.010600000000000e+10    -1.871212371343191e+01   -1.180143720252722e+02   
1.010700000000000e+10    -1.867390682769188e+01   -1.180133228568091e+02   
1.010800000000000e+10    -1.863922277462751e+01   -1.182321083249254e+02   
1.010900000000000e+10    -1.860405881441469e+01   -1.181592937899544e+02   
1.011000000000000e+10    -1.857673180677630e+01   -1.182432298465088e+02   
1.011100000000000e+10    -1.855236011713547e+01   -1.181827816609614e+02   
1.011200000000000e+10    -1.852793771501016e+01   -1.183500828076414e+02   
1.011300000000000e+10    -1.849945528964381e+01   -1.182156930341349e+02   
1.011400000000000e+10    -1.843755522463219e+01   -1.182950901592971e+02   
1.011500000000000e+10    -1.842236686954481e+01   -1.183375386306638e+02   
1.011600000000000e+10    -1.840377414123929e+01   -1.185326864757563e+02   
1.011700000000000e+10    -1.835020725808932e+01   -1.184603585714474e+02   
1.011800000000000e+10    -1.833977324813990e+01   -1.185878030666957e+02   
1.011900000000000e+10    -1.828631548364185e+01   -1.187465867251072e+02   
1.012000000000000e+10    -1.824123322154557e+01   -1.187765291959417e+02   
1.012100000000000e+10    -1.823292749821442e+01   -1.188881555420872e+02   
1.012200000000000e+10    -1.818322720929489e+01   -1.189568992513141e+02   
1.012300000000000e+10    -1.815528689351809e+01   -1.191299004086675e+02   
1.012400000000000e+10    -1.811144058929177e+01   -1.191174673783890e+02   
1.012500000000000e+10    -1.808109713460793e+01   -1.191237322607294e+02   
1.012600000000000e+10    -1.804646133993332e+01   -1.192783273194317e+02   
1.012700000000000e+10    -1.800532520706069e+01   -1.194599496692274e+02   
1.012800000000000e+10    -1.797489647373108e+01   -1.194863108000990e+02   
1.012900000000000e+10    -1.792417229520727e+01   -1.196106129590495e+02   
1.013000000000000e+10    -1.791548420726422e+01   -1.197544780324972e+02   
1.013100000000000e+10    -1.784914912817736e+01   -1.197270144623722e+02   
1.013200000000000e+10    -1.781409220045212e+01   -1.199915730185063e+02   
1.013300000000000e+10    -1.776537638617600e+01   -1.200243146263513e+02   
1.013400000000000e+10    -1.774449726128705e+01   -1.202032442395793e+02   
1.013500000000000e+10    -1.770183489714008e+01   -1.202970731977653e+02   
1.013600000000000e+10    -1.766276219204123e+01   -1.204893232208274e+02   
1.013700000000000e+10    -1.761762460480431e+01   -1.204587947521806e+02   
1.013800000000000e+10    -1.758596786875795e+01   -1.207614230871244e+02   
1.013900000000000e+10    -1.753647500792176e+01   -1.208384511034788e+02   
1.014000000000000e+10    -1.752517457700406e+01   -1.209484448229211e+02   
1.014100000000000e+10    -1.748345877727726e+01   -1.210493981266351e+02   
1.014200000000000e+10    -1.745321544113199e+01   -1.212167242743672e+02   
1.014300000000000e+10    -1.740388855724350e+01   -1.213105065329182e+02   
1.014400000000000e+10    -1.738694389293860e+01   -1.214695080317222e+02   
1.014500000000000e+10    -1.732714758256832e+01   -1.216074456424684e+02   
1.014600000000000e+10    -1.728920622328106e+01   -1.217284131513693e+02   
1.014700000000000e+10    -1.725701854865005e+01   -1.218539408631701e+02   
1.014800000000000e+10    -1.722827983257413e+01   -1.220850915759666e+02   
1.014900000000000e+10    -1.716891805372692e+01   -1.220961105359882e+02   
1.015000000000000e+10    -1.714929739530285e+01   -1.223083285390734e+02   
1.015100000000000e+10    -1.710406251085500e+01   -1.223686047953509e+02   
1.015200000000000e+10    -1.707355837241611e+01   -1.225211786283095e+02   
1.015300000000000e+10    -1.702505421601614e+01   -1.227840931679243e+02   
1.015400000000000e+10    -1.700979840014031e+01   -1.228565587501566e+02   
1.015500000000000e+10    -1.696737922543622e+01   -1.229884324205018e+02   
1.015600000000000e+10    -1.693237592630421e+01   -1.230239121051846e+02   
1.015700000000000e+10    -1.688758196414592e+01   -1.231592540692266e+02   
1.015800000000000e+10    -1.684748886602425e+01   -1.232935873786185e+02   
1.015900000000000e+10    -1.681247058416173e+01   -1.235629563630981e+02   
1.016000000000000e+10    -1.679594084254801e+01   -1.237460189321839e+02   
1.016100000000000e+10    -1.677181869519400e+01   -1.238086691395884e+02   
1.016200000000000e+10    -1.673833180396034e+01   -1.239551122102295e+02   
1.016300000000000e+10    -1.669470820953357e+01   -1.240891388557368e+02   
1.016400000000000e+10    -1.666668013878588e+01   -1.241875140467319e+02   
1.016500000000000e+10    -1.662811433758023e+01   -1.243020537143786e+02   
1.016600000000000e+10    -1.661076818574923e+01   -1.244401418321296e+02   
1.016700000000000e+10    -1.658015771005971e+01   -1.246470743093112e+02   
1.016800000000000e+10    -1.653694721307471e+01   -1.247210400024113e+02   
1.016900000000000e+10    -1.652133736906742e+01   -1.249364074060508e+02   
1.017000000000000e+10    -1.648322171270026e+01   -1.250963777503541e+02   
1.017100000000000e+10    -1.647331347588878e+01   -1.253049985317984e+02   
1.017200000000000e+10    -1.643213401110273e+01   -1.253305543335983e+02   
1.017300000000000e+10    -1.640220939517880e+01   -1.254605031082348e+02   
1.017400000000000e+10    -1.637207026087091e+01   -1.256427639997745e+02   
1.017500000000000e+10    -1.637416183886819e+01   -1.257362027505903e+02   
1.017600000000000e+10    -1.632071810216567e+01   -1.260517624196594e+02   
1.017700000000000e+10    -1.630864510530568e+01   -1.261798863674469e+02   
1.017800000000000e+10    -1.627839483122040e+01   -1.262833410218048e+02   
1.017900000000000e+10    -1.624161110526520e+01   -1.264941210698365e+02   
1.018000000000000e+10    -1.624506073244861e+01   -1.265456163416955e+02   
1.018100000000000e+10    -1.620698865262610e+01   -1.268022174784494e+02   
1.018200000000000e+10    -1.620848509356298e+01   -1.269442844346676e+02   
1.018300000000000e+10    -1.617669441273982e+01   -1.271850845222927e+02   
1.018400000000000e+10    -1.614153014620540e+01   -1.273878170208489e+02   
1.018500000000000e+10    -1.613354327081038e+01   -1.276099985271114e+02   
1.018600000000000e+10    -1.610902813821484e+01   -1.277640272830749e+02   
1.018700000000000e+10    -1.610196976995917e+01   -1.279444575527496e+02   
1.018800000000000e+10    -1.607544536927468e+01   -1.280388203800449e+02   
1.018900000000000e+10    -1.605197861398549e+01   -1.282439827110043e+02   
1.019000000000000e+10    -1.603475206696603e+01   -1.284847566707490e+02   
1.019100000000000e+10    -1.601722300076396e+01   -1.287247003794668e+02   
1.019200000000000e+10    -1.598805251668077e+01   -1.289438075713045e+02   
1.019300000000000e+10    -1.596262178453070e+01   -1.291564396871467e+02   
1.019400000000000e+10    -1.595873484664245e+01   -1.293615889266248e+02   
1.019500000000000e+10    -1.593553326905763e+01   -1.295297211957580e+02   
1.019600000000000e+10    -1.592629824904865e+01   -1.297919383632673e+02   
1.019700000000000e+10    -1.590123702726744e+01   -1.300183130592312e+02   
1.019800000000000e+10    -1.588067597337277e+01   -1.303234704607382e+02   
1.019900000000000e+10    -1.586141490780267e+01   -1.304725839098189e+02   
1.020000000000000e+10    -1.586153418382744e+01   -1.307413274674910e+02   
1.020100000000000e+10    -1.582893307614324e+01   -1.308999407195400e+02   
1.020200000000000e+10    -1.581907320781584e+01   -1.311548116089317e+02   
1.020300000000000e+10    -1.578933303229351e+01   -1.313019407258252e+02   
1.020400000000000e+10    -1.578310399499579e+01   -1.315396708606685e+02   
1.020500000000000e+10    -1.577128791201892e+01   -1.318493448944581e+02   
1.020600000000000e+10    -1.574510197476769e+01   -1.320885248009843e+02   
1.020700000000000e+10    -1.572127054824031e+01   -1.323893508885173e+02   
1.020800000000000e+10    -1.571081647597443e+01   -1.325697356643329e+02   
1.020900000000000e+10    -1.571683510101620e+01   -1.328228460406622e+02   
1.021000000000000e+10    -1.569909063464504e+01   -1.330650413631812e+02   
1.021100000000000e+10    -1.567488438720246e+01   -1.333029314450415e+02   
1.021200000000000e+10    -1.567720141578256e+01   -1.335081491200410e+02   
1.021300000000000e+10    -1.565863911537533e+01   -1.337831238162306e+02   
1.021400000000000e+10    -1.564733837374729e+01   -1.340007942110166e+02   
1.021500000000000e+10    -1.562773868437951e+01   -1.342157962085103e+02   
1.021600000000000e+10    -1.562115337130758e+01   -1.345374999981000e+02   
1.021700000000000e+10    -1.560911772746060e+01   -1.347865760066248e+02   
1.021800000000000e+10    -1.559788934500467e+01   -1.349762887959638e+02   
1.021900000000000e+10    -1.559496011191434e+01   -1.351526310671359e+02   
1.022000000000000e+10    -1.558351553980422e+01   -1.354425736887475e+02   
1.022100000000000e+10    -1.556387361891561e+01   -1.357377240669987e+02   
1.022200000000000e+10    -1.557466506234361e+01   -1.358436971096523e+02   
1.022300000000000e+10    -1.555936986199523e+01   -1.361098987525382e+02   
1.022400000000000e+10    -1.555516529808812e+01   -1.363834849340717e+02   
1.022500000000000e+10    -1.553875991415870e+01   -1.365829245725396e+02   
1.022600000000000e+10    -1.555373831779876e+01   -1.369171980498058e+02   
1.022700000000000e+10    -1.554079692006053e+01   -1.371412172357437e+02   
1.022800000000000e+10    -1.553449008228904e+01   -1.373820040872951e+02   
1.022900000000000e+10    -1.553585153842563e+01   -1.376928440799811e+02   
1.023000000000000e+10    -1.551880438157390e+01   -1.379413192379602e+02   
1.023100000000000e+10    -1.551193050572846e+01   -1.382216295648199e+02   
1.023200000000000e+10    -1.552286946539522e+01   -1.384786080726499e+02   
1.023300000000000e+10    -1.551846828220070e+01   -1.386667697369891e+02   
1.023400000000000e+10    -1.551515813059571e+01   -1.389787673463023e+02   
1.023500000000000e+10    -1.553636941497435e+01   -1.390843398783291e+02   
1.023600000000000e+10    -1.550318507551109e+01   -1.393747049878501e+02   
1.023700000000000e+10    -1.551457046593667e+01   -1.396850714061671e+02   
1.023800000000000e+10    -1.550749069789016e+01   -1.398539869750630e+02   
1.023900000000000e+10    -1.551327669394281e+01   -1.402391176908263e+02   
1.024000000000000e+10    -1.552358286637696e+01   -1.403640235545590e+02   
1.024100000000000e+10    -1.550121768275482e+01   -1.405677865382929e+02   
1.024200000000000e+10    -1.550900087874542e+01   -1.408885226848101e+02   
1.024300000000000e+10    -1.552215776097650e+01   -1.411083732921466e+02   
1.024400000000000e+10    -1.552581410876651e+01   -1.413711633768774e+02   
1.024500000000000e+10    -1.551419260662092e+01   -1.416250462019296e+02   
1.024600000000000e+10    -1.552316977172187e+01   -1.419297832416509e+02   
1.024700000000000e+10    -1.552573755356728e+01   -1.421518469802595e+02   
1.024800000000000e+10    -1.552980433708308e+01   -1.423070562282554e+02   
1.024900000000000e+10    -1.555503501639834e+01   -1.426023448164017e+02   
1.025000000000000e+10    -1.554290619788496e+01   -1.428897419130637e+02   
1.025100000000000e+10    -1.553695283712097e+01   -1.429817086305142e+02   
1.025200000000000e+10    -1.555747781654402e+01   -1.433348254522964e+02   
1.025300000000000e+10    -1.554283738599392e+01   -1.435114302686048e+02   
1.025400000000000e+10    -1.555495877915692e+01   -1.437390534113775e+02   
1.025500000000000e+10    -1.557951514021198e+01   -1.439596969648020e+02   
1.025600000000000e+10    -1.558070956138516e+01   -1.441976343266997e+02   
