[Version] 2.0
! Rohde & Schwarz Vector Network Analyzer
! Rohde-Schwarz,ZNL20-2Port,1323001220200009,1.71.1.10-23.02.1.238
! 
! Port Assignments:
! Nominal Port -> Actual Test Port
! --------------------------------
!   1 -> 1

! Created: GMT 2024-08-27 13:54:17

# Hz S DB R 50

[Number of Ports] 1
[Number of Frequencies] 2001

[Network Data] 
! freq[Hz]               S11[mag dB]              S11[ang]                 
1.000000000000000e+10    -2.058541205352203e+01   -1.381851285836231e+02   
1.000100000000000e+10    -2.063217399783113e+01   -1.378003563549179e+02   
1.000200000000000e+10    -2.066103128182543e+01   -1.373564229562665e+02   
1.000300000000000e+10    -2.071795822157853e+01   -1.372135322120241e+02   
1.000400000000000e+10    -2.073991222960613e+01   -1.370777094297639e+02   
1.000500000000000e+10    -2.076379612376462e+01   -1.368167498111918e+02   
1.000600000000000e+10    -2.080952284830352e+01   -1.364815507615581e+02   
1.000700000000000e+10    -2.084382818634495e+01   -1.360966529044307e+02   
1.000800000000000e+10    -2.087577166936494e+01   -1.358759515703553e+02   
1.000900000000000e+10    -2.092270275220426e+01   -1.357720895338301e+02   
1.001000000000000e+10    -2.094996346128309e+01   -1.352478430264582e+02   
1.001100000000000e+10    -2.098331635970984e+01   -1.350690957441991e+02   
1.001200000000000e+10    -2.099589119030963e+01   -1.347991547857397e+02   
1.001300000000000e+10    -2.106306476216384e+01   -1.345848294803541e+02   
1.001400000000000e+10    -2.106569427077117e+01   -1.344072152217586e+02   
1.001500000000000e+10    -2.109403023482252e+01   -1.340503101472682e+02   
1.001600000000000e+10    -2.108849647357628e+01   -1.337408707506437e+02   
1.001700000000000e+10    -2.113880227789282e+01   -1.336018703121317e+02   
1.001800000000000e+10    -2.114527547878243e+01   -1.333863688685461e+02   
1.001900000000000e+10    -2.116111296786290e+01   -1.330399740358079e+02   
1.002000000000000e+10    -2.118839687725609e+01   -1.329344656318465e+02   
1.002100000000000e+10    -2.119293881606146e+01   -1.326743723843170e+02   
1.002200000000000e+10    -2.119770908009278e+01   -1.323147089740842e+02   
1.002300000000000e+10    -2.119104692677448e+01   -1.321426515558330e+02   
1.002400000000000e+10    -2.118461616090795e+01   -1.319726771382746e+02   
1.002500000000000e+10    -2.121918611915260e+01   -1.315631316983442e+02   
1.002600000000000e+10    -2.122914973625589e+01   -1.316452603085940e+02   
1.002700000000000e+10    -2.121849711480468e+01   -1.314385893717916e+02   
1.002800000000000e+10    -2.122638296218626e+01   -1.310605079701744e+02   
1.002900000000000e+10    -2.121210927843072e+01   -1.307444114305511e+02   
1.003000000000000e+10    -2.123865110745571e+01   -1.303892031949694e+02   
1.003100000000000e+10    -2.120146564649550e+01   -1.304406143067263e+02   
1.003200000000000e+10    -2.120802307021669e+01   -1.302369099051751e+02   
1.003300000000000e+10    -2.116843520091456e+01   -1.300330929006482e+02   
1.003400000000000e+10    -2.115961416235144e+01   -1.296769494436697e+02   
1.003500000000000e+10    -2.117829199892148e+01   -1.294565220265375e+02   
1.003600000000000e+10    -2.110609056272235e+01   -1.291134417903166e+02   
1.003700000000000e+10    -2.112870180748266e+01   -1.289800760139348e+02   
1.003800000000000e+10    -2.110960733228247e+01   -1.288198738315097e+02   
1.003900000000000e+10    -2.110935220052725e+01   -1.285944990792128e+02   
1.004000000000000e+10    -2.105946419820971e+01   -1.285291181284785e+02   
1.004100000000000e+10    -2.105892442729894e+01   -1.281943071239353e+02   
1.004200000000000e+10    -2.100514888692961e+01   -1.280004714689082e+02   
1.004300000000000e+10    -2.099468415496577e+01   -1.277542249007253e+02   
1.004400000000000e+10    -2.098203514282864e+01   -1.276117325137021e+02   
1.004500000000000e+10    -2.092524354395983e+01   -1.273396659426076e+02   
1.004600000000000e+10    -2.090889521139742e+01   -1.270593341680897e+02   
1.004700000000000e+10    -2.088435404443925e+01   -1.269108646870839e+02   
1.004800000000000e+10    -2.083931826461102e+01   -1.266861927090991e+02   
1.004900000000000e+10    -2.080061278359580e+01   -1.265282099627352e+02   
1.005000000000000e+10    -2.078513745413735e+01   -1.264635919812610e+02   
1.005100000000000e+10    -2.070655637062114e+01   -1.262508385062563e+02   
1.005200000000000e+10    -2.068388011208521e+01   -1.258190390956104e+02   
1.005300000000000e+10    -2.065641505546215e+01   -1.257281606244150e+02   
1.005400000000000e+10    -2.061980230702553e+01   -1.255897854400915e+02   
1.005500000000000e+10    -2.057786150551653e+01   -1.253225215029224e+02   
1.005600000000000e+10    -2.057134275190229e+01   -1.250761266688872e+02   
1.005700000000000e+10    -2.049336606284207e+01   -1.248617640567336e+02   
1.005800000000000e+10    -2.046281774031759e+01   -1.247690044913963e+02   
1.005900000000000e+10    -2.043709372895452e+01   -1.246636539925146e+02   
1.006000000000000e+10    -2.037539176163955e+01   -1.244090403847061e+02   
1.006100000000000e+10    -2.034786475161057e+01   -1.240837652732557e+02   
1.006200000000000e+10    -2.031264473840181e+01   -1.239629390862006e+02   
1.006300000000000e+10    -2.027710093627856e+01   -1.237285891851047e+02   
1.006400000000000e+10    -2.022010479922245e+01   -1.236309271405315e+02   
1.006500000000000e+10    -2.019221347607932e+01   -1.234093632225873e+02   
1.006600000000000e+10    -2.015422235903864e+01   -1.230894666679228e+02   
1.006700000000000e+10    -2.012875914338755e+01   -1.230906222432087e+02   
1.006800000000000e+10    -2.006677692344497e+01   -1.227301586652352e+02   
1.006900000000000e+10    -2.003271077905847e+01   -1.224743134203145e+02   
1.007000000000000e+10    -1.999318903004222e+01   -1.224003290565815e+02   
1.007100000000000e+10    -1.994510568004425e+01   -1.223167885339202e+02   
1.007200000000000e+10    -1.990734211163887e+01   -1.219649531320989e+02   
1.007300000000000e+10    -1.988788606511219e+01   -1.219670965133219e+02   
1.007400000000000e+10    -1.981991606043388e+01   -1.216566306711687e+02   
1.007500000000000e+10    -1.981327240054440e+01   -1.214390727979877e+02   
1.007600000000000e+10    -1.978557083058929e+01   -1.212678422571367e+02   
1.007700000000000e+10    -1.972028501669690e+01   -1.211071533472368e+02   
1.007800000000000e+10    -1.967718686031417e+01   -1.208567270562612e+02   
1.007900000000000e+10    -1.964553587466949e+01   -1.207986069019379e+02   
1.008000000000000e+10    -1.963882899828944e+01   -1.205141289925515e+02   
1.008100000000000e+10    -1.957145370445595e+01   -1.203517796062518e+02   
1.008200000000000e+10    -1.951601297553202e+01   -1.201460435993495e+02   
1.008300000000000e+10    -1.949883184021195e+01   -1.200629979506664e+02   
1.008400000000000e+10    -1.948662369865162e+01   -1.198596863712139e+02   
1.008500000000000e+10    -1.942887859961383e+01   -1.197754751000332e+02   
1.008600000000000e+10    -1.938735579664734e+01   -1.196043319847070e+02   
1.008700000000000e+10    -1.935412361435905e+01   -1.195288439882705e+02   
1.008800000000000e+10    -1.932149418103609e+01   -1.194477266447280e+02   
1.008900000000000e+10    -1.930378209767762e+01   -1.191955204501676e+02   
1.009000000000000e+10    -1.927081560754991e+01   -1.191690355557383e+02   
1.009100000000000e+10    -1.924105551588118e+01   -1.188811878029454e+02   
1.009200000000000e+10    -1.921998116053754e+01   -1.189479006290807e+02   
1.009300000000000e+10    -1.916375024070050e+01   -1.189342060840155e+02   
1.009400000000000e+10    -1.914880761988608e+01   -1.187814461329882e+02   
1.009500000000000e+10    -1.910656519911456e+01   -1.185860382164490e+02   
1.009600000000000e+10    -1.906916241186890e+01   -1.185878350294758e+02   
1.009700000000000e+10    -1.904976997379198e+01   -1.185108181098053e+02   
1.009800000000000e+10    -1.900824486469943e+01   -1.185389584578423e+02   
1.009900000000000e+10    -1.898129531189135e+01   -1.182563408574552e+02   
1.010000000000000e+10    -1.896213971684887e+01   -1.184182677959256e+02   
1.010100000000000e+10    -1.894025653240417e+01   -1.182340003018291e+02   
1.010200000000000e+10    -1.889613653877286e+01   -1.182851215326107e+02   
1.010300000000000e+10    -1.887343083404567e+01   -1.181007640326928e+02   
1.010400000000000e+10    -1.883979369271163e+01   -1.181818473763411e+02   
1.010500000000000e+10    -1.881572538684765e+01   -1.183431476012885e+02   
1.010600000000000e+10    -1.879092820426152e+01   -1.181279287146836e+02   
1.010700000000000e+10    -1.875219031678366e+01   -1.181269302899265e+02   
1.010800000000000e+10    -1.872024837953786e+01   -1.183418442093915e+02   
1.010900000000000e+10    -1.868592714684457e+01   -1.182492784920548e+02   
1.011000000000000e+10    -1.865689663686518e+01   -1.183236206973808e+02   
1.011100000000000e+10    -1.863041060309585e+01   -1.182779197211812e+02   
1.011200000000000e+10    -1.861059332177394e+01   -1.184298895131446e+02   
1.011300000000000e+10    -1.858054059217990e+01   -1.182829570652584e+02   
1.011400000000000e+10    -1.851985330458686e+01   -1.183636447323817e+02   
1.011500000000000e+10    -1.850532054760832e+01   -1.183747477604871e+02   
1.011600000000000e+10    -1.848639761297580e+01   -1.185830919379663e+02   
1.011700000000000e+10    -1.843228487351048e+01   -1.184993739107963e+02   
1.011800000000000e+10    -1.842053562321133e+01   -1.186366557548363e+02   
1.011900000000000e+10    -1.836800796140065e+01   -1.187779786220463e+02   
1.012000000000000e+10    -1.832488549819243e+01   -1.188193839456292e+02   
1.012100000000000e+10    -1.831487222268735e+01   -1.189080052550447e+02   
1.012200000000000e+10    -1.826563386212294e+01   -1.189736384996946e+02   
1.012300000000000e+10    -1.823761709973623e+01   -1.191436514727500e+02   
1.012400000000000e+10    -1.818971984367023e+01   -1.191028251247427e+02   
1.012500000000000e+10    -1.816167400231592e+01   -1.191179540306819e+02   
1.012600000000000e+10    -1.812482215492504e+01   -1.192468262944844e+02   
1.012700000000000e+10    -1.808686715292005e+01   -1.194438974521051e+02   
1.012800000000000e+10    -1.805444491964363e+01   -1.194561718067628e+02   
1.012900000000000e+10    -1.800385376940162e+01   -1.195785144755558e+02   
1.013000000000000e+10    -1.799633417001556e+01   -1.197099791808353e+02   
1.013100000000000e+10    -1.792795018439632e+01   -1.196676099545809e+02   
1.013200000000000e+10    -1.789297446213582e+01   -1.199392528695813e+02   
1.013300000000000e+10    -1.784535650246394e+01   -1.199571495579562e+02   
1.013400000000000e+10    -1.782133730408939e+01   -1.201370587970563e+02   
1.013500000000000e+10    -1.778034651918533e+01   -1.202267429418012e+02   
1.013600000000000e+10    -1.774011046382159e+01   -1.204051291179923e+02   
1.013700000000000e+10    -1.769541735126421e+01   -1.203787082459507e+02   
1.013800000000000e+10    -1.766250107461566e+01   -1.206668016190587e+02   
1.013900000000000e+10    -1.761017472085382e+01   -1.207349544160246e+02   
1.014000000000000e+10    -1.759986149978038e+01   -1.208286940785440e+02   
1.014100000000000e+10    -1.755817288674677e+01   -1.209442559685381e+02   
1.014200000000000e+10    -1.752951406264710e+01   -1.211020503770357e+02   
1.014300000000000e+10    -1.747606116578890e+01   -1.212129758232397e+02   
1.014400000000000e+10    -1.746169723943474e+01   -1.213778648818787e+02   
1.014500000000000e+10    -1.740355979343413e+01   -1.214965138262535e+02   
1.014600000000000e+10    -1.736651011330326e+01   -1.216038479489195e+02   
1.014700000000000e+10    -1.733238480274343e+01   -1.217254217072791e+02   
1.014800000000000e+10    -1.730294708147217e+01   -1.219221803880305e+02   
1.014900000000000e+10    -1.724324977454651e+01   -1.219443598046634e+02   
1.015000000000000e+10    -1.722327089863721e+01   -1.221487533407272e+02   
1.015100000000000e+10    -1.717952050704966e+01   -1.222012356503574e+02   
1.015200000000000e+10    -1.714567063603809e+01   -1.223394648298619e+02   
1.015300000000000e+10    -1.709689947862111e+01   -1.225855069327052e+02   
1.015400000000000e+10    -1.708282423025803e+01   -1.226844231511394e+02   
1.015500000000000e+10    -1.703734174492223e+01   -1.227935562790756e+02   
1.015600000000000e+10    -1.700357040265009e+01   -1.228152423470538e+02   
1.015700000000000e+10    -1.695778447973593e+01   -1.229537807238922e+02   
1.015800000000000e+10    -1.691570393400961e+01   -1.230797280042737e+02   
1.015900000000000e+10    -1.688188192832465e+01   -1.233397322533335e+02   
1.016000000000000e+10    -1.686518754217583e+01   -1.235075960661157e+02   
1.016100000000000e+10    -1.683855437854163e+01   -1.235697155887795e+02   
1.016200000000000e+10    -1.680644393147775e+01   -1.237190926410591e+02   
1.016300000000000e+10    -1.676123499664455e+01   -1.238352120654551e+02   
1.016400000000000e+10    -1.673236364430609e+01   -1.239298984377043e+02   
1.016500000000000e+10    -1.669281668222300e+01   -1.240299307509712e+02   
1.016600000000000e+10    -1.667298182673850e+01   -1.241627401319722e+02   
1.016700000000000e+10    -1.664187419832763e+01   -1.243566444600309e+02   
1.016800000000000e+10    -1.659975260875036e+01   -1.244315813048817e+02   
1.016900000000000e+10    -1.658364646627165e+01   -1.246591700058965e+02   
1.017000000000000e+10    -1.654534111354246e+01   -1.248023572675215e+02   
1.017100000000000e+10    -1.653342254366480e+01   -1.249987935262633e+02   
1.017200000000000e+10    -1.649138027062973e+01   -1.250225986929442e+02   
1.017300000000000e+10    -1.646029361693904e+01   -1.251457150212725e+02   
1.017400000000000e+10    -1.642766722439040e+01   -1.253167460237037e+02   
1.017500000000000e+10    -1.643001095938345e+01   -1.254079827764534e+02   
1.017600000000000e+10    -1.637609189776384e+01   -1.257287663148524e+02   
1.017700000000000e+10    -1.636366667162190e+01   -1.258323723550786e+02   
1.017800000000000e+10    -1.633234224451362e+01   -1.259371303115549e+02   
1.017900000000000e+10    -1.629398731602143e+01   -1.261319916960926e+02   
1.018000000000000e+10    -1.629526463789570e+01   -1.261904193755619e+02   
1.018100000000000e+10    -1.625829036415885e+01   -1.264390014694611e+02   
1.018200000000000e+10    -1.625630134871312e+01   -1.265734407153229e+02   
1.018300000000000e+10    -1.622569660683832e+01   -1.268107571963000e+02   
1.018400000000000e+10    -1.618849556918340e+01   -1.270118194878077e+02   
1.018500000000000e+10    -1.617959712611454e+01   -1.272215634191091e+02   
1.018600000000000e+10    -1.615324511883084e+01   -1.273757573040189e+02   
1.018700000000000e+10    -1.614529763823833e+01   -1.275476941181382e+02   
1.018800000000000e+10    -1.611840966127095e+01   -1.276495800064882e+02   
1.018900000000000e+10    -1.609131924251659e+01   -1.278451398623905e+02   
1.019000000000000e+10    -1.607504424053200e+01   -1.280677775904822e+02   
1.019100000000000e+10    -1.605753481948672e+01   -1.282947848275425e+02   
1.019200000000000e+10    -1.602478995023776e+01   -1.285347902635921e+02   
1.019300000000000e+10    -1.599749225201332e+01   -1.287170211239562e+02   
1.019400000000000e+10    -1.599223391850192e+01   -1.289316261891818e+02   
1.019500000000000e+10    -1.596663092675513e+01   -1.291042710195447e+02   
1.019600000000000e+10    -1.595788921439471e+01   -1.293556117489983e+02   
1.019700000000000e+10    -1.592932879758194e+01   -1.295772956355965e+02   
1.019800000000000e+10    -1.590808010459803e+01   -1.298839269486458e+02   
1.019900000000000e+10    -1.588878688178751e+01   -1.300497408115508e+02   
1.020000000000000e+10    -1.588454435200655e+01   -1.303070117380148e+02   
1.020100000000000e+10    -1.585018200662781e+01   -1.304636120193800e+02   
1.020200000000000e+10    -1.584090283333697e+01   -1.307213767757179e+02   
1.020300000000000e+10    -1.581087836554080e+01   -1.308609665907054e+02   
1.020400000000000e+10    -1.580479654407066e+01   -1.311184703484686e+02   
1.020500000000000e+10    -1.579159034813481e+01   -1.314211250165722e+02   
1.020600000000000e+10    -1.576032143754571e+01   -1.316643169392562e+02   
1.020700000000000e+10    -1.573805442893435e+01   -1.319805701030861e+02   
1.020800000000000e+10    -1.572551879361676e+01   -1.321603818450565e+02   
1.020900000000000e+10    -1.573171912500727e+01   -1.324052723980574e+02   
1.021000000000000e+10    -1.571208234771260e+01   -1.326602993748723e+02   
1.021100000000000e+10    -1.568823466764410e+01   -1.329134954333655e+02   
1.021200000000000e+10    -1.568948201954364e+01   -1.331027630155416e+02   
1.021300000000000e+10    -1.566939670795229e+01   -1.333749706679256e+02   
1.021400000000000e+10    -1.565756112401676e+01   -1.336061576800533e+02   
1.021500000000000e+10    -1.563836106852932e+01   -1.338053551155043e+02   
1.021600000000000e+10    -1.562772336282189e+01   -1.341397285236477e+02   
1.021700000000000e+10    -1.561585910884664e+01   -1.343917729611562e+02   
1.021800000000000e+10    -1.560382266223336e+01   -1.345838460844299e+02   
1.021900000000000e+10    -1.559968263587594e+01   -1.347648687244380e+02   
1.022000000000000e+10    -1.558964549101212e+01   -1.350590022216904e+02   
1.022100000000000e+10    -1.556849922077736e+01   -1.353664771381279e+02   
1.022200000000000e+10    -1.557777786390615e+01   -1.354738927680527e+02   
1.022300000000000e+10    -1.556314981200167e+01   -1.357394743547533e+02   
1.022400000000000e+10    -1.555846938168642e+01   -1.360108080038283e+02   
1.022500000000000e+10    -1.554182429590719e+01   -1.362163917273840e+02   
1.022600000000000e+10    -1.555550569000586e+01   -1.365445744851704e+02   
1.022700000000000e+10    -1.554351686983908e+01   -1.367637424844386e+02   
1.022800000000000e+10    -1.553559762877540e+01   -1.370215729614378e+02   
1.022900000000000e+10    -1.553752985890966e+01   -1.373318535548119e+02   
1.023000000000000e+10    -1.551909059147927e+01   -1.375875755628534e+02   
1.023100000000000e+10    -1.551128359525079e+01   -1.378629840542782e+02   
1.023200000000000e+10    -1.552037018096448e+01   -1.381282691361745e+02   
1.023300000000000e+10    -1.551799486626489e+01   -1.383244215200957e+02   
1.023400000000000e+10    -1.551477425611645e+01   -1.386176508273397e+02   
1.023500000000000e+10    -1.553286155802573e+01   -1.387311623513401e+02   
1.023600000000000e+10    -1.550067669986745e+01   -1.390317293365501e+02   
1.023700000000000e+10    -1.551266646203836e+01   -1.393431058368061e+02   
1.023800000000000e+10    -1.550467951582224e+01   -1.395070205085056e+02   
1.023900000000000e+10    -1.550874983533961e+01   -1.398889627528960e+02   
1.024000000000000e+10    -1.552090414550927e+01   -1.400056095475426e+02   
1.024100000000000e+10    -1.549520858018782e+01   -1.402154712906576e+02   
1.024200000000000e+10    -1.550073186278966e+01   -1.405486226663043e+02   
1.024300000000000e+10    -1.551422898349441e+01   -1.407535513954862e+02   
1.024400000000000e+10    -1.551703069402861e+01   -1.410366756447671e+02   
1.024500000000000e+10    -1.550606047561306e+01   -1.412888982309402e+02   
1.024600000000000e+10    -1.551525896482414e+01   -1.415920570535496e+02   
1.024700000000000e+10    -1.551645452404631e+01   -1.418322533381161e+02   
1.024800000000000e+10    -1.552081722531465e+01   -1.419814273146245e+02   
1.024900000000000e+10    -1.554371522730817e+01   -1.422763000016954e+02   
1.025000000000000e+10    -1.553038644092019e+01   -1.425741213937835e+02   
1.025100000000000e+10    -1.552492046910229e+01   -1.426664250082066e+02   
1.025200000000000e+10    -1.554450058076344e+01   -1.430266482584721e+02   
1.025300000000000e+10    -1.553184102150869e+01   -1.432071210456293e+02   
1.025400000000000e+10    -1.554152028249116e+01   -1.434274730034099e+02   
1.025500000000000e+10    -1.556518862217806e+01   -1.436522749923492e+02   
1.025600000000000e+10    -1.556454247434624e+01   -1.438873427037078e+02   
