[Version] 2.0
! Rohde & Schwarz Vector Network Analyzer
! Rohde-Schwarz,ZNL20-2Port,1323001220200009,1.71.1.10-23.02.1.238
! 
! Port Assignments:
! Nominal Port -> Actual Test Port
! --------------------------------
!   1 -> 1

! Created: GMT 2024-08-27 13:56:46

# Hz S DB R 50

[Number of Ports] 1
[Number of Frequencies] 2001

[Network Data] 
! freq[Hz]               S11[mag dB]              S11[ang]                 
1.000000000000000e+10    -2.035295252503804e+01   -1.403615559486702e+02   
1.000100000000000e+10    -2.040904615683371e+01   -1.400204583217287e+02   
1.000200000000000e+10    -2.044436078026385e+01   -1.396160163982368e+02   
1.000300000000000e+10    -2.050197349198512e+01   -1.395046206686534e+02   
1.000400000000000e+10    -2.053317939534047e+01   -1.394238905677207e+02   
1.000500000000000e+10    -2.056375613217961e+01   -1.391761196173575e+02   
1.000600000000000e+10    -2.061960260973171e+01   -1.389081539798683e+02   
1.000700000000000e+10    -2.065958582641569e+01   -1.385838141871379e+02   
1.000800000000000e+10    -2.070227527005358e+01   -1.384043062742157e+02   
1.000900000000000e+10    -2.075560721524221e+01   -1.383510250448182e+02   
1.001000000000000e+10    -2.079506685467783e+01   -1.378824786419773e+02   
1.001100000000000e+10    -2.083575678423186e+01   -1.377168486590941e+02   
1.001200000000000e+10    -2.086056504036249e+01   -1.374746728794281e+02   
1.001300000000000e+10    -2.093301858752633e+01   -1.372836453211636e+02   
1.001400000000000e+10    -2.094591460407425e+01   -1.371508288980603e+02   
1.001500000000000e+10    -2.098289190459471e+01   -1.368101352300230e+02   
1.001600000000000e+10    -2.099096474258403e+01   -1.365094868286879e+02   
1.001700000000000e+10    -2.104799809154608e+01   -1.363999700694771e+02   
1.001800000000000e+10    -2.106606924103325e+01   -1.361840996889553e+02   
1.001900000000000e+10    -2.109275786750224e+01   -1.358698940470198e+02   
1.002000000000000e+10    -2.112903554381670e+01   -1.357904226274031e+02   
1.002100000000000e+10    -2.115203871915532e+01   -1.355237861321608e+02   
1.002200000000000e+10    -2.116064624617395e+01   -1.351679912220960e+02   
1.002300000000000e+10    -2.116276676422464e+01   -1.349779622515931e+02   
1.002400000000000e+10    -2.116516078739280e+01   -1.348043239027260e+02   
1.002500000000000e+10    -2.121613959734163e+01   -1.344247956895140e+02   
1.002600000000000e+10    -2.123071386754019e+01   -1.344935449580982e+02   
1.002700000000000e+10    -2.122800030297848e+01   -1.342559070732572e+02   
1.002800000000000e+10    -2.124583343643540e+01   -1.338621132295778e+02   
1.002900000000000e+10    -2.124278456432728e+01   -1.335510690600866e+02   
1.003000000000000e+10    -2.127859968290465e+01   -1.331949977376818e+02   
1.003100000000000e+10    -2.124879341217534e+01   -1.332428540927503e+02   
1.003200000000000e+10    -2.126923585865214e+01   -1.330075237995921e+02   
1.003300000000000e+10    -2.124178336130063e+01   -1.327634781512812e+02   
1.003400000000000e+10    -2.123546055522192e+01   -1.323977792791290e+02   
1.003500000000000e+10    -2.125990995305555e+01   -1.321482617289043e+02   
1.003600000000000e+10    -2.120163670704024e+01   -1.317821186221918e+02   
1.003700000000000e+10    -2.122911744297215e+01   -1.316020063630606e+02   
1.003800000000000e+10    -2.121487016531745e+01   -1.314255528520261e+02   
1.003900000000000e+10    -2.122291088196878e+01   -1.311777152754271e+02   
1.004000000000000e+10    -2.117817397007020e+01   -1.310846229673666e+02   
1.004100000000000e+10    -2.118291929659730e+01   -1.307160291333849e+02   
1.004200000000000e+10    -2.113380718752779e+01   -1.304838090537274e+02   
1.004300000000000e+10    -2.113379115494155e+01   -1.302375328954547e+02   
1.004400000000000e+10    -2.112772516900298e+01   -1.300739741978241e+02   
1.004500000000000e+10    -2.107698710619160e+01   -1.297645683968609e+02   
1.004600000000000e+10    -2.106740952009069e+01   -1.294639923663568e+02   
1.004700000000000e+10    -2.104907455787986e+01   -1.292566739046568e+02   
1.004800000000000e+10    -2.101087896059130e+01   -1.290007365120675e+02   
1.004900000000000e+10    -2.097615519693884e+01   -1.287819543487633e+02   
1.005000000000000e+10    -2.096785300505079e+01   -1.286880474767775e+02   
1.005100000000000e+10    -2.089014514612992e+01   -1.284541431175786e+02   
1.005200000000000e+10    -2.087311081808910e+01   -1.279601359229952e+02   
1.005300000000000e+10    -2.084976689632238e+01   -1.278447863201251e+02   
1.005400000000000e+10    -2.081362489428587e+01   -1.276836171906186e+02   
1.005500000000000e+10    -2.077847021387299e+01   -1.273740216294050e+02   
1.005600000000000e+10    -2.077176952074413e+01   -1.270858334286694e+02   
1.005700000000000e+10    -2.070244493616178e+01   -1.268484761741064e+02   
1.005800000000000e+10    -2.067305170354072e+01   -1.267177325689721e+02   
1.005900000000000e+10    -2.065093525620273e+01   -1.265904620619224e+02   
1.006000000000000e+10    -2.058930081512117e+01   -1.262858081542059e+02   
1.006100000000000e+10    -2.057018520741781e+01   -1.259180401467662e+02   
1.006200000000000e+10    -2.053472409793720e+01   -1.257770354178396e+02   
1.006300000000000e+10    -2.050626950512121e+01   -1.254813657803031e+02   
1.006400000000000e+10    -2.045070011712946e+01   -1.253398153252032e+02   
1.006500000000000e+10    -2.042272171884907e+01   -1.251070763388132e+02   
1.006600000000000e+10    -2.038838923861928e+01   -1.247485029605112e+02   
1.006700000000000e+10    -2.036760136991870e+01   -1.246926736532961e+02   
1.006800000000000e+10    -2.030583026317039e+01   -1.243199782686000e+02   
1.006900000000000e+10    -2.027046028643642e+01   -1.240108193881942e+02   
1.007000000000000e+10    -2.023266583810439e+01   -1.238933664030187e+02   
1.007100000000000e+10    -2.018940214533915e+01   -1.237709726492465e+02   
1.007200000000000e+10    -2.014850453003666e+01   -1.233992896063989e+02   
1.007300000000000e+10    -2.013540447727946e+01   -1.233679338217286e+02   
1.007400000000000e+10    -2.006474044237634e+01   -1.230267175790709e+02   
1.007500000000000e+10    -2.005897559781841e+01   -1.227943168826683e+02   
1.007600000000000e+10    -2.003505187180906e+01   -1.225886236547493e+02   
1.007700000000000e+10    -1.996649594353309e+01   -1.223915083617850e+02   
1.007800000000000e+10    -1.992688194553427e+01   -1.221048907003633e+02   
1.007900000000000e+10    -1.989835143025651e+01   -1.220249252318870e+02   
1.008000000000000e+10    -1.989445708668542e+01   -1.217071393164985e+02   
1.008100000000000e+10    -1.982876692242815e+01   -1.215312200559969e+02   
1.008200000000000e+10    -1.977147875028423e+01   -1.213011775934703e+02   
1.008300000000000e+10    -1.975556692717635e+01   -1.211979477165745e+02   
1.008400000000000e+10    -1.974356489976783e+01   -1.209636267483063e+02   
1.008500000000000e+10    -1.968832447902146e+01   -1.208568586575890e+02   
1.008600000000000e+10    -1.965344492765551e+01   -1.206493554248358e+02   
1.008700000000000e+10    -1.961693755014606e+01   -1.205684064388955e+02   
1.008800000000000e+10    -1.958541958265111e+01   -1.204453777785351e+02   
1.008900000000000e+10    -1.957105296702666e+01   -1.201667597126605e+02   
1.009000000000000e+10    -1.953968910242146e+01   -1.201204464694047e+02   
1.009100000000000e+10    -1.951236698635372e+01   -1.198021669248648e+02   
1.009200000000000e+10    -1.949222406299449e+01   -1.198382987766489e+02   
1.009300000000000e+10    -1.943806234297192e+01   -1.198144296341739e+02   
1.009400000000000e+10    -1.942604620264830e+01   -1.196338567954415e+02   
1.009500000000000e+10    -1.938430388942402e+01   -1.194016286682172e+02   
1.009600000000000e+10    -1.934708499787855e+01   -1.193775759312429e+02   
1.009700000000000e+10    -1.933400338572324e+01   -1.192807586361390e+02   
1.009800000000000e+10    -1.929311029401156e+01   -1.192678662723649e+02   
1.009900000000000e+10    -1.927057251032565e+01   -1.189522919944139e+02   
1.010000000000000e+10    -1.925327490664758e+01   -1.190871025296998e+02   
1.010100000000000e+10    -1.923413983816732e+01   -1.188788818835133e+02   
1.010200000000000e+10    -1.919067386213178e+01   -1.188906202707800e+02   
1.010300000000000e+10    -1.916555465383314e+01   -1.186606496887182e+02   
1.010400000000000e+10    -1.913411288082808e+01   -1.187004504637340e+02   
1.010500000000000e+10    -1.911047694287636e+01   -1.188325855527982e+02   
1.010600000000000e+10    -1.908888856251545e+01   -1.185931954140670e+02   
1.010700000000000e+10    -1.905110852759707e+01   -1.185439416486968e+02   
1.010800000000000e+10    -1.901500621110027e+01   -1.187275779042193e+02   
1.010900000000000e+10    -1.898273405119729e+01   -1.186282805617221e+02   
1.011000000000000e+10    -1.895540342956331e+01   -1.186654810147615e+02   
1.011100000000000e+10    -1.893015552798012e+01   -1.185779861731420e+02   
1.011200000000000e+10    -1.890673085453737e+01   -1.187160436863060e+02   
1.011300000000000e+10    -1.887835445930378e+01   -1.185290662805260e+02   
1.011400000000000e+10    -1.881600382644300e+01   -1.185708150227491e+02   
1.011500000000000e+10    -1.880053802510817e+01   -1.185684212622964e+02   
1.011600000000000e+10    -1.878540520602481e+01   -1.187331752015706e+02   
1.011700000000000e+10    -1.872276575216770e+01   -1.186028983155994e+02   
1.011800000000000e+10    -1.871353677625502e+01   -1.187107142257543e+02   
1.011900000000000e+10    -1.866087985753683e+01   -1.188484662597331e+02   
1.012000000000000e+10    -1.861482992709182e+01   -1.188524926322665e+02   
1.012100000000000e+10    -1.860428098722057e+01   -1.189338209794352e+02   
1.012200000000000e+10    -1.855018470710581e+01   -1.189573322169035e+02   
1.012300000000000e+10    -1.852380725187792e+01   -1.191291297602148e+02   
1.012400000000000e+10    -1.847569672698787e+01   -1.190610043493838e+02   
1.012500000000000e+10    -1.844643601644508e+01   -1.190636147945918e+02   
1.012600000000000e+10    -1.841068663847088e+01   -1.191552896806465e+02   
1.012700000000000e+10    -1.836706505194835e+01   -1.193327970681622e+02   
1.012800000000000e+10    -1.833754359224670e+01   -1.193284275338485e+02   
1.012900000000000e+10    -1.828596139598598e+01   -1.194206358897264e+02   
1.013000000000000e+10    -1.827538196328800e+01   -1.195451945755848e+02   
1.013100000000000e+10    -1.820713222523887e+01   -1.194737805257758e+02   
1.013200000000000e+10    -1.816921529059422e+01   -1.197287605268819e+02   
1.013300000000000e+10    -1.812101154160804e+01   -1.197106152338104e+02   
1.013400000000000e+10    -1.809587163948471e+01   -1.198654722448565e+02   
1.013500000000000e+10    -1.805425631298450e+01   -1.199339998789527e+02   
1.013600000000000e+10    -1.801126094377566e+01   -1.201044304462970e+02   
1.013700000000000e+10    -1.796339378465355e+01   -1.200571754371924e+02   
1.013800000000000e+10    -1.793042999981850e+01   -1.203158745714589e+02   
1.013900000000000e+10    -1.787749177294819e+01   -1.203759649665931e+02   
1.014000000000000e+10    -1.786767016676743e+01   -1.204426592194557e+02   
1.014100000000000e+10    -1.782242495680580e+01   -1.205305054828886e+02   
1.014200000000000e+10    -1.779103939333852e+01   -1.206737088268287e+02   
1.014300000000000e+10    -1.773830211900173e+01   -1.207622985568830e+02   
1.014400000000000e+10    -1.771952603926056e+01   -1.208972419698714e+02   
1.014500000000000e+10    -1.766121208662374e+01   -1.210034536718552e+02   
1.014600000000000e+10    -1.762100566243443e+01   -1.210918283589027e+02   
1.014700000000000e+10    -1.758791531322868e+01   -1.211921906782505e+02   
1.014800000000000e+10    -1.755629850001327e+01   -1.213824618220975e+02   
1.014900000000000e+10    -1.749435709950616e+01   -1.213654209149938e+02   
1.015000000000000e+10    -1.747173301248927e+01   -1.215487675669585e+02   
1.015100000000000e+10    -1.742452629223937e+01   -1.215825322758777e+02   
1.015200000000000e+10    -1.739205804683423e+01   -1.216994508265052e+02   
1.015300000000000e+10    -1.734181812073625e+01   -1.219444625847315e+02   
1.015400000000000e+10    -1.732344151378051e+01   -1.219940515077220e+02   
1.015500000000000e+10    -1.727625051466832e+01   -1.220803257283552e+02   
1.015600000000000e+10    -1.723826095483474e+01   -1.220782124166186e+02   
1.015700000000000e+10    -1.718996260543936e+01   -1.222134086388131e+02   
1.015800000000000e+10    -1.714600607022207e+01   -1.223196458492309e+02   
1.015900000000000e+10    -1.710824124577460e+01   -1.225620327502527e+02   
1.016000000000000e+10    -1.708822397701406e+01   -1.226996198637510e+02   
1.016100000000000e+10    -1.706030021253073e+01   -1.227447409044619e+02   
1.016200000000000e+10    -1.702484933293527e+01   -1.228832149713023e+02   
1.016300000000000e+10    -1.697633569690346e+01   -1.229844970972338e+02   
1.016400000000000e+10    -1.694503965547130e+01   -1.230680680958452e+02   
1.016500000000000e+10    -1.690016007239145e+01   -1.231500621675597e+02   
1.016600000000000e+10    -1.688220288247753e+01   -1.232628757620814e+02   
1.016700000000000e+10    -1.684748555118182e+01   -1.234413178985144e+02   
1.016800000000000e+10    -1.680190243963439e+01   -1.235143527755835e+02   
1.016900000000000e+10    -1.678175172406717e+01   -1.237106064723763e+02   
1.017000000000000e+10    -1.673973883037095e+01   -1.238406344203310e+02   
1.017100000000000e+10    -1.672694842688027e+01   -1.240246908837401e+02   
1.017200000000000e+10    -1.668181356700859e+01   -1.240386121802141e+02   
1.017300000000000e+10    -1.664816446592285e+01   -1.241454645663485e+02   
1.017400000000000e+10    -1.661269220622279e+01   -1.243171740882439e+02   
1.017500000000000e+10    -1.661310722841774e+01   -1.243873596377745e+02   
1.017600000000000e+10    -1.655553320498981e+01   -1.246990736007486e+02   
1.017700000000000e+10    -1.653974426514935e+01   -1.247995118148968e+02   
1.017800000000000e+10    -1.650717035095754e+01   -1.248904208259413e+02   
1.017900000000000e+10    -1.646672671043628e+01   -1.250830308190869e+02   
1.018000000000000e+10    -1.646740312704130e+01   -1.251341131320663e+02   
1.018100000000000e+10    -1.642768938688924e+01   -1.253557748081838e+02   
1.018200000000000e+10    -1.642326469352877e+01   -1.254818390239235e+02   
1.018300000000000e+10    -1.638928636469037e+01   -1.257060751027835e+02   
1.018400000000000e+10    -1.634817040206757e+01   -1.259066670570379e+02   
1.018500000000000e+10    -1.633895560045126e+01   -1.261137287273566e+02   
1.018600000000000e+10    -1.630930925903731e+01   -1.262487396411450e+02   
1.018700000000000e+10    -1.630088824130491e+01   -1.264248968953570e+02   
1.018800000000000e+10    -1.627072456813491e+01   -1.265067866196024e+02   
1.018900000000000e+10    -1.624317731759244e+01   -1.266996006091334e+02   
1.019000000000000e+10    -1.622429448048653e+01   -1.269040248221870e+02   
1.019100000000000e+10    -1.620302828688597e+01   -1.271368089348315e+02   
1.019200000000000e+10    -1.617065406025881e+01   -1.273625206364199e+02   
1.019300000000000e+10    -1.614203864216556e+01   -1.275355177620781e+02   
1.019400000000000e+10    -1.613530175887976e+01   -1.277401648820901e+02   
1.019500000000000e+10    -1.610597203938582e+01   -1.278961321435148e+02   
1.019600000000000e+10    -1.609569292009041e+01   -1.281348692994042e+02   
1.019700000000000e+10    -1.606761095462586e+01   -1.283674533860747e+02   
1.019800000000000e+10    -1.604211634462842e+01   -1.286512455581902e+02   
1.019900000000000e+10    -1.602184325953693e+01   -1.288148472620084e+02   
1.020000000000000e+10    -1.601500589486141e+01   -1.290571332391355e+02   
1.020100000000000e+10    -1.598063988177051e+01   -1.291909117397687e+02   
1.020200000000000e+10    -1.596631655065001e+01   -1.294543695328055e+02   
1.020300000000000e+10    -1.593334530875876e+01   -1.295748888541867e+02   
1.020400000000000e+10    -1.592719198490153e+01   -1.297969159974801e+02   
1.020500000000000e+10    -1.590905481780399e+01   -1.301023499193535e+02   
1.020600000000000e+10    -1.587780951591195e+01   -1.303239153300860e+02   
1.020700000000000e+10    -1.585125675652930e+01   -1.306301747930940e+02   
1.020800000000000e+10    -1.583554332529294e+01   -1.307975639106328e+02   
1.020900000000000e+10    -1.583702336346988e+01   -1.310303451694601e+02   
1.021000000000000e+10    -1.581468990473288e+01   -1.312721915096513e+02   
1.021100000000000e+10    -1.578769139276599e+01   -1.315095517624689e+02   
1.021200000000000e+10    -1.578493628889347e+01   -1.317101264982175e+02   
1.021300000000000e+10    -1.576520655539762e+01   -1.319684499926346e+02   
1.021400000000000e+10    -1.574823014359707e+01   -1.321850137492977e+02   
1.021500000000000e+10    -1.572562711499989e+01   -1.323863506017211e+02   
1.021600000000000e+10    -1.571512093094863e+01   -1.326866645771748e+02   
1.021700000000000e+10    -1.569841718908117e+01   -1.329535749007525e+02   
1.021800000000000e+10    -1.567986346418890e+01   -1.331310451829665e+02   
1.021900000000000e+10    -1.567425817995446e+01   -1.333060837289819e+02   
1.022000000000000e+10    -1.565998260740217e+01   -1.335972137381254e+02   
1.022100000000000e+10    -1.563280786264219e+01   -1.338875978136042e+02   
1.022200000000000e+10    -1.564061555556639e+01   -1.340010602524034e+02   
1.022300000000000e+10    -1.562029962579913e+01   -1.342548162118111e+02   
1.022400000000000e+10    -1.561341112085116e+01   -1.345425499048794e+02   
1.022500000000000e+10    -1.559093890336826e+01   -1.347425435823035e+02   
1.022600000000000e+10    -1.560106427683446e+01   -1.350676608992788e+02   
1.022700000000000e+10    -1.558400220904067e+01   -1.352959334250777e+02   
1.022800000000000e+10    -1.557395263679516e+01   -1.355310062911144e+02   
1.022900000000000e+10    -1.557169746927777e+01   -1.358458493331576e+02   
1.023000000000000e+10    -1.554839503293058e+01   -1.361035711308443e+02   
1.023100000000000e+10    -1.554003404196132e+01   -1.363896062741406e+02   
1.023200000000000e+10    -1.554429926061012e+01   -1.366507797479233e+02   
1.023300000000000e+10    -1.553725531329197e+01   -1.368459106975288e+02   
1.023400000000000e+10    -1.553023445216733e+01   -1.371444405132118e+02   
1.023500000000000e+10    -1.554686428833050e+01   -1.372576304153937e+02   
1.023600000000000e+10    -1.550937983758896e+01   -1.375620215523662e+02   
1.023700000000000e+10    -1.551774195338115e+01   -1.378722840825476e+02   
1.023800000000000e+10    -1.550510654068798e+01   -1.380548183115021e+02   
1.023900000000000e+10    -1.550843917014799e+01   -1.384406618400598e+02   
1.024000000000000e+10    -1.551594454222986e+01   -1.385650609382970e+02   
1.024100000000000e+10    -1.548984182266667e+01   -1.387888954092247e+02   
1.024200000000000e+10    -1.549232331689903e+01   -1.391178831627896e+02   
1.024300000000000e+10    -1.550202364149082e+01   -1.393190638949273e+02   
1.024400000000000e+10    -1.550261054741217e+01   -1.396076398011479e+02   
1.024500000000000e+10    -1.548822060554233e+01   -1.398587837946670e+02   
1.024600000000000e+10    -1.549473862440723e+01   -1.401821137298329e+02   
1.024700000000000e+10    -1.549208230916168e+01   -1.404122820238125e+02   
1.024800000000000e+10    -1.549275990630530e+01   -1.405697887536454e+02   
1.024900000000000e+10    -1.551346440564665e+01   -1.408745758358394e+02   
1.025000000000000e+10    -1.550004183027467e+01   -1.411765301392915e+02   
1.025100000000000e+10    -1.549030720957882e+01   -1.412737957514147e+02   
1.025200000000000e+10    -1.550809468277250e+01   -1.416312352042170e+02   
1.025300000000000e+10    -1.549237751463945e+01   -1.418258142792898e+02   
1.025400000000000e+10    -1.549963871136449e+01   -1.420507359021563e+02   
1.025500000000000e+10    -1.552190822720255e+01   -1.422782667577782e+02   
1.025600000000000e+10    -1.551851048465258e+01   -1.425326849012192e+02   
