[Version] 2.0
! Rohde & Schwarz Vector Network Analyzer
! Rohde-Schwarz,ZNL20-2Port,1323001220200009,1.71.1.10-23.02.1.238
! 
! Port Assignments:
! Nominal Port -> Actual Test Port
! --------------------------------
!   1 -> 1

! Created: GMT 2024-08-27 13:56:24

# Hz S DB R 50

[Number of Ports] 1
[Number of Frequencies] 2001

[Network Data] 
! freq[Hz]               S11[mag dB]              S11[ang]                 
1.000000000000000e+10    -2.037913772906616e+01   -1.402093906547723e+02   
1.000100000000000e+10    -2.043294374767886e+01   -1.398510435904673e+02   
1.000200000000000e+10    -2.046920549875104e+01   -1.394343271807803e+02   
1.000300000000000e+10    -2.053174254897936e+01   -1.393231285047929e+02   
1.000400000000000e+10    -2.056085609146544e+01   -1.392433177883838e+02   
1.000500000000000e+10    -2.058883395541918e+01   -1.390088479414298e+02   
1.000600000000000e+10    -2.064499388191494e+01   -1.387108420413407e+02   
1.000700000000000e+10    -2.067910150205336e+01   -1.383926005951138e+02   
1.000800000000000e+10    -2.072415601504244e+01   -1.381997836960837e+02   
1.000900000000000e+10    -2.077785715372446e+01   -1.381123444350470e+02   
1.001000000000000e+10    -2.081309882033894e+01   -1.376676135529217e+02   
1.001100000000000e+10    -2.085882589095459e+01   -1.374976763490073e+02   
1.001200000000000e+10    -2.087920984327916e+01   -1.372275052878834e+02   
1.001300000000000e+10    -2.095586169426458e+01   -1.370619649624425e+02   
1.001400000000000e+10    -2.096458448393122e+01   -1.369069530507474e+02   
1.001500000000000e+10    -2.100441861296769e+01   -1.365635796126670e+02   
1.001600000000000e+10    -2.100819506381864e+01   -1.362770741639092e+02   
1.001700000000000e+10    -2.106638175972968e+01   -1.361530834483079e+02   
1.001800000000000e+10    -2.108463207692475e+01   -1.359173582844728e+02   
1.001900000000000e+10    -2.111025630641389e+01   -1.356237831760787e+02   
1.002000000000000e+10    -2.114515418947271e+01   -1.355092393184156e+02   
1.002100000000000e+10    -2.116560355718737e+01   -1.352549687887284e+02   
1.002200000000000e+10    -2.117637229493415e+01   -1.348889998510020e+02   
1.002300000000000e+10    -2.117496963229479e+01   -1.346958198547633e+02   
1.002400000000000e+10    -2.118093423339655e+01   -1.345038515148489e+02   
1.002500000000000e+10    -2.122461381831071e+01   -1.341250291487955e+02   
1.002600000000000e+10    -2.123641395187626e+01   -1.341659641344934e+02   
1.002700000000000e+10    -2.124018807471776e+01   -1.339563007580864e+02   
1.002800000000000e+10    -2.125250915226490e+01   -1.335729295697293e+02   
1.002900000000000e+10    -2.124457200384169e+01   -1.332424702737441e+02   
1.003000000000000e+10    -2.128163235381230e+01   -1.328982608344294e+02   
1.003100000000000e+10    -2.125164820335074e+01   -1.329282133534150e+02   
1.003200000000000e+10    -2.126857043348491e+01   -1.327145382759085e+02   
1.003300000000000e+10    -2.123650861909902e+01   -1.324784714565379e+02   
1.003400000000000e+10    -2.123331453940524e+01   -1.320932123955660e+02   
1.003500000000000e+10    -2.125715283204566e+01   -1.318684945106877e+02   
1.003600000000000e+10    -2.119369309119224e+01   -1.314975928371523e+02   
1.003700000000000e+10    -2.122009670192258e+01   -1.313366880985380e+02   
1.003800000000000e+10    -2.120718428914206e+01   -1.311384133948178e+02   
1.003900000000000e+10    -2.121558647733055e+01   -1.309075453462134e+02   
1.004000000000000e+10    -2.116623117544374e+01   -1.308077420927278e+02   
1.004100000000000e+10    -2.117458252771914e+01   -1.304563995724774e+02   
1.004200000000000e+10    -2.112360277254708e+01   -1.302288603983766e+02   
1.004300000000000e+10    -2.112106631496898e+01   -1.299778084656539e+02   
1.004400000000000e+10    -2.111496926112568e+01   -1.298275980108303e+02   
1.004500000000000e+10    -2.106388389895994e+01   -1.295212332204771e+02   
1.004600000000000e+10    -2.105650996420302e+01   -1.291949997358854e+02   
1.004700000000000e+10    -2.103492225985737e+01   -1.290207100989887e+02   
1.004800000000000e+10    -2.099152753876533e+01   -1.287518936189232e+02   
1.004900000000000e+10    -2.095934793960469e+01   -1.285604293963918e+02   
1.005000000000000e+10    -2.095044399049807e+01   -1.284626648853431e+02   
1.005100000000000e+10    -2.086966602234726e+01   -1.282359059813770e+02   
1.005200000000000e+10    -2.085122596668391e+01   -1.277512891119016e+02   
1.005300000000000e+10    -2.082639094896762e+01   -1.276481035921323e+02   
1.005400000000000e+10    -2.079334441150028e+01   -1.274798228791707e+02   
1.005500000000000e+10    -2.075735831890464e+01   -1.271690164097134e+02   
1.005600000000000e+10    -2.075106384432284e+01   -1.269196317535343e+02   
1.005700000000000e+10    -2.067987610830735e+01   -1.266811987212847e+02   
1.005800000000000e+10    -2.065074561466517e+01   -1.265592083010950e+02   
1.005900000000000e+10    -2.063151012477073e+01   -1.264269447942587e+02   
1.006000000000000e+10    -2.057137650472741e+01   -1.261371716072044e+02   
1.006100000000000e+10    -2.055005973220404e+01   -1.257855260024239e+02   
1.006200000000000e+10    -2.051992037077255e+01   -1.256168074642474e+02   
1.006300000000000e+10    -2.048465686004078e+01   -1.253441058592134e+02   
1.006400000000000e+10    -2.043075190405751e+01   -1.252015482826150e+02   
1.006500000000000e+10    -2.040474065172663e+01   -1.249414557331786e+02   
1.006600000000000e+10    -2.037021044989693e+01   -1.246125302867821e+02   
1.006700000000000e+10    -2.034767339221624e+01   -1.245715031347320e+02   
1.006800000000000e+10    -2.028997096313346e+01   -1.241894150075031e+02   
1.006900000000000e+10    -2.025397928338052e+01   -1.238854992916298e+02   
1.007000000000000e+10    -2.021335413665114e+01   -1.237710921701672e+02   
1.007100000000000e+10    -2.017220793897099e+01   -1.236451953794099e+02   
1.007200000000000e+10    -2.013200790237817e+01   -1.232728381960027e+02   
1.007300000000000e+10    -2.011519248015198e+01   -1.232416791725364e+02   
1.007400000000000e+10    -2.004508154801765e+01   -1.229144597788191e+02   
1.007500000000000e+10    -2.004099394644211e+01   -1.226573979507958e+02   
1.007600000000000e+10    -2.001381488561545e+01   -1.224364707872431e+02   
1.007700000000000e+10    -1.994581054059610e+01   -1.222697296937362e+02   
1.007800000000000e+10    -1.990453911577929e+01   -1.219998485741456e+02   
1.007900000000000e+10    -1.987680507998263e+01   -1.219199586566981e+02   
1.008000000000000e+10    -1.987283156367121e+01   -1.216133473813680e+02   
1.008100000000000e+10    -1.980376229778044e+01   -1.214421882396022e+02   
1.008200000000000e+10    -1.975084009392587e+01   -1.212054807530297e+02   
1.008300000000000e+10    -1.973378142147061e+01   -1.211073458358594e+02   
1.008400000000000e+10    -1.972615494591719e+01   -1.208716767849484e+02   
1.008500000000000e+10    -1.966674839961212e+01   -1.207778873150049e+02   
1.008600000000000e+10    -1.963098985937525e+01   -1.205702260631712e+02   
1.008700000000000e+10    -1.959914304998216e+01   -1.204745750397486e+02   
1.008800000000000e+10    -1.956835122623901e+01   -1.203608212147291e+02   
1.008900000000000e+10    -1.955100472204444e+01   -1.200777881120843e+02   
1.009000000000000e+10    -1.952001327810238e+01   -1.200373379047149e+02   
1.009100000000000e+10    -1.949149637810287e+01   -1.197097454770731e+02   
1.009200000000000e+10    -1.947334061502771e+01   -1.197631273231803e+02   
1.009300000000000e+10    -1.941756564873061e+01   -1.197349742653367e+02   
1.009400000000000e+10    -1.940584357488223e+01   -1.195545826384489e+02   
1.009500000000000e+10    -1.936493755459104e+01   -1.193119247111698e+02   
1.009600000000000e+10    -1.932683793647524e+01   -1.192947519595522e+02   
1.009700000000000e+10    -1.931350070271110e+01   -1.192011549562126e+02   
1.009800000000000e+10    -1.927121989892996e+01   -1.191832641031838e+02   
1.009900000000000e+10    -1.924615885174183e+01   -1.188794714735514e+02   
1.010000000000000e+10    -1.923070193184199e+01   -1.190090017134871e+02   
1.010100000000000e+10    -1.921092706849443e+01   -1.187973924096628e+02   
1.010200000000000e+10    -1.916680436522000e+01   -1.188096009547368e+02   
1.010300000000000e+10    -1.914349576150542e+01   -1.185948282661283e+02   
1.010400000000000e+10    -1.911391839530487e+01   -1.186234942652659e+02   
1.010500000000000e+10    -1.908564063258297e+01   -1.187759521355309e+02   
1.010600000000000e+10    -1.906559587505641e+01   -1.185389432140623e+02   
1.010700000000000e+10    -1.902691990516743e+01   -1.185001537054240e+02   
1.010800000000000e+10    -1.899224912937027e+01   -1.186788467485664e+02   
1.010900000000000e+10    -1.895682992080074e+01   -1.185776740251367e+02   
1.011000000000000e+10    -1.893017461891004e+01   -1.186188383125762e+02   
1.011100000000000e+10    -1.890264661939819e+01   -1.185459666954118e+02   
1.011200000000000e+10    -1.888258164823197e+01   -1.186772828539391e+02   
1.011300000000000e+10    -1.885356652467099e+01   -1.184888011346942e+02   
1.011400000000000e+10    -1.878816154706089e+01   -1.185405721246841e+02   
1.011500000000000e+10    -1.877422200992869e+01   -1.185310036439538e+02   
1.011600000000000e+10    -1.875558298661869e+01   -1.187093960342996e+02   
1.011700000000000e+10    -1.869863369369339e+01   -1.185846336579082e+02   
1.011800000000000e+10    -1.868765380727325e+01   -1.187011346645931e+02   
1.011900000000000e+10    -1.863588684236476e+01   -1.188195185344975e+02   
1.012000000000000e+10    -1.858735017562323e+01   -1.188249223019574e+02   
1.012100000000000e+10    -1.857781270435588e+01   -1.189143977894224e+02   
1.012200000000000e+10    -1.852684882194629e+01   -1.189477470638190e+02   
1.012300000000000e+10    -1.849939662012977e+01   -1.191086358119073e+02   
1.012400000000000e+10    -1.845116308737434e+01   -1.190352669649291e+02   
1.012500000000000e+10    -1.842092747932248e+01   -1.190296730865634e+02   
1.012600000000000e+10    -1.838571554696103e+01   -1.191472808871846e+02   
1.012700000000000e+10    -1.834294303115352e+01   -1.193015941516057e+02   
1.012800000000000e+10    -1.831065867654952e+01   -1.193129565622934e+02   
1.012900000000000e+10    -1.825858033946962e+01   -1.194095174696319e+02   
1.013000000000000e+10    -1.825037471747483e+01   -1.195342416359695e+02   
1.013100000000000e+10    -1.818104566296213e+01   -1.194661327403891e+02   
1.013200000000000e+10    -1.814424644404017e+01   -1.197273913579327e+02   
1.013300000000000e+10    -1.809396092289474e+01   -1.197029636623599e+02   
1.013400000000000e+10    -1.807164076091613e+01   -1.198768447163805e+02   
1.013500000000000e+10    -1.802516673980048e+01   -1.199349499176172e+02   
1.013600000000000e+10    -1.798387218789803e+01   -1.201149028863233e+02   
1.013700000000000e+10    -1.793785676229593e+01   -1.200741419686295e+02   
1.013800000000000e+10    -1.790375841209253e+01   -1.203324589163563e+02   
1.013900000000000e+10    -1.785080319419735e+01   -1.203814358017231e+02   
1.014000000000000e+10    -1.783958490761329e+01   -1.204670515095708e+02   
1.014100000000000e+10    -1.779310790098312e+01   -1.205594712062695e+02   
1.014200000000000e+10    -1.776465705066577e+01   -1.207043288639021e+02   
1.014300000000000e+10    -1.771100258287974e+01   -1.207840200563635e+02   
1.014400000000000e+10    -1.769151055822786e+01   -1.209284640573329e+02   
1.014500000000000e+10    -1.763340840716154e+01   -1.210418206359015e+02   
1.014600000000000e+10    -1.759291871553975e+01   -1.211419765620102e+02   
1.014700000000000e+10    -1.755979096757971e+01   -1.212380853881442e+02   
1.014800000000000e+10    -1.753048958408043e+01   -1.214307509217045e+02   
1.014900000000000e+10    -1.746923389416790e+01   -1.214160024905319e+02   
1.015000000000000e+10    -1.744581148643099e+01   -1.215932323589263e+02   
1.015100000000000e+10    -1.739891971218433e+01   -1.216300746834742e+02   
1.015200000000000e+10    -1.736597375291451e+01   -1.217688417618153e+02   
1.015300000000000e+10    -1.731430407249215e+01   -1.219976203971767e+02   
1.015400000000000e+10    -1.730018979861540e+01   -1.220565721664368e+02   
1.015500000000000e+10    -1.725082598486980e+01   -1.221403702565911e+02   
1.015600000000000e+10    -1.721510120388751e+01   -1.221484420897118e+02   
1.015700000000000e+10    -1.716540026374319e+01   -1.222855763764631e+02   
1.015800000000000e+10    -1.712236535487725e+01   -1.223871980059232e+02   
1.015900000000000e+10    -1.708596242278552e+01   -1.226369264348676e+02   
1.016000000000000e+10    -1.706537328035323e+01   -1.227941303521219e+02   
1.016100000000000e+10    -1.703849112275563e+01   -1.228415031074721e+02   
1.016200000000000e+10    -1.700172881860102e+01   -1.229672339217723e+02   
1.016300000000000e+10    -1.695324825972819e+01   -1.230805914259756e+02   
1.016400000000000e+10    -1.692263750046655e+01   -1.231593724498962e+02   
1.016500000000000e+10    -1.687839498528705e+01   -1.232508449020000e+02   
1.016600000000000e+10    -1.686142999842385e+01   -1.233599380302300e+02   
1.016700000000000e+10    -1.682506068479177e+01   -1.235597145231146e+02   
1.016800000000000e+10    -1.678250796700525e+01   -1.236147615518639e+02   
1.016900000000000e+10    -1.676286157449550e+01   -1.238256865389527e+02   
1.017000000000000e+10    -1.672163383278674e+01   -1.239538762536986e+02   
1.017100000000000e+10    -1.670857418878749e+01   -1.241423354878992e+02   
1.017200000000000e+10    -1.666462308154544e+01   -1.241497507224593e+02   
1.017300000000000e+10    -1.663163213918131e+01   -1.242743698304584e+02   
1.017400000000000e+10    -1.659709280218722e+01   -1.244296990695694e+02   
1.017500000000000e+10    -1.659710553696097e+01   -1.245137846060135e+02   
1.017600000000000e+10    -1.654019551154563e+01   -1.248210892812080e+02   
1.017700000000000e+10    -1.652521422151420e+01   -1.249261007860565e+02   
1.017800000000000e+10    -1.649325855992676e+01   -1.250124981585572e+02   
1.017900000000000e+10    -1.645111813020630e+01   -1.252096514175859e+02   
1.018000000000000e+10    -1.645325722955503e+01   -1.252450848029556e+02   
1.018100000000000e+10    -1.641306772149632e+01   -1.254793122368876e+02   
1.018200000000000e+10    -1.641115186413992e+01   -1.256034544018282e+02   
1.018300000000000e+10    -1.637571093699564e+01   -1.258369975764271e+02   
1.018400000000000e+10    -1.633778600437167e+01   -1.260447022003680e+02   
1.018500000000000e+10    -1.632656760952070e+01   -1.262488914372763e+02   
1.018600000000000e+10    -1.629928158596369e+01   -1.263973447408013e+02   
1.018700000000000e+10    -1.628891910216291e+01   -1.265506698545951e+02   
1.018800000000000e+10    -1.626021019720437e+01   -1.266314970234306e+02   
1.018900000000000e+10    -1.623252008190673e+01   -1.268278363599789e+02   
1.019000000000000e+10    -1.621441413269471e+01   -1.270388712990673e+02   
1.019100000000000e+10    -1.619300418808529e+01   -1.272536571097272e+02   
1.019200000000000e+10    -1.616181587953048e+01   -1.275023599526939e+02   
1.019300000000000e+10    -1.613270315033268e+01   -1.276666511478002e+02   
1.019400000000000e+10    -1.612494303637756e+01   -1.278648645312333e+02   
1.019500000000000e+10    -1.609733186479377e+01   -1.280190298543325e+02   
1.019600000000000e+10    -1.608833238207588e+01   -1.282717584470593e+02   
1.019700000000000e+10    -1.605848471234763e+01   -1.284961091076290e+02   
1.019800000000000e+10    -1.603455344180149e+01   -1.287822981181727e+02   
1.019900000000000e+10    -1.601186972625569e+01   -1.289455800796944e+02   
1.020000000000000e+10    -1.600660341500513e+01   -1.291947621289847e+02   
1.020100000000000e+10    -1.597102709436530e+01   -1.293324575596302e+02   
1.020200000000000e+10    -1.595945436501419e+01   -1.295827596946193e+02   
1.020300000000000e+10    -1.592575984338181e+01   -1.297051237551302e+02   
1.020400000000000e+10    -1.591802606065292e+01   -1.299284791323331e+02   
1.020500000000000e+10    -1.590177606191336e+01   -1.302448218032590e+02   
1.020600000000000e+10    -1.587059252828760e+01   -1.304693929774212e+02   
1.020700000000000e+10    -1.584514906932921e+01   -1.307680686243611e+02   
1.020800000000000e+10    -1.583086595366428e+01   -1.309351367220485e+02   
1.020900000000000e+10    -1.583234776611228e+01   -1.311643278532349e+02   
1.021000000000000e+10    -1.581004968665512e+01   -1.313996796601535e+02   
1.021100000000000e+10    -1.578354952252294e+01   -1.316437622710503e+02   
1.021200000000000e+10    -1.577995798798741e+01   -1.318303417220471e+02   
1.021300000000000e+10    -1.575956625241106e+01   -1.320905387425787e+02   
1.021400000000000e+10    -1.574421398830210e+01   -1.323205616037304e+02   
1.021500000000000e+10    -1.572069408668133e+01   -1.325075969661720e+02   
1.021600000000000e+10    -1.570814388833896e+01   -1.328371985460932e+02   
1.021700000000000e+10    -1.569350112742421e+01   -1.330588155089301e+02   
1.021800000000000e+10    -1.567588228501344e+01   -1.332580303430179e+02   
1.021900000000000e+10    -1.566952411909787e+01   -1.334304649898483e+02   
1.022000000000000e+10    -1.565579222419789e+01   -1.337234410814819e+02   
1.022100000000000e+10    -1.563018396708184e+01   -1.340191685510785e+02   
1.022200000000000e+10    -1.563578590606912e+01   -1.341307285462959e+02   
1.022300000000000e+10    -1.561661486997511e+01   -1.343887132677964e+02   
1.022400000000000e+10    -1.561062840626455e+01   -1.346598378889371e+02   
1.022500000000000e+10    -1.558816935118736e+01   -1.348444934895165e+02   
1.022600000000000e+10    -1.559829110006805e+01   -1.351813722988176e+02   
1.022700000000000e+10    -1.558091625062263e+01   -1.354101810880710e+02   
1.022800000000000e+10    -1.556833296308632e+01   -1.356531240501915e+02   
1.022900000000000e+10    -1.556853848250061e+01   -1.359709091620291e+02   
1.023000000000000e+10    -1.554638110093860e+01   -1.362300818173096e+02   
1.023100000000000e+10    -1.553780124636249e+01   -1.365147597305441e+02   
1.023200000000000e+10    -1.554448927812047e+01   -1.367697022728015e+02   
1.023300000000000e+10    -1.553529823693541e+01   -1.369722674345995e+02   
1.023400000000000e+10    -1.552869363780724e+01   -1.372788051069479e+02   
1.023500000000000e+10    -1.554478579183415e+01   -1.373776110083755e+02   
1.023600000000000e+10    -1.550829315509695e+01   -1.376863658602020e+02   
1.023700000000000e+10    -1.551722920712535e+01   -1.379948095502579e+02   
1.023800000000000e+10    -1.550491985512081e+01   -1.381698509222099e+02   
1.023900000000000e+10    -1.550858710105806e+01   -1.385519182763765e+02   
1.024000000000000e+10    -1.551561258614694e+01   -1.386828583617785e+02   
1.024100000000000e+10    -1.548961228466061e+01   -1.389094706064537e+02   
1.024200000000000e+10    -1.549437354295882e+01   -1.392273123639254e+02   
1.024300000000000e+10    -1.550151752382909e+01   -1.394492926480795e+02   
1.024400000000000e+10    -1.550335479287605e+01   -1.397290431181576e+02   
1.024500000000000e+10    -1.548887802853068e+01   -1.399760243871153e+02   
1.024600000000000e+10    -1.549578292226904e+01   -1.402936728987696e+02   
1.024700000000000e+10    -1.549249122858614e+01   -1.405175772580452e+02   
1.024800000000000e+10    -1.549455303781854e+01   -1.406850128894066e+02   
1.024900000000000e+10    -1.551542858890737e+01   -1.409766495768993e+02   
1.025000000000000e+10    -1.550033938577770e+01   -1.412868098414943e+02   
1.025100000000000e+10    -1.549292032802611e+01   -1.413967980501321e+02   
1.025200000000000e+10    -1.551038823374581e+01   -1.417579213289276e+02   
1.025300000000000e+10    -1.549475020102405e+01   -1.419358727752044e+02   
1.025400000000000e+10    -1.550234174231720e+01   -1.421812039806637e+02   
1.025500000000000e+10    -1.552290208254159e+01   -1.423988595911749e+02   
1.025600000000000e+10    -1.552265887006014e+01   -1.426470933284110e+02   
