[Version] 2.0
! Rohde & Schwarz Vector Network Analyzer
! Rohde-Schwarz,ZNL20-2Port,1323001220200009,1.71.1.10-23.02.1.238
! 
! Port Assignments:
! Nominal Port -> Actual Test Port
! --------------------------------
!   1 -> 1

! Created: GMT 2024-08-27 13:48:38

# Hz S DB R 50

[Number of Ports] 1
[Number of Frequencies] 2001

[Network Data] 
! freq[Hz]               S11[mag dB]              S11[ang]                 
1.000000000000000e+10    -2.015559418050638e+01   -1.242204306084685e+02   
1.000100000000000e+10    -2.014774950194181e+01   -1.238582444918559e+02   
1.000200000000000e+10    -2.012332367914852e+01   -1.234908841711059e+02   
1.000300000000000e+10    -2.013095383431649e+01   -1.233690779484107e+02   
1.000400000000000e+10    -2.011688230738952e+01   -1.233327733152316e+02   
1.000500000000000e+10    -2.008924796435375e+01   -1.231749137486451e+02   
1.000600000000000e+10    -2.009171270506641e+01   -1.229148937150857e+02   
1.000700000000000e+10    -2.006927427625956e+01   -1.226679487659929e+02   
1.000800000000000e+10    -2.006265961656844e+01   -1.225470849049051e+02   
1.000900000000000e+10    -2.007169535256599e+01   -1.225161889483953e+02   
1.001000000000000e+10    -2.004754324476124e+01   -1.221834201378685e+02   
1.001100000000000e+10    -2.004007036839113e+01   -1.220812777761725e+02   
1.001200000000000e+10    -2.001321439126908e+01   -1.219767507439101e+02   
1.001300000000000e+10    -2.003534397625154e+01   -1.218440501026846e+02   
1.001400000000000e+10    -2.000683357147657e+01   -1.218370054601800e+02   
1.001500000000000e+10    -1.999365330833270e+01   -1.216730340969874e+02   
1.001600000000000e+10    -1.995157672125012e+01   -1.215498241683354e+02   
1.001700000000000e+10    -1.996968748934379e+01   -1.215323121791532e+02   
1.001800000000000e+10    -1.994379307645209e+01   -1.214605529484286e+02   
1.001900000000000e+10    -1.992694376001583e+01   -1.213195870357590e+02   
1.002000000000000e+10    -1.991969192743274e+01   -1.213572198364242e+02   
1.002100000000000e+10    -1.989817817903749e+01   -1.212817015920330e+02   
1.002200000000000e+10    -1.987196184585116e+01   -1.211470588167269e+02   
1.002300000000000e+10    -1.983944406278478e+01   -1.211586258727124e+02   
1.002400000000000e+10    -1.980857614136768e+01   -1.211869530568276e+02   
1.002500000000000e+10    -1.981027798885538e+01   -1.209724791354410e+02   
1.002600000000000e+10    -1.980232275866648e+01   -1.211698765204615e+02   
1.002700000000000e+10    -1.977405100748312e+01   -1.211828804633759e+02   
1.002800000000000e+10    -1.975307374034893e+01   -1.209881882575724e+02   
1.002900000000000e+10    -1.971723406624897e+01   -1.209172077364007e+02   
1.003000000000000e+10    -1.971536371375784e+01   -1.207736016417644e+02   
1.003100000000000e+10    -1.967051081168071e+01   -1.210131365408711e+02   
1.003200000000000e+10    -1.966009729049534e+01   -1.209791941066107e+02   
1.003300000000000e+10    -1.960574703474296e+01   -1.210068398357569e+02   
1.003400000000000e+10    -1.957679065415022e+01   -1.208845803361554e+02   
1.003500000000000e+10    -1.957272760961595e+01   -1.208359813287737e+02   
1.003600000000000e+10    -1.949509136095913e+01   -1.207902609781576e+02   
1.003700000000000e+10    -1.949584418560060e+01   -1.207945656280782e+02   
1.003800000000000e+10    -1.946404795121759e+01   -1.208350863316757e+02   
1.003900000000000e+10    -1.945070376537535e+01   -1.208041913327647e+02   
1.004000000000000e+10    -1.939508749367914e+01   -1.209308218837861e+02   
1.004100000000000e+10    -1.937920816157879e+01   -1.208293578645594e+02   
1.004200000000000e+10    -1.932150485961260e+01   -1.208472758839554e+02   
1.004300000000000e+10    -1.929874805160085e+01   -1.208172368838307e+02   
1.004400000000000e+10    -1.927746553560744e+01   -1.208735791503894e+02   
1.004500000000000e+10    -1.921622473216070e+01   -1.208303883210672e+02   
1.004600000000000e+10    -1.919207628014945e+01   -1.207690969204604e+02   
1.004700000000000e+10    -1.915954539267366e+01   -1.207957733556849e+02   
1.004800000000000e+10    -1.910981209801392e+01   -1.207782744655942e+02   
1.004900000000000e+10    -1.906853127461189e+01   -1.207996771737178e+02   
1.005000000000000e+10    -1.904540448253951e+01   -1.209083765688798e+02   
1.005100000000000e+10    -1.897672284020195e+01   -1.209105682415643e+02   
1.005200000000000e+10    -1.894147631361441e+01   -1.207183032744868e+02   
1.005300000000000e+10    -1.890922368895921e+01   -1.208228646639498e+02   
1.005400000000000e+10    -1.886775649735736e+01   -1.208343691027254e+02   
1.005500000000000e+10    -1.882914435634619e+01   -1.207896705863419e+02   
1.005600000000000e+10    -1.881036777133774e+01   -1.207246397342308e+02   
1.005700000000000e+10    -1.874380545112889e+01   -1.207412831803248e+02   
1.005800000000000e+10    -1.871106457021379e+01   -1.208126211598857e+02   
1.005900000000000e+10    -1.868148321382237e+01   -1.208641106690833e+02   
1.006000000000000e+10    -1.862330303518153e+01   -1.208083331429532e+02   
1.006100000000000e+10    -1.859512323457684e+01   -1.206994522148269e+02   
1.006200000000000e+10    -1.855919782093948e+01   -1.207433484324101e+02   
1.006300000000000e+10    -1.852157580343218e+01   -1.206801417519196e+02   
1.006400000000000e+10    -1.847271803058758e+01   -1.207529376374739e+02   
1.006500000000000e+10    -1.844188580750215e+01   -1.207356852665590e+02   
1.006600000000000e+10    -1.840264519987384e+01   -1.206327818848319e+02   
1.006700000000000e+10    -1.837877127939374e+01   -1.207439380004900e+02   
1.006800000000000e+10    -1.832079719185202e+01   -1.206325746819529e+02   
1.006900000000000e+10    -1.828326501852733e+01   -1.205693709457161e+02   
1.007000000000000e+10    -1.824807432479713e+01   -1.206594434519026e+02   
1.007100000000000e+10    -1.820570369910411e+01   -1.207400066926579e+02   
1.007200000000000e+10    -1.816985774854574e+01   -1.206152417459624e+02   
1.007300000000000e+10    -1.815168273422482e+01   -1.207466121513256e+02   
1.007400000000000e+10    -1.809146986790467e+01   -1.206653752904607e+02   
1.007500000000000e+10    -1.808270606770023e+01   -1.206258474786052e+02   
1.007600000000000e+10    -1.805812349833819e+01   -1.206274526565825e+02   
1.007700000000000e+10    -1.800041303049870e+01   -1.206340883826388e+02   
1.007800000000000e+10    -1.796641245612505e+01   -1.205733070175496e+02   
1.007900000000000e+10    -1.793928843050318e+01   -1.206925085872225e+02   
1.008000000000000e+10    -1.793182519175675e+01   -1.205890930313550e+02   
1.008100000000000e+10    -1.787675991691827e+01   -1.206108908296880e+02   
1.008200000000000e+10    -1.782969800274208e+01   -1.205929375795930e+02   
1.008300000000000e+10    -1.781465663315409e+01   -1.206682788388132e+02   
1.008400000000000e+10    -1.780489104785665e+01   -1.206307003197106e+02   
1.008500000000000e+10    -1.775671793365859e+01   -1.207131844372743e+02   
1.008600000000000e+10    -1.772677203757436e+01   -1.206992169362355e+02   
1.008700000000000e+10    -1.770112605695674e+01   -1.207754397633395e+02   
1.008800000000000e+10    -1.767317746000308e+01   -1.208419582124271e+02   
1.008900000000000e+10    -1.765879924618534e+01   -1.207736495559604e+02   
1.009000000000000e+10    -1.763337961968332e+01   -1.208871323796080e+02   
1.009100000000000e+10    -1.760940878856473e+01   -1.207920401066883e+02   
1.009200000000000e+10    -1.759516909679061e+01   -1.209744474249166e+02   
1.009300000000000e+10    -1.755120640428274e+01   -1.211041565865557e+02   
1.009400000000000e+10    -1.754287274407705e+01   -1.211147801090475e+02   
1.009500000000000e+10    -1.751180538310638e+01   -1.210888467225566e+02   
1.009600000000000e+10    -1.748393356198157e+01   -1.212076752135634e+02   
1.009700000000000e+10    -1.747242238108793e+01   -1.212791001118371e+02   
1.009800000000000e+10    -1.743962262981756e+01   -1.214045017452508e+02   
1.009900000000000e+10    -1.742272148347058e+01   -1.213210942291211e+02   
1.010000000000000e+10    -1.740903167561210e+01   -1.216004861859182e+02   
1.010100000000000e+10    -1.739560785560121e+01   -1.215610448513538e+02   
1.010200000000000e+10    -1.736118423080096e+01   -1.217213325280369e+02   
1.010300000000000e+10    -1.734736963558078e+01   -1.217054079362082e+02   
1.010400000000000e+10    -1.732226861355230e+01   -1.218848338645475e+02   
1.010500000000000e+10    -1.730495160911567e+01   -1.221398427072373e+02   
1.010600000000000e+10    -1.729006032835287e+01   -1.221140096593492e+02   
1.010700000000000e+10    -1.726360292042055e+01   -1.222389561551372e+02   
1.010800000000000e+10    -1.723793629664810e+01   -1.225321388802870e+02   
1.010900000000000e+10    -1.721401622841874e+01   -1.225991653632298e+02   
1.011000000000000e+10    -1.719681287193134e+01   -1.227942647390357e+02   
1.011100000000000e+10    -1.717953170390129e+01   -1.228792905161422e+02   
1.011200000000000e+10    -1.716554023075197e+01   -1.231384142324679e+02   
1.011300000000000e+10    -1.715138814022980e+01   -1.231568607826073e+02   
1.011400000000000e+10    -1.710321720280609e+01   -1.233299295894584e+02   
1.011500000000000e+10    -1.709767538283388e+01   -1.234895228570421e+02   
1.011600000000000e+10    -1.708753080782241e+01   -1.237591662032089e+02   
1.011700000000000e+10    -1.704910325239194e+01   -1.238123181855197e+02   
1.011800000000000e+10    -1.704561832939270e+01   -1.240567429126152e+02   
1.011900000000000e+10    -1.700723605674531e+01   -1.242949535655027e+02   
1.012000000000000e+10    -1.697779327336058e+01   -1.244447650628001e+02   
1.012100000000000e+10    -1.697519102613800e+01   -1.246679889945758e+02   
1.012200000000000e+10    -1.693962557304759e+01   -1.248196945302516e+02   
1.012300000000000e+10    -1.692534467045105e+01   -1.251030135056312e+02   
1.012400000000000e+10    -1.689503137221684e+01   -1.251642043507332e+02   
1.012500000000000e+10    -1.688096965338086e+01   -1.253275800085544e+02   
1.012600000000000e+10    -1.685550374728368e+01   -1.255384721137703e+02   
1.012700000000000e+10    -1.682964213548467e+01   -1.258067319960890e+02   
1.012800000000000e+10    -1.681347112222662e+01   -1.259505532656278e+02   
1.012900000000000e+10    -1.677920953002273e+01   -1.261496826571880e+02   
1.013000000000000e+10    -1.678161503953687e+01   -1.263980239787277e+02   
1.013100000000000e+10    -1.673935654753332e+01   -1.264494350416238e+02   
1.013200000000000e+10    -1.671413385059765e+01   -1.267915902293581e+02   
1.013300000000000e+10    -1.668512674159991e+01   -1.269003236133970e+02   
1.013400000000000e+10    -1.667726587137853e+01   -1.271640186867823e+02   
1.013500000000000e+10    -1.665070324827368e+01   -1.273324807334581e+02   
1.013600000000000e+10    -1.662469346700409e+01   -1.276041364994615e+02   
1.013700000000000e+10    -1.660067629551513e+01   -1.276678497849982e+02   
1.013800000000000e+10    -1.657722109943049e+01   -1.280168940924388e+02   
1.013900000000000e+10    -1.654907251674985e+01   -1.281706450961764e+02   
1.014000000000000e+10    -1.655483405065381e+01   -1.283716116137629e+02   
1.014100000000000e+10    -1.652776463117240e+01   -1.285468026230660e+02   
1.014200000000000e+10    -1.651660753114279e+01   -1.287843600217291e+02   
1.014300000000000e+10    -1.648417081718410e+01   -1.289526684927832e+02   
1.014400000000000e+10    -1.648030756702861e+01   -1.291949365706662e+02   
1.014500000000000e+10    -1.644319549614613e+01   -1.293697718244811e+02   
1.014600000000000e+10    -1.642293565814953e+01   -1.295545718144642e+02   
1.014700000000000e+10    -1.640722117258159e+01   -1.297430899577246e+02   
1.014800000000000e+10    -1.639350254278049e+01   -1.300191209042594e+02   
1.014900000000000e+10    -1.635732980663734e+01   -1.300945055298023e+02   
1.015000000000000e+10    -1.635378875832915e+01   -1.303825034102898e+02   
1.015100000000000e+10    -1.632566814417515e+01   -1.304751431438701e+02   
1.015200000000000e+10    -1.631299897537714e+01   -1.306916262686613e+02   
1.015300000000000e+10    -1.628187200045117e+01   -1.309756296984104e+02   
1.015400000000000e+10    -1.628499769330879e+01   -1.311567757022370e+02   
1.015500000000000e+10    -1.625930543177848e+01   -1.313230026751365e+02   
1.015600000000000e+10    -1.624547018534834e+01   -1.314140873979617e+02   
1.015700000000000e+10    -1.622020451403298e+01   -1.315968971773318e+02   
1.015800000000000e+10    -1.619945879327691e+01   -1.317764079625778e+02   
1.015900000000000e+10    -1.617966851865315e+01   -1.320848841851848e+02   
1.016000000000000e+10    -1.617995225111429e+01   -1.323108742212552e+02   
1.016100000000000e+10    -1.617297574728145e+01   -1.324506457280775e+02   
1.016200000000000e+10    -1.615844336845878e+01   -1.326527619887275e+02   
1.016300000000000e+10    -1.613629642476041e+01   -1.328105174845464e+02   
1.016400000000000e+10    -1.612732897275407e+01   -1.329619135194206e+02   
1.016500000000000e+10    -1.610752513171425e+01   -1.331139659232227e+02   
1.016600000000000e+10    -1.610933949174275e+01   -1.333068922025196e+02   
1.016700000000000e+10    -1.609641959402574e+01   -1.335495627739442e+02   
1.016800000000000e+10    -1.607870553239076e+01   -1.336704775621710e+02   
1.016900000000000e+10    -1.608063459984053e+01   -1.339232649368054e+02   
1.017000000000000e+10    -1.606379250283936e+01   -1.341089174314025e+02   
1.017100000000000e+10    -1.607143872472553e+01   -1.343574930352591e+02   
1.017200000000000e+10    -1.605505046766552e+01   -1.344121162405323e+02   
1.017300000000000e+10    -1.604628577530963e+01   -1.345828354930773e+02   
1.017400000000000e+10    -1.603453360933998e+01   -1.347815250484489e+02   
1.017500000000000e+10    -1.606007797536690e+01   -1.349474679273270e+02   
1.017600000000000e+10    -1.602357006243117e+01   -1.352347247654388e+02   
1.017700000000000e+10    -1.603453403147128e+01   -1.353989190596996e+02   
1.017800000000000e+10    -1.602723701784010e+01   -1.355388042967283e+02   
1.017900000000000e+10    -1.601119861046437e+01   -1.357499116165568e+02   
1.018000000000000e+10    -1.603826711511950e+01   -1.358630134134321e+02   
1.018100000000000e+10    -1.602166882724193e+01   -1.361072649531878e+02   
1.018200000000000e+10    -1.604297525052353e+01   -1.362899589019687e+02   
1.018300000000000e+10    -1.603365590007669e+01   -1.365429101577794e+02   
1.018400000000000e+10    -1.601998521989016e+01   -1.367431214035761e+02   
1.018500000000000e+10    -1.603333382067469e+01   -1.369946390672341e+02   
1.018600000000000e+10    -1.603001750482098e+01   -1.371364571049895e+02   
1.018700000000000e+10    -1.604569657536608e+01   -1.373370835179876e+02   
1.018800000000000e+10    -1.604485309981164e+01   -1.374328229620104e+02   
1.018900000000000e+10    -1.604137244313716e+01   -1.376282225951190e+02   
1.019000000000000e+10    -1.604893512560078e+01   -1.378716855456532e+02   
1.019100000000000e+10    -1.605060783969274e+01   -1.381055664963056e+02   
1.019200000000000e+10    -1.604217281442992e+01   -1.383206957497284e+02   
1.019300000000000e+10    -1.603860937643665e+01   -1.384785228799897e+02   
1.019400000000000e+10    -1.605747934930415e+01   -1.386966107440814e+02   
1.019500000000000e+10    -1.605549392791860e+01   -1.388495518644310e+02   
1.019600000000000e+10    -1.606759809733247e+01   -1.390980178940273e+02   
1.019700000000000e+10    -1.606420676706220e+01   -1.392987112293999e+02   
1.019800000000000e+10    -1.606009823118738e+01   -1.395610993276739e+02   
1.019900000000000e+10    -1.606665958403419e+01   -1.397010029591297e+02   
1.020000000000000e+10    -1.608613781683814e+01   -1.399551628546864e+02   
1.020100000000000e+10    -1.607291045523588e+01   -1.400473860681802e+02   
1.020200000000000e+10    -1.608662435535110e+01   -1.403004911660710e+02   
1.020300000000000e+10    -1.608190768505705e+01   -1.403703072845498e+02   
1.020400000000000e+10    -1.609759950694281e+01   -1.405904150480263e+02   
1.020500000000000e+10    -1.610336279063896e+01   -1.408532685562558e+02   
1.020600000000000e+10    -1.609672391665498e+01   -1.410390428454514e+02   
1.020700000000000e+10    -1.609420982231198e+01   -1.413050840492311e+02   
1.020800000000000e+10    -1.610364728505110e+01   -1.414252979789650e+02   
1.020900000000000e+10    -1.612983499389330e+01   -1.416294389138527e+02   
1.021000000000000e+10    -1.613208567815864e+01   -1.418167709351257e+02   
1.021100000000000e+10    -1.613056764381769e+01   -1.419861149342658e+02   
1.021200000000000e+10    -1.615212241783606e+01   -1.421442352982902e+02   
1.021300000000000e+10    -1.615366746950139e+01   -1.423407713437333e+02   
1.021400000000000e+10    -1.616035826503931e+01   -1.424944200736784e+02   
1.021500000000000e+10    -1.616056775645644e+01   -1.426271650301688e+02   
1.021600000000000e+10    -1.617064755782638e+01   -1.428803087667193e+02   
1.021700000000000e+10    -1.617769720540855e+01   -1.430617818110844e+02   
1.021800000000000e+10    -1.618403693373184e+01   -1.431741280529201e+02   
1.021900000000000e+10    -1.620084249828823e+01   -1.432875189551288e+02   
1.022000000000000e+10    -1.620603063099538e+01   -1.435039045118611e+02   
1.022100000000000e+10    -1.620263495202443e+01   -1.437286583967765e+02   
1.022200000000000e+10    -1.623300866057966e+01   -1.437697060092770e+02   
1.022300000000000e+10    -1.623565008149185e+01   -1.439423866360902e+02   
1.022400000000000e+10    -1.624905674974167e+01   -1.441536351766609e+02   
1.022500000000000e+10    -1.624738015052625e+01   -1.442456446909168e+02   
1.022600000000000e+10    -1.627700201391966e+01   -1.445163388382924e+02   
1.022700000000000e+10    -1.628124157639006e+01   -1.446423176352689e+02   
1.022800000000000e+10    -1.628970399439798e+01   -1.448099327252092e+02   
1.022900000000000e+10    -1.630753936134230e+01   -1.450368895966592e+02   
1.023000000000000e+10    -1.630301823469828e+01   -1.451917734784849e+02   
1.023100000000000e+10    -1.630934902024073e+01   -1.453701799082878e+02   
1.023200000000000e+10    -1.633371401311000e+01   -1.455542847897570e+02   
1.023300000000000e+10    -1.634571091500273e+01   -1.456539949481437e+02   
1.023400000000000e+10    -1.635484781213450e+01   -1.458708592043664e+02   
1.023500000000000e+10    -1.639209288791719e+01   -1.458743075659328e+02   
1.023600000000000e+10    -1.636810624189322e+01   -1.460632056045603e+02   
1.023700000000000e+10    -1.639528346930942e+01   -1.463028515049690e+02   
1.023800000000000e+10    -1.639944104339949e+01   -1.463532831018526e+02   
1.023900000000000e+10    -1.641251674808504e+01   -1.466624850746127e+02   
1.024000000000000e+10    -1.644135867170916e+01   -1.466916982624585e+02   
1.024100000000000e+10    -1.642724218782941e+01   -1.467646214984540e+02   
1.024200000000000e+10    -1.644421169413392e+01   -1.470047436136716e+02   
1.024300000000000e+10    -1.646867437482118e+01   -1.471219461835503e+02   
1.024400000000000e+10    -1.648159812517193e+01   -1.473057644145734e+02   
1.024500000000000e+10    -1.647761154523987e+01   -1.474459782291371e+02   
1.024600000000000e+10    -1.649649854137633e+01   -1.476558563596686e+02   
1.024700000000000e+10    -1.650794046081249e+01   -1.477771301741773e+02   
1.024800000000000e+10    -1.652217372019606e+01   -1.478356584996676e+02   
1.024900000000000e+10    -1.655521257168926e+01   -1.480597355847749e+02   
1.025000000000000e+10    -1.655034246693643e+01   -1.482372566487894e+02   
1.025100000000000e+10    -1.655029497639104e+01   -1.482263109585246e+02   
1.025200000000000e+10    -1.658041690668608e+01   -1.485004528682479e+02   
1.025300000000000e+10    -1.657289536019090e+01   -1.485782695637424e+02   
1.025400000000000e+10    -1.659285634806391e+01   -1.487063021929346e+02   
1.025500000000000e+10    -1.662586191150127e+01   -1.488414561462739e+02   
1.025600000000000e+10    -1.663396550003369e+01   -1.490019519853019e+02   
