[Version] 2.0
! Rohde & Schwarz Vector Network Analyzer
! Rohde-Schwarz,ZNL20-2Port,1323001220200009,1.71.1.10-23.02.1.238
! 
! Port Assignments:
! Nominal Port -> Actual Test Port
! --------------------------------
!   1 -> 1

! Created: GMT 2024-08-27 13:49:18

# Hz S DB R 50

[Number of Ports] 1
[Number of Frequencies] 2001

[Network Data] 
! freq[Hz]               S11[mag dB]              S11[ang]                 
1.000000000000000e+10    -2.028828467630770e+01   -1.243959291573602e+02   
1.000100000000000e+10    -2.028329706880649e+01   -1.240550206763442e+02   
1.000200000000000e+10    -2.025519726640574e+01   -1.236551655628258e+02   
1.000300000000000e+10    -2.026321619316927e+01   -1.235159315679795e+02   
1.000400000000000e+10    -2.024757456068350e+01   -1.234524980691540e+02   
1.000500000000000e+10    -2.022390681706957e+01   -1.232600910117251e+02   
1.000600000000000e+10    -2.022221145310446e+01   -1.229981432901116e+02   
1.000700000000000e+10    -2.020385832762178e+01   -1.227389433000453e+02   
1.000800000000000e+10    -2.019291399086374e+01   -1.225923022496660e+02   
1.000900000000000e+10    -2.019841405527252e+01   -1.225651675301359e+02   
1.001000000000000e+10    -2.017480583399055e+01   -1.221989898208002e+02   
1.001100000000000e+10    -2.016834993131135e+01   -1.221074172172199e+02   
1.001200000000000e+10    -2.014337370545230e+01   -1.219710895909268e+02   
1.001300000000000e+10    -2.016065840051660e+01   -1.218252760280854e+02   
1.001400000000000e+10    -2.013174489941406e+01   -1.218171038958379e+02   
1.001500000000000e+10    -2.011706327003532e+01   -1.216191449110570e+02   
1.001600000000000e+10    -2.007463419917226e+01   -1.214789914564406e+02   
1.001700000000000e+10    -2.009038365952496e+01   -1.214554147399653e+02   
1.001800000000000e+10    -2.006285428895737e+01   -1.213705570013455e+02   
1.001900000000000e+10    -2.004342632418094e+01   -1.212482410435360e+02   
1.002000000000000e+10    -2.004042717547073e+01   -1.212658170524053e+02   
1.002100000000000e+10    -2.001413531807749e+01   -1.212157356028695e+02   
1.002200000000000e+10    -1.998441226169216e+01   -1.210661109402763e+02   
1.002300000000000e+10    -1.995116653359653e+01   -1.210624792439476e+02   
1.002400000000000e+10    -1.992113547609531e+01   -1.210728896973474e+02   
1.002500000000000e+10    -1.992413612858070e+01   -1.208627633059662e+02   
1.002600000000000e+10    -1.991395782563639e+01   -1.210550801277750e+02   
1.002700000000000e+10    -1.988475883476454e+01   -1.210477325957976e+02   
1.002800000000000e+10    -1.986121707565722e+01   -1.208996481139461e+02   
1.002900000000000e+10    -1.982283070113093e+01   -1.207944883126435e+02   
1.003000000000000e+10    -1.982005493598619e+01   -1.206562220669110e+02   
1.003100000000000e+10    -1.977573608047156e+01   -1.208895929969851e+02   
1.003200000000000e+10    -1.976310816548700e+01   -1.208513277490225e+02   
1.003300000000000e+10    -1.971204026020025e+01   -1.208731864765413e+02   
1.003400000000000e+10    -1.967990052922491e+01   -1.207550073214103e+02   
1.003500000000000e+10    -1.967194559990059e+01   -1.207181007629626e+02   
1.003600000000000e+10    -1.959540309608454e+01   -1.206478911764388e+02   
1.003700000000000e+10    -1.959359063883628e+01   -1.206871815348636e+02   
1.003800000000000e+10    -1.956198227009920e+01   -1.207061420819895e+02   
1.003900000000000e+10    -1.954689932772486e+01   -1.206918905747938e+02   
1.004000000000000e+10    -1.949509078520618e+01   -1.208207289664893e+02   
1.004100000000000e+10    -1.947673422536811e+01   -1.206897082999922e+02   
1.004200000000000e+10    -1.941901563696984e+01   -1.207303105538843e+02   
1.004300000000000e+10    -1.939811160434592e+01   -1.206935308283812e+02   
1.004400000000000e+10    -1.937623882494459e+01   -1.207445760806165e+02   
1.004500000000000e+10    -1.931490440925315e+01   -1.206883103518403e+02   
1.004600000000000e+10    -1.928955621127329e+01   -1.206253687541703e+02   
1.004700000000000e+10    -1.925515303856456e+01   -1.206466594294085e+02   
1.004800000000000e+10    -1.920967969509294e+01   -1.206132133657019e+02   
1.004900000000000e+10    -1.916600117040774e+01   -1.206437468769630e+02   
1.005000000000000e+10    -1.914308548096772e+01   -1.207337626378067e+02   
1.005100000000000e+10    -1.907169666353649e+01   -1.207242497524221e+02   
1.005200000000000e+10    -1.903620134575400e+01   -1.205345162456214e+02   
1.005300000000000e+10    -1.900421231203969e+01   -1.206134953521557e+02   
1.005400000000000e+10    -1.896380508035970e+01   -1.206467133909362e+02   
1.005500000000000e+10    -1.892422579476074e+01   -1.206024487021428e+02   
1.005600000000000e+10    -1.890868296848863e+01   -1.205314878119525e+02   
1.005700000000000e+10    -1.884046722860022e+01   -1.205229604485975e+02   
1.005800000000000e+10    -1.880619914713676e+01   -1.205865131043413e+02   
1.005900000000000e+10    -1.877674201923113e+01   -1.206372048286803e+02   
1.006000000000000e+10    -1.871685775581060e+01   -1.205850159814158e+02   
1.006100000000000e+10    -1.868702382841292e+01   -1.204567744963439e+02   
1.006200000000000e+10    -1.865045775700088e+01   -1.204959765740677e+02   
1.006300000000000e+10    -1.861622322570905e+01   -1.204392901265887e+02   
1.006400000000000e+10    -1.856402127326544e+01   -1.204979606614937e+02   
1.006500000000000e+10    -1.853475821072889e+01   -1.204487944175320e+02   
1.006600000000000e+10    -1.849582474259695e+01   -1.203350569936419e+02   
1.006700000000000e+10    -1.846935000391368e+01   -1.204571992970029e+02   
1.006800000000000e+10    -1.841047552838011e+01   -1.203375526465393e+02   
1.006900000000000e+10    -1.837449682986160e+01   -1.202530233253451e+02   
1.007000000000000e+10    -1.833854770064665e+01   -1.203385610086292e+02   
1.007100000000000e+10    -1.829429605377773e+01   -1.203959698269029e+02   
1.007200000000000e+10    -1.825720725832968e+01   -1.202542968741087e+02   
1.007300000000000e+10    -1.824059142468689e+01   -1.203888048784670e+02   
1.007400000000000e+10    -1.817654418523208e+01   -1.203049243963320e+02   
1.007500000000000e+10    -1.816909975488052e+01   -1.202564904834545e+02   
1.007600000000000e+10    -1.814257783913257e+01   -1.202448015891627e+02   
1.007700000000000e+10    -1.808590404365743e+01   -1.202549497147645e+02   
1.007800000000000e+10    -1.804913266377521e+01   -1.202008416403595e+02   
1.007900000000000e+10    -1.802126502129873e+01   -1.202873842069238e+02   
1.008000000000000e+10    -1.801318953694629e+01   -1.201962326721571e+02   
1.008100000000000e+10    -1.795579874686112e+01   -1.201917037779700e+02   
1.008200000000000e+10    -1.790982464945869e+01   -1.201738114777213e+02   
1.008300000000000e+10    -1.789292274850261e+01   -1.202361301584821e+02   
1.008400000000000e+10    -1.788430250540101e+01   -1.201911997150801e+02   
1.008500000000000e+10    -1.783425784889278e+01   -1.202579223100215e+02   
1.008600000000000e+10    -1.780299073888411e+01   -1.202455313426774e+02   
1.008700000000000e+10    -1.777713189710927e+01   -1.203256475794515e+02   
1.008800000000000e+10    -1.774773536903148e+01   -1.203792441395985e+02   
1.008900000000000e+10    -1.773388387763693e+01   -1.202925545416212e+02   
1.009000000000000e+10    -1.770530341437897e+01   -1.203991096392155e+02   
1.009100000000000e+10    -1.768229315721469e+01   -1.202941464354880e+02   
1.009200000000000e+10    -1.766740325785955e+01   -1.204729520424459e+02   
1.009300000000000e+10    -1.762221142328979e+01   -1.206023907663894e+02   
1.009400000000000e+10    -1.761370418035544e+01   -1.205830324317554e+02   
1.009500000000000e+10    -1.757877958892299e+01   -1.205415360816747e+02   
1.009600000000000e+10    -1.754909184740239e+01   -1.206605655150218e+02   
1.009700000000000e+10    -1.753804058919867e+01   -1.207199770337804e+02   
1.009800000000000e+10    -1.750376775308431e+01   -1.208520623044983e+02   
1.009900000000000e+10    -1.748562814972760e+01   -1.207590565624155e+02   
1.010000000000000e+10    -1.747093773104016e+01   -1.210287678399918e+02   
1.010100000000000e+10    -1.745677809427406e+01   -1.209768921595348e+02   
1.010200000000000e+10    -1.742036306265393e+01   -1.211289908488475e+02   
1.010300000000000e+10    -1.740435020225081e+01   -1.210941443175622e+02   
1.010400000000000e+10    -1.737857130277310e+01   -1.212724271503039e+02   
1.010500000000000e+10    -1.736217739019964e+01   -1.215280574703359e+02   
1.010600000000000e+10    -1.734434269350703e+01   -1.214976052231313e+02   
1.010700000000000e+10    -1.731684590052560e+01   -1.216034534022626e+02   
1.010800000000000e+10    -1.728790950782985e+01   -1.219064706598200e+02   
1.010900000000000e+10    -1.726453767085551e+01   -1.219497749152180e+02   
1.011000000000000e+10    -1.724234237623423e+01   -1.221412524380707e+02   
1.011100000000000e+10    -1.722620210484751e+01   -1.222241607316434e+02   
1.011200000000000e+10    -1.720945925506415e+01   -1.224811308642756e+02   
1.011300000000000e+10    -1.719249241066884e+01   -1.224770150313109e+02   
1.011400000000000e+10    -1.714250288328720e+01   -1.226573062146766e+02   
1.011500000000000e+10    -1.713656116411037e+01   -1.228217965136202e+02   
1.011600000000000e+10    -1.712508017040030e+01   -1.231017241426353e+02   
1.011700000000000e+10    -1.708362187903954e+01   -1.231342066183770e+02   
1.011800000000000e+10    -1.707953830101664e+01   -1.233913937443904e+02   
1.011900000000000e+10    -1.703934431625363e+01   -1.236303311059427e+02   
1.012000000000000e+10    -1.700715139897949e+01   -1.237681101578670e+02   
1.012100000000000e+10    -1.700501618583156e+01   -1.239862398523782e+02   
1.012200000000000e+10    -1.696884480062830e+01   -1.241457261008291e+02   
1.012300000000000e+10    -1.695089299600899e+01   -1.244219010068252e+02   
1.012400000000000e+10    -1.691895010235383e+01   -1.244946218246247e+02   
1.012500000000000e+10    -1.690161754493969e+01   -1.246346384870361e+02   
1.012600000000000e+10    -1.687693515511272e+01   -1.248508028528891e+02   
1.012700000000000e+10    -1.684809360609652e+01   -1.251227610078519e+02   
1.012800000000000e+10    -1.683099841432810e+01   -1.252650830719555e+02   
1.012900000000000e+10    -1.679366237748012e+01   -1.254647281072018e+02   
1.013000000000000e+10    -1.679308444118928e+01   -1.257066492559368e+02   
1.013100000000000e+10    -1.674663949897747e+01   -1.257634165519388e+02   
1.013200000000000e+10    -1.672089806372347e+01   -1.261085996114054e+02   
1.013300000000000e+10    -1.669006131346396e+01   -1.262244154193312e+02   
1.013400000000000e+10    -1.667947681845861e+01   -1.264945373155398e+02   
1.013500000000000e+10    -1.665184079092835e+01   -1.266694812686416e+02   
1.013600000000000e+10    -1.662377558962075e+01   -1.269219774024874e+02   
1.013700000000000e+10    -1.659774400347237e+01   -1.270076250639814e+02   
1.013800000000000e+10    -1.657656671633470e+01   -1.273489977167198e+02   
1.013900000000000e+10    -1.654310840505558e+01   -1.275174358464588e+02   
1.014000000000000e+10    -1.654599530589073e+01   -1.277122862425015e+02   
1.014100000000000e+10    -1.651887587768135e+01   -1.278940969356798e+02   
1.014200000000000e+10    -1.650412702295529e+01   -1.281433047054699e+02   
1.014300000000000e+10    -1.647073641623742e+01   -1.283197781944179e+02   
1.014400000000000e+10    -1.646590800025305e+01   -1.285578082870837e+02   
1.014500000000000e+10    -1.642738031357579e+01   -1.287437701909659e+02   
1.014600000000000e+10    -1.640428773792844e+01   -1.289352497637677e+02   
1.014700000000000e+10    -1.638753063653883e+01   -1.291380734276435e+02   
1.014800000000000e+10    -1.637342508268170e+01   -1.294212439514162e+02   
1.014900000000000e+10    -1.633572624232853e+01   -1.295069621993621e+02   
1.015000000000000e+10    -1.632987230178259e+01   -1.297891073134165e+02   
1.015100000000000e+10    -1.630198366584480e+01   -1.298987300385614e+02   
1.015200000000000e+10    -1.628731630347293e+01   -1.301144122847028e+02   
1.015300000000000e+10    -1.625493077621841e+01   -1.304036005549204e+02   
1.015400000000000e+10    -1.625583772497924e+01   -1.305858369801455e+02   
1.015500000000000e+10    -1.622845881278313e+01   -1.307528015910889e+02   
1.015600000000000e+10    -1.621432518206505e+01   -1.308464662165324e+02   
1.015700000000000e+10    -1.618653922022790e+01   -1.310560578121916e+02   
1.015800000000000e+10    -1.616389243542200e+01   -1.312417498434891e+02   
1.015900000000000e+10    -1.614346406321678e+01   -1.315376072016729e+02   
1.016000000000000e+10    -1.614396144329360e+01   -1.317802472352400e+02   
1.016100000000000e+10    -1.613524426217495e+01   -1.319196806907586e+02   
1.016200000000000e+10    -1.611910985171491e+01   -1.321214653785844e+02   
1.016300000000000e+10    -1.609522630143451e+01   -1.322817621865479e+02   
1.016400000000000e+10    -1.608673649368531e+01   -1.324444206854372e+02   
1.016500000000000e+10    -1.606512936556130e+01   -1.325980901039364e+02   
1.016600000000000e+10    -1.606580377648406e+01   -1.327980419439729e+02   
1.016700000000000e+10    -1.605268302654025e+01   -1.330566464563927e+02   
1.016800000000000e+10    -1.603296133018438e+01   -1.331686500897638e+02   
1.016900000000000e+10    -1.603402795136822e+01   -1.334460538304899e+02   
1.017000000000000e+10    -1.601563158870233e+01   -1.336384041318550e+02   
1.017100000000000e+10    -1.602024170781817e+01   -1.338905771093999e+02   
1.017200000000000e+10    -1.600524909668202e+01   -1.339580717306833e+02   
1.017300000000000e+10    -1.599464264129413e+01   -1.341316839721457e+02   
1.017400000000000e+10    -1.598415689482902e+01   -1.343459542486660e+02   
1.017500000000000e+10    -1.600755505177019e+01   -1.344938235260909e+02   
1.017600000000000e+10    -1.597075798780101e+01   -1.348141177283703e+02   
1.017700000000000e+10    -1.598023343917344e+01   -1.349763273911480e+02   
1.017800000000000e+10    -1.597557900012551e+01   -1.351161640776744e+02   
1.017900000000000e+10    -1.595777444878793e+01   -1.353447194998109e+02   
1.018000000000000e+10    -1.598127226971297e+01   -1.354768262315717e+02   
1.018100000000000e+10    -1.596597892759996e+01   -1.357038516985708e+02   
1.018200000000000e+10    -1.598695216698813e+01   -1.359052491299213e+02   
1.018300000000000e+10    -1.597621177446293e+01   -1.361469767248192e+02   
1.018400000000000e+10    -1.596262167351451e+01   -1.363592357877242e+02   
1.018500000000000e+10    -1.597177936514688e+01   -1.366168958138853e+02   
1.018600000000000e+10    -1.597257618736330e+01   -1.367725090150639e+02   
1.018700000000000e+10    -1.598608404011438e+01   -1.369715383801785e+02   
1.018800000000000e+10    -1.598575371352580e+01   -1.370786738957991e+02   
1.018900000000000e+10    -1.598162119673288e+01   -1.372675327485381e+02   
1.019000000000000e+10    -1.598659950762291e+01   -1.375226905160279e+02   
1.019100000000000e+10    -1.599006668303647e+01   -1.377558214740558e+02   
1.019200000000000e+10    -1.598111165643828e+01   -1.379814416854604e+02   
1.019300000000000e+10    -1.597635831492933e+01   -1.381533804452306e+02   
1.019400000000000e+10    -1.599180032159515e+01   -1.383704595038421e+02   
1.019500000000000e+10    -1.599093978706555e+01   -1.385181083879064e+02   
1.019600000000000e+10    -1.600270215428242e+01   -1.387682080056520e+02   
1.019700000000000e+10    -1.599848833940397e+01   -1.389872307489875e+02   
1.019800000000000e+10    -1.599563872410434e+01   -1.392650231206902e+02   
1.019900000000000e+10    -1.599834506484894e+01   -1.394006837013565e+02   
1.020000000000000e+10    -1.601831574562204e+01   -1.396637860703644e+02   
1.020100000000000e+10    -1.600543469153197e+01   -1.397732233230976e+02   
1.020200000000000e+10    -1.601839828304468e+01   -1.400223941591084e+02   
1.020300000000000e+10    -1.601101607968680e+01   -1.401040953510829e+02   
1.020400000000000e+10    -1.602719320602433e+01   -1.403310125771683e+02   
1.020500000000000e+10    -1.603182992542430e+01   -1.406158101282888e+02   
1.020600000000000e+10    -1.602559884534396e+01   -1.407971245258340e+02   
1.020700000000000e+10    -1.602177861428446e+01   -1.410540852624288e+02   
1.020800000000000e+10    -1.603127109623112e+01   -1.411897581063895e+02   
1.020900000000000e+10    -1.605771085017842e+01   -1.414104234203890e+02   
1.021000000000000e+10    -1.605968896148491e+01   -1.415975614386855e+02   
1.021100000000000e+10    -1.605590567955807e+01   -1.417884326428389e+02   
1.021200000000000e+10    -1.607807714137288e+01   -1.419325724878376e+02   
1.021300000000000e+10    -1.607794951243079e+01   -1.421572432833210e+02   
1.021400000000000e+10    -1.608472479730167e+01   -1.423193246912084e+02   
1.021500000000000e+10    -1.608447217764839e+01   -1.424459185036029e+02   
1.021600000000000e+10    -1.609160950118790e+01   -1.427278850844406e+02   
1.021700000000000e+10    -1.609868767394515e+01   -1.429127582506623e+02   
1.021800000000000e+10    -1.610346474199058e+01   -1.430459265753157e+02   
1.021900000000000e+10    -1.612078865093883e+01   -1.431527951049464e+02   
1.022000000000000e+10    -1.612665387683504e+01   -1.433849491248970e+02   
1.022100000000000e+10    -1.612191482138252e+01   -1.436068520043902e+02   
1.022200000000000e+10    -1.615511021139090e+01   -1.436514516225115e+02   
1.022300000000000e+10    -1.615568945788303e+01   -1.438430372633548e+02   
1.022400000000000e+10    -1.616758551726331e+01   -1.440500732337172e+02   
1.022500000000000e+10    -1.616932578066280e+01   -1.441608479794042e+02   
1.022600000000000e+10    -1.619600291281858e+01   -1.444521480073537e+02   
1.022700000000000e+10    -1.619867376563522e+01   -1.445809490687761e+02   
1.022800000000000e+10    -1.620789220439990e+01   -1.447428059123030e+02   
1.022900000000000e+10    -1.622315535387129e+01   -1.449788531539938e+02   
1.023000000000000e+10    -1.621945270791004e+01   -1.451501000905493e+02   
1.023100000000000e+10    -1.622602856364780e+01   -1.453514333433156e+02   
1.023200000000000e+10    -1.624858965012054e+01   -1.455323796735335e+02   
1.023300000000000e+10    -1.625939858555803e+01   -1.456426679910620e+02   
1.023400000000000e+10    -1.626957906370086e+01   -1.458733604785554e+02   
1.023500000000000e+10    -1.630447252448118e+01   -1.458978880730682e+02   
1.023600000000000e+10    -1.628226035948560e+01   -1.460873345723884e+02   
1.023700000000000e+10    -1.630702606442222e+01   -1.463387791851200e+02   
1.023800000000000e+10    -1.631280207334326e+01   -1.463997450909613e+02   
1.023900000000000e+10    -1.632691345817297e+01   -1.467178746584740e+02   
1.024000000000000e+10    -1.635301921758152e+01   -1.467559296684149e+02   
1.024100000000000e+10    -1.633850821256163e+01   -1.468540615683688e+02   
1.024200000000000e+10    -1.635751451549226e+01   -1.470929110842479e+02   
1.024300000000000e+10    -1.638047599380634e+01   -1.472058115186662e+02   
1.024400000000000e+10    -1.639430294910974e+01   -1.474034329844400e+02   
1.024500000000000e+10    -1.639243026797115e+01   -1.475393032300137e+02   
1.024600000000000e+10    -1.640927701702780e+01   -1.477710897350372e+02   
1.024700000000000e+10    -1.641943546914440e+01   -1.479002571598406e+02   
1.024800000000000e+10    -1.643426619438529e+01   -1.479643903526424e+02   
1.024900000000000e+10    -1.646793455463262e+01   -1.482033235953866e+02   
1.025000000000000e+10    -1.646246068090111e+01   -1.483962908458744e+02   
1.025100000000000e+10    -1.646214585176000e+01   -1.483946926126451e+02   
1.025200000000000e+10    -1.649348856941057e+01   -1.486706046178585e+02   
1.025300000000000e+10    -1.648570253076398e+01   -1.487570169791479e+02   
1.025400000000000e+10    -1.650404849811117e+01   -1.488988482609857e+02   
1.025500000000000e+10    -1.654043731124293e+01   -1.490510076397526e+02   
1.025600000000000e+10    -1.654764397977150e+01   -1.491970735242421e+02   
