[Version] 2.0
! Rohde & Schwarz Vector Network Analyzer
! Rohde-Schwarz,ZNL20-2Port,1323001220200009,1.71.1.10-23.02.1.238
! 
! Port Assignments:
! Nominal Port -> Actual Test Port
! --------------------------------
!   1 -> 1

! Created: GMT 2024-08-27 13:50:13

# Hz S DB R 50

[Number of Ports] 1
[Number of Frequencies] 2001

[Network Data] 
! freq[Hz]               S11[mag dB]              S11[ang]                 
1.000000000000000e+10    -2.053559287999033e+01   -1.262044843397215e+02   
1.000100000000000e+10    -2.053643707292215e+01   -1.257954929366442e+02   
1.000200000000000e+10    -2.051738025836176e+01   -1.253512150251148e+02   
1.000300000000000e+10    -2.053059974927491e+01   -1.252051632790870e+02   
1.000400000000000e+10    -2.051766324700655e+01   -1.250938244394971e+02   
1.000500000000000e+10    -2.049652726583880e+01   -1.248632608108627e+02   
1.000600000000000e+10    -2.050366630531148e+01   -1.245576618867798e+02   
1.000700000000000e+10    -2.048831387921989e+01   -1.242523199475030e+02   
1.000800000000000e+10    -2.048198051238821e+01   -1.240586278717609e+02   
1.000900000000000e+10    -2.049376635643804e+01   -1.239963270303962e+02   
1.001000000000000e+10    -2.047282012052990e+01   -1.235853222829007e+02   
1.001100000000000e+10    -2.047096641464346e+01   -1.234426242316452e+02   
1.001200000000000e+10    -2.044850308575011e+01   -1.232634124730463e+02   
1.001300000000000e+10    -2.047082240604482e+01   -1.230942581833788e+02   
1.001400000000000e+10    -2.044687827510694e+01   -1.230508720643732e+02   
1.001500000000000e+10    -2.043401927290753e+01   -1.227910094954624e+02   
1.001600000000000e+10    -2.039608265770002e+01   -1.226005261074349e+02   
1.001700000000000e+10    -2.041373160548475e+01   -1.225752188892773e+02   
1.001800000000000e+10    -2.039050909809111e+01   -1.224323473718888e+02   
1.001900000000000e+10    -2.037428659706886e+01   -1.222569513988997e+02   
1.002000000000000e+10    -2.036959521080797e+01   -1.222497924462865e+02   
1.002100000000000e+10    -2.034837935151612e+01   -1.221167631434016e+02   
1.002200000000000e+10    -2.031790547757035e+01   -1.219242861918033e+02   
1.002300000000000e+10    -2.028809384673689e+01   -1.218863708491756e+02   
1.002400000000000e+10    -2.025505482594645e+01   -1.218559046919527e+02   
1.002500000000000e+10    -2.025933441956828e+01   -1.215965824581964e+02   
1.002600000000000e+10    -2.025028498584969e+01   -1.217667140104587e+02   
1.002700000000000e+10    -2.021957376456364e+01   -1.217318121348601e+02   
1.002800000000000e+10    -2.019879177145093e+01   -1.215162443364929e+02   
1.002900000000000e+10    -2.016295003427674e+01   -1.213782912387841e+02   
1.003000000000000e+10    -2.016042032013578e+01   -1.211837390058674e+02   
1.003100000000000e+10    -2.011556054153058e+01   -1.214045210647182e+02   
1.003200000000000e+10    -2.010307894092410e+01   -1.213274717292031e+02   
1.003300000000000e+10    -2.004905414699297e+01   -1.213246234983133e+02   
1.003400000000000e+10    -2.001661017063213e+01   -1.211485019468708e+02   
1.003500000000000e+10    -2.001354314859435e+01   -1.210632195769776e+02   
1.003600000000000e+10    -1.993069471383213e+01   -1.209626657023597e+02   
1.003700000000000e+10    -1.993350916954255e+01   -1.209378920136333e+02   
1.003800000000000e+10    -1.990420962586835e+01   -1.209450002181048e+02   
1.003900000000000e+10    -1.988493373390738e+01   -1.208855903306185e+02   
1.004000000000000e+10    -1.982997386885094e+01   -1.210029711283522e+02   
1.004100000000000e+10    -1.981217926113600e+01   -1.208238673606218e+02   
1.004200000000000e+10    -1.975081940299082e+01   -1.208383415415297e+02   
1.004300000000000e+10    -1.972904084125522e+01   -1.207398683290059e+02   
1.004400000000000e+10    -1.970638843478394e+01   -1.207637218818859e+02   
1.004500000000000e+10    -1.964308667236985e+01   -1.206993867248852e+02   
1.004600000000000e+10    -1.961633844490829e+01   -1.205701605362254e+02   
1.004700000000000e+10    -1.957969602954071e+01   -1.205817246235731e+02   
1.004800000000000e+10    -1.953107909509477e+01   -1.205217959319325e+02   
1.004900000000000e+10    -1.948587557292078e+01   -1.205221304799853e+02   
1.005000000000000e+10    -1.946351483973164e+01   -1.205773503176494e+02   
1.005100000000000e+10    -1.938939100488867e+01   -1.205594830869482e+02   
1.005200000000000e+10    -1.935217387826575e+01   -1.203201870518286e+02   
1.005300000000000e+10    -1.931899106588384e+01   -1.203722151703581e+02   
1.005400000000000e+10    -1.927715938799515e+01   -1.203701461244681e+02   
1.005500000000000e+10    -1.923179703619098e+01   -1.202948812725516e+02   
1.005600000000000e+10    -1.921463186588960e+01   -1.201873864662684e+02   
1.005700000000000e+10    -1.914354133965676e+01   -1.201604801539918e+02   
1.005800000000000e+10    -1.910858543239694e+01   -1.201965637553885e+02   
1.005900000000000e+10    -1.907681755522323e+01   -1.202135749458224e+02   
1.006000000000000e+10    -1.901345638196844e+01   -1.201336374539359e+02   
1.006100000000000e+10    -1.898459976875090e+01   -1.199726370897820e+02   
1.006200000000000e+10    -1.894366721303916e+01   -1.200031282857868e+02   
1.006300000000000e+10    -1.890535654242705e+01   -1.198998462736329e+02   
1.006400000000000e+10    -1.884847448077857e+01   -1.199312766887897e+02   
1.006500000000000e+10    -1.881666146000743e+01   -1.198795640613079e+02   
1.006600000000000e+10    -1.877627093959976e+01   -1.197150495701710e+02   
1.006700000000000e+10    -1.874689558033228e+01   -1.198266242485221e+02   
1.006800000000000e+10    -1.868688765948453e+01   -1.196750967732383e+02   
1.006900000000000e+10    -1.864715900719098e+01   -1.195746533175651e+02   
1.007000000000000e+10    -1.860618726709345e+01   -1.196121299247218e+02   
1.007100000000000e+10    -1.856172870566251e+01   -1.196816673524318e+02   
1.007200000000000e+10    -1.852055553940973e+01   -1.195162082391941e+02   
1.007300000000000e+10    -1.850099867241873e+01   -1.196173379985061e+02   
1.007400000000000e+10    -1.843449135780435e+01   -1.194896343000566e+02   
1.007500000000000e+10    -1.842232529979717e+01   -1.194313941700046e+02   
1.007600000000000e+10    -1.839284415647463e+01   -1.193896999154604e+02   
1.007700000000000e+10    -1.833084968664052e+01   -1.194050041790827e+02   
1.007800000000000e+10    -1.829338379814909e+01   -1.193026255148785e+02   
1.007900000000000e+10    -1.826273077876803e+01   -1.193800021398847e+02   
1.008000000000000e+10    -1.824923690926080e+01   -1.192672443808473e+02   
1.008100000000000e+10    -1.819074787879570e+01   -1.192531080427064e+02   
1.008200000000000e+10    -1.813745863415971e+01   -1.192198210453233e+02   
1.008300000000000e+10    -1.812151981007409e+01   -1.192608084865537e+02   
1.008400000000000e+10    -1.810925582060247e+01   -1.191913627297335e+02   
1.008500000000000e+10    -1.805712730387499e+01   -1.192498655648718e+02   
1.008600000000000e+10    -1.802011037504064e+01   -1.192021443552347e+02   
1.008700000000000e+10    -1.799077518912702e+01   -1.192699191391195e+02   
1.008800000000000e+10    -1.795834686236071e+01   -1.193228527713588e+02   
1.008900000000000e+10    -1.794368233293348e+01   -1.192249665963461e+02   
1.009000000000000e+10    -1.791305412067208e+01   -1.193279100427971e+02   
1.009100000000000e+10    -1.788581565896526e+01   -1.191942105678353e+02   
1.009200000000000e+10    -1.786846254494891e+01   -1.193612670637702e+02   
1.009300000000000e+10    -1.781690986709955e+01   -1.194883979528341e+02   
1.009400000000000e+10    -1.780838992213502e+01   -1.194558067941433e+02   
1.009500000000000e+10    -1.777241797062072e+01   -1.194034299763251e+02   
1.009600000000000e+10    -1.774005271931872e+01   -1.194981107618864e+02   
1.009700000000000e+10    -1.772457528191595e+01   -1.195653460877561e+02   
1.009800000000000e+10    -1.768799723415867e+01   -1.196644198818594e+02   
1.009900000000000e+10    -1.766730221897595e+01   -1.195691463650574e+02   
1.010000000000000e+10    -1.765270087648807e+01   -1.198231203044967e+02   
1.010100000000000e+10    -1.763471649352852e+01   -1.197502988480732e+02   
1.010200000000000e+10    -1.759638575988080e+01   -1.198982243750656e+02   
1.010300000000000e+10    -1.757736599780288e+01   -1.198543106797479e+02   
1.010400000000000e+10    -1.755111076784875e+01   -1.200225332844264e+02   
1.010500000000000e+10    -1.753165409029036e+01   -1.202652860071055e+02   
1.010600000000000e+10    -1.751247455243429e+01   -1.202088844408405e+02   
1.010700000000000e+10    -1.748087995898142e+01   -1.202915778610002e+02   
1.010800000000000e+10    -1.745104999876365e+01   -1.205962146870219e+02   
1.010900000000000e+10    -1.742535888983521e+01   -1.206375871632789e+02   
1.011000000000000e+10    -1.740302109702545e+01   -1.208109650632771e+02   
1.011100000000000e+10    -1.738244844295722e+01   -1.208847818917065e+02   
1.011200000000000e+10    -1.736530163941394e+01   -1.211229771264841e+02   
1.011300000000000e+10    -1.734444215291385e+01   -1.211114540417306e+02   
1.011400000000000e+10    -1.729152315546651e+01   -1.212836073566284e+02   
1.011500000000000e+10    -1.728449846646475e+01   -1.214097715870977e+02   
1.011600000000000e+10    -1.727138578271320e+01   -1.216803003391011e+02   
1.011700000000000e+10    -1.722721209099958e+01   -1.217274344265573e+02   
1.011800000000000e+10    -1.722132498360395e+01   -1.219604512979353e+02   
1.011900000000000e+10    -1.717905295349063e+01   -1.221707562254778e+02   
1.012000000000000e+10    -1.714276692999196e+01   -1.222978609282699e+02   
1.012100000000000e+10    -1.713922884572203e+01   -1.225159261744567e+02   
1.012200000000000e+10    -1.710011251916569e+01   -1.226606512692060e+02   
1.012300000000000e+10    -1.708141504075938e+01   -1.229213653453061e+02   
1.012400000000000e+10    -1.704623884905197e+01   -1.229931268870986e+02   
1.012500000000000e+10    -1.702674280401908e+01   -1.231153350119879e+02   
1.012600000000000e+10    -1.699818262638699e+01   -1.233195861469561e+02   
1.012700000000000e+10    -1.696843723698388e+01   -1.235913566284682e+02   
1.012800000000000e+10    -1.694526701040030e+01   -1.237186793322927e+02   
1.012900000000000e+10    -1.690786518104025e+01   -1.239116737243198e+02   
1.013000000000000e+10    -1.690688037563568e+01   -1.241347600833200e+02   
1.013100000000000e+10    -1.685579600068390e+01   -1.241940082967180e+02   
1.013200000000000e+10    -1.682905452039479e+01   -1.245258087158410e+02   
1.013300000000000e+10    -1.679501329542885e+01   -1.246290670257426e+02   
1.013400000000000e+10    -1.678080176284595e+01   -1.248801042817293e+02   
1.013500000000000e+10    -1.675009295247789e+01   -1.250387842433522e+02   
1.013600000000000e+10    -1.672341675904059e+01   -1.252961887971803e+02   
1.013700000000000e+10    -1.669031606141115e+01   -1.253571812551763e+02   
1.013800000000000e+10    -1.666674375227347e+01   -1.256822958818108e+02   
1.013900000000000e+10    -1.663154415144905e+01   -1.258518690732237e+02   
1.014000000000000e+10    -1.662990644756140e+01   -1.260327640540607e+02   
1.014100000000000e+10    -1.659888913369767e+01   -1.262107045732050e+02   
1.014200000000000e+10    -1.658088492585960e+01   -1.264410062375133e+02   
1.014300000000000e+10    -1.654520429070106e+01   -1.266013601569915e+02   
1.014400000000000e+10    -1.653748212309466e+01   -1.268421484741354e+02   
1.014500000000000e+10    -1.649479831062183e+01   -1.270054202050412e+02   
1.014600000000000e+10    -1.647011758577993e+01   -1.271966413936656e+02   
1.014700000000000e+10    -1.645063208461423e+01   -1.273810067988684e+02   
1.014800000000000e+10    -1.643159671011378e+01   -1.276611582169346e+02   
1.014900000000000e+10    -1.638948950354242e+01   -1.277224514870300e+02   
1.015000000000000e+10    -1.638066419366892e+01   -1.280061091448821e+02   
1.015100000000000e+10    -1.634880954971350e+01   -1.281017422087914e+02   
1.015200000000000e+10    -1.633140400879172e+01   -1.283209425544982e+02   
1.015300000000000e+10    -1.629402345594355e+01   -1.286046458960097e+02   
1.015400000000000e+10    -1.629208376636996e+01   -1.287682624608039e+02   
1.015500000000000e+10    -1.626037298235524e+01   -1.289315774915161e+02   
1.015600000000000e+10    -1.623937973245369e+01   -1.290238289528032e+02   
1.015700000000000e+10    -1.620951899963021e+01   -1.292217377231745e+02   
1.015800000000000e+10    -1.618210354240806e+01   -1.294010897927985e+02   
1.015900000000000e+10    -1.616065545866178e+01   -1.297050355174350e+02   
1.016000000000000e+10    -1.615363799726422e+01   -1.299462628379804e+02   
1.016100000000000e+10    -1.614175782994690e+01   -1.300681753856645e+02   
1.016200000000000e+10    -1.612117653046822e+01   -1.302658376577606e+02   
1.016300000000000e+10    -1.609249030470982e+01   -1.304353331143203e+02   
1.016400000000000e+10    -1.607837661393805e+01   -1.305979010675976e+02   
1.016500000000000e+10    -1.605175786884531e+01   -1.307461681459645e+02   
1.016600000000000e+10    -1.604891017576691e+01   -1.309454146899685e+02   
1.016700000000000e+10    -1.603082352011556e+01   -1.311994494254581e+02   
1.016800000000000e+10    -1.600595622806977e+01   -1.313175320600381e+02   
1.016900000000000e+10    -1.600138425073404e+01   -1.315894194612520e+02   
1.017000000000000e+10    -1.597825151542513e+01   -1.317767219211229e+02   
1.017100000000000e+10    -1.598105317161602e+01   -1.320394273819905e+02   
1.017200000000000e+10    -1.595831470529068e+01   -1.321021628175985e+02   
1.017300000000000e+10    -1.594349032663011e+01   -1.322822842145198e+02   
1.017400000000000e+10    -1.592689699791324e+01   -1.324981997612600e+02   
1.017500000000000e+10    -1.594532020806730e+01   -1.326585118178869e+02   
1.017600000000000e+10    -1.590477756368036e+01   -1.329847486763983e+02   
1.017700000000000e+10    -1.590882384443267e+01   -1.331578843539773e+02   
1.017800000000000e+10    -1.589845096086820e+01   -1.332936619320406e+02   
1.017900000000000e+10    -1.587791006953922e+01   -1.335341943330415e+02   
1.018000000000000e+10    -1.589706350459124e+01   -1.336490741970096e+02   
1.018100000000000e+10    -1.587580631972162e+01   -1.339075363598715e+02   
1.018200000000000e+10    -1.589323269188735e+01   -1.341059698650667e+02   
1.018300000000000e+10    -1.587625156324318e+01   -1.343647198027774e+02   
1.018400000000000e+10    -1.585863744557909e+01   -1.345854304442789e+02   
1.018500000000000e+10    -1.586384011760010e+01   -1.348549377223166e+02   
1.018600000000000e+10    -1.585833656203152e+01   -1.350179288047351e+02   
1.018700000000000e+10    -1.586552138160006e+01   -1.352323103455354e+02   
1.018800000000000e+10    -1.585940497938795e+01   -1.353518747614947e+02   
1.018900000000000e+10    -1.585047073576011e+01   -1.355817566384056e+02   
1.019000000000000e+10    -1.585345846693320e+01   -1.358273340655656e+02   
1.019100000000000e+10    -1.585262161951444e+01   -1.360737593649545e+02   
1.019200000000000e+10    -1.583667411574510e+01   -1.363189998862165e+02   
1.019300000000000e+10    -1.582972205419065e+01   -1.365007507458031e+02   
1.019400000000000e+10    -1.584044607603495e+01   -1.367468769094016e+02   
1.019500000000000e+10    -1.583691658266011e+01   -1.368997269742336e+02   
1.019600000000000e+10    -1.584187419461223e+01   -1.371847734664176e+02   
1.019700000000000e+10    -1.583318736037783e+01   -1.373968879649188e+02   
1.019800000000000e+10    -1.582774487856185e+01   -1.376955586774190e+02   
1.019900000000000e+10    -1.582850561059964e+01   -1.378630804141005e+02   
1.020000000000000e+10    -1.584110300514567e+01   -1.381329797726845e+02   
1.020100000000000e+10    -1.582541602257770e+01   -1.382728436417888e+02   
1.020200000000000e+10    -1.583470150862830e+01   -1.385212424562177e+02   
1.020300000000000e+10    -1.582182975538474e+01   -1.386389934284722e+02   
1.020400000000000e+10    -1.583476935021218e+01   -1.388857353619141e+02   
1.020500000000000e+10    -1.583726760194979e+01   -1.391741770988781e+02   
1.020600000000000e+10    -1.582624278256407e+01   -1.393963730297286e+02   
1.020700000000000e+10    -1.581932647125459e+01   -1.396871852497136e+02   
1.020800000000000e+10    -1.582665158055580e+01   -1.398425438933487e+02   
1.020900000000000e+10    -1.584837686884637e+01   -1.400844202791696e+02   
1.021000000000000e+10    -1.584714608660916e+01   -1.403001443060173e+02   
1.021100000000000e+10    -1.584044000501707e+01   -1.405132463989237e+02   
1.021200000000000e+10    -1.585924091281609e+01   -1.406897740391549e+02   
1.021300000000000e+10    -1.585593389126027e+01   -1.409231166769706e+02   
1.021400000000000e+10    -1.586106112846369e+01   -1.411191553694146e+02   
1.021500000000000e+10    -1.585749242808196e+01   -1.412804193688972e+02   
1.021600000000000e+10    -1.586356795301749e+01   -1.415763705895257e+02   
1.021700000000000e+10    -1.586743556093706e+01   -1.417812786168596e+02   
1.021800000000000e+10    -1.587081670232835e+01   -1.419486973343745e+02   
1.021900000000000e+10    -1.588421513096491e+01   -1.420909714825122e+02   
1.022000000000000e+10    -1.589000144617667e+01   -1.423440284172452e+02   
1.022100000000000e+10    -1.588238617510801e+01   -1.425994292084153e+02   
1.022200000000000e+10    -1.591219032155524e+01   -1.426773567424271e+02   
1.022300000000000e+10    -1.591206268378599e+01   -1.428951165071113e+02   
1.022400000000000e+10    -1.592206870946745e+01   -1.431363872492383e+02   
1.022500000000000e+10    -1.592121797326774e+01   -1.432638620628778e+02   
1.022600000000000e+10    -1.594741045964652e+01   -1.435703366159381e+02   
1.022700000000000e+10    -1.595005766993873e+01   -1.437385224183690e+02   
1.022800000000000e+10    -1.595660418528869e+01   -1.439208272095548e+02   
1.022900000000000e+10    -1.597152163965818e+01   -1.441699552784769e+02   
1.023000000000000e+10    -1.596541740702454e+01   -1.443721704623110e+02   
1.023100000000000e+10    -1.597057287870265e+01   -1.445968074001109e+02   
1.023200000000000e+10    -1.599237265978017e+01   -1.447994342138136e+02   
1.023300000000000e+10    -1.600350820299766e+01   -1.449352727238701e+02   
1.023400000000000e+10    -1.601198136370186e+01   -1.451815214543454e+02   
1.023500000000000e+10    -1.604690474968881e+01   -1.452495303283490e+02   
1.023600000000000e+10    -1.602357692586219e+01   -1.454626402490941e+02   
1.023700000000000e+10    -1.604864327203346e+01   -1.457383723843698e+02   
1.023800000000000e+10    -1.605238664565434e+01   -1.458410936167084e+02   
1.023900000000000e+10    -1.606676263433996e+01   -1.461639848216173e+02   
1.024000000000000e+10    -1.609394564912515e+01   -1.462256101664792e+02   
1.024100000000000e+10    -1.608159298812107e+01   -1.463546366984515e+02   
1.024200000000000e+10    -1.609733049701774e+01   -1.466144749617551e+02   
1.024300000000000e+10    -1.612170694285691e+01   -1.467606281053424e+02   
1.024400000000000e+10    -1.613473495305325e+01   -1.469745919834585e+02   
1.024500000000000e+10    -1.613324702248284e+01   -1.471446952229507e+02   
1.024600000000000e+10    -1.615071994049988e+01   -1.473808628687039e+02   
1.024700000000000e+10    -1.616085454588560e+01   -1.475553780216001e+02   
1.024800000000000e+10    -1.617520822046601e+01   -1.476352908574762e+02   
1.024900000000000e+10    -1.620965662501861e+01   -1.478879095826611e+02   
1.025000000000000e+10    -1.620486575567556e+01   -1.480967151558408e+02   
1.025100000000000e+10    -1.620747894405383e+01   -1.481127028737518e+02   
1.025200000000000e+10    -1.623473400508544e+01   -1.484153000695730e+02   
1.025300000000000e+10    -1.622904919328612e+01   -1.485259663703403e+02   
1.025400000000000e+10    -1.624900804285864e+01   -1.486822117853342e+02   
1.025500000000000e+10    -1.628340552079595e+01   -1.488501830867114e+02   
1.025600000000000e+10    -1.629208702676257e+01   -1.490218901275979e+02   
