[Version] 2.0
! Rohde & Schwarz Vector Network Analyzer
! Rohde-Schwarz,ZNL20-2Port,1323001220200009,1.71.1.10-23.02.1.238
! 
! Port Assignments:
! Nominal Port -> Actual Test Port
! --------------------------------
!   1 -> 1

! Created: GMT 2024-08-27 13:51:41

# Hz S DB R 50

[Number of Ports] 1
[Number of Frequencies] 2001

[Network Data] 
! freq[Hz]               S11[mag dB]              S11[ang]                 
1.000000000000000e+10    -2.079222484523264e+01   -1.317567069051628e+02   
1.000100000000000e+10    -2.081514583305087e+01   -1.313224261861756e+02   
1.000200000000000e+10    -2.081790271590073e+01   -1.308010882489949e+02   
1.000300000000000e+10    -2.084934062760136e+01   -1.305891945072400e+02   
1.000400000000000e+10    -2.085402792580169e+01   -1.304504967189771e+02   
1.000500000000000e+10    -2.085303434093644e+01   -1.301606111435536e+02   
1.000600000000000e+10    -2.087564375026019e+01   -1.298001803414857e+02   
1.000700000000000e+10    -2.087867516085289e+01   -1.293865951109784e+02   
1.000800000000000e+10    -2.089298374855547e+01   -1.291503318360732e+02   
1.000900000000000e+10    -2.092014411827353e+01   -1.290196890992776e+02   
1.001000000000000e+10    -2.091435084597602e+01   -1.285066121024672e+02   
1.001100000000000e+10    -2.092795775063976e+01   -1.283057193821994e+02   
1.001200000000000e+10    -2.092083380028122e+01   -1.280599786991304e+02   
1.001300000000000e+10    -2.096212851109915e+01   -1.278124530689268e+02   
1.001400000000000e+10    -2.094423578441459e+01   -1.276798545888559e+02   
1.001500000000000e+10    -2.094878565239753e+01   -1.273357505230776e+02   
1.001600000000000e+10    -2.092115720945564e+01   -1.270613163750979e+02   
1.001700000000000e+10    -2.095102138232350e+01   -1.269427141912966e+02   
1.001800000000000e+10    -2.093679634584591e+01   -1.267366690835423e+02   
1.001900000000000e+10    -2.093589728151908e+01   -1.264375160468217e+02   
1.002000000000000e+10    -2.094133863217923e+01   -1.263455040144311e+02   
1.002100000000000e+10    -2.092656741588513e+01   -1.261697534175435e+02   
1.002200000000000e+10    -2.090715625806084e+01   -1.258577335180699e+02   
1.002300000000000e+10    -2.088087759929475e+01   -1.257222696761253e+02   
1.002400000000000e+10    -2.085599742407413e+01   -1.255916548671913e+02   
1.002500000000000e+10    -2.086802912655761e+01   -1.252515961791730e+02   
1.002600000000000e+10    -2.086683517294423e+01   -1.253781223874723e+02   
1.002700000000000e+10    -2.084240786064996e+01   -1.252335353557952e+02   
1.002800000000000e+10    -2.082767070443223e+01   -1.249125409831820e+02   
1.002900000000000e+10    -2.079655421869166e+01   -1.246831279062986e+02   
1.003000000000000e+10    -2.080090720736304e+01   -1.243858985835272e+02   
1.003100000000000e+10    -2.075440822304614e+01   -1.245388365156153e+02   
1.003200000000000e+10    -2.074924081646016e+01   -1.243700930844664e+02   
1.003300000000000e+10    -2.069432667061146e+01   -1.242616073847375e+02   
1.003400000000000e+10    -2.066720799638970e+01   -1.240126998773856e+02   
1.003500000000000e+10    -2.066576796672854e+01   -1.238586496679513e+02   
1.003600000000000e+10    -2.058563292662251e+01   -1.236530583046889e+02   
1.003700000000000e+10    -2.059143738771689e+01   -1.235557302666020e+02   
1.003800000000000e+10    -2.056104828227255e+01   -1.234949971862056e+02   
1.003900000000000e+10    -2.054680480775892e+01   -1.233399543488024e+02   
1.004000000000000e+10    -2.048971962882815e+01   -1.233835901061726e+02   
1.004100000000000e+10    -2.047543923516190e+01   -1.231438160559075e+02   
1.004200000000000e+10    -2.040986689589662e+01   -1.230634340589188e+02   
1.004300000000000e+10    -2.039145361344497e+01   -1.229270632772422e+02   
1.004400000000000e+10    -2.036935786042566e+01   -1.228488854510547e+02   
1.004500000000000e+10    -2.030294290597407e+01   -1.227201950235762e+02   
1.004600000000000e+10    -2.027992792210837e+01   -1.225267773340316e+02   
1.004700000000000e+10    -2.024174022981079e+01   -1.224776728406005e+02   
1.004800000000000e+10    -2.019399063032083e+01   -1.223306008912116e+02   
1.004900000000000e+10    -2.014777790512676e+01   -1.222768580871947e+02   
1.005000000000000e+10    -2.012445519333052e+01   -1.222887166282954e+02   
1.005100000000000e+10    -2.004601980936826e+01   -1.222143770018095e+02   
1.005200000000000e+10    -2.001194202056417e+01   -1.218777326639727e+02   
1.005300000000000e+10    -1.997803135988737e+01   -1.218997721382537e+02   
1.005400000000000e+10    -1.993838822005572e+01   -1.218187347649905e+02   
1.005500000000000e+10    -1.989286285455211e+01   -1.216701635192288e+02   
1.005600000000000e+10    -1.987631794369011e+01   -1.215274839849746e+02   
1.005700000000000e+10    -1.980124591670403e+01   -1.214163023622032e+02   
1.005800000000000e+10    -1.976750101461056e+01   -1.213990511206356e+02   
1.005900000000000e+10    -1.973821725340964e+01   -1.213672703096389e+02   
1.006000000000000e+10    -1.967296109512919e+01   -1.212279211682842e+02   
1.006100000000000e+10    -1.964449115551747e+01   -1.210023371785639e+02   
1.006200000000000e+10    -1.960725992987107e+01   -1.209460558984542e+02   
1.006300000000000e+10    -1.956683946102930e+01   -1.207934948871684e+02   
1.006400000000000e+10    -1.951047171205557e+01   -1.207883739957269e+02   
1.006500000000000e+10    -1.947626664038363e+01   -1.206425093166405e+02   
1.006600000000000e+10    -1.943422225281397e+01   -1.204324275194049e+02   
1.006700000000000e+10    -1.940767299721242e+01   -1.204889436396475e+02   
1.006800000000000e+10    -1.934444248562414e+01   -1.202451939925979e+02   
1.006900000000000e+10    -1.930623003284523e+01   -1.200640679831548e+02   
1.007000000000000e+10    -1.926352555128522e+01   -1.200843650040143e+02   
1.007100000000000e+10    -1.921597204667414e+01   -1.200638625461417e+02   
1.007200000000000e+10    -1.917596543136315e+01   -1.198281430506768e+02   
1.007300000000000e+10    -1.915887936394099e+01   -1.198939093703645e+02   
1.007400000000000e+10    -1.908911518499600e+01   -1.196887823727877e+02   
1.007500000000000e+10    -1.907747966258408e+01   -1.195421827544146e+02   
1.007600000000000e+10    -1.904987495558001e+01   -1.194402084098699e+02   
1.007700000000000e+10    -1.898499778820933e+01   -1.193747617086466e+02   
1.007800000000000e+10    -1.894231784664444e+01   -1.192042617211563e+02   
1.007900000000000e+10    -1.890967301841247e+01   -1.192288679676203e+02   
1.008000000000000e+10    -1.890215394574801e+01   -1.190348067182670e+02   
1.008100000000000e+10    -1.883601906904360e+01   -1.189584563745758e+02   
1.008200000000000e+10    -1.878071305227918e+01   -1.188439879320890e+02   
1.008300000000000e+10    -1.876291875063317e+01   -1.188526616650076e+02   
1.008400000000000e+10    -1.874867990181915e+01   -1.187038087386915e+02   
1.008500000000000e+10    -1.869293873823071e+01   -1.187090663172478e+02   
1.008600000000000e+10    -1.865600588249528e+01   -1.186091298636726e+02   
1.008700000000000e+10    -1.862369740177425e+01   -1.185982002081920e+02   
1.008800000000000e+10    -1.858827791885374e+01   -1.185829002049627e+02   
1.008900000000000e+10    -1.857241321240614e+01   -1.184241160432502e+02   
1.009000000000000e+10    -1.853970741422935e+01   -1.184514029235207e+02   
1.009100000000000e+10    -1.850939201591461e+01   -1.182724058284393e+02   
1.009200000000000e+10    -1.848971759355962e+01   -1.183743996288745e+02   
1.009300000000000e+10    -1.843646093561844e+01   -1.184328794777793e+02   
1.009400000000000e+10    -1.842326453025303e+01   -1.183520906171362e+02   
1.009500000000000e+10    -1.838551592987266e+01   -1.182265896797510e+02   
1.009600000000000e+10    -1.834623682553510e+01   -1.182867886242565e+02   
1.009700000000000e+10    -1.833010889947238e+01   -1.182945577402125e+02   
1.009800000000000e+10    -1.828958082190980e+01   -1.183676866947204e+02   
1.009900000000000e+10    -1.826410137910460e+01   -1.181869787980480e+02   
1.010000000000000e+10    -1.824742142696741e+01   -1.183853203314563e+02   
1.010100000000000e+10    -1.822856034159815e+01   -1.182665352003630e+02   
1.010200000000000e+10    -1.818671543290393e+01   -1.183780442867347e+02   
1.010300000000000e+10    -1.816255544229599e+01   -1.182539007169824e+02   
1.010400000000000e+10    -1.813423034661202e+01   -1.183633503198077e+02   
1.010500000000000e+10    -1.811162087662996e+01   -1.185610617596353e+02   
1.010600000000000e+10    -1.808901115013163e+01   -1.184518317934578e+02   
1.010700000000000e+10    -1.805375292413816e+01   -1.184979513790023e+02   
1.010800000000000e+10    -1.802176881640660e+01   -1.187625592665233e+02   
1.010900000000000e+10    -1.799092970838043e+01   -1.187310875747829e+02   
1.011000000000000e+10    -1.796448425544957e+01   -1.188523068835587e+02   
1.011100000000000e+10    -1.793979023080970e+01   -1.188609927311812e+02   
1.011200000000000e+10    -1.791867664955296e+01   -1.190633049572993e+02   
1.011300000000000e+10    -1.789207103815124e+01   -1.189869851006739e+02   
1.011400000000000e+10    -1.783587961078398e+01   -1.191149665760387e+02   
1.011500000000000e+10    -1.782288482016093e+01   -1.191915396669341e+02   
1.011600000000000e+10    -1.780627924405010e+01   -1.194250053419140e+02   
1.011700000000000e+10    -1.775475539621966e+01   -1.193956160133677e+02   
1.011800000000000e+10    -1.774475021693580e+01   -1.195908674072470e+02   
1.011900000000000e+10    -1.769723499634356e+01   -1.197756996263085e+02   
1.012000000000000e+10    -1.765688704522685e+01   -1.198563736195180e+02   
1.012100000000000e+10    -1.764807816484331e+01   -1.200129777774319e+02   
1.012200000000000e+10    -1.760295988773663e+01   -1.201338329746378e+02   
1.012300000000000e+10    -1.757867742111168e+01   -1.203529751037253e+02   
1.012400000000000e+10    -1.753540107379535e+01   -1.203691488410270e+02   
1.012500000000000e+10    -1.750849852650759e+01   -1.204450228328706e+02   
1.012600000000000e+10    -1.747629444596125e+01   -1.206351732958716e+02   
1.012700000000000e+10    -1.743785055198116e+01   -1.208572401709312e+02   
1.012800000000000e+10    -1.741107696266485e+01   -1.209395484115673e+02   
1.012900000000000e+10    -1.736710817150042e+01   -1.211097713204213e+02   
1.013000000000000e+10    -1.736017924827566e+01   -1.212980150169368e+02   
1.013100000000000e+10    -1.730055536453689e+01   -1.213080853649983e+02   
1.013200000000000e+10    -1.726840214337746e+01   -1.216181178004798e+02   
1.013300000000000e+10    -1.722701755745106e+01   -1.216659120333128e+02   
1.013400000000000e+10    -1.720769079906373e+01   -1.218997647636395e+02   
1.013500000000000e+10    -1.717100597521167e+01   -1.220246411721199e+02   
1.013600000000000e+10    -1.713484305548966e+01   -1.222612721634941e+02   
1.013700000000000e+10    -1.709542334777267e+01   -1.222873673417974e+02   
1.013800000000000e+10    -1.706660890897563e+01   -1.226073332697204e+02   
1.013900000000000e+10    -1.702331902654085e+01   -1.227138900966481e+02   
1.014000000000000e+10    -1.701601699981045e+01   -1.228681316710438e+02   
1.014100000000000e+10    -1.697786342016892e+01   -1.230187038284257e+02   
1.014200000000000e+10    -1.695294770548326e+01   -1.232241271266262e+02   
1.014300000000000e+10    -1.690984363587345e+01   -1.233640614419682e+02   
1.014400000000000e+10    -1.689522322143168e+01   -1.235673355401262e+02   
1.014500000000000e+10    -1.684588868138545e+01   -1.237184620921346e+02   
1.014600000000000e+10    -1.681212969302999e+01   -1.238671554216983e+02   
1.014700000000000e+10    -1.678692123198221e+01   -1.240352184819041e+02   
1.014800000000000e+10    -1.676189432859587e+01   -1.242834014203965e+02   
1.014900000000000e+10    -1.670974370067054e+01   -1.243315842239094e+02   
1.015000000000000e+10    -1.669408229235841e+01   -1.245874398369104e+02   
1.015100000000000e+10    -1.665548939552840e+01   -1.246484935178259e+02   
1.015200000000000e+10    -1.662863495899904e+01   -1.248518634964210e+02   
1.015300000000000e+10    -1.658545715426029e+01   -1.251211039631173e+02   
1.015400000000000e+10    -1.657628805728321e+01   -1.252557463110473e+02   
1.015500000000000e+10    -1.653718344824831e+01   -1.253976852549772e+02   
1.015600000000000e+10    -1.650924384131626e+01   -1.254685862885076e+02   
1.015700000000000e+10    -1.647044460225337e+01   -1.256433743263086e+02   
1.015800000000000e+10    -1.643558951973275e+01   -1.258093990837814e+02   
1.015900000000000e+10    -1.640564009162416e+01   -1.260952955978669e+02   
1.016000000000000e+10    -1.639472106638138e+01   -1.263081855933434e+02   
1.016100000000000e+10    -1.637314415460241e+01   -1.264194588882700e+02   
1.016200000000000e+10    -1.634681662066496e+01   -1.265944452867097e+02   
1.016300000000000e+10    -1.630948769789325e+01   -1.267479055399215e+02   
1.016400000000000e+10    -1.628722617707944e+01   -1.268796606262816e+02   
1.016500000000000e+10    -1.625334876206805e+01   -1.270143458229950e+02   
1.016600000000000e+10    -1.624343306083620e+01   -1.271918530837268e+02   
1.016700000000000e+10    -1.621707322281572e+01   -1.274286759858024e+02   
1.016800000000000e+10    -1.618396808682093e+01   -1.275269930765311e+02   
1.016900000000000e+10    -1.617278593362179e+01   -1.277802245987009e+02   
1.017000000000000e+10    -1.614164953344598e+01   -1.279544063599879e+02   
1.017100000000000e+10    -1.613593075256155e+01   -1.281969377408358e+02   
1.017200000000000e+10    -1.610334146785682e+01   -1.282478428886111e+02   
1.017300000000000e+10    -1.607759747502011e+01   -1.284022148605591e+02   
1.017400000000000e+10    -1.605498687251418e+01   -1.286166782220081e+02   
1.017500000000000e+10    -1.606311932645658e+01   -1.287376952544194e+02   
1.017600000000000e+10    -1.601436413415303e+01   -1.290623137414138e+02   
1.017700000000000e+10    -1.601002512987966e+01   -1.292188542425407e+02   
1.017800000000000e+10    -1.598710512786051e+01   -1.293378415416562e+02   
1.017900000000000e+10    -1.595706098629443e+01   -1.295897719724197e+02   
1.018000000000000e+10    -1.596873573388029e+01   -1.296841997154548e+02   
1.018100000000000e+10    -1.593671072909641e+01   -1.299432111403948e+02   
1.018200000000000e+10    -1.594600964905733e+01   -1.301123469391806e+02   
1.018300000000000e+10    -1.592087819281337e+01   -1.303797964292366e+02   
1.018400000000000e+10    -1.589177578308208e+01   -1.306130426918491e+02   
1.018500000000000e+10    -1.589118661138264e+01   -1.308554295692771e+02   
1.018600000000000e+10    -1.587502749767404e+01   -1.310323006007242e+02   
1.018700000000000e+10    -1.587380425454885e+01   -1.312290158308050e+02   
1.018800000000000e+10    -1.585589350607447e+01   -1.313553950720571e+02   
1.018900000000000e+10    -1.584033280804588e+01   -1.315658915321877e+02   
1.019000000000000e+10    -1.583287964486604e+01   -1.318162416236727e+02   
1.019100000000000e+10    -1.582224552734855e+01   -1.320714071719620e+02   
1.019200000000000e+10    -1.580002643633159e+01   -1.323156915964639e+02   
1.019300000000000e+10    -1.578245311071292e+01   -1.325127979691993e+02   
1.019400000000000e+10    -1.578524721845105e+01   -1.327636195703334e+02   
1.019500000000000e+10    -1.577000891759665e+01   -1.329285608553641e+02   
1.019600000000000e+10    -1.576978302889911e+01   -1.331993469904957e+02   
1.019700000000000e+10    -1.575320603276957e+01   -1.334419134212493e+02   
1.019800000000000e+10    -1.573928536690344e+01   -1.337487143488714e+02   
1.019900000000000e+10    -1.572913042192688e+01   -1.339230517182975e+02   
1.020000000000000e+10    -1.573531934259959e+01   -1.342071339714551e+02   
1.020100000000000e+10    -1.570982259626332e+01   -1.343555503678454e+02   
1.020200000000000e+10    -1.570921286912857e+01   -1.346421975908519e+02   
1.020300000000000e+10    -1.568850838576441e+01   -1.347757511667904e+02   
1.020400000000000e+10    -1.569116277352906e+01   -1.350167990685223e+02   
1.020500000000000e+10    -1.568580149273324e+01   -1.353404256575227e+02   
1.020600000000000e+10    -1.566626152494183e+01   -1.355729364783162e+02   
1.020700000000000e+10    -1.565205228496299e+01   -1.358913242258189e+02   
1.020800000000000e+10    -1.564980769605753e+01   -1.360589100915169e+02   
1.020900000000000e+10    -1.566383940636871e+01   -1.363223255281448e+02   
1.021000000000000e+10    -1.565389891851885e+01   -1.365665404662161e+02   
1.021100000000000e+10    -1.563743632919385e+01   -1.368021120718977e+02   
1.021200000000000e+10    -1.564835676120126e+01   -1.370077392872346e+02   
1.021300000000000e+10    -1.563804749134554e+01   -1.372713996578139e+02   
1.021400000000000e+10    -1.563572465856295e+01   -1.374894921764088e+02   
1.021500000000000e+10    -1.562509140245960e+01   -1.376745757409639e+02   
1.021600000000000e+10    -1.562325260101371e+01   -1.380025355227777e+02   
1.021700000000000e+10    -1.562103210344277e+01   -1.382424925583599e+02   
1.021800000000000e+10    -1.561715789326649e+01   -1.384259322453391e+02   
1.021900000000000e+10    -1.562132222210897e+01   -1.386075847105112e+02   
1.022000000000000e+10    -1.562002680615621e+01   -1.388798547524120e+02   
1.022100000000000e+10    -1.560709740736619e+01   -1.391658547619078e+02   
1.022200000000000e+10    -1.562869554806669e+01   -1.392759800846447e+02   
1.022300000000000e+10    -1.562021570606961e+01   -1.395093546099716e+02   
1.022400000000000e+10    -1.562337002631024e+01   -1.397804576990780e+02   
1.022500000000000e+10    -1.561549142916713e+01   -1.399594330647715e+02   
1.022600000000000e+10    -1.563468539821617e+01   -1.402864079064787e+02   
1.022700000000000e+10    -1.563009588909398e+01   -1.404784588841819e+02   
1.022800000000000e+10    -1.563199209013846e+01   -1.407096871501507e+02   
1.022900000000000e+10    -1.564079665594504e+01   -1.409996819720235e+02   
1.023000000000000e+10    -1.562928763793942e+01   -1.412301431760047e+02   
1.023100000000000e+10    -1.562824433741243e+01   -1.414901955203289e+02   
1.023200000000000e+10    -1.564432495264617e+01   -1.417399359362334e+02   
1.023300000000000e+10    -1.565022758542123e+01   -1.419146813026455e+02   
1.023400000000000e+10    -1.565338500132753e+01   -1.421958008715258e+02   
1.023500000000000e+10    -1.567974830210092e+01   -1.422875038174437e+02   
1.023600000000000e+10    -1.565368279400059e+01   -1.425608449832717e+02   
1.023700000000000e+10    -1.567285491363440e+01   -1.428455096330389e+02   
1.023800000000000e+10    -1.567145312841875e+01   -1.429935275659293e+02   
1.023900000000000e+10    -1.568347158175403e+01   -1.433504632293908e+02   
1.024000000000000e+10    -1.570132061530582e+01   -1.434452214223472e+02   
1.024100000000000e+10    -1.568544178451861e+01   -1.436286767455689e+02   
1.024200000000000e+10    -1.569658876134956e+01   -1.439144674950694e+02   
1.024300000000000e+10    -1.571624610396118e+01   -1.441069210230407e+02   
1.024400000000000e+10    -1.572521554740869e+01   -1.443507549272954e+02   
1.024500000000000e+10    -1.571949254961743e+01   -1.445552740380737e+02   
1.024600000000000e+10    -1.573406448873870e+01   -1.448365907003962e+02   
1.024700000000000e+10    -1.574091329747248e+01   -1.450405839509246e+02   
1.024800000000000e+10    -1.574975349608427e+01   -1.451614545585731e+02   
1.024900000000000e+10    -1.577964477169222e+01   -1.454446219947974e+02   
1.025000000000000e+10    -1.577207345565547e+01   -1.456964624861833e+02   
1.025100000000000e+10    -1.577113053859384e+01   -1.457553959718842e+02   
1.025200000000000e+10    -1.579424873756260e+01   -1.460888920436929e+02   
1.025300000000000e+10    -1.578628884530667e+01   -1.462180724547467e+02   
1.025400000000000e+10    -1.580208682926071e+01   -1.464091114344991e+02   
1.025500000000000e+10    -1.583221552051718e+01   -1.466120525123662e+02   
1.025600000000000e+10    -1.583731434718775e+01   -1.468246120418923e+02   
