[Version] 2.0
! Rohde & Schwarz Vector Network Analyzer
! Rohde-Schwarz,ZNL20-2Port,1323001220200009,1.71.1.10-23.02.1.238
! 
! Port Assignments:
! Nominal Port -> Actual Test Port
! --------------------------------
!   1 -> 1

! Created: GMT 2024-08-27 13:59:32

# Hz S DB R 50

[Number of Ports] 1
[Number of Frequencies] 2001

[Network Data] 
! freq[Hz]               S11[mag dB]              S11[ang]                 
1.000000000000000e+10    -1.810540421991498e+01   -1.280734213128317e+02   
1.000100000000000e+10    -1.811108924860964e+01   -1.279788320036000e+02   
1.000200000000000e+10    -1.810041148853487e+01   -1.278719223036028e+02   
1.000300000000000e+10    -1.811677518663877e+01   -1.279675541162076e+02   
1.000400000000000e+10    -1.811220927606117e+01   -1.281118637770417e+02   
1.000500000000000e+10    -1.810652459831319e+01   -1.281668681221604e+02   
1.000600000000000e+10    -1.811683742671622e+01   -1.281770365690420e+02   
1.000700000000000e+10    -1.811385297214123e+01   -1.281552702707355e+02   
1.000800000000000e+10    -1.812162921195697e+01   -1.282427724792295e+02   
1.000900000000000e+10    -1.813888708642562e+01   -1.284184781603616e+02   
1.001000000000000e+10    -1.813549527297975e+01   -1.283141555618514e+02   
1.001100000000000e+10    -1.814621159813748e+01   -1.284290545426385e+02   
1.001200000000000e+10    -1.814108613754271e+01   -1.285175089833179e+02   
1.001300000000000e+10    -1.817402209475845e+01   -1.286095361037351e+02   
1.001400000000000e+10    -1.816604349462651e+01   -1.287630096018561e+02   
1.001500000000000e+10    -1.817254791511019e+01   -1.287999810017244e+02   
1.001600000000000e+10    -1.815941997201303e+01   -1.288515336413078e+02   
1.001700000000000e+10    -1.818455920865234e+01   -1.290304091391129e+02   
1.001800000000000e+10    -1.818305717431974e+01   -1.291296630172120e+02   
1.001900000000000e+10    -1.819054629317903e+01   -1.291864242263762e+02   
1.002000000000000e+10    -1.820051542292713e+01   -1.293762988723420e+02   
1.002100000000000e+10    -1.820164267307716e+01   -1.294949100193321e+02   
1.002200000000000e+10    -1.819974893306652e+01   -1.295125883098455e+02   
1.002300000000000e+10    -1.819237725382286e+01   -1.296625795183635e+02   
1.002400000000000e+10    -1.818451320235416e+01   -1.298266362785107e+02   
1.002500000000000e+10    -1.820747295939570e+01   -1.297941195811437e+02   
1.002600000000000e+10    -1.821594780172343e+01   -1.301310556343698e+02   
1.002700000000000e+10    -1.821174187252296e+01   -1.302631980749174e+02   
1.002800000000000e+10    -1.821398720672835e+01   -1.302673257206810e+02   
1.002900000000000e+10    -1.820666593441899e+01   -1.303110463030122e+02   
1.003000000000000e+10    -1.822614233891176e+01   -1.303295056401629e+02   
1.003100000000000e+10    -1.820253492009035e+01   -1.306213454803004e+02   
1.003200000000000e+10    -1.821409179912836e+01   -1.307363419774078e+02   
1.003300000000000e+10    -1.818813465471082e+01   -1.308551192959705e+02   
1.003400000000000e+10    -1.818507798060200e+01   -1.308752423325906e+02   
1.003500000000000e+10    -1.820241611889488e+01   -1.309916901125787e+02   
1.003600000000000e+10    -1.815936814947245e+01   -1.310112170053303e+02   
1.003700000000000e+10    -1.817979195845835e+01   -1.311608224390137e+02   
1.003800000000000e+10    -1.817436192840575e+01   -1.312959671225067e+02   
1.003900000000000e+10    -1.817982423103561e+01   -1.313922770078788e+02   
1.004000000000000e+10    -1.815356313944871e+01   -1.315833559354431e+02   
1.004100000000000e+10    -1.816074838943574e+01   -1.316141277287151e+02   
1.004200000000000e+10    -1.812957726106533e+01   -1.317057947732856e+02   
1.004300000000000e+10    -1.813453982918839e+01   -1.317852246312923e+02   
1.004400000000000e+10    -1.813829969840871e+01   -1.319484819031064e+02   
1.004500000000000e+10    -1.810789189931959e+01   -1.319604817282542e+02   
1.004600000000000e+10    -1.811184528571603e+01   -1.320127191644719e+02   
1.004700000000000e+10    -1.810297812753313e+01   -1.321298391611971e+02   
1.004800000000000e+10    -1.808631616784576e+01   -1.321707240107637e+02   
1.004900000000000e+10    -1.807322810195599e+01   -1.322705902911298e+02   
1.005000000000000e+10    -1.807513751496583e+01   -1.324665534149057e+02   
1.005100000000000e+10    -1.803334096933954e+01   -1.324665433884760e+02   
1.005200000000000e+10    -1.803714219169193e+01   -1.323835632490086e+02   
1.005300000000000e+10    -1.803153821494832e+01   -1.325437477323754e+02   
1.005400000000000e+10    -1.801812267526498e+01   -1.326107644851659e+02   
1.005500000000000e+10    -1.800928049861799e+01   -1.326397289936699e+02   
1.005600000000000e+10    -1.802342097216369e+01   -1.326666179076936e+02   
1.005700000000000e+10    -1.798799894143316e+01   -1.326709593247130e+02   
1.005800000000000e+10    -1.798241623803583e+01   -1.327808995189702e+02   
1.005900000000000e+10    -1.798196262845850e+01   -1.328758908869054e+02   
1.006000000000000e+10    -1.795535485935492e+01   -1.328433928219737e+02   
1.006100000000000e+10    -1.795973239992037e+01   -1.327838236908124e+02   
1.006200000000000e+10    -1.795042505007070e+01   -1.328533278141552e+02   
1.006300000000000e+10    -1.794637479905087e+01   -1.328341876066662e+02   
1.006400000000000e+10    -1.792297842935003e+01   -1.328960429252789e+02   
1.006500000000000e+10    -1.791893207685925e+01   -1.328908488733341e+02   
1.006600000000000e+10    -1.791350061537065e+01   -1.328019336552027e+02   
1.006700000000000e+10    -1.791087549655656e+01   -1.329499804312966e+02   
1.006800000000000e+10    -1.788925092174181e+01   -1.328251111699996e+02   
1.006900000000000e+10    -1.788425405171125e+01   -1.327767575442197e+02   
1.007000000000000e+10    -1.787057370424235e+01   -1.328611655512007e+02   
1.007100000000000e+10    -1.785530693972521e+01   -1.329325838802990e+02   
1.007200000000000e+10    -1.784835162338238e+01   -1.328184639388641e+02   
1.007300000000000e+10    -1.785288656612210e+01   -1.329607782314022e+02   
1.007400000000000e+10    -1.782261015063273e+01   -1.328448541211482e+02   
1.007500000000000e+10    -1.784235555161978e+01   -1.328483662015145e+02   
1.007600000000000e+10    -1.784431951217082e+01   -1.328464578342185e+02   
1.007700000000000e+10    -1.781289955250056e+01   -1.328351164897926e+02   
1.007800000000000e+10    -1.780636097188193e+01   -1.327791351879994e+02   
1.007900000000000e+10    -1.780049266699725e+01   -1.328866769396850e+02   
1.008000000000000e+10    -1.782339453155324e+01   -1.328325158379703e+02   
1.008100000000000e+10    -1.779585585963379e+01   -1.328099424886242e+02   
1.008200000000000e+10    -1.777707884811782e+01   -1.327737567728963e+02   
1.008300000000000e+10    -1.778612700854197e+01   -1.328728902730145e+02   
1.008400000000000e+10    -1.780478306062689e+01   -1.328582032300954e+02   
1.008500000000000e+10    -1.778426572099007e+01   -1.328962529549928e+02   
1.008600000000000e+10    -1.778057204886996e+01   -1.328879328347755e+02   
1.008700000000000e+10    -1.777818341863325e+01   -1.329728137042946e+02   
1.008800000000000e+10    -1.778122666481123e+01   -1.330216517862196e+02   
1.008900000000000e+10    -1.780050206359575e+01   -1.329671973325935e+02   
1.009000000000000e+10    -1.780026103527925e+01   -1.330656195436935e+02   
1.009100000000000e+10    -1.781152002643325e+01   -1.329745754804140e+02   
1.009200000000000e+10    -1.782231133541476e+01   -1.331358031969189e+02   
1.009300000000000e+10    -1.780301700484106e+01   -1.332106492082156e+02   
1.009400000000000e+10    -1.782615298032662e+01   -1.332278316196906e+02   
1.009500000000000e+10    -1.782627287162316e+01   -1.331417295272826e+02   
1.009600000000000e+10    -1.782301592170842e+01   -1.332344974806445e+02   
1.009700000000000e+10    -1.784045382684801e+01   -1.333009004237965e+02   
1.009800000000000e+10    -1.783543723227728e+01   -1.333878349756693e+02   
1.009900000000000e+10    -1.785405661507329e+01   -1.332591106389617e+02   
1.010000000000000e+10    -1.786582023801137e+01   -1.335105212052541e+02   
1.010100000000000e+10    -1.788091993839257e+01   -1.334299918268875e+02   
1.010200000000000e+10    -1.787617557920723e+01   -1.335422208744129e+02   
1.010300000000000e+10    -1.789171705081913e+01   -1.334588081820321e+02   
1.010400000000000e+10    -1.789355898237109e+01   -1.335766330071500e+02   
1.010500000000000e+10    -1.789836089689728e+01   -1.337910013405163e+02   
1.010600000000000e+10    -1.791531097882677e+01   -1.336976347841493e+02   
1.010700000000000e+10    -1.791523700855162e+01   -1.337332256480170e+02   
1.010800000000000e+10    -1.790839312454661e+01   -1.339519113619527e+02   
1.010900000000000e+10    -1.791466586720929e+01   -1.339372464975382e+02   
1.011000000000000e+10    -1.791588531535507e+01   -1.340535374420725e+02   
1.011100000000000e+10    -1.792446376134276e+01   -1.340628025333819e+02   
1.011200000000000e+10    -1.793081440734140e+01   -1.342611313799160e+02   
1.011300000000000e+10    -1.794160956008193e+01   -1.341750198545228e+02   
1.011400000000000e+10    -1.791715461555294e+01   -1.342325399693924e+02   
1.011500000000000e+10    -1.793404586490998e+01   -1.343115170974458e+02   
1.011600000000000e+10    -1.793979609788465e+01   -1.345474630743926e+02   
1.011700000000000e+10    -1.792476001564541e+01   -1.344692627760764e+02   
1.011800000000000e+10    -1.794182070323801e+01   -1.346495998334063e+02   
1.011900000000000e+10    -1.792103657029094e+01   -1.347880851865566e+02   
1.012000000000000e+10    -1.790898957068951e+01   -1.348154825191696e+02   
1.012100000000000e+10    -1.792955967262268e+01   -1.349721976981601e+02   
1.012200000000000e+10    -1.791286140882196e+01   -1.350269810498474e+02   
1.012300000000000e+10    -1.791465116723838e+01   -1.352250672269257e+02   
1.012400000000000e+10    -1.790457906295716e+01   -1.351809288111581e+02   
1.012500000000000e+10    -1.791094496247331e+01   -1.352411705396034e+02   
1.012600000000000e+10    -1.790364729166958e+01   -1.353781432470187e+02   
1.012700000000000e+10    -1.789362602499073e+01   -1.355477869621433e+02   
1.012800000000000e+10    -1.789915213481877e+01   -1.355936978511789e+02   
1.012900000000000e+10    -1.788259075207336e+01   -1.356810165894618e+02   
1.013000000000000e+10    -1.790405300654642e+01   -1.358652039718619e+02   
1.013100000000000e+10    -1.787964343649281e+01   -1.357644370627837e+02   
1.013200000000000e+10    -1.787072980014344e+01   -1.360117075965442e+02   
1.013300000000000e+10    -1.786245081375976e+01   -1.359894811269362e+02   
1.013400000000000e+10    -1.787149379399903e+01   -1.361740207372560e+02   
1.013500000000000e+10    -1.786612548758186e+01   -1.362151688781958e+02   
1.013600000000000e+10    -1.785402026941073e+01   -1.363605349491529e+02   
1.013700000000000e+10    -1.785051977849572e+01   -1.362905445004703e+02   
1.013800000000000e+10    -1.784398888775518e+01   -1.365372518497682e+02   
1.013900000000000e+10    -1.783085210785502e+01   -1.365270371555922e+02   
1.014000000000000e+10    -1.785592199329127e+01   -1.366154533979321e+02   
1.014100000000000e+10    -1.784524172124383e+01   -1.366416557727418e+02   
1.014200000000000e+10    -1.784807992908809e+01   -1.367607050003289e+02   
1.014300000000000e+10    -1.782999432505983e+01   -1.367568780977168e+02   
1.014400000000000e+10    -1.784133583277389e+01   -1.368783423690847e+02   
1.014500000000000e+10    -1.781656668567358e+01   -1.368935223800310e+02   
1.014600000000000e+10    -1.781097250473255e+01   -1.369267734480337e+02   
1.014700000000000e+10    -1.780887438454665e+01   -1.369599548115667e+02   
1.014800000000000e+10    -1.780538057588786e+01   -1.371145344115526e+02   
1.014900000000000e+10    -1.778131324472680e+01   -1.369750740763222e+02   
1.015000000000000e+10    -1.778965866184080e+01   -1.371283243408245e+02   
1.015100000000000e+10    -1.777246866715771e+01   -1.370611342296720e+02   
1.015200000000000e+10    -1.777037125624213e+01   -1.371020233899461e+02   
1.015300000000000e+10    -1.774248754793327e+01   -1.372238310051001e+02   
1.015400000000000e+10    -1.775965939293327e+01   -1.372466393046128e+02   
1.015500000000000e+10    -1.774095447612196e+01   -1.372370898086733e+02   
1.015600000000000e+10    -1.773608745687501e+01   -1.371521048723147e+02   
1.015700000000000e+10    -1.771520642128299e+01   -1.371710642912113e+02   
1.015800000000000e+10    -1.769992763761354e+01   -1.371578183992594e+02   
1.015900000000000e+10    -1.768190017980866e+01   -1.373156737631707e+02   
1.016000000000000e+10    -1.769010157156687e+01   -1.374160354973062e+02   
1.016100000000000e+10    -1.769110876326274e+01   -1.373909213487986e+02   
1.016200000000000e+10    -1.768016984144572e+01   -1.374355054595971e+02   
1.016300000000000e+10    -1.766082188951638e+01   -1.374320459051691e+02   
1.016400000000000e+10    -1.765921537273633e+01   -1.374152336305560e+02   
1.016500000000000e+10    -1.764392530988395e+01   -1.374129503013078e+02   
1.016600000000000e+10    -1.765237402676590e+01   -1.374606313063620e+02   
1.016700000000000e+10    -1.764031753019872e+01   -1.375618976131023e+02   
1.016800000000000e+10    -1.762720940027459e+01   -1.375095613613961e+02   
1.016900000000000e+10    -1.763269114180096e+01   -1.376599713403949e+02   
1.017000000000000e+10    -1.761824169471612e+01   -1.376996267612139e+02   
1.017100000000000e+10    -1.763092096163755e+01   -1.378260029265713e+02   
1.017200000000000e+10    -1.761901413281940e+01   -1.376927783331612e+02   
1.017300000000000e+10    -1.761580193414164e+01   -1.377033722925194e+02   
1.017400000000000e+10    -1.760668042066554e+01   -1.377692740675061e+02   
1.017500000000000e+10    -1.764147398856812e+01   -1.377799703651600e+02   
1.017600000000000e+10    -1.760093599174906e+01   -1.379543405462668e+02   
1.017700000000000e+10    -1.761986621509383e+01   -1.379756315581028e+02   
1.017800000000000e+10    -1.761647588718173e+01   -1.379261140440643e+02   
1.017900000000000e+10    -1.760138807763553e+01   -1.380123864844838e+02   
1.018000000000000e+10    -1.763839218888818e+01   -1.379622992726058e+02   
1.018100000000000e+10    -1.762093907142437e+01   -1.380597784384130e+02   
1.018200000000000e+10    -1.765071004416626e+01   -1.381037013417273e+02   
1.018300000000000e+10    -1.763922037825804e+01   -1.381940987529836e+02   
1.018400000000000e+10    -1.762396091944672e+01   -1.382395490083918e+02   
1.018500000000000e+10    -1.763966108567779e+01   -1.383445766227305e+02   
1.018600000000000e+10    -1.763829250941865e+01   -1.383440662370208e+02   
1.018700000000000e+10    -1.765403348357070e+01   -1.383767412388888e+02   
1.018800000000000e+10    -1.765712538553691e+01   -1.382889372168517e+02   
1.018900000000000e+10    -1.765234447848882e+01   -1.383437267261438e+02   
1.019000000000000e+10    -1.765628991500413e+01   -1.384251220270769e+02   
1.019100000000000e+10    -1.765767249245955e+01   -1.385052453111853e+02   
1.019200000000000e+10    -1.764323990812944e+01   -1.385671963277792e+02   
1.019300000000000e+10    -1.763478615048995e+01   -1.385821463936818e+02   
1.019400000000000e+10    -1.765307104077262e+01   -1.386364873813573e+02   
1.019500000000000e+10    -1.764723077078654e+01   -1.386303085357090e+02   
1.019600000000000e+10    -1.765431400358850e+01   -1.387465541309370e+02   
1.019700000000000e+10    -1.764409056139735e+01   -1.388095057708726e+02   
1.019800000000000e+10    -1.763573847901806e+01   -1.389437632165546e+02   
1.019900000000000e+10    -1.763497385043473e+01   -1.389234160779849e+02   
1.020000000000000e+10    -1.765096714439481e+01   -1.390210292200895e+02   
1.020100000000000e+10    -1.762940094526043e+01   -1.390014111221390e+02   
1.020200000000000e+10    -1.763680766514248e+01   -1.391024655604225e+02   
1.020300000000000e+10    -1.761871988285072e+01   -1.390279570321185e+02   
1.020400000000000e+10    -1.763143253170700e+01   -1.391210815025173e+02   
1.020500000000000e+10    -1.762997495366359e+01   -1.392825362004800e+02   
1.020600000000000e+10    -1.761270487649424e+01   -1.393395943627670e+02   
1.020700000000000e+10    -1.759972600806624e+01   -1.394981763166687e+02   
1.020800000000000e+10    -1.760588476441215e+01   -1.394762236400780e+02   
1.020900000000000e+10    -1.762808644907843e+01   -1.395942238134937e+02   
1.021000000000000e+10    -1.761712559135084e+01   -1.396517153778682e+02   
1.021100000000000e+10    -1.760547202716187e+01   -1.397102078426698e+02   
1.021200000000000e+10    -1.762517539912117e+01   -1.397491945724780e+02   
1.021300000000000e+10    -1.761626312711657e+01   -1.398417260292890e+02   
1.021400000000000e+10    -1.761445957229992e+01   -1.398674020962673e+02   
1.021500000000000e+10    -1.760449343876533e+01   -1.398716894526961e+02   
1.021600000000000e+10    -1.760776446962868e+01   -1.400460923463116e+02   
1.021700000000000e+10    -1.760581412696488e+01   -1.401177021128709e+02   
1.021800000000000e+10    -1.760578675618606e+01   -1.401215505875730e+02   
1.021900000000000e+10    -1.761577048323045e+01   -1.400998802143881e+02   
1.022000000000000e+10    -1.761374790571836e+01   -1.402142699430495e+02   
1.022100000000000e+10    -1.759682225917232e+01   -1.403121572719634e+02   
1.022200000000000e+10    -1.762190146669944e+01   -1.402059868689757e+02   
1.022300000000000e+10    -1.761299388912898e+01   -1.402656255541229e+02   
1.022400000000000e+10    -1.761770231355961e+01   -1.403824012579695e+02   
1.022500000000000e+10    -1.760297831383964e+01   -1.403219661265420e+02   
1.022600000000000e+10    -1.762718604218930e+01   -1.404917963659245e+02   
1.022700000000000e+10    -1.761914125022435e+01   -1.404923828774101e+02   
1.022800000000000e+10    -1.761523288064549e+01   -1.405425141443746e+02   
1.022900000000000e+10    -1.762031445414129e+01   -1.406577126796438e+02   
1.023000000000000e+10    -1.759777774390374e+01   -1.407026659381293e+02   
1.023100000000000e+10    -1.759398304012134e+01   -1.407951122860141e+02   
1.023200000000000e+10    -1.760357172060339e+01   -1.408661349999617e+02   
1.023300000000000e+10    -1.760364464163798e+01   -1.408444874105451e+02   
1.023400000000000e+10    -1.759591119788944e+01   -1.409708608316108e+02   
1.023500000000000e+10    -1.762219331324194e+01   -1.408544845306912e+02   
1.023600000000000e+10    -1.757814016762618e+01   -1.409629689775639e+02   
1.023700000000000e+10    -1.759234757868295e+01   -1.411066882543458e+02   
1.023800000000000e+10    -1.757783592813319e+01   -1.410663416864097e+02   
1.023900000000000e+10    -1.758189992804063e+01   -1.412987116675768e+02   
1.024000000000000e+10    -1.759338863962488e+01   -1.412125866686524e+02   
1.024100000000000e+10    -1.755797623401500e+01   -1.412231711337174e+02   
1.024200000000000e+10    -1.756218112165784e+01   -1.413872623746044e+02   
1.024300000000000e+10    -1.757374233380175e+01   -1.414186418753395e+02   
1.024400000000000e+10    -1.757284669946521e+01   -1.415530586030749e+02   
1.024500000000000e+10    -1.754879249006135e+01   -1.416404290849637e+02   
1.024600000000000e+10    -1.755777546720479e+01   -1.417900998997295e+02   
1.024700000000000e+10    -1.755290189987208e+01   -1.418425920019299e+02   
1.024800000000000e+10    -1.755274844254848e+01   -1.418425348579291e+02   
1.024900000000000e+10    -1.757748299731243e+01   -1.420053042323522e+02   
1.025000000000000e+10    -1.755422283200656e+01   -1.421446849785801e+02   
1.025100000000000e+10    -1.754073532194774e+01   -1.420818470253078e+02   
1.025200000000000e+10    -1.756146238467851e+01   -1.423004262009505e+02   
1.025300000000000e+10    -1.753790608202567e+01   -1.423300279153850e+02   
1.025400000000000e+10    -1.754765942561108e+01   -1.423876264596335e+02   
1.025500000000000e+10    -1.757221993701598e+01   -1.424621071198291e+02   
1.025600000000000e+10    -1.756720974282312e+01   -1.425666591024455e+02   
