[Version] 2.0
! Rohde & Schwarz Vector Network Analyzer
! Rohde-Schwarz,ZNL20-2Port,1323001220200009,1.71.1.10-23.02.1.238
! 
! Port Assignments:
! Nominal Port -> Actual Test Port
! --------------------------------
!   1 -> 1

! Created: GMT 2024-08-27 12:46:15

# Hz S DB R 50

[Number of Ports] 1
[Number of Frequencies] 2001

[Network Data] 
! freq[Hz]               S11[mag dB]              S11[ang]                 
1.000000000000000e+10    -1.688564514589117e+01   -1.588332466180112e+02   
1.000100000000000e+10    -1.692598453512008e+01   -1.589296909801764e+02   
1.000200000000000e+10    -1.695555135004154e+01   -1.589419342733962e+02   
1.000300000000000e+10    -1.698920558331568e+01   -1.591913296539103e+02   
1.000400000000000e+10    -1.700665940399521e+01   -1.594069414472897e+02   
1.000500000000000e+10    -1.702848790038846e+01   -1.595273887864315e+02   
1.000600000000000e+10    -1.706712716915487e+01   -1.596707883301267e+02   
1.000700000000000e+10    -1.709466146939782e+01   -1.597549153907657e+02   
1.000800000000000e+10    -1.712476035555765e+01   -1.599743136775284e+02   
1.000900000000000e+10    -1.715634892441460e+01   -1.602631538115448e+02   
1.001000000000000e+10    -1.719164541225156e+01   -1.602729012798970e+02   
1.001100000000000e+10    -1.722260035424570e+01   -1.605114790321840e+02   
1.001200000000000e+10    -1.723976456511221e+01   -1.606618864568723e+02   
1.001300000000000e+10    -1.729009818405053e+01   -1.609411614079492e+02   
1.001400000000000e+10    -1.730222170657759e+01   -1.611305231938790e+02   
1.001500000000000e+10    -1.733771101459091e+01   -1.612811465891972e+02   
1.001600000000000e+10    -1.735497673456650e+01   -1.613819906046701e+02   
1.001700000000000e+10    -1.739027356618304e+01   -1.616899485476121e+02   
1.001800000000000e+10    -1.741620706494168e+01   -1.618628369588293e+02   
1.001900000000000e+10    -1.744694475070698e+01   -1.620065164714906e+02   
1.002000000000000e+10    -1.747421319996307e+01   -1.623097836441656e+02   
1.002100000000000e+10    -1.750145578532953e+01   -1.624772413797434e+02   
1.002200000000000e+10    -1.753192149955641e+01   -1.625742881988676e+02   
1.002300000000000e+10    -1.754620843505631e+01   -1.627215488970384e+02   
1.002400000000000e+10    -1.756322278922789e+01   -1.629061469114775e+02   
1.002500000000000e+10    -1.761244174216991e+01   -1.630621183541839e+02   
1.002600000000000e+10    -1.762473082306321e+01   -1.634219965776329e+02   
1.002700000000000e+10    -1.764333730708901e+01   -1.635882114836630e+02   
1.002800000000000e+10    -1.768008293717393e+01   -1.636764942802239e+02   
1.002900000000000e+10    -1.770460209523361e+01   -1.637623662958966e+02   
1.003000000000000e+10    -1.775303878885607e+01   -1.639475129618635e+02   
1.003100000000000e+10    -1.774378005777598e+01   -1.641531896988744e+02   
1.003200000000000e+10    -1.777962962642307e+01   -1.643910615753397e+02   
1.003300000000000e+10    -1.778958115758814e+01   -1.644616184767185e+02   
1.003400000000000e+10    -1.782013354714289e+01   -1.645408634941835e+02   
1.003500000000000e+10    -1.786281385700448e+01   -1.647793413996545e+02   
1.003600000000000e+10    -1.786885314754351e+01   -1.647101731940350e+02   
1.003700000000000e+10    -1.790817305210517e+01   -1.649899553193410e+02   
1.003800000000000e+10    -1.793191404285168e+01   -1.651517190625198e+02   
1.003900000000000e+10    -1.796866912815307e+01   -1.653421420704722e+02   
1.004000000000000e+10    -1.797158170616079e+01   -1.654367392252605e+02   
1.004100000000000e+10    -1.801761230533920e+01   -1.655654973782085e+02   
1.004200000000000e+10    -1.802635667465319e+01   -1.655960227538287e+02   
1.004300000000000e+10    -1.806076198179494e+01   -1.657380860525064e+02   
1.004400000000000e+10    -1.809370355904371e+01   -1.659407178504065e+02   
1.004500000000000e+10    -1.810904487829895e+01   -1.659005854873820e+02   
1.004600000000000e+10    -1.814540997907984e+01   -1.660096738084658e+02   
1.004700000000000e+10    -1.816920697668287e+01   -1.661419987878667e+02   
1.004800000000000e+10    -1.819163214435135e+01   -1.661743154674498e+02   
1.004900000000000e+10    -1.821380575445633e+01   -1.662704717627079e+02   
1.005000000000000e+10    -1.824453326791210e+01   -1.665123882298076e+02   
1.005100000000000e+10    -1.823595078327487e+01   -1.663865337848155e+02   
1.005200000000000e+10    -1.829606023596751e+01   -1.663912577263478e+02   
1.005300000000000e+10    -1.831892550295191e+01   -1.665671623845099e+02   
1.005400000000000e+10    -1.834222913828329e+01   -1.666254323385768e+02   
1.005500000000000e+10    -1.837470282445615e+01   -1.666604293783887e+02   
1.005600000000000e+10    -1.842541962703151e+01   -1.667739775577367e+02   
1.005700000000000e+10    -1.843325415369981e+01   -1.667114758123731e+02   
1.005800000000000e+10    -1.845888639668267e+01   -1.668259096827717e+02   
1.005900000000000e+10    -1.848453263383506e+01   -1.669535805545464e+02   
1.006000000000000e+10    -1.850738947367317e+01   -1.668831430428288e+02   
1.006100000000000e+10    -1.855643882229387e+01   -1.668907664688558e+02   
1.006200000000000e+10    -1.858007246031296e+01   -1.669768343027990e+02   
1.006300000000000e+10    -1.861956849704599e+01   -1.669833537016870e+02   
1.006400000000000e+10    -1.863108559044038e+01   -1.669930364863909e+02   
1.006500000000000e+10    -1.866875820474705e+01   -1.670586179079183e+02   
1.006600000000000e+10    -1.870960846717113e+01   -1.670181487329520e+02   
1.006700000000000e+10    -1.873532291610221e+01   -1.672093825075679e+02   
1.006800000000000e+10    -1.877222325265489e+01   -1.670332496372562e+02   
1.006900000000000e+10    -1.881349671612549e+01   -1.670438529772896e+02   
1.007000000000000e+10    -1.883777705372933e+01   -1.671177954872564e+02   
1.007100000000000e+10    -1.885822318506163e+01   -1.671323307618022e+02   
1.007200000000000e+10    -1.891123063017385e+01   -1.670465184619342e+02   
1.007300000000000e+10    -1.894280601247566e+01   -1.672313102631290e+02   
1.007400000000000e+10    -1.897290359647779e+01   -1.670254832465303e+02   
1.007500000000000e+10    -1.903530735328316e+01   -1.671464850302586e+02   
1.007600000000000e+10    -1.908291989363511e+01   -1.671894301875253e+02   
1.007700000000000e+10    -1.909848306249777e+01   -1.670694835582819e+02   
1.007800000000000e+10    -1.914733949897366e+01   -1.669627201242927e+02   
1.007900000000000e+10    -1.917513862021902e+01   -1.670726947694728e+02   
1.008000000000000e+10    -1.925002453523492e+01   -1.670928056335943e+02   
1.008100000000000e+10    -1.927496606744479e+01   -1.669375143447058e+02   
1.008200000000000e+10    -1.930467909236098e+01   -1.667863594643129e+02   
1.008300000000000e+10    -1.935260864533264e+01   -1.669140344240296e+02   
1.008400000000000e+10    -1.941525509330710e+01   -1.669648296204043e+02   
1.008500000000000e+10    -1.943209370194193e+01   -1.669003154571321e+02   
1.008600000000000e+10    -1.948042839092970e+01   -1.668188624972995e+02   
1.008700000000000e+10    -1.951496794146665e+01   -1.668679936295906e+02   
1.008800000000000e+10    -1.955642715746932e+01   -1.668934251936120e+02   
1.008900000000000e+10    -1.962986725495058e+01   -1.669059062647376e+02   
1.009000000000000e+10    -1.966342250191079e+01   -1.669160076237401e+02   
1.009100000000000e+10    -1.973436904504948e+01   -1.668417359292965e+02   
1.009200000000000e+10    -1.976542817033770e+01   -1.669921324699619e+02   
1.009300000000000e+10    -1.978495264891438e+01   -1.669378653555407e+02   
1.009400000000000e+10    -1.985179547905514e+01   -1.669549595662139e+02   
1.009500000000000e+10    -1.990373939409855e+01   -1.667810726994636e+02   
1.009600000000000e+10    -1.993344564883344e+01   -1.667878856090894e+02   
1.009700000000000e+10    -1.998812116672232e+01   -1.668644644891958e+02   
1.009800000000000e+10    -2.000855179153676e+01   -1.668558060675228e+02   
1.009900000000000e+10    -2.008883978114421e+01   -1.667252868586641e+02   
1.010000000000000e+10    -2.011889411430210e+01   -1.669652884779778e+02   
1.010100000000000e+10    -2.017215777131568e+01   -1.668727419630215e+02   
1.010200000000000e+10    -2.020434545989463e+01   -1.668601103653640e+02   
1.010300000000000e+10    -2.027226191817716e+01   -1.667715990476875e+02   
1.010400000000000e+10    -2.030456464688484e+01   -1.668410775848098e+02   
1.010500000000000e+10    -2.031949451944902e+01   -1.669915372721023e+02   
1.010600000000000e+10    -2.039868225969269e+01   -1.669094928335338e+02   
1.010700000000000e+10    -2.043355918425167e+01   -1.668845416997424e+02   
1.010800000000000e+10    -2.044097579247371e+01   -1.669740168591817e+02   
1.010900000000000e+10    -2.049891760922203e+01   -1.669410148289248e+02   
1.011000000000000e+10    -2.053352856184970e+01   -1.669882808982434e+02   
1.011100000000000e+10    -2.059095027320340e+01   -1.669490854058618e+02   
1.011200000000000e+10    -2.062317476155082e+01   -1.671232039669061e+02   
1.011300000000000e+10    -2.069656533448052e+01   -1.669832604726657e+02   
1.011400000000000e+10    -2.070680771699050e+01   -1.668136912591453e+02   
1.011500000000000e+10    -2.076344718121499e+01   -1.668485556073211e+02   
1.011600000000000e+10    -2.079817350905090e+01   -1.670511180478271e+02   
1.011700000000000e+10    -2.083986004065272e+01   -1.667357207248674e+02   
1.011800000000000e+10    -2.089001403781094e+01   -1.669041400010612e+02   
1.011900000000000e+10    -2.089662496709963e+01   -1.668356077715639e+02   
1.012000000000000e+10    -2.093206576159540e+01   -1.666546577712413e+02   
1.012100000000000e+10    -2.098632605157692e+01   -1.668435888435744e+02   
1.012200000000000e+10    -2.100775009535764e+01   -1.666735958020359e+02   
1.012300000000000e+10    -2.103945300379173e+01   -1.667542178304877e+02   
1.012400000000000e+10    -2.108559800269677e+01   -1.665183843615275e+02   
1.012500000000000e+10    -2.113984901225962e+01   -1.664578136704190e+02   
1.012600000000000e+10    -2.116568289548854e+01   -1.664286843621544e+02   
1.012700000000000e+10    -2.118504941853523e+01   -1.664403964443447e+02   
1.012800000000000e+10    -2.123923509411469e+01   -1.663657974313788e+02   
1.012900000000000e+10    -2.125654195236902e+01   -1.662023453943138e+02   
1.013000000000000e+10    -2.131333270435726e+01   -1.663709627496055e+02   
1.013100000000000e+10    -2.134763397542317e+01   -1.659502905796470e+02   
1.013200000000000e+10    -2.135253469898571e+01   -1.660397561287187e+02   
1.013300000000000e+10    -2.139306705502539e+01   -1.657598159778820e+02   
1.013400000000000e+10    -2.142860754823825e+01   -1.658945119367957e+02   
1.013500000000000e+10    -2.146664820588565e+01   -1.657094237002207e+02   
1.013600000000000e+10    -2.148211898903178e+01   -1.656884477986382e+02   
1.013700000000000e+10    -2.153245822128375e+01   -1.653695707613433e+02   
1.013800000000000e+10    -2.154146587727912e+01   -1.654815913350192e+02   
1.013900000000000e+10    -2.156419494432191e+01   -1.652199939038107e+02   
1.014000000000000e+10    -2.163426124242881e+01   -1.653097618251058e+02   
1.014100000000000e+10    -2.165899252210819e+01   -1.651477965538096e+02   
1.014200000000000e+10    -2.169305824777059e+01   -1.650970695440515e+02   
1.014300000000000e+10    -2.171290539078511e+01   -1.648547316954124e+02   
1.014400000000000e+10    -2.176012980930906e+01   -1.649449578906205e+02   
1.014500000000000e+10    -2.176752347291544e+01   -1.646497020936081e+02   
1.014600000000000e+10    -2.179827485059555e+01   -1.645058909491956e+02   
1.014700000000000e+10    -2.184075780516797e+01   -1.643948155465317e+02   
1.014800000000000e+10    -2.185766806733440e+01   -1.644142106832003e+02   
1.014900000000000e+10    -2.188295448291785e+01   -1.639305596972841e+02   
1.015000000000000e+10    -2.193286205605050e+01   -1.639799201022159e+02   
1.015100000000000e+10    -2.194353987211538e+01   -1.636710679975959e+02   
1.015200000000000e+10    -2.198432749340732e+01   -1.635286756534446e+02   
1.015300000000000e+10    -2.196936359992583e+01   -1.633871331159329e+02   
1.015400000000000e+10    -2.204374395185176e+01   -1.633391324191725e+02   
1.015500000000000e+10    -2.205600805035955e+01   -1.630368811440908e+02   
1.015600000000000e+10    -2.211264682635947e+01   -1.627059393860225e+02   
1.015700000000000e+10    -2.212443234731641e+01   -1.624568314666358e+02   
1.015800000000000e+10    -2.214599769698421e+01   -1.621683560966248e+02   
1.015900000000000e+10    -2.214540008753828e+01   -1.621409259045728e+02   
1.016000000000000e+10    -2.218815904532699e+01   -1.621424272523748e+02   
1.016100000000000e+10    -2.223766887360668e+01   -1.618952322738057e+02   
1.016200000000000e+10    -2.226556874561009e+01   -1.616894830625618e+02   
1.016300000000000e+10    -2.228446105497048e+01   -1.613246974503428e+02   
1.016400000000000e+10    -2.232808007544616e+01   -1.610535680822916e+02   
1.016500000000000e+10    -2.234820445613959e+01   -1.607046017321760e+02   
1.016600000000000e+10    -2.239455439511686e+01   -1.605844443514765e+02   
1.016700000000000e+10    -2.241241944450003e+01   -1.604158382119328e+02   
1.016800000000000e+10    -2.243041139721513e+01   -1.599934322605214e+02   
1.016900000000000e+10    -2.247351531883005e+01   -1.599671933325166e+02   
1.017000000000000e+10    -2.248478301185184e+01   -1.596776156950985e+02   
1.017100000000000e+10    -2.253157888675631e+01   -1.596876573017468e+02   
1.017200000000000e+10    -2.256087763185463e+01   -1.590865218955056e+02   
1.017300000000000e+10    -2.258615960053402e+01   -1.587946029029445e+02   
1.017400000000000e+10    -2.260197006841960e+01   -1.585600791630665e+02   
1.017500000000000e+10    -2.269033624268927e+01   -1.584082628952208e+02   
1.017600000000000e+10    -2.263767670014651e+01   -1.582322641894176e+02   
1.017700000000000e+10    -2.270011662130037e+01   -1.580174097791177e+02   
1.017800000000000e+10    -2.272935125753586e+01   -1.576464294302546e+02   
1.017900000000000e+10    -2.272486833570230e+01   -1.573943643998434e+02   
1.018000000000000e+10    -2.282235667212332e+01   -1.571100021471107e+02   
1.018100000000000e+10    -2.281379461825469e+01   -1.568878110334723e+02   
1.018200000000000e+10    -2.288357252734604e+01   -1.567376509549955e+02   
1.018300000000000e+10    -2.287942600995662e+01   -1.565580161860914e+02   
1.018400000000000e+10    -2.287799383002952e+01   -1.562364722817470e+02   
1.018500000000000e+10    -2.291758694901654e+01   -1.561291731545211e+02   
1.018600000000000e+10    -2.294204179719945e+01   -1.557570685313814e+02   
1.018700000000000e+10    -2.298682177687304e+01   -1.555391575918909e+02   
1.018800000000000e+10    -2.302312786139415e+01   -1.550620846143706e+02   
1.018900000000000e+10    -2.302645253147926e+01   -1.547687530172896e+02   
1.019000000000000e+10    -2.304672139777763e+01   -1.546271454033854e+02   
1.019100000000000e+10    -2.306698187404247e+01   -1.544524007182634e+02   
1.019200000000000e+10    -2.305482642807090e+01   -1.542099064192815e+02   
1.019300000000000e+10    -2.306918777919008e+01   -1.538231074880651e+02   
1.019400000000000e+10    -2.311380806791423e+01   -1.536786867652000e+02   
1.019500000000000e+10    -2.313955008286076e+01   -1.532631960964654e+02   
1.019600000000000e+10    -2.316656425778493e+01   -1.531638131601111e+02   
1.019700000000000e+10    -2.316673766125366e+01   -1.528287826434094e+02   
1.019800000000000e+10    -2.316784941065271e+01   -1.527142772100512e+02   
1.019900000000000e+10    -2.319053477906726e+01   -1.522945551384088e+02   
1.020000000000000e+10    -2.324612400796001e+01   -1.520835730048960e+02   
1.020100000000000e+10    -2.321852985823054e+01   -1.516994934676819e+02   
1.020200000000000e+10    -2.325033799540443e+01   -1.514067275084739e+02   
1.020300000000000e+10    -2.324164742459530e+01   -1.508255628285984e+02   
1.020400000000000e+10    -2.328903188789827e+01   -1.506324129858143e+02   
1.020500000000000e+10    -2.329501004699665e+01   -1.505506885442749e+02   
1.020600000000000e+10    -2.328094663413767e+01   -1.501625847978570e+02   
1.020700000000000e+10    -2.327339679484454e+01   -1.499951753634951e+02   
1.020800000000000e+10    -2.330304876391478e+01   -1.495886151358768e+02   
1.020900000000000e+10    -2.336442743654062e+01   -1.493849707334522e+02   
1.021000000000000e+10    -2.336352452433782e+01   -1.490371858879722e+02   
1.021100000000000e+10    -2.335374556834017e+01   -1.486511795553430e+02   
1.021200000000000e+10    -2.340980848957648e+01   -1.482633590412885e+02   
1.021300000000000e+10    -2.340366996694389e+01   -1.479830073421919e+02   
1.021400000000000e+10    -2.340589908612078e+01   -1.476237261809897e+02   
1.021500000000000e+10    -2.339502043404831e+01   -1.471644964545470e+02   
1.021600000000000e+10    -2.340656746327074e+01   -1.470740691436960e+02   
1.021700000000000e+10    -2.340817412283471e+01   -1.467411066797964e+02   
1.021800000000000e+10    -2.341317634351713e+01   -1.463324970379381e+02   
1.021900000000000e+10    -2.344207123044109e+01   -1.458528206038951e+02   
1.022000000000000e+10    -2.344798189628408e+01   -1.456754354730020e+02   
1.022100000000000e+10    -2.341874235814027e+01   -1.454698229326273e+02   
1.022200000000000e+10    -2.348506412193776e+01   -1.448057875163969e+02   
1.022300000000000e+10    -2.346790790158940e+01   -1.445347727262746e+02   
1.022400000000000e+10    -2.348758662317664e+01   -1.443004965163022e+02   
1.022500000000000e+10    -2.346376072514670e+01   -1.437947353405949e+02   
1.022600000000000e+10    -2.351905569415446e+01   -1.437560290264692e+02   
1.022700000000000e+10    -2.350399747062290e+01   -1.433139103746256e+02   
1.022800000000000e+10    -2.349944930374774e+01   -1.430057257510337e+02   
1.022900000000000e+10    -2.351425856648451e+01   -1.428057894693548e+02   
1.023000000000000e+10    -2.348043574643594e+01   -1.424723043584053e+02   
1.023100000000000e+10    -2.347189938370352e+01   -1.422609706153925e+02   
1.023200000000000e+10    -2.350380742977633e+01   -1.419805537912052e+02   
1.023300000000000e+10    -2.350312864591065e+01   -1.415352430648636e+02   
1.023400000000000e+10    -2.349541431289484e+01   -1.413426766277066e+02   
1.023500000000000e+10    -2.355069529689208e+01   -1.406886502202116e+02   
1.023600000000000e+10    -2.346153251472883e+01   -1.405092020985917e+02   
1.023700000000000e+10    -2.349844648179892e+01   -1.403536514061570e+02   
1.023800000000000e+10    -2.346693649387058e+01   -1.398683688526772e+02   
1.023900000000000e+10    -2.348126540517359e+01   -1.399116319710455e+02   
1.024000000000000e+10    -2.350809933358955e+01   -1.392914005326759e+02   
1.024100000000000e+10    -2.343287997838376e+01   -1.388904071843415e+02   
1.024200000000000e+10    -2.344195016538557e+01   -1.387781863143439e+02   
1.024300000000000e+10    -2.346060290971936e+01   -1.383883332333932e+02   
1.024400000000000e+10    -2.344928067200728e+01   -1.381922398999113e+02   
1.024500000000000e+10    -2.340415128253435e+01   -1.379372137034518e+02   
1.024600000000000e+10    -2.341168381304689e+01   -1.377626332260756e+02   
1.024700000000000e+10    -2.339660871225035e+01   -1.374795998168101e+02   
1.024800000000000e+10    -2.338025234744106e+01   -1.369933146175043e+02   
1.024900000000000e+10    -2.342463156728730e+01   -1.368352831500549e+02   
1.025000000000000e+10    -2.336793816309367e+01   -1.366849298129239e+02   
1.025100000000000e+10    -2.332618970388675e+01   -1.362554560564808e+02   
1.025200000000000e+10    -2.335005281516390e+01   -1.361542537060299e+02   
1.025300000000000e+10    -2.328535789882185e+01   -1.358088390535648e+02   
1.025400000000000e+10    -2.327882307242440e+01   -1.355046155311951e+02   
1.025500000000000e+10    -2.330678069298517e+01   -1.351763728119982e+02   
1.025600000000000e+10    -2.327593452799817e+01   -1.349803529288165e+02   
