[Version] 2.0
! Rohde & Schwarz Vector Network Analyzer
! Rohde-Schwarz,ZNL20-2Port,1323001220200009,1.71.1.10-23.02.1.238
! 
! Port Assignments:
! Nominal Port -> Actual Test Port
! --------------------------------
!   1 -> 1

! Created: GMT 2024-08-27 12:51:59

# Hz S DB R 50

[Number of Ports] 1
[Number of Frequencies] 2001

[Network Data] 
! freq[Hz]               S11[mag dB]              S11[ang]                 
1.000000000000000e+10    -1.424939580441061e+01   -1.505587570239016e+02   
1.000100000000000e+10    -1.426762310636277e+01   -1.506811574277028e+02   
1.000200000000000e+10    -1.427980239954579e+01   -1.507671674433447e+02   
1.000300000000000e+10    -1.429636767231940e+01   -1.510067140821885e+02   
1.000400000000000e+10    -1.430302308679816e+01   -1.512507080190670e+02   
1.000500000000000e+10    -1.431152606728861e+01   -1.514143126880155e+02   
1.000600000000000e+10    -1.433049917085497e+01   -1.515877567555685e+02   
1.000700000000000e+10    -1.434223274425423e+01   -1.517290954454404e+02   
1.000800000000000e+10    -1.435584028209887e+01   -1.519445444808404e+02   
1.000900000000000e+10    -1.437320786475622e+01   -1.522347583633211e+02   
1.001000000000000e+10    -1.438833810480749e+01   -1.523096898666181e+02   
1.001100000000000e+10    -1.440370689885101e+01   -1.525549815962416e+02   
1.001200000000000e+10    -1.440892816235790e+01   -1.527423232241497e+02   
1.001300000000000e+10    -1.443621071243424e+01   -1.530062352319502e+02   
1.001400000000000e+10    -1.443592244470118e+01   -1.532259632259596e+02   
1.001500000000000e+10    -1.445260219401964e+01   -1.534162912297233e+02   
1.001600000000000e+10    -1.445552992660594e+01   -1.535835517335495e+02   
1.001700000000000e+10    -1.447542939983501e+01   -1.538780734075256e+02   
1.001800000000000e+10    -1.448185442103009e+01   -1.540979547474028e+02   
1.001900000000000e+10    -1.449569542687420e+01   -1.542926815636649e+02   
1.002000000000000e+10    -1.450749827741553e+01   -1.545872396453969e+02   
1.002100000000000e+10    -1.451783049048047e+01   -1.548052224082760e+02   
1.002200000000000e+10    -1.452875672046460e+01   -1.549744906098551e+02   
1.002300000000000e+10    -1.453236431645263e+01   -1.551809841605066e+02   
1.002400000000000e+10    -1.453497216802458e+01   -1.554148321403235e+02   
1.002500000000000e+10    -1.456326886061432e+01   -1.556052766969456e+02   
1.002600000000000e+10    -1.456636222082144e+01   -1.559543262665045e+02   
1.002700000000000e+10    -1.457140362068259e+01   -1.561724701426671e+02   
1.002800000000000e+10    -1.458803016081071e+01   -1.563238539977116e+02   
1.002900000000000e+10    -1.459438790835451e+01   -1.564803068040804e+02   
1.003000000000000e+10    -1.462055332995117e+01   -1.566901043939733e+02   
1.003100000000000e+10    -1.460745522181748e+01   -1.569555142826025e+02   
1.003200000000000e+10    -1.462195745594499e+01   -1.572086338880907e+02   
1.003300000000000e+10    -1.461947262864677e+01   -1.573938156351297e+02   
1.003400000000000e+10    -1.463265915653488e+01   -1.575262834767384e+02   
1.003500000000000e+10    -1.465278833534250e+01   -1.577979503491080e+02   
1.003600000000000e+10    -1.464334989065906e+01   -1.578640443035839e+02   
1.003700000000000e+10    -1.466476325638644e+01   -1.581510851820040e+02   
1.003800000000000e+10    -1.467062163377960e+01   -1.583826537566185e+02   
1.003900000000000e+10    -1.468579301192547e+01   -1.586019823892491e+02   
1.004000000000000e+10    -1.467819930295094e+01   -1.588112248079266e+02   
1.004100000000000e+10    -1.470035568813627e+01   -1.590058972559996e+02   
1.004200000000000e+10    -1.469865659744459e+01   -1.591521865909068e+02   
1.004300000000000e+10    -1.471474582296393e+01   -1.593602860326274e+02   
1.004400000000000e+10    -1.472877695522131e+01   -1.596139023336127e+02   
1.004500000000000e+10    -1.472671665127729e+01   -1.597169933671964e+02   
1.004600000000000e+10    -1.474566015374058e+01   -1.599092264242336e+02   
1.004700000000000e+10    -1.475406647033726e+01   -1.601374235645262e+02   
1.004800000000000e+10    -1.476096920995361e+01   -1.602639237323199e+02   
1.004900000000000e+10    -1.476905886002666e+01   -1.604606360209610e+02   
1.005000000000000e+10    -1.478060412827389e+01   -1.607641177258680e+02   
1.005100000000000e+10    -1.476855998757086e+01   -1.607794836161459e+02   
1.005200000000000e+10    -1.479879001537358e+01   -1.609314383504207e+02   
1.005300000000000e+10    -1.480486275266174e+01   -1.611769426876614e+02   
1.005400000000000e+10    -1.481213064718053e+01   -1.613523072854845e+02   
1.005500000000000e+10    -1.482622465530665e+01   -1.615215158387421e+02   
1.005600000000000e+10    -1.485120828943863e+01   -1.617342742801638e+02   
1.005700000000000e+10    -1.484849559402198e+01   -1.618392049570366e+02   
1.005800000000000e+10    -1.485847025859209e+01   -1.620673249507420e+02   
1.005900000000000e+10    -1.487072882383970e+01   -1.622877506980646e+02   
1.006000000000000e+10    -1.488034483526964e+01   -1.623931122120829e+02   
1.006100000000000e+10    -1.490462930404538e+01   -1.625400487154520e+02   
1.006200000000000e+10    -1.491446893319742e+01   -1.627319620273305e+02   
1.006300000000000e+10    -1.493524095210482e+01   -1.628857190053295e+02   
1.006400000000000e+10    -1.493500432246323e+01   -1.630485012305583e+02   
1.006500000000000e+10    -1.495186165929824e+01   -1.632216133541391e+02   
1.006600000000000e+10    -1.497055408421182e+01   -1.633452905074110e+02   
1.006700000000000e+10    -1.497989129800041e+01   -1.636099631366442e+02   
1.006800000000000e+10    -1.499495233704499e+01   -1.636709425297456e+02   
1.006900000000000e+10    -1.501781703641050e+01   -1.638282306757839e+02   
1.007000000000000e+10    -1.502577139526165e+01   -1.640502091205633e+02   
1.007100000000000e+10    -1.503545803479356e+01   -1.642145176140334e+02   
1.007200000000000e+10    -1.506410163381717e+01   -1.643338542009230e+02   
1.007300000000000e+10    -1.508160869901475e+01   -1.646098246918333e+02   
1.007400000000000e+10    -1.509210165935284e+01   -1.646411464007171e+02   
1.007500000000000e+10    -1.512783437769073e+01   -1.648728475988671e+02   
1.007600000000000e+10    -1.515261729258787e+01   -1.650629219189551e+02   
1.007700000000000e+10    -1.515982785514908e+01   -1.651512680842819e+02   
1.007800000000000e+10    -1.518595785419780e+01   -1.652650606832286e+02   
1.007900000000000e+10    -1.519873505915632e+01   -1.654931596257017e+02   
1.008000000000000e+10    -1.524342684114784e+01   -1.656907845403499e+02   
1.008100000000000e+10    -1.525459400532197e+01   -1.657715431692940e+02   
1.008200000000000e+10    -1.526966190755127e+01   -1.658498137941285e+02   
1.008300000000000e+10    -1.529879032632349e+01   -1.661025435819298e+02   
1.008400000000000e+10    -1.533325698105833e+01   -1.663145976193096e+02   
1.008500000000000e+10    -1.534205377788934e+01   -1.664272054546709e+02   
1.008600000000000e+10    -1.536965547340166e+01   -1.665719650628395e+02   
1.008700000000000e+10    -1.539033538260090e+01   -1.667742967533863e+02   
1.008800000000000e+10    -1.541631479173663e+01   -1.669712435471111e+02   
1.008900000000000e+10    -1.545690613629082e+01   -1.671591764362657e+02   
1.009000000000000e+10    -1.547975110164859e+01   -1.673576420237628e+02   
1.009100000000000e+10    -1.552031973704091e+01   -1.674786022198297e+02   
1.009200000000000e+10    -1.554144847676087e+01   -1.677570635952536e+02   
1.009300000000000e+10    -1.554842225615733e+01   -1.679090821598679e+02   
1.009400000000000e+10    -1.559062135668625e+01   -1.680962336105655e+02   
1.009500000000000e+10    -1.562354873599321e+01   -1.681946729066353e+02   
1.009600000000000e+10    -1.564287312238601e+01   -1.683624112977329e+02   
1.009700000000000e+10    -1.567518473067799e+01   -1.685926812389094e+02   
1.009800000000000e+10    -1.568805726078898e+01   -1.687403264048317e+02   
1.009900000000000e+10    -1.573619718624513e+01   -1.688720772016210e+02   
1.010000000000000e+10    -1.575461834257269e+01   -1.692061267122449e+02   
1.010100000000000e+10    -1.578788586798632e+01   -1.692853564980926e+02   
1.010200000000000e+10    -1.580629415846895e+01   -1.694908642125183e+02   
1.010300000000000e+10    -1.584852332190037e+01   -1.696299680055270e+02   
1.010400000000000e+10    -1.586494204894054e+01   -1.698589805260237e+02   
1.010500000000000e+10    -1.587654833895267e+01   -1.701252910314473e+02   
1.010600000000000e+10    -1.591928492726804e+01   -1.702632931071575e+02   
1.010700000000000e+10    -1.594328994200114e+01   -1.704317682309812e+02   
1.010800000000000e+10    -1.595073907707182e+01   -1.706789779113036e+02   
1.010900000000000e+10    -1.598160911912046e+01   -1.708525351622243e+02   
1.011000000000000e+10    -1.600187932766591e+01   -1.710521924283912e+02   
1.011100000000000e+10    -1.603580895440414e+01   -1.712380267377679e+02   
1.011200000000000e+10    -1.605322514331724e+01   -1.715349920116034e+02   
1.011300000000000e+10    -1.609661701674977e+01   -1.716550579196129e+02   
1.011400000000000e+10    -1.610689251392841e+01   -1.717528602323396e+02   
1.011500000000000e+10    -1.614341443966835e+01   -1.719901943707857e+02   
1.011600000000000e+10    -1.616112317425417e+01   -1.722926120726939e+02   
1.011700000000000e+10    -1.619233162165798e+01   -1.723006829189771e+02   
1.011800000000000e+10    -1.622067769339834e+01   -1.725997801161797e+02   
1.011900000000000e+10    -1.623102011985850e+01   -1.727122675156257e+02   
1.012000000000000e+10    -1.625690436397760e+01   -1.728138055764422e+02   
1.012100000000000e+10    -1.628594589224935e+01   -1.730989965532708e+02   
1.012200000000000e+10    -1.630529360209992e+01   -1.731731784702982e+02   
1.012300000000000e+10    -1.632459480783518e+01   -1.734161510240413e+02   
1.012400000000000e+10    -1.635547461035264e+01   -1.734690702195103e+02   
1.012500000000000e+10    -1.639100873468098e+01   -1.736285690561580e+02   
1.012600000000000e+10    -1.640818020441874e+01   -1.738004908421932e+02   
1.012700000000000e+10    -1.642001708139216e+01   -1.739765799703611e+02   
1.012800000000000e+10    -1.645480822382295e+01   -1.741383892779578e+02   
1.012900000000000e+10    -1.646894495418788e+01   -1.742391884105271e+02   
1.013000000000000e+10    -1.650047025663240e+01   -1.745399502405108e+02   
1.013100000000000e+10    -1.653124240712434e+01   -1.745021721738871e+02   
1.013200000000000e+10    -1.653529486809936e+01   -1.747360413210378e+02   
1.013300000000000e+10    -1.656679556425975e+01   -1.748164022676912e+02   
1.013400000000000e+10    -1.658798274044612e+01   -1.750666917395764e+02   
1.013500000000000e+10    -1.661620088570815e+01   -1.751785607362127e+02   
1.013600000000000e+10    -1.662982856920809e+01   -1.753502730033525e+02   
1.013700000000000e+10    -1.666972951652824e+01   -1.753927564798031e+02   
1.013800000000000e+10    -1.667547041136227e+01   -1.756286371824541e+02   
1.013900000000000e+10    -1.669980754924258e+01   -1.756900683424480e+02   
1.014000000000000e+10    -1.674084450555983e+01   -1.759740103250348e+02   
1.014100000000000e+10    -1.676222775742097e+01   -1.760742532671841e+02   
1.014200000000000e+10    -1.678810866797683e+01   -1.762665023966767e+02   
1.014300000000000e+10    -1.680947286810005e+01   -1.763255112082698e+02   
1.014400000000000e+10    -1.683430967651004e+01   -1.765746853115358e+02   
1.014500000000000e+10    -1.684813387896824e+01   -1.766061242256208e+02   
1.014600000000000e+10    -1.687439564865601e+01   -1.767374441150803e+02   
1.014700000000000e+10    -1.690021110293621e+01   -1.769108991695985e+02   
1.014800000000000e+10    -1.691682505537571e+01   -1.771194481266375e+02   
1.014900000000000e+10    -1.694556506638392e+01   -1.770754231786689e+02   
1.015000000000000e+10    -1.697717335521826e+01   -1.773682259308082e+02   
1.015100000000000e+10    -1.699523200413939e+01   -1.773490000718912e+02   
1.015200000000000e+10    -1.702572824803115e+01   -1.775061344073531e+02   
1.015300000000000e+10    -1.703029009392482e+01   -1.776086416069072e+02   
1.015400000000000e+10    -1.707688283452665e+01   -1.778554777648421e+02   
1.015500000000000e+10    -1.710157827353941e+01   -1.778850863614894e+02   
1.015600000000000e+10    -1.714093479137898e+01   -1.779633517259374e+02   
1.015700000000000e+10    -1.716320427026656e+01   -1.780175471987433e+02   
1.015800000000000e+10    -1.718872974976411e+01   -1.780782919323808e+02   
1.015900000000000e+10    -1.719982665357893e+01   -1.782312112839452e+02   
1.016000000000000e+10    -1.722647540576317e+01   -1.784403468808854e+02   
1.016100000000000e+10    -1.726945573609568e+01   -1.785482088233553e+02   
1.016200000000000e+10    -1.729496839364599e+01   -1.786605947752623e+02   
1.016300000000000e+10    -1.732005421965575e+01   -1.786942449695804e+02   
1.016400000000000e+10    -1.735735529080254e+01   -1.787983355571336e+02   
1.016500000000000e+10    -1.738434715694157e+01   -1.788297232692162e+02   
1.016600000000000e+10    -1.742156079792436e+01   -1.790181382889558e+02   
1.016700000000000e+10    -1.744641322021519e+01   -1.791386583986742e+02   
1.016800000000000e+10    -1.748063750284962e+01   -1.791554536888108e+02   
1.016900000000000e+10    -1.750950330257453e+01   -1.793986457112891e+02   
1.017000000000000e+10    -1.753069660017801e+01   -1.794268646966484e+02   
1.017100000000000e+10    -1.756874705652903e+01   -1.797033096142148e+02   
1.017200000000000e+10    -1.761178974687416e+01   -1.796395915164136e+02   
1.017300000000000e+10    -1.764824913447291e+01   -1.797270552647583e+02   
1.017400000000000e+10    -1.767148581368016e+01   -1.798188987530231e+02   
1.017500000000000e+10    -1.773094008816137e+01   1.799344928636674e+02    
1.017600000000000e+10    -1.771865735598300e+01   1.799266220088495e+02    
1.017700000000000e+10    -1.776853149285370e+01   1.797506405459114e+02    
1.017800000000000e+10    -1.781051685698298e+01   1.797000376934014e+02    
1.017900000000000e+10    -1.782195376705201e+01   1.796446988002968e+02    
1.018000000000000e+10    -1.789275538687479e+01   1.794074442557622e+02    
1.018100000000000e+10    -1.790599790154167e+01   1.793179612822437e+02    
1.018200000000000e+10    -1.795921810340185e+01   1.790816654536401e+02    
1.018300000000000e+10    -1.797704534297711e+01   1.789757575044699e+02    
1.018400000000000e+10    -1.799801272542315e+01   1.789304549789524e+02    
1.018500000000000e+10    -1.803269985327485e+01   1.787066942160658e+02    
1.018600000000000e+10    -1.807505730734265e+01   1.786586442345040e+02    
1.018700000000000e+10    -1.811964186970288e+01   1.784668910111905e+02    
1.018800000000000e+10    -1.816955327845979e+01   1.784372457771391e+02    
1.018900000000000e+10    -1.819755588913541e+01   1.783650251928960e+02    
1.019000000000000e+10    -1.822996606006443e+01   1.782185604514022e+02    
1.019100000000000e+10    -1.825568014833379e+01   1.780933316620606e+02    
1.019200000000000e+10    -1.827346416343060e+01   1.780500708977907e+02    
1.019300000000000e+10    -1.830576837400066e+01   1.780323228381029e+02    
1.019400000000000e+10    -1.834704865202458e+01   1.778226841484264e+02    
1.019500000000000e+10    -1.838657197802196e+01   1.777574696882618e+02    
1.019600000000000e+10    -1.841304504858266e+01   1.775574711984667e+02    
1.019700000000000e+10    -1.844268056765386e+01   1.775035892395198e+02    
1.019800000000000e+10    -1.845846898180650e+01   1.773640784630302e+02    
1.019900000000000e+10    -1.850011345456993e+01   1.773031589963730e+02    
1.020000000000000e+10    -1.854916364965577e+01   1.770530228375416e+02    
1.020100000000000e+10    -1.856286008432142e+01   1.771770113110549e+02    
1.020200000000000e+10    -1.861183102336123e+01   1.769834911006094e+02    
1.020300000000000e+10    -1.864698458615243e+01   1.770667244276527e+02    
1.020400000000000e+10    -1.869367797612205e+01   1.768630245774964e+02    
1.020500000000000e+10    -1.871724174955120e+01   1.766726299302274e+02    
1.020600000000000e+10    -1.874267462239788e+01   1.767139296842406e+02    
1.020700000000000e+10    -1.875979953901030e+01   1.765965615707675e+02    
1.020800000000000e+10    -1.880875941053299e+01   1.765264995107724e+02    
1.020900000000000e+10    -1.886000792289325e+01   1.762637773851179e+02    
1.021000000000000e+10    -1.889231148378463e+01   1.762084351434547e+02    
1.021100000000000e+10    -1.892538146283427e+01   1.761927835842897e+02    
1.021200000000000e+10    -1.898394931742789e+01   1.759963821714501e+02    
1.021300000000000e+10    -1.901443301028105e+01   1.759287087023075e+02    
1.021400000000000e+10    -1.905268963139485e+01   1.758660832807683e+02    
1.021500000000000e+10    -1.909455319555360e+01   1.758981720257672e+02    
1.021600000000000e+10    -1.912378286347937e+01   1.757055051040494e+02    
1.021700000000000e+10    -1.915862926694608e+01   1.756450616501197e+02    
1.021800000000000e+10    -1.920220832981513e+01   1.756110211888411e+02    
1.021900000000000e+10    -1.926437958068228e+01   1.755511478242493e+02    
1.022000000000000e+10    -1.928816907814031e+01   1.753864948889370e+02    
1.022100000000000e+10    -1.930690739665564e+01   1.753401417686389e+02    
1.022200000000000e+10    -1.939571703720768e+01   1.752439869565897e+02    
1.022300000000000e+10    -1.942080445523250e+01   1.751680349614103e+02    
1.022400000000000e+10    -1.945811523723501e+01   1.749876816739347e+02    
1.022500000000000e+10    -1.950266589053906e+01   1.750632088003605e+02    
1.022600000000000e+10    -1.954565632632259e+01   1.746797660378168e+02    
1.022700000000000e+10    -1.958518081080492e+01   1.746994349298255e+02    
1.022800000000000e+10    -1.962606051879103e+01   1.746158740487310e+02    
1.022900000000000e+10    -1.966333751004082e+01   1.744042178476152e+02    
1.023000000000000e+10    -1.968633350961464e+01   1.744128426849779e+02    
1.023100000000000e+10    -1.971865419368542e+01   1.742846065448734e+02    
1.023200000000000e+10    -1.976699762173810e+01   1.740908922703286e+02    
1.023300000000000e+10    -1.982132295951770e+01   1.740323774360246e+02    
1.023400000000000e+10    -1.985195696364314e+01   1.738705428767498e+02    
1.023500000000000e+10    -1.994276465374612e+01   1.737645773466245e+02    
1.023600000000000e+10    -1.994381842269216e+01   1.738866174890185e+02    
1.023700000000000e+10    -1.999021354297948e+01   1.735622174589383e+02    
1.023800000000000e+10    -2.004070228727658e+01   1.736601519527931e+02    
1.023900000000000e+10    -2.005967654164438e+01   1.733389166851618e+02    
1.024000000000000e+10    -2.014444760730369e+01   1.733041384100638e+02    
1.024100000000000e+10    -2.016516918715995e+01   1.734711592156791e+02    
1.024200000000000e+10    -2.019982606058871e+01   1.732331274912201e+02    
1.024300000000000e+10    -2.026648010982419e+01   1.730933339579813e+02    
1.024400000000000e+10    -2.030282776269772e+01   1.729366318746715e+02    
1.024500000000000e+10    -2.032809542620617e+01   1.729844945822223e+02    
1.024600000000000e+10    -2.036691037096056e+01   1.727908034406741e+02    
1.024700000000000e+10    -2.041087634191709e+01   1.727061988210347e+02    
1.024800000000000e+10    -2.046535561642381e+01   1.727612305417569e+02    
1.024900000000000e+10    -2.052028511690603e+01   1.723945910338655e+02    
1.025000000000000e+10    -2.053864025590455e+01   1.723909473945164e+02    
1.025100000000000e+10    -2.057334323846677e+01   1.725506807328484e+02    
1.025200000000000e+10    -2.062407535740668e+01   1.722128622058231e+02    
1.025300000000000e+10    -2.064869063426462e+01   1.723551347291983e+02    
1.025400000000000e+10    -2.070092846644530e+01   1.722413102768948e+02    
1.025500000000000e+10    -2.076451416468695e+01   1.720176473502816e+02    
1.025600000000000e+10    -2.079827966504274e+01   1.719691205482380e+02    
