[Version] 2.0
! Rohde & Schwarz Vector Network Analyzer
! Rohde-Schwarz,ZNL20-2Port,1323001220200009,1.71.1.10-23.02.1.238
! 
! Port Assignments:
! Nominal Port -> Actual Test Port
! --------------------------------
!   1 -> 1

! Created: GMT 2024-08-27 12:52:30

# Hz S DB R 50

[Number of Ports] 1
[Number of Frequencies] 2001

[Network Data] 
! freq[Hz]               S11[mag dB]              S11[ang]                 
1.000000000000000e+10    -1.412818273570889e+01   -1.496844419177072e+02   
1.000100000000000e+10    -1.414513741571206e+01   -1.498070224498540e+02   
1.000200000000000e+10    -1.415623770942895e+01   -1.499047814379829e+02   
1.000300000000000e+10    -1.417354640737114e+01   -1.501605822018228e+02   
1.000400000000000e+10    -1.417914028604626e+01   -1.503944648921370e+02   
1.000500000000000e+10    -1.418705160776809e+01   -1.505688105380081e+02   
1.000600000000000e+10    -1.420709419444943e+01   -1.507331064788137e+02   
1.000700000000000e+10    -1.421864317222888e+01   -1.508761264260365e+02   
1.000800000000000e+10    -1.422971868649113e+01   -1.510958018909962e+02   
1.000900000000000e+10    -1.424696154674399e+01   -1.513931762040557e+02   
1.001000000000000e+10    -1.426226220657395e+01   -1.514679178668768e+02   
1.001100000000000e+10    -1.427449801134928e+01   -1.517132064769448e+02   
1.001200000000000e+10    -1.427986067892305e+01   -1.518973540028268e+02   
1.001300000000000e+10    -1.430618101648805e+01   -1.521739290564678e+02   
1.001400000000000e+10    -1.430665141366894e+01   -1.523965471007450e+02   
1.001500000000000e+10    -1.432220638105392e+01   -1.525849051518314e+02   
1.001600000000000e+10    -1.432567805886008e+01   -1.527590313800440e+02   
1.001700000000000e+10    -1.434474039293383e+01   -1.530543395780078e+02   
1.001800000000000e+10    -1.434945811199670e+01   -1.532767841496114e+02   
1.001900000000000e+10    -1.436365541397469e+01   -1.534689349571329e+02   
1.002000000000000e+10    -1.437402693990413e+01   -1.537646308273518e+02   
1.002100000000000e+10    -1.438331510881679e+01   -1.539949184814109e+02   
1.002200000000000e+10    -1.439609172803672e+01   -1.541646079805972e+02   
1.002300000000000e+10    -1.439817006051951e+01   -1.543818799258204e+02   
1.002400000000000e+10    -1.440164310594308e+01   -1.546199127090867e+02   
1.002500000000000e+10    -1.442789150064679e+01   -1.548100506088605e+02   
1.002600000000000e+10    -1.443014700272610e+01   -1.551617223549650e+02   
1.002700000000000e+10    -1.443523414106951e+01   -1.553871368310886e+02   
1.002800000000000e+10    -1.445203987461440e+01   -1.555338417127461e+02   
1.002900000000000e+10    -1.445782587537875e+01   -1.557007680214727e+02   
1.003000000000000e+10    -1.448414594560233e+01   -1.559167517093527e+02   
1.003100000000000e+10    -1.447059874413619e+01   -1.561755371251468e+02   
1.003200000000000e+10    -1.448609809391843e+01   -1.564392519844479e+02   
1.003300000000000e+10    -1.448312953617284e+01   -1.566146709769780e+02   
1.003400000000000e+10    -1.449464590298893e+01   -1.567596022695171e+02   
1.003500000000000e+10    -1.451493765012227e+01   -1.570288569651909e+02   
1.003600000000000e+10    -1.450612930176166e+01   -1.571165809735910e+02   
1.003700000000000e+10    -1.452525019580045e+01   -1.573876331733433e+02   
1.003800000000000e+10    -1.453137144405677e+01   -1.576338870867202e+02   
1.003900000000000e+10    -1.454471126093836e+01   -1.578638222728184e+02   
1.004000000000000e+10    -1.453980934880905e+01   -1.580727597733891e+02   
1.004100000000000e+10    -1.455982123091653e+01   -1.582870114484744e+02   
1.004200000000000e+10    -1.455850795035984e+01   -1.584260015383852e+02   
1.004300000000000e+10    -1.457409682785596e+01   -1.586472674435171e+02   
1.004400000000000e+10    -1.458718142836535e+01   -1.588995729480676e+02   
1.004500000000000e+10    -1.458645549050558e+01   -1.590093132693763e+02   
1.004600000000000e+10    -1.460477108075843e+01   -1.592158413244451e+02   
1.004700000000000e+10    -1.461300336200777e+01   -1.594333369903588e+02   
1.004800000000000e+10    -1.461936658450426e+01   -1.595782941631472e+02   
1.004900000000000e+10    -1.462726068933872e+01   -1.597751554164999e+02   
1.005000000000000e+10    -1.463974648066180e+01   -1.600900788300907e+02   
1.005100000000000e+10    -1.462807590289438e+01   -1.601106888997516e+02   
1.005200000000000e+10    -1.465754720953077e+01   -1.602627484730378e+02   
1.005300000000000e+10    -1.466600003248768e+01   -1.605164316045079e+02   
1.005400000000000e+10    -1.467136604444499e+01   -1.607046485695621e+02   
1.005500000000000e+10    -1.468636977150235e+01   -1.608709689979128e+02   
1.005600000000000e+10    -1.471299260896987e+01   -1.610762154440883e+02   
1.005700000000000e+10    -1.471047679475562e+01   -1.611938489370139e+02   
1.005800000000000e+10    -1.472113019419005e+01   -1.614141308920305e+02   
1.005900000000000e+10    -1.473367946191740e+01   -1.616404376540727e+02   
1.006000000000000e+10    -1.474100689797641e+01   -1.617407726890637e+02   
1.006100000000000e+10    -1.476640729276349e+01   -1.618831508252987e+02   
1.006200000000000e+10    -1.477641044039705e+01   -1.620736797720777e+02   
1.006300000000000e+10    -1.479554222635480e+01   -1.622349817627883e+02   
1.006400000000000e+10    -1.479414616787803e+01   -1.623874926134860e+02   
1.006500000000000e+10    -1.481145375526835e+01   -1.625763058104994e+02   
1.006600000000000e+10    -1.483119794827399e+01   -1.626915662782940e+02   
1.006700000000000e+10    -1.484129129153216e+01   -1.629596175334420e+02   
1.006800000000000e+10    -1.485464168662643e+01   -1.630260888613887e+02   
1.006900000000000e+10    -1.487481550360145e+01   -1.631792996842541e+02   
1.007000000000000e+10    -1.488297038327221e+01   -1.633902051669144e+02   
1.007100000000000e+10    -1.489250057987578e+01   -1.635703753800622e+02   
1.007200000000000e+10    -1.492165191426236e+01   -1.636867919595852e+02   
1.007300000000000e+10    -1.493802196918938e+01   -1.639570049453056e+02   
1.007400000000000e+10    -1.494702235662096e+01   -1.640025892803519e+02   
1.007500000000000e+10    -1.498278117662616e+01   -1.642287413186057e+02   
1.007600000000000e+10    -1.500788059429543e+01   -1.644102367823373e+02   
1.007700000000000e+10    -1.501226964118550e+01   -1.645103253096554e+02   
1.007800000000000e+10    -1.503843166879800e+01   -1.646298712529096e+02   
1.007900000000000e+10    -1.505230220367791e+01   -1.648665624430847e+02   
1.008000000000000e+10    -1.509620597047383e+01   -1.650729056545113e+02   
1.008100000000000e+10    -1.510855154065320e+01   -1.651306706246064e+02   
1.008200000000000e+10    -1.512443235576207e+01   -1.652150660036060e+02   
1.008300000000000e+10    -1.515092154396616e+01   -1.654811708554488e+02   
1.008400000000000e+10    -1.518644442566428e+01   -1.656776107196104e+02   
1.008500000000000e+10    -1.519525569661129e+01   -1.657942622989491e+02   
1.008600000000000e+10    -1.522364154733590e+01   -1.659342504728774e+02   
1.008700000000000e+10    -1.524404004097532e+01   -1.661296006300332e+02   
1.008800000000000e+10    -1.526746782495699e+01   -1.663166555373806e+02   
1.008900000000000e+10    -1.530714164022153e+01   -1.664972844396241e+02   
1.009000000000000e+10    -1.532703402526133e+01   -1.666755814655874e+02   
1.009100000000000e+10    -1.536851021927712e+01   -1.668062018134966e+02   
1.009200000000000e+10    -1.538729512968355e+01   -1.670724763735529e+02   
1.009300000000000e+10    -1.539486115424654e+01   -1.672232410279917e+02   
1.009400000000000e+10    -1.543663519372245e+01   -1.674142617824087e+02   
1.009500000000000e+10    -1.546844338871662e+01   -1.675083681618032e+02   
1.009600000000000e+10    -1.548484881298949e+01   -1.676788398498915e+02   
1.009700000000000e+10    -1.551553519442001e+01   -1.679050434056087e+02   
1.009800000000000e+10    -1.552878700328840e+01   -1.680661819778175e+02   
1.009900000000000e+10    -1.557557214673609e+01   -1.681823936443901e+02   
1.010000000000000e+10    -1.559194023747833e+01   -1.685194975464914e+02   
1.010100000000000e+10    -1.562370835953892e+01   -1.686014943341788e+02   
1.010200000000000e+10    -1.564111495008566e+01   -1.687988667992835e+02   
1.010300000000000e+10    -1.568024575772511e+01   -1.689494846227323e+02   
1.010400000000000e+10    -1.569674970886296e+01   -1.691765722779997e+02   
1.010500000000000e+10    -1.570758526540849e+01   -1.694487185465932e+02   
1.010600000000000e+10    -1.575357108869917e+01   -1.696014504939918e+02   
1.010700000000000e+10    -1.577384849817491e+01   -1.697623516461245e+02   
1.010800000000000e+10    -1.577861734868161e+01   -1.700206158253195e+02   
1.010900000000000e+10    -1.580871891604177e+01   -1.701862327760514e+02   
1.011000000000000e+10    -1.582975051905919e+01   -1.703992934941397e+02   
1.011100000000000e+10    -1.586226792126977e+01   -1.705793436084423e+02   
1.011200000000000e+10    -1.587685607669433e+01   -1.708791194076391e+02   
1.011300000000000e+10    -1.592064591426118e+01   -1.709922829824872e+02   
1.011400000000000e+10    -1.593001478661978e+01   -1.710868717097701e+02   
1.011500000000000e+10    -1.596619673843312e+01   -1.713276003049320e+02   
1.011600000000000e+10    -1.598287067909622e+01   -1.716243045436108e+02   
1.011700000000000e+10    -1.601346214704506e+01   -1.716450014988932e+02   
1.011800000000000e+10    -1.604367829414372e+01   -1.719426529892710e+02   
1.011900000000000e+10    -1.605137706465486e+01   -1.720695609822601e+02   
1.012000000000000e+10    -1.607421536436781e+01   -1.721722622722507e+02   
1.012100000000000e+10    -1.610392816517746e+01   -1.724543730442951e+02   
1.012200000000000e+10    -1.612169274019989e+01   -1.725191431580514e+02   
1.012300000000000e+10    -1.613941305516487e+01   -1.727731155783654e+02   
1.012400000000000e+10    -1.617002938474742e+01   -1.728254681703107e+02   
1.012500000000000e+10    -1.620469923777158e+01   -1.730000461924954e+02   
1.012600000000000e+10    -1.622269612616595e+01   -1.731727297016663e+02   
1.012700000000000e+10    -1.623091953642941e+01   -1.733469900563310e+02   
1.012800000000000e+10    -1.626361023063570e+01   -1.735180793097306e+02   
1.012900000000000e+10    -1.627803837831392e+01   -1.736043223128195e+02   
1.013000000000000e+10    -1.630919935336148e+01   -1.739095848235596e+02   
1.013100000000000e+10    -1.633597210260554e+01   -1.738846778346406e+02   
1.013200000000000e+10    -1.634070967862917e+01   -1.741093678768956e+02   
1.013300000000000e+10    -1.636988406161737e+01   -1.741855262329563e+02   
1.013400000000000e+10    -1.639089351226324e+01   -1.744402980860967e+02   
1.013500000000000e+10    -1.641721717511093e+01   -1.745665980146286e+02   
1.013600000000000e+10    -1.642952688859459e+01   -1.747441886808472e+02   
1.013700000000000e+10    -1.646902261298536e+01   -1.747908223799028e+02   
1.013800000000000e+10    -1.647429952329486e+01   -1.750246343162470e+02   
1.013900000000000e+10    -1.649546587672522e+01   -1.750962615170503e+02   
1.014000000000000e+10    -1.653793438270027e+01   -1.753739437978756e+02   
1.014100000000000e+10    -1.655786441914554e+01   -1.754831441680695e+02   
1.014200000000000e+10    -1.658140868545195e+01   -1.756782478413406e+02   
1.014300000000000e+10    -1.659964742966808e+01   -1.757353789022032e+02   
1.014400000000000e+10    -1.662672411400381e+01   -1.759823301341902e+02   
1.014500000000000e+10    -1.664131903820230e+01   -1.760220584467690e+02   
1.014600000000000e+10    -1.666239551680598e+01   -1.761680636581440e+02   
1.014700000000000e+10    -1.668825027371268e+01   -1.763214012515650e+02   
1.014800000000000e+10    -1.670477477162830e+01   -1.765386799473252e+02   
1.014900000000000e+10    -1.673219680391890e+01   -1.765034235644466e+02   
1.015000000000000e+10    -1.676161094805213e+01   -1.768015770917107e+02   
1.015100000000000e+10    -1.677810664107124e+01   -1.767708490797517e+02   
1.015200000000000e+10    -1.680829013333686e+01   -1.769633281534672e+02   
1.015300000000000e+10    -1.681086647477643e+01   -1.770627652171482e+02   
1.015400000000000e+10    -1.685622539300396e+01   -1.772969518050099e+02   
1.015500000000000e+10    -1.687707315790964e+01   -1.773404896988046e+02   
1.015600000000000e+10    -1.691686213190877e+01   -1.774369607850915e+02   
1.015700000000000e+10    -1.693662672706777e+01   -1.775017646048385e+02   
1.015800000000000e+10    -1.696051089749885e+01   -1.775722479282371e+02   
1.015900000000000e+10    -1.696997099090043e+01   -1.777281411489212e+02   
1.016000000000000e+10    -1.699801776384673e+01   -1.779489932733951e+02   
1.016100000000000e+10    -1.703773786658638e+01   -1.780617141907674e+02   
1.016200000000000e+10    -1.706339134858059e+01   -1.781864217774704e+02   
1.016300000000000e+10    -1.708801525830131e+01   -1.782224045358356e+02   
1.016400000000000e+10    -1.712234715568013e+01   -1.783372948854214e+02   
1.016500000000000e+10    -1.715154510652118e+01   -1.783591939908384e+02   
1.016600000000000e+10    -1.718939637122613e+01   -1.785512261437665e+02   
1.016700000000000e+10    -1.720946557752572e+01   -1.787025607992874e+02   
1.016800000000000e+10    -1.724058268969488e+01   -1.787171587697214e+02   
1.016900000000000e+10    -1.726917125391419e+01   -1.789635364969262e+02   
1.017000000000000e+10    -1.729104969032652e+01   -1.790345747223876e+02   
1.017100000000000e+10    -1.732545893429558e+01   -1.792942322639345e+02   
1.017200000000000e+10    -1.737142237138494e+01   -1.792438022939075e+02   
1.017300000000000e+10    -1.740504614279070e+01   -1.793267132706408e+02   
1.017400000000000e+10    -1.742958879002621e+01   -1.794200296901290e+02   
1.017500000000000e+10    -1.748744453948202e+01   -1.796677095049323e+02   
1.017600000000000e+10    -1.747754085979520e+01   -1.796943324029452e+02   
1.017700000000000e+10    -1.752396641395327e+01   -1.798685862725530e+02   
1.017800000000000e+10    -1.756469200238195e+01   -1.799180721000644e+02   
1.017900000000000e+10    -1.757770382703099e+01   -1.799933440730259e+02   
1.018000000000000e+10    -1.764489523343306e+01   1.797764875486343e+02    
1.018100000000000e+10    -1.765974208187540e+01   1.797073673800527e+02    
1.018200000000000e+10    -1.770890840505683e+01   1.794569866208732e+02    
1.018300000000000e+10    -1.772501623660974e+01   1.793530010584619e+02    
1.018400000000000e+10    -1.774411502218694e+01   1.793148414988280e+02    
1.018500000000000e+10    -1.778024304539727e+01   1.790587657354151e+02    
1.018600000000000e+10    -1.781334775694427e+01   1.789963622467340e+02    
1.018700000000000e+10    -1.786188150537430e+01   1.787986438159393e+02    
1.018800000000000e+10    -1.790808539625670e+01   1.787583649143743e+02    
1.018900000000000e+10    -1.793487293930239e+01   1.786991350740339e+02    
1.019000000000000e+10    -1.796674003765208e+01   1.785229666066577e+02    
1.019100000000000e+10    -1.799101691492841e+01   1.783665506886064e+02    
1.019200000000000e+10    -1.801047128458694e+01   1.783097022209021e+02    
1.019300000000000e+10    -1.803948579522742e+01   1.782856285152547e+02    
1.019400000000000e+10    -1.808248852718338e+01   1.780663585954589e+02    
1.019500000000000e+10    -1.811793525296309e+01   1.780138680589351e+02    
1.019600000000000e+10    -1.814872981841525e+01   1.778054582725510e+02    
1.019700000000000e+10    -1.817503447373459e+01   1.777465535449738e+02    
1.019800000000000e+10    -1.818889991270871e+01   1.775905392727215e+02    
1.019900000000000e+10    -1.823040706282249e+01   1.775264711353113e+02    
1.020000000000000e+10    -1.828095463690797e+01   1.772699187557538e+02    
1.020100000000000e+10    -1.829020015761187e+01   1.773670155522499e+02    
1.020200000000000e+10    -1.834102086245857e+01   1.771671797234021e+02    
1.020300000000000e+10    -1.837598162188688e+01   1.772339804055775e+02    
1.020400000000000e+10    -1.841957364380767e+01   1.770334780726514e+02    
1.020500000000000e+10    -1.844398259347221e+01   1.768470887488001e+02    
1.020600000000000e+10    -1.846610540468477e+01   1.768587242813138e+02    
1.020700000000000e+10    -1.848149809513702e+01   1.767205108070471e+02    
1.020800000000000e+10    -1.853292233279971e+01   1.766614500090302e+02    
1.020900000000000e+10    -1.858205268722633e+01   1.763882793756755e+02    
1.021000000000000e+10    -1.861335127758655e+01   1.763231028847858e+02    
1.021100000000000e+10    -1.864276156389613e+01   1.762944569724768e+02    
1.021200000000000e+10    -1.870167773098421e+01   1.761045198879648e+02    
1.021300000000000e+10    -1.873057826997462e+01   1.760386135619240e+02    
1.021400000000000e+10    -1.877164417051845e+01   1.759486351842922e+02    
1.021500000000000e+10    -1.880847889670547e+01   1.759730116185115e+02    
1.021600000000000e+10    -1.883373165892639e+01   1.757643099521949e+02    
1.021700000000000e+10    -1.886964207680137e+01   1.756729233906438e+02    
1.021800000000000e+10    -1.891119526403819e+01   1.756493708394275e+02    
1.021900000000000e+10    -1.897081347117465e+01   1.755609056330250e+02    
1.022000000000000e+10    -1.899763774239068e+01   1.754028120685468e+02    
1.022100000000000e+10    -1.901494875769578e+01   1.753505947247515e+02    
1.022200000000000e+10    -1.910038887140298e+01   1.752296056394853e+02    
1.022300000000000e+10    -1.912866370320920e+01   1.751816082535702e+02    
1.022400000000000e+10    -1.916418035445397e+01   1.749884448292067e+02    
1.022500000000000e+10    -1.920695240143498e+01   1.750514724520962e+02    
1.022600000000000e+10    -1.925124408443700e+01   1.746767030914118e+02    
1.022700000000000e+10    -1.928775055359279e+01   1.746809063522047e+02    
1.022800000000000e+10    -1.932684757052025e+01   1.746051032151707e+02    
1.022900000000000e+10    -1.936038361280799e+01   1.743910645890834e+02    
1.023000000000000e+10    -1.938531453265815e+01   1.743921548206747e+02    
1.023100000000000e+10    -1.941650941341787e+01   1.742804796296089e+02    
1.023200000000000e+10    -1.946512470960582e+01   1.740445676065272e+02    
1.023300000000000e+10    -1.951709157106356e+01   1.740064278864465e+02    
1.023400000000000e+10    -1.954685836672691e+01   1.738553631344505e+02    
1.023500000000000e+10    -1.963657769396072e+01   1.737446780647352e+02    
1.023600000000000e+10    -1.963143678449265e+01   1.738547548229172e+02    
1.023700000000000e+10    -1.967649733641824e+01   1.735305078185316e+02    
1.023800000000000e+10    -1.972289104986046e+01   1.736251108487615e+02    
1.023900000000000e+10    -1.974080233846841e+01   1.733059898483571e+02    
1.024000000000000e+10    -1.981677549190922e+01   1.732367667320066e+02    
1.024100000000000e+10    -1.984003492457026e+01   1.734063326653968e+02    
1.024200000000000e+10    -1.987671160000960e+01   1.731529635005017e+02    
1.024300000000000e+10    -1.993868165909391e+01   1.730103415586505e+02    
1.024400000000000e+10    -1.997275580013084e+01   1.728511014812806e+02    
1.024500000000000e+10    -1.999135680223538e+01   1.729069049064729e+02    
1.024600000000000e+10    -2.003422966507753e+01   1.726843349164466e+02    
1.024700000000000e+10    -2.007392961300445e+01   1.726077318896170e+02    
1.024800000000000e+10    -2.012794919118306e+01   1.726392883141020e+02    
1.024900000000000e+10    -2.018065466222096e+01   1.722635732872829e+02    
1.025000000000000e+10    -2.019513657238289e+01   1.722767781850533e+02    
1.025100000000000e+10    -2.022959268231820e+01   1.724115623435548e+02    
1.025200000000000e+10    -2.027789847955373e+01   1.720574883268538e+02    
1.025300000000000e+10    -2.030162266804210e+01   1.722171748953799e+02    
1.025400000000000e+10    -2.035154222784393e+01   1.720904920476720e+02    
1.025500000000000e+10    -2.041432608040859e+01   1.718426578205277e+02    
1.025600000000000e+10    -2.044603011530333e+01   1.717772555124571e+02    
