[Version] 2.0
! Rohde & Schwarz Vector Network Analyzer
! Rohde-Schwarz,ZNL20-2Port,1323001220200009,1.71.1.10-23.02.1.238
! 
! Port Assignments:
! Nominal Port -> Actual Test Port
! --------------------------------
!   1 -> 1

! Created: GMT 2024-08-27 12:53:23

# Hz S DB R 50

[Number of Ports] 1
[Number of Frequencies] 2001

[Network Data] 
! freq[Hz]               S11[mag dB]              S11[ang]                 
1.000000000000000e+10    -1.399045242954398e+01   -1.481018792730659e+02   
1.000100000000000e+10    -1.400774896312405e+01   -1.482240060504828e+02   
1.000200000000000e+10    -1.401538804862153e+01   -1.483206484142179e+02   
1.000300000000000e+10    -1.403117856011659e+01   -1.485650184131287e+02   
1.000400000000000e+10    -1.403629834621407e+01   -1.488125178283947e+02   
1.000500000000000e+10    -1.404353987287241e+01   -1.489875171171984e+02   
1.000600000000000e+10    -1.405960360723996e+01   -1.491534904306044e+02   
1.000700000000000e+10    -1.407005170045728e+01   -1.492985296383910e+02   
1.000800000000000e+10    -1.408094323295218e+01   -1.495214821234850e+02   
1.000900000000000e+10    -1.409510639548620e+01   -1.498054625259826e+02   
1.001000000000000e+10    -1.411033402474690e+01   -1.498884483473750e+02   
1.001100000000000e+10    -1.412026309838966e+01   -1.501407442242036e+02   
1.001200000000000e+10    -1.412525857031668e+01   -1.503234708316025e+02   
1.001300000000000e+10    -1.415014617158408e+01   -1.505878703346323e+02   
1.001400000000000e+10    -1.414966424165537e+01   -1.508102040491430e+02   
1.001500000000000e+10    -1.416526506895415e+01   -1.510033929233600e+02   
1.001600000000000e+10    -1.416548090523079e+01   -1.511802513541036e+02   
1.001700000000000e+10    -1.418299473965705e+01   -1.514696216684828e+02   
1.001800000000000e+10    -1.418692946063006e+01   -1.516931998839409e+02   
1.001900000000000e+10    -1.419978754384953e+01   -1.518909560546414e+02   
1.002000000000000e+10    -1.420914071591124e+01   -1.521740856634796e+02   
1.002100000000000e+10    -1.421707352264339e+01   -1.524161617765923e+02   
1.002200000000000e+10    -1.422583206253752e+01   -1.525816300142624e+02   
1.002300000000000e+10    -1.422820275776779e+01   -1.528122920430983e+02   
1.002400000000000e+10    -1.423073034678318e+01   -1.530386091767871e+02   
1.002500000000000e+10    -1.425552711349568e+01   -1.532181261203042e+02   
1.002600000000000e+10    -1.425753145936747e+01   -1.535688975436711e+02   
1.002700000000000e+10    -1.426012148582764e+01   -1.537939156982630e+02   
1.002800000000000e+10    -1.427406061897642e+01   -1.539582159183380e+02   
1.002900000000000e+10    -1.427745691645907e+01   -1.541208064452399e+02   
1.003000000000000e+10    -1.430264950241813e+01   -1.543421108296444e+02   
1.003100000000000e+10    -1.428823579755906e+01   -1.546087683428717e+02   
1.003200000000000e+10    -1.430040625202945e+01   -1.548621630034237e+02   
1.003300000000000e+10    -1.429435506098289e+01   -1.550545123977688e+02   
1.003400000000000e+10    -1.430538399914837e+01   -1.552030456034755e+02   
1.003500000000000e+10    -1.432204014636516e+01   -1.554798249667727e+02   
1.003600000000000e+10    -1.431248774187287e+01   -1.555622628005849e+02   
1.003700000000000e+10    -1.432961343781360e+01   -1.558627197180040e+02   
1.003800000000000e+10    -1.433424422696534e+01   -1.560997323258797e+02   
1.003900000000000e+10    -1.434760715538480e+01   -1.563323035586068e+02   
1.004000000000000e+10    -1.434170817450980e+01   -1.565541591982679e+02   
1.004100000000000e+10    -1.435938028904407e+01   -1.567584325242772e+02   
1.004200000000000e+10    -1.435469263909118e+01   -1.569161774849645e+02   
1.004300000000000e+10    -1.436877141919289e+01   -1.571289081505437e+02   
1.004400000000000e+10    -1.438163213809124e+01   -1.573913032975418e+02   
1.004500000000000e+10    -1.437855519060858e+01   -1.575140917389980e+02   
1.004600000000000e+10    -1.439542791917962e+01   -1.577186537351468e+02   
1.004700000000000e+10    -1.440195391864990e+01   -1.579518774762690e+02   
1.004800000000000e+10    -1.440787153463269e+01   -1.581140443959494e+02   
1.004900000000000e+10    -1.441368630652226e+01   -1.583101915849869e+02   
1.005000000000000e+10    -1.442567576692147e+01   -1.586260441191282e+02   
1.005100000000000e+10    -1.441056876118577e+01   -1.586594740068647e+02   
1.005200000000000e+10    -1.443936698610885e+01   -1.588167662290136e+02   
1.005300000000000e+10    -1.444359061161100e+01   -1.590849016565908e+02   
1.005400000000000e+10    -1.445232734286168e+01   -1.592811245677000e+02   
1.005500000000000e+10    -1.446306291469408e+01   -1.594422993858372e+02   
1.005600000000000e+10    -1.448781664942797e+01   -1.596648315549177e+02   
1.005700000000000e+10    -1.448178392812184e+01   -1.597762614239544e+02   
1.005800000000000e+10    -1.449330314780997e+01   -1.600132858208681e+02   
1.005900000000000e+10    -1.450447352421221e+01   -1.602442576126665e+02   
1.006000000000000e+10    -1.450914227662782e+01   -1.603609532245920e+02   
1.006100000000000e+10    -1.453318393909897e+01   -1.605079129454768e+02   
1.006200000000000e+10    -1.454101952619211e+01   -1.607070477458087e+02   
1.006300000000000e+10    -1.455891090117498e+01   -1.608747287936711e+02   
1.006400000000000e+10    -1.455716283228368e+01   -1.610468835941737e+02   
1.006500000000000e+10    -1.457316575996662e+01   -1.612453563539729e+02   
1.006600000000000e+10    -1.459136307729507e+01   -1.613593516081272e+02   
1.006700000000000e+10    -1.459891664765463e+01   -1.616438475372077e+02   
1.006800000000000e+10    -1.461135668602054e+01   -1.617279089744817e+02   
1.006900000000000e+10    -1.463094728023018e+01   -1.618769941562279e+02   
1.007000000000000e+10    -1.463877020598007e+01   -1.621150672648781e+02   
1.007100000000000e+10    -1.464564028516849e+01   -1.623062615785342e+02   
1.007200000000000e+10    -1.467276915431657e+01   -1.624148672787549e+02   
1.007300000000000e+10    -1.468712672815535e+01   -1.627063074881026e+02   
1.007400000000000e+10    -1.469591230933572e+01   -1.627524466762360e+02   
1.007500000000000e+10    -1.473057295212285e+01   -1.629893777404454e+02   
1.007600000000000e+10    -1.475197312420631e+01   -1.631902465263755e+02   
1.007700000000000e+10    -1.475831069831845e+01   -1.632953315990645e+02   
1.007800000000000e+10    -1.478291808643126e+01   -1.634290388410521e+02   
1.007900000000000e+10    -1.479452710320168e+01   -1.636725184402713e+02   
1.008000000000000e+10    -1.483614600648811e+01   -1.638638122202929e+02   
1.008100000000000e+10    -1.484739259744757e+01   -1.639520028677161e+02   
1.008200000000000e+10    -1.486131423804146e+01   -1.640472125169719e+02   
1.008300000000000e+10    -1.488616291825922e+01   -1.643010738180349e+02   
1.008400000000000e+10    -1.491966759663805e+01   -1.645135116299147e+02   
1.008500000000000e+10    -1.492710360457117e+01   -1.646437019421886e+02   
1.008600000000000e+10    -1.495365242991176e+01   -1.648021183109599e+02   
1.008700000000000e+10    -1.497138429189721e+01   -1.650077891171013e+02   
1.008800000000000e+10    -1.499283423688555e+01   -1.651998173331376e+02   
1.008900000000000e+10    -1.503310363086978e+01   -1.653898371278453e+02   
1.009000000000000e+10    -1.505249244201562e+01   -1.655926268728177e+02   
1.009100000000000e+10    -1.508969959549212e+01   -1.657323610710796e+02   
1.009200000000000e+10    -1.510888144711520e+01   -1.660153494420884e+02   
1.009300000000000e+10    -1.511680331348853e+01   -1.661600842664327e+02   
1.009400000000000e+10    -1.515573985061039e+01   -1.663637595098940e+02   
1.009500000000000e+10    -1.518612512867550e+01   -1.664687907246601e+02   
1.009600000000000e+10    -1.520305479672319e+01   -1.666485447789485e+02   
1.009700000000000e+10    -1.523516314451584e+01   -1.668889899295748e+02   
1.009800000000000e+10    -1.524781270267967e+01   -1.670534565165597e+02   
1.009900000000000e+10    -1.529041083125737e+01   -1.671766625148812e+02   
1.010000000000000e+10    -1.530848954653366e+01   -1.675248747111530e+02   
1.010100000000000e+10    -1.534041243350302e+01   -1.676305033892923e+02   
1.010200000000000e+10    -1.535670286548635e+01   -1.678326382276508e+02   
1.010300000000000e+10    -1.539568001268544e+01   -1.679837698189069e+02   
1.010400000000000e+10    -1.541197430979008e+01   -1.682231769425063e+02   
1.010500000000000e+10    -1.542448765999017e+01   -1.685000542595842e+02   
1.010600000000000e+10    -1.546494157092223e+01   -1.686315965356877e+02   
1.010700000000000e+10    -1.548680649043941e+01   -1.688051858576903e+02   
1.010800000000000e+10    -1.549253549492132e+01   -1.690553289875095e+02   
1.010900000000000e+10    -1.552174261343902e+01   -1.692211729367790e+02   
1.011000000000000e+10    -1.553939637376316e+01   -1.694520445820920e+02   
1.011100000000000e+10    -1.557177527602070e+01   -1.696368023803230e+02   
1.011200000000000e+10    -1.558614562791976e+01   -1.699263729034318e+02   
1.011300000000000e+10    -1.562661893460913e+01   -1.700509319693185e+02   
1.011400000000000e+10    -1.563612920579929e+01   -1.701588407261279e+02   
1.011500000000000e+10    -1.567077884101696e+01   -1.703975930920036e+02   
1.011600000000000e+10    -1.568878240162028e+01   -1.707067617554309e+02   
1.011700000000000e+10    -1.571599477260938e+01   -1.707389441319731e+02   
1.011800000000000e+10    -1.574537802617363e+01   -1.710277566753906e+02   
1.011900000000000e+10    -1.575420584415913e+01   -1.711596228279911e+02   
1.012000000000000e+10    -1.577562194982302e+01   -1.712754826177102e+02   
1.012100000000000e+10    -1.580411964587691e+01   -1.715454584511847e+02   
1.012200000000000e+10    -1.582078000215240e+01   -1.716356581880778e+02   
1.012300000000000e+10    -1.583780193313914e+01   -1.718859451022560e+02   
1.012400000000000e+10    -1.586542643298601e+01   -1.719497011941894e+02   
1.012500000000000e+10    -1.589773539986451e+01   -1.721276999232658e+02   
1.012600000000000e+10    -1.591678804429323e+01   -1.723079038957639e+02   
1.012700000000000e+10    -1.592928329364066e+01   -1.724894852405016e+02   
1.012800000000000e+10    -1.595852206624592e+01   -1.726410801088534e+02   
1.012900000000000e+10    -1.597238858228411e+01   -1.727639149902140e+02   
1.013000000000000e+10    -1.600047178273800e+01   -1.730549048891567e+02   
1.013100000000000e+10    -1.602577189260078e+01   -1.730472364572529e+02   
1.013200000000000e+10    -1.602994729205023e+01   -1.732823200364094e+02   
1.013300000000000e+10    -1.605900922132585e+01   -1.733707542096291e+02   
1.013400000000000e+10    -1.608005991171542e+01   -1.736223168416397e+02   
1.013500000000000e+10    -1.610388401370288e+01   -1.737480974244853e+02   
1.013600000000000e+10    -1.611663383859891e+01   -1.739550541645695e+02   
1.013700000000000e+10    -1.615434598288149e+01   -1.740060958810968e+02   
1.013800000000000e+10    -1.616117764418829e+01   -1.742483003252069e+02   
1.013900000000000e+10    -1.618137493156843e+01   -1.743259932233318e+02   
1.014000000000000e+10    -1.622128426244031e+01   -1.746066391348490e+02   
1.014100000000000e+10    -1.624141696920073e+01   -1.747084212348010e+02   
1.014200000000000e+10    -1.626571066299737e+01   -1.749072005062852e+02   
1.014300000000000e+10    -1.628279345988859e+01   -1.749849521303633e+02   
1.014400000000000e+10    -1.630568652599900e+01   -1.752412787986115e+02   
1.014500000000000e+10    -1.632061616559320e+01   -1.752747069470376e+02   
1.014600000000000e+10    -1.634205765600022e+01   -1.754275212382992e+02   
1.014700000000000e+10    -1.636825014259447e+01   -1.755895084346348e+02   
1.014800000000000e+10    -1.638292231735701e+01   -1.758026673149116e+02   
1.014900000000000e+10    -1.640812300554253e+01   -1.757851870915277e+02   
1.015000000000000e+10    -1.643775798555827e+01   -1.760897593257546e+02   
1.015100000000000e+10    -1.645383861558761e+01   -1.760747257182136e+02   
1.015200000000000e+10    -1.648250515876722e+01   -1.762677894561778e+02   
1.015300000000000e+10    -1.648610001746591e+01   -1.763763502703090e+02   
1.015400000000000e+10    -1.652649921849348e+01   -1.766207957700574e+02   
1.015500000000000e+10    -1.654807827464305e+01   -1.766805023789198e+02   
1.015600000000000e+10    -1.658612049406075e+01   -1.767589483797745e+02   
1.015700000000000e+10    -1.660361484301328e+01   -1.768352270995623e+02   
1.015800000000000e+10    -1.663067573694298e+01   -1.769124945952240e+02   
1.015900000000000e+10    -1.663609192236661e+01   -1.770909460192270e+02   
1.016000000000000e+10    -1.666480059829717e+01   -1.773060355393128e+02   
1.016100000000000e+10    -1.670338638564651e+01   -1.774264231116155e+02   
1.016200000000000e+10    -1.672918495773050e+01   -1.775515535713728e+02   
1.016300000000000e+10    -1.674984450781754e+01   -1.775848449110800e+02   
1.016400000000000e+10    -1.678366029338714e+01   -1.777193909726194e+02   
1.016500000000000e+10    -1.681210206667159e+01   -1.777642807246642e+02   
1.016600000000000e+10    -1.684815031930910e+01   -1.779631887975393e+02   
1.016700000000000e+10    -1.686939023637737e+01   -1.781072462415225e+02   
1.016800000000000e+10    -1.689781897904712e+01   -1.781249495724338e+02   
1.016900000000000e+10    -1.692406420257004e+01   -1.783802379633813e+02   
1.017000000000000e+10    -1.694715305915554e+01   -1.784674131300445e+02   
1.017100000000000e+10    -1.698025084372196e+01   -1.787096812694696e+02   
1.017200000000000e+10    -1.702060775758756e+01   -1.786713612989303e+02   
1.017300000000000e+10    -1.705379933822138e+01   -1.787550579187998e+02   
1.017400000000000e+10    -1.707659121059793e+01   -1.788656280851770e+02   
1.017500000000000e+10    -1.713627934439742e+01   -1.791225913817863e+02   
1.017600000000000e+10    -1.712302021008720e+01   -1.791688567046802e+02   
1.017700000000000e+10    -1.716886916475874e+01   -1.793339598514229e+02   
1.017800000000000e+10    -1.720482429838689e+01   -1.794050860546755e+02   
1.017900000000000e+10    -1.721649213107917e+01   -1.794741955143612e+02   
1.018000000000000e+10    -1.727904230728880e+01   -1.797129676476466e+02   
1.018100000000000e+10    -1.729391767326493e+01   -1.797869627592395e+02   
1.018200000000000e+10    -1.734155253713507e+01   1.799377152453718e+02    
1.018300000000000e+10    -1.735537080730580e+01   1.798163440367761e+02    
1.018400000000000e+10    -1.737407041424113e+01   1.797717921306659e+02    
1.018500000000000e+10    -1.740931906434994e+01   1.795034089693166e+02    
1.018600000000000e+10    -1.744565374435821e+01   1.794329150961611e+02    
1.018700000000000e+10    -1.748878068710622e+01   1.792456563942006e+02    
1.018800000000000e+10    -1.753428375608614e+01   1.792083851575814e+02    
1.018900000000000e+10    -1.756215824288038e+01   1.791150239179181e+02    
1.019000000000000e+10    -1.758983056669745e+01   1.789571135658827e+02    
1.019100000000000e+10    -1.761497464212282e+01   1.788099816025446e+02    
1.019200000000000e+10    -1.763231503913790e+01   1.787477711200666e+02    
1.019300000000000e+10    -1.765939404070728e+01   1.786928884036623e+02    
1.019400000000000e+10    -1.769834300795694e+01   1.785019069813321e+02    
1.019500000000000e+10    -1.773065157912265e+01   1.784241916436597e+02    
1.019600000000000e+10    -1.776030276981401e+01   1.782231438859552e+02    
1.019700000000000e+10    -1.778641866655096e+01   1.781555093223002e+02    
1.019800000000000e+10    -1.780283651879427e+01   1.779830953709385e+02    
1.019900000000000e+10    -1.783843465726205e+01   1.779245526877906e+02    
1.020000000000000e+10    -1.788631848248809e+01   1.776627797207236e+02    
1.020100000000000e+10    -1.789598670033795e+01   1.777494756515481e+02    
1.020200000000000e+10    -1.794017273996395e+01   1.775678842354804e+02    
1.020300000000000e+10    -1.797339164348162e+01   1.776155318097193e+02    
1.020400000000000e+10    -1.801603397290610e+01   1.774020172953153e+02    
1.020500000000000e+10    -1.803639774009361e+01   1.772266844379793e+02    
1.020600000000000e+10    -1.806247115325452e+01   1.772322577055592e+02    
1.020700000000000e+10    -1.807312473158759e+01   1.771019718294090e+02    
1.020800000000000e+10    -1.811853028840090e+01   1.770006221969842e+02    
1.020900000000000e+10    -1.816503651495044e+01   1.767484172884762e+02    
1.021000000000000e+10    -1.819450320521035e+01   1.766571733184620e+02    
1.021100000000000e+10    -1.822183350896245e+01   1.766384178021898e+02    
1.021200000000000e+10    -1.827412030674121e+01   1.764249821298782e+02    
1.021300000000000e+10    -1.830155867968158e+01   1.763230136715797e+02    
1.021400000000000e+10    -1.834101777419951e+01   1.762659105471189e+02    
1.021500000000000e+10    -1.837530678696295e+01   1.762531727042675e+02    
1.021600000000000e+10    -1.840017471144247e+01   1.760313827794704e+02    
1.021700000000000e+10    -1.843611996741122e+01   1.759686336674058e+02    
1.021800000000000e+10    -1.847354939674036e+01   1.759002378811035e+02    
1.021900000000000e+10    -1.852987080884893e+01   1.758139987935570e+02    
1.022000000000000e+10    -1.855585167710932e+01   1.756713683451236e+02    
1.022100000000000e+10    -1.857174009427737e+01   1.755875478058145e+02    
1.022200000000000e+10    -1.864870423127250e+01   1.754682073024616e+02    
1.022300000000000e+10    -1.867379786339939e+01   1.753997139448910e+02    
1.022400000000000e+10    -1.870849785826836e+01   1.751987135550666e+02    
1.022500000000000e+10    -1.874643047545354e+01   1.752448054775717e+02    
1.022600000000000e+10    -1.878891364791005e+01   1.748737731984136e+02    
1.022700000000000e+10    -1.882302534575179e+01   1.748471170372844e+02    
1.022800000000000e+10    -1.885555026198686e+01   1.747511875583570e+02    
1.022900000000000e+10    -1.889048531459568e+01   1.745458229288108e+02    
1.023000000000000e+10    -1.890913238992472e+01   1.745119100735371e+02    
1.023100000000000e+10    -1.894000396610992e+01   1.743918030905464e+02    
1.023200000000000e+10    -1.898607745906780e+01   1.741811174409664e+02    
1.023300000000000e+10    -1.903450412421673e+01   1.741176540197605e+02    
1.023400000000000e+10    -1.905978261146052e+01   1.739507949192424e+02    
1.023500000000000e+10    -1.914472094886236e+01   1.738092750773715e+02    
1.023600000000000e+10    -1.914181174576956e+01   1.739126476761695e+02    
1.023700000000000e+10    -1.918326187270304e+01   1.735755960080949e+02    
1.023800000000000e+10    -1.922724081607894e+01   1.736439042397445e+02    
1.023900000000000e+10    -1.924429662327092e+01   1.733108816471112e+02    
1.024000000000000e+10    -1.931318240014132e+01   1.732385676238889e+02    
1.024100000000000e+10    -1.933579112625248e+01   1.733631648195079e+02    
1.024200000000000e+10    -1.936811728899441e+01   1.731207314059887e+02    
1.024300000000000e+10    -1.942496638364239e+01   1.729476935459950e+02    
1.024400000000000e+10    -1.945811187352536e+01   1.727759978223802e+02    
1.024500000000000e+10    -1.947848698050414e+01   1.728113425979160e+02    
1.024600000000000e+10    -1.951668248447448e+01   1.725632605385090e+02    
1.024700000000000e+10    -1.955439849630682e+01   1.724715924496421e+02    
1.024800000000000e+10    -1.960275000154743e+01   1.724681009541931e+02    
1.024900000000000e+10    -1.965197475691648e+01   1.721259150209016e+02    
1.025000000000000e+10    -1.966720772458157e+01   1.721019468794921e+02    
1.025100000000000e+10    -1.969614912117114e+01   1.722093246269479e+02    
1.025200000000000e+10    -1.974259169498435e+01   1.718390191306074e+02    
1.025300000000000e+10    -1.976702729779283e+01   1.719572296714892e+02    
1.025400000000000e+10    -1.981195073619631e+01   1.718119353401893e+02    
1.025500000000000e+10    -1.987288186689615e+01   1.715819691563999e+02    
1.025600000000000e+10    -1.989967998520540e+01   1.714784041714396e+02    
