[Version] 2.0
! Rohde & Schwarz Vector Network Analyzer
! Rohde-Schwarz,ZNL20-2Port,1323001220200009,1.71.1.10-23.02.1.238
! 
! Port Assignments:
! Nominal Port -> Actual Test Port
! --------------------------------
!   1 -> 1

! Created: GMT 2024-08-27 12:55:04

# Hz S DB R 50

[Number of Ports] 1
[Number of Frequencies] 2001

[Network Data] 
! freq[Hz]               S11[mag dB]              S11[ang]                 
1.000000000000000e+10    -1.388579994226994e+01   -1.466202691360116e+02   
1.000100000000000e+10    -1.389943657754310e+01   -1.467430891642001e+02   
1.000200000000000e+10    -1.390781380335418e+01   -1.468291348504072e+02   
1.000300000000000e+10    -1.392067887242676e+01   -1.470739163180880e+02   
1.000400000000000e+10    -1.392540444021126e+01   -1.473304526665742e+02   
1.000500000000000e+10    -1.393125890278903e+01   -1.474950568806069e+02   
1.000600000000000e+10    -1.394763940147877e+01   -1.476622017316194e+02   
1.000700000000000e+10    -1.395633967029721e+01   -1.477910175573123e+02   
1.000800000000000e+10    -1.396663040629312e+01   -1.480248666600376e+02   
1.000900000000000e+10    -1.398216061782291e+01   -1.483022677179427e+02   
1.001000000000000e+10    -1.399239933587630e+01   -1.483798034383939e+02   
1.001100000000000e+10    -1.400372976503007e+01   -1.486247891129193e+02   
1.001200000000000e+10    -1.400591633427852e+01   -1.488078545881301e+02   
1.001300000000000e+10    -1.403097045623876e+01   -1.490613680562503e+02   
1.001400000000000e+10    -1.402929785096983e+01   -1.492908655383246e+02   
1.001500000000000e+10    -1.404064528921479e+01   -1.494760679091509e+02   
1.001600000000000e+10    -1.404103981717299e+01   -1.496495294191796e+02   
1.001700000000000e+10    -1.405975864087885e+01   -1.499430792809460e+02   
1.001800000000000e+10    -1.406156472243259e+01   -1.501598721311921e+02   
1.001900000000000e+10    -1.407362553416561e+01   -1.503527904087873e+02   
1.002000000000000e+10    -1.408144677904582e+01   -1.506409989602756e+02   
1.002100000000000e+10    -1.408871288637847e+01   -1.508714255416108e+02   
1.002200000000000e+10    -1.409719935783807e+01   -1.510430784786072e+02   
1.002300000000000e+10    -1.409883612449857e+01   -1.512619300073322e+02   
1.002400000000000e+10    -1.409930750586179e+01   -1.515050796558476e+02   
1.002500000000000e+10    -1.412389374928438e+01   -1.516872360302181e+02   
1.002600000000000e+10    -1.412470756202481e+01   -1.520342596991233e+02   
1.002700000000000e+10    -1.412697034242921e+01   -1.522569263989223e+02   
1.002800000000000e+10    -1.413897983215230e+01   -1.524186180094884e+02   
1.002900000000000e+10    -1.414335730128009e+01   -1.525895350953232e+02   
1.003000000000000e+10    -1.416530267808739e+01   -1.528024086556368e+02   
1.003100000000000e+10    -1.415096455614155e+01   -1.530758700961858e+02   
1.003200000000000e+10    -1.416372921633051e+01   -1.533181139383005e+02   
1.003300000000000e+10    -1.415805013061155e+01   -1.535202356697503e+02   
1.003400000000000e+10    -1.416698871534321e+01   -1.536707193200136e+02   
1.003500000000000e+10    -1.418256003076980e+01   -1.539426151155333e+02   
1.003600000000000e+10    -1.417205378799067e+01   -1.540373224047707e+02   
1.003700000000000e+10    -1.418853736080932e+01   -1.543173033898226e+02   
1.003800000000000e+10    -1.419239629614994e+01   -1.545603727278124e+02   
1.003900000000000e+10    -1.420511516975697e+01   -1.547819790452939e+02   
1.004000000000000e+10    -1.419385937804552e+01   -1.550028227288300e+02   
1.004100000000000e+10    -1.421258202151915e+01   -1.552043320416528e+02   
1.004200000000000e+10    -1.420626974099009e+01   -1.553684514645793e+02   
1.004300000000000e+10    -1.421909908331551e+01   -1.555785151428654e+02   
1.004400000000000e+10    -1.423079638302583e+01   -1.558361454872372e+02   
1.004500000000000e+10    -1.422535115132681e+01   -1.559753918702678e+02   
1.004600000000000e+10    -1.424093337171600e+01   -1.561639937500271e+02   
1.004700000000000e+10    -1.424644700195035e+01   -1.563970104076332e+02   
1.004800000000000e+10    -1.425040009526638e+01   -1.565584237990418e+02   
1.004900000000000e+10    -1.425537297390450e+01   -1.567670362527372e+02   
1.005000000000000e+10    -1.426526619876501e+01   -1.570722024922224e+02   
1.005100000000000e+10    -1.425105406941322e+01   -1.571081243080961e+02   
1.005200000000000e+10    -1.427732466742012e+01   -1.572715346911469e+02   
1.005300000000000e+10    -1.428048606322146e+01   -1.575366263983551e+02   
1.005400000000000e+10    -1.428651651212642e+01   -1.577179419487833e+02   
1.005500000000000e+10    -1.429599282483231e+01   -1.578911132579214e+02   
1.005600000000000e+10    -1.431968596170075e+01   -1.581154762622719e+02   
1.005700000000000e+10    -1.431277976665018e+01   -1.582439652631468e+02   
1.005800000000000e+10    -1.432107003236487e+01   -1.584676894768442e+02   
1.005900000000000e+10    -1.433165124433747e+01   -1.586839756562449e+02   
1.006000000000000e+10    -1.433513488461897e+01   -1.588100529624687e+02   
1.006100000000000e+10    -1.435712843011084e+01   -1.589634613500531e+02   
1.006200000000000e+10    -1.436339459604818e+01   -1.591662927891517e+02   
1.006300000000000e+10    -1.437730498624897e+01   -1.593220102587241e+02   
1.006400000000000e+10    -1.437510252284991e+01   -1.595092334655666e+02   
1.006500000000000e+10    -1.438964974132956e+01   -1.597005273140411e+02   
1.006600000000000e+10    -1.440373211273702e+01   -1.598183665136581e+02   
1.006700000000000e+10    -1.441260819072330e+01   -1.600967484855268e+02   
1.006800000000000e+10    -1.442151241548360e+01   -1.601815429229098e+02   
1.006900000000000e+10    -1.443883839134863e+01   -1.603562118905705e+02   
1.007000000000000e+10    -1.444421284238954e+01   -1.605759042063577e+02   
1.007100000000000e+10    -1.444962173085779e+01   -1.607611592000165e+02   
1.007200000000000e+10    -1.447372888031322e+01   -1.608919430520898e+02   
1.007300000000000e+10    -1.448785433601842e+01   -1.611796741281929e+02   
1.007400000000000e+10    -1.449595116096553e+01   -1.612264425459064e+02   
1.007500000000000e+10    -1.452763389027798e+01   -1.614596136719459e+02   
1.007600000000000e+10    -1.454777898612842e+01   -1.616680826848277e+02   
1.007700000000000e+10    -1.455166217404575e+01   -1.617739541703055e+02   
1.007800000000000e+10    -1.457283089046225e+01   -1.619123390030739e+02   
1.007900000000000e+10    -1.458260147979042e+01   -1.621548981815266e+02   
1.008000000000000e+10    -1.462213320672362e+01   -1.623488679303742e+02   
1.008100000000000e+10    -1.463031080580799e+01   -1.624521175023109e+02   
1.008200000000000e+10    -1.464384494238758e+01   -1.625478314483665e+02   
1.008300000000000e+10    -1.466674102711479e+01   -1.628220606768229e+02   
1.008400000000000e+10    -1.469820600717647e+01   -1.630196593886881e+02   
1.008500000000000e+10    -1.470461914196443e+01   -1.631564383316037e+02   
1.008600000000000e+10    -1.472979864697885e+01   -1.633225602852218e+02   
1.008700000000000e+10    -1.474608757876123e+01   -1.635179362735520e+02   
1.008800000000000e+10    -1.476659131597011e+01   -1.637248018467212e+02   
1.008900000000000e+10    -1.480382052573965e+01   -1.639164783584088e+02   
1.009000000000000e+10    -1.482156207782767e+01   -1.641183300070694e+02   
1.009100000000000e+10    -1.485784672323501e+01   -1.642583735022730e+02   
1.009200000000000e+10    -1.487435409453030e+01   -1.645311852173102e+02   
1.009300000000000e+10    -1.487827273088975e+01   -1.646974473261523e+02   
1.009400000000000e+10    -1.491680983432689e+01   -1.648999308144655e+02   
1.009500000000000e+10    -1.494471973542024e+01   -1.650175286938458e+02   
1.009600000000000e+10    -1.496080300107018e+01   -1.652041849600794e+02   
1.009700000000000e+10    -1.498896505090208e+01   -1.654349234690658e+02   
1.009800000000000e+10    -1.500108891930805e+01   -1.656081322150009e+02   
1.009900000000000e+10    -1.504233779716614e+01   -1.657590816660931e+02   
1.010000000000000e+10    -1.505883587467564e+01   -1.660945206664525e+02   
1.010100000000000e+10    -1.509008355279961e+01   -1.661877271945938e+02   
1.010200000000000e+10    -1.510383189398918e+01   -1.664131091545001e+02   
1.010300000000000e+10    -1.514056298821517e+01   -1.665613522948549e+02   
1.010400000000000e+10    -1.515743493430878e+01   -1.667932266175080e+02   
1.010500000000000e+10    -1.516608519387671e+01   -1.670655449835666e+02   
1.010600000000000e+10    -1.520601073938483e+01   -1.672195454790934e+02   
1.010700000000000e+10    -1.522642593038945e+01   -1.674080869947624e+02   
1.010800000000000e+10    -1.523191783005246e+01   -1.676700713644144e+02   
1.010900000000000e+10    -1.525910651633087e+01   -1.678380864343119e+02   
1.011000000000000e+10    -1.527758037632226e+01   -1.680542486850819e+02   
1.011100000000000e+10    -1.530561000200365e+01   -1.682490379921413e+02   
1.011200000000000e+10    -1.532112728957527e+01   -1.685351356547135e+02   
1.011300000000000e+10    -1.535918656444773e+01   -1.686632732160357e+02   
1.011400000000000e+10    -1.536477358331637e+01   -1.687766508461727e+02   
1.011500000000000e+10    -1.539670416878133e+01   -1.690127771027251e+02   
1.011600000000000e+10    -1.541394409482314e+01   -1.693267503249607e+02   
1.011700000000000e+10    -1.543804292259224e+01   -1.693674686804351e+02   
1.011800000000000e+10    -1.546486248495749e+01   -1.696675657162585e+02   
1.011900000000000e+10    -1.547273789167382e+01   -1.698211266186523e+02   
1.012000000000000e+10    -1.549363389364763e+01   -1.699428457664447e+02   
1.012100000000000e+10    -1.552131644580117e+01   -1.702238413987914e+02   
1.012200000000000e+10    -1.553470762010145e+01   -1.703228398896376e+02   
1.012300000000000e+10    -1.555171543257109e+01   -1.705621808600829e+02   
1.012400000000000e+10    -1.557746533785486e+01   -1.706454961066788e+02   
1.012500000000000e+10    -1.560922272902170e+01   -1.708363262965162e+02   
1.012600000000000e+10    -1.562617103415279e+01   -1.710088113642194e+02   
1.012700000000000e+10    -1.563508169993600e+01   -1.711973891175604e+02   
1.012800000000000e+10    -1.566342076392198e+01   -1.713714187514122e+02   
1.012900000000000e+10    -1.567794312399889e+01   -1.714955289298468e+02   
1.013000000000000e+10    -1.570640024107071e+01   -1.717956928167330e+02   
1.013100000000000e+10    -1.573003508234000e+01   -1.717904099804703e+02   
1.013200000000000e+10    -1.573362065873322e+01   -1.720357692260873e+02   
1.013300000000000e+10    -1.576112494437447e+01   -1.721183024932761e+02   
1.013400000000000e+10    -1.577931459819125e+01   -1.723752284889894e+02   
1.013500000000000e+10    -1.580397237252201e+01   -1.724998280721333e+02   
1.013600000000000e+10    -1.581499326468797e+01   -1.727010692530514e+02   
1.013700000000000e+10    -1.584850403240903e+01   -1.727697874121914e+02   
1.013800000000000e+10    -1.585336255375370e+01   -1.730139873495099e+02   
1.013900000000000e+10    -1.587207373327114e+01   -1.730992996865958e+02   
1.014000000000000e+10    -1.591016243555655e+01   -1.733737154189569e+02   
1.014100000000000e+10    -1.592855094017089e+01   -1.734870346522284e+02   
1.014200000000000e+10    -1.595106222054709e+01   -1.737036233734153e+02   
1.014300000000000e+10    -1.596898975743972e+01   -1.737888135751624e+02   
1.014400000000000e+10    -1.599049989507220e+01   -1.740363284477325e+02   
1.014500000000000e+10    -1.600387631148344e+01   -1.740864487952572e+02   
1.014600000000000e+10    -1.602323288876497e+01   -1.742417404300807e+02   
1.014700000000000e+10    -1.604695435682196e+01   -1.744131712869290e+02   
1.014800000000000e+10    -1.606122666824982e+01   -1.746168479913613e+02   
1.014900000000000e+10    -1.608418666124011e+01   -1.746243399199390e+02   
1.015000000000000e+10    -1.611346852251304e+01   -1.749166851442592e+02   
1.015100000000000e+10    -1.612757690868954e+01   -1.749161729099952e+02   
1.015200000000000e+10    -1.615359969985393e+01   -1.751027454683936e+02   
1.015300000000000e+10    -1.615640512027366e+01   -1.752160575189218e+02   
1.015400000000000e+10    -1.619621800690317e+01   -1.754573445115061e+02   
1.015500000000000e+10    -1.621518219786661e+01   -1.755273800182874e+02   
1.015600000000000e+10    -1.625123551824330e+01   -1.756134476168742e+02   
1.015700000000000e+10    -1.626644546501970e+01   -1.757109473484386e+02   
1.015800000000000e+10    -1.628910929319071e+01   -1.757898160946554e+02   
1.015900000000000e+10    -1.629597196036248e+01   -1.759661914055094e+02   
1.016000000000000e+10    -1.632347967787914e+01   -1.761746482997745e+02   
1.016100000000000e+10    -1.635726315453494e+01   -1.763120810030617e+02   
1.016200000000000e+10    -1.638194973241589e+01   -1.764481739815075e+02   
1.016300000000000e+10    -1.640262713998823e+01   -1.764939087547855e+02   
1.016400000000000e+10    -1.643335367536838e+01   -1.766257878721442e+02   
1.016500000000000e+10    -1.645767088786794e+01   -1.766586028333424e+02   
1.016600000000000e+10    -1.649158931836208e+01   -1.768729538686639e+02   
1.016700000000000e+10    -1.650770231051164e+01   -1.770137457221797e+02   
1.016800000000000e+10    -1.653781696182805e+01   -1.770643896163359e+02   
1.016900000000000e+10    -1.656335596520691e+01   -1.773160080713795e+02   
1.017000000000000e+10    -1.658069443661197e+01   -1.773901643682792e+02   
1.017100000000000e+10    -1.661091301666759e+01   -1.776420967517767e+02   
1.017200000000000e+10    -1.665116171936326e+01   -1.776179218895801e+02   
1.017300000000000e+10    -1.667919400757353e+01   -1.777310844573003e+02   
1.017400000000000e+10    -1.670081584487798e+01   -1.778505301735713e+02   
1.017500000000000e+10    -1.675490059589627e+01   -1.780917976873095e+02   
1.017600000000000e+10    -1.674283718998374e+01   -1.781616521066256e+02   
1.017700000000000e+10    -1.678455645991135e+01   -1.783347209986859e+02   
1.017800000000000e+10    -1.681752432649100e+01   -1.784080501912841e+02   
1.017900000000000e+10    -1.683085565915900e+01   -1.784893461426233e+02   
1.018000000000000e+10    -1.688857407544846e+01   -1.787255538931355e+02   
1.018100000000000e+10    -1.690034518481586e+01   -1.788489152127991e+02   
1.018200000000000e+10    -1.694687585925233e+01   -1.790908176015946e+02   
1.018300000000000e+10    -1.695938703565673e+01   -1.792174675392588e+02   
1.018400000000000e+10    -1.698031725144499e+01   -1.793009125318239e+02   
1.018500000000000e+10    -1.700726100540317e+01   -1.795449353418034e+02   
1.018600000000000e+10    -1.704448359396516e+01   -1.796434669951027e+02   
1.018700000000000e+10    -1.708398252505683e+01   -1.798507203453177e+02   
1.018800000000000e+10    -1.712449882681828e+01   -1.798912274590539e+02   
1.018900000000000e+10    -1.714838878054871e+01   1.799954435488405e+02    
1.019000000000000e+10    -1.717737338946460e+01   1.798183180243551e+02    
1.019100000000000e+10    -1.720042146163957e+01   1.796596131956495e+02    
1.019200000000000e+10    -1.721433471809339e+01   1.795842552101715e+02    
1.019300000000000e+10    -1.724158959503946e+01   1.795104894810260e+02    
1.019400000000000e+10    -1.727754186538992e+01   1.792846781654695e+02    
1.019500000000000e+10    -1.731023801929169e+01   1.792050287787387e+02    
1.019600000000000e+10    -1.733709080858344e+01   1.789869336316056e+02    
1.019700000000000e+10    -1.735849826875727e+01   1.788861913462044e+02    
1.019800000000000e+10    -1.737508117059652e+01   1.787241133694551e+02    
1.019900000000000e+10    -1.740897314837092e+01   1.786360420864532e+02    
1.020000000000000e+10    -1.745177692653183e+01   1.783701817486298e+02    
1.020100000000000e+10    -1.746414851484142e+01   1.784363140281562e+02    
1.020200000000000e+10    -1.750320963060063e+01   1.782467070991781e+02    
1.020300000000000e+10    -1.753651170395369e+01   1.782701539025475e+02    
1.020400000000000e+10    -1.757656539482018e+01   1.780363861669741e+02    
1.020500000000000e+10    -1.759424524643737e+01   1.778498572583141e+02    
1.020600000000000e+10    -1.761676059871886e+01   1.778268327966663e+02    
1.020700000000000e+10    -1.763041205482050e+01   1.776844545567114e+02    
1.020800000000000e+10    -1.767383499259422e+01   1.775816682262142e+02    
1.020900000000000e+10    -1.771766592523711e+01   1.773330709763487e+02    
1.021000000000000e+10    -1.774454400460539e+01   1.772284558957328e+02    
1.021100000000000e+10    -1.777029041926286e+01   1.771904314694548e+02    
1.021200000000000e+10    -1.781918288257659e+01   1.769810447992527e+02    
1.021300000000000e+10    -1.784565920306587e+01   1.768951566011566e+02    
1.021400000000000e+10    -1.788011378602036e+01   1.767784551682890e+02    
1.021500000000000e+10    -1.791491270180241e+01   1.767595454129257e+02    
1.021600000000000e+10    -1.793816321468094e+01   1.765443220782588e+02    
1.021700000000000e+10    -1.796703634519685e+01   1.764277554301365e+02    
1.021800000000000e+10    -1.800369064788515e+01   1.763521921134940e+02    
1.021900000000000e+10    -1.805707648004195e+01   1.762520834668346e+02    
1.022000000000000e+10    -1.807752325200911e+01   1.760909856638382e+02    
1.022100000000000e+10    -1.809403918313241e+01   1.759935559862980e+02    
1.022200000000000e+10    -1.816961427719468e+01   1.758726551384174e+02    
1.022300000000000e+10    -1.819190424558329e+01   1.757677897099396e+02    
1.022400000000000e+10    -1.822427913929106e+01   1.755738005457871e+02    
1.022500000000000e+10    -1.826115580633553e+01   1.755781710151587e+02    
1.022600000000000e+10    -1.829971085083844e+01   1.752218465147745e+02    
1.022700000000000e+10    -1.833278793424802e+01   1.751849613305454e+02    
1.022800000000000e+10    -1.836511003833870e+01   1.750621418066536e+02    
1.022900000000000e+10    -1.839729433259424e+01   1.748336841008682e+02    
1.023000000000000e+10    -1.841513889175014e+01   1.747988659766633e+02    
1.023100000000000e+10    -1.844262719686927e+01   1.746591359521381e+02    
1.023200000000000e+10    -1.848660600282932e+01   1.744432837282765e+02    
1.023300000000000e+10    -1.853066982666873e+01   1.743293100310508e+02    
1.023400000000000e+10    -1.855708500196567e+01   1.741589994715215e+02    
1.023500000000000e+10    -1.863564132652998e+01   1.740059238550035e+02    
1.023600000000000e+10    -1.863548060404379e+01   1.740478715127223e+02    
1.023700000000000e+10    -1.867243249072729e+01   1.737503587753408e+02    
1.023800000000000e+10    -1.871750773945399e+01   1.737894502561171e+02    
1.023900000000000e+10    -1.873239012834442e+01   1.734502641768461e+02    
1.024000000000000e+10    -1.880156572458394e+01   1.733823196363497e+02    
1.024100000000000e+10    -1.882001735737408e+01   1.734917436900445e+02    
1.024200000000000e+10    -1.885082445799023e+01   1.732138919430474e+02    
1.024300000000000e+10    -1.890692643309036e+01   1.730481959394794e+02    
1.024400000000000e+10    -1.893501652790359e+01   1.728826194036893e+02    
1.024500000000000e+10    -1.895822567506379e+01   1.728693374088548e+02    
1.024600000000000e+10    -1.899112057920289e+01   1.726175583264582e+02    
1.024700000000000e+10    -1.902992548500166e+01   1.725313277177083e+02    
1.024800000000000e+10    -1.907527383004734e+01   1.725042603541540e+02    
1.024900000000000e+10    -1.912061312730896e+01   1.721417867317232e+02    
1.025000000000000e+10    -1.914039310009784e+01   1.720899797502714e+02    
1.025100000000000e+10    -1.916772455135826e+01   1.722069501674444e+02    
1.025200000000000e+10    -1.921027516454340e+01   1.718415671674327e+02    
1.025300000000000e+10    -1.923367476971380e+01   1.719318756815142e+02    
1.025400000000000e+10    -1.928012330250631e+01   1.717570577735055e+02    
1.025500000000000e+10    -1.933686720394097e+01   1.715266972145847e+02    
1.025600000000000e+10    -1.936031127481557e+01   1.714298629122009e+02    
