[Version] 2.0
! Rohde & Schwarz Vector Network Analyzer
! Rohde-Schwarz,ZNL20-2Port,1323001220200009,1.71.1.10-23.02.1.238
! 
! Port Assignments:
! Nominal Port -> Actual Test Port
! --------------------------------
!   1 -> 1

! Created: GMT 2024-08-27 12:55:40

# Hz S DB R 50

[Number of Ports] 1
[Number of Frequencies] 2001

[Network Data] 
! freq[Hz]               S11[mag dB]              S11[ang]                 
1.000000000000000e+10    -1.384960448380195e+01   -1.462333196699223e+02   
1.000100000000000e+10    -1.386369604181156e+01   -1.463467267259495e+02   
1.000200000000000e+10    -1.387165900865893e+01   -1.464416434301718e+02   
1.000300000000000e+10    -1.388508993050891e+01   -1.466814751755263e+02   
1.000400000000000e+10    -1.388944775810489e+01   -1.469334253736271e+02   
1.000500000000000e+10    -1.389572929324198e+01   -1.470984603299859e+02   
1.000600000000000e+10    -1.391301173393286e+01   -1.472742431998475e+02   
1.000700000000000e+10    -1.392049121893235e+01   -1.474101588450945e+02   
1.000800000000000e+10    -1.392972036918645e+01   -1.476358202080125e+02   
1.000900000000000e+10    -1.394441210142980e+01   -1.479168415556691e+02   
1.001000000000000e+10    -1.395595494215310e+01   -1.479951889977217e+02   
1.001100000000000e+10    -1.396580496354506e+01   -1.482284452138915e+02   
1.001200000000000e+10    -1.396796910568284e+01   -1.484226871806073e+02   
1.001300000000000e+10    -1.399346152635621e+01   -1.486775702471925e+02   
1.001400000000000e+10    -1.399204967160533e+01   -1.489095100117225e+02   
1.001500000000000e+10    -1.400381696688367e+01   -1.490978898694569e+02   
1.001600000000000e+10    -1.400358844609071e+01   -1.492677847047404e+02   
1.001700000000000e+10    -1.402258990514347e+01   -1.495544062408104e+02   
1.001800000000000e+10    -1.402486440755427e+01   -1.497735654104053e+02   
1.001900000000000e+10    -1.403649296105882e+01   -1.499667580455396e+02   
1.002000000000000e+10    -1.404419214112203e+01   -1.502553675536122e+02   
1.002100000000000e+10    -1.404961246635724e+01   -1.504802848007189e+02   
1.002200000000000e+10    -1.405743235583889e+01   -1.506541303107599e+02   
1.002300000000000e+10    -1.405943323211069e+01   -1.508843213451675e+02   
1.002400000000000e+10    -1.406020183752696e+01   -1.511171717981931e+02   
1.002500000000000e+10    -1.408308705460516e+01   -1.513050173881051e+02   
1.002600000000000e+10    -1.408413282132819e+01   -1.516518219736683e+02   
1.002700000000000e+10    -1.408580904474555e+01   -1.518780916555856e+02   
1.002800000000000e+10    -1.409853576804687e+01   -1.520299019073707e+02   
1.002900000000000e+10    -1.410141365113981e+01   -1.522118121511571e+02   
1.003000000000000e+10    -1.412235225881330e+01   -1.524158061101886e+02   
1.003100000000000e+10    -1.410956198439464e+01   -1.526954136488272e+02   
1.003200000000000e+10    -1.412213050572450e+01   -1.529430336214664e+02   
1.003300000000000e+10    -1.411686542978552e+01   -1.531441196409318e+02   
1.003400000000000e+10    -1.412463475917558e+01   -1.532809373044334e+02   
1.003500000000000e+10    -1.414155001931615e+01   -1.535497870181734e+02   
1.003600000000000e+10    -1.412899742008836e+01   -1.536500740382439e+02   
1.003700000000000e+10    -1.414445976039964e+01   -1.539257540627042e+02   
1.003800000000000e+10    -1.414786930989099e+01   -1.541573000331371e+02   
1.003900000000000e+10    -1.416118075621150e+01   -1.543969557050758e+02   
1.004000000000000e+10    -1.415091036227340e+01   -1.546195733690296e+02   
1.004100000000000e+10    -1.416932372950830e+01   -1.548237800450271e+02   
1.004200000000000e+10    -1.416291355160006e+01   -1.549817647132285e+02   
1.004300000000000e+10    -1.417497397302092e+01   -1.551963984646721e+02   
1.004400000000000e+10    -1.418479834900990e+01   -1.554536956194049e+02   
1.004500000000000e+10    -1.418225827308026e+01   -1.555848324328173e+02   
1.004600000000000e+10    -1.419541744618309e+01   -1.557752163178000e+02   
1.004700000000000e+10    -1.420075038561193e+01   -1.560187678051354e+02   
1.004800000000000e+10    -1.420464643396549e+01   -1.561696996944768e+02   
1.004900000000000e+10    -1.420916419551084e+01   -1.563905018292565e+02   
1.005000000000000e+10    -1.422038171264558e+01   -1.566869324264660e+02   
1.005100000000000e+10    -1.420620500706637e+01   -1.567297295003705e+02   
1.005200000000000e+10    -1.423139630869047e+01   -1.568832251765314e+02   
1.005300000000000e+10    -1.423374478799641e+01   -1.571567325731676e+02   
1.005400000000000e+10    -1.423816011738356e+01   -1.573454112953139e+02   
1.005500000000000e+10    -1.424920863394409e+01   -1.575114527848490e+02   
1.005600000000000e+10    -1.427111520237378e+01   -1.577245742424533e+02   
1.005700000000000e+10    -1.426720330160471e+01   -1.578593533644735e+02   
1.005800000000000e+10    -1.427500319988070e+01   -1.580732635587459e+02   
1.005900000000000e+10    -1.428281074949712e+01   -1.583030753657793e+02   
1.006000000000000e+10    -1.428569488084029e+01   -1.584291037665945e+02   
1.006100000000000e+10    -1.430744156379895e+01   -1.585888901622432e+02   
1.006200000000000e+10    -1.431433964849429e+01   -1.587844611399704e+02   
1.006300000000000e+10    -1.432867636179735e+01   -1.589578831852576e+02   
1.006400000000000e+10    -1.432509996476417e+01   -1.591255422837700e+02   
1.006500000000000e+10    -1.433884419623889e+01   -1.593098395197781e+02   
1.006600000000000e+10    -1.435338433692429e+01   -1.594438494319293e+02   
1.006700000000000e+10    -1.436166910507350e+01   -1.597249109100715e+02   
1.006800000000000e+10    -1.437040058193445e+01   -1.598025204118712e+02   
1.006900000000000e+10    -1.438507142891864e+01   -1.599745667033450e+02   
1.007000000000000e+10    -1.439129379011735e+01   -1.602020310105757e+02   
1.007100000000000e+10    -1.439757714906314e+01   -1.604009357605055e+02   
1.007200000000000e+10    -1.442064794891352e+01   -1.605247798693672e+02   
1.007300000000000e+10    -1.443405643543257e+01   -1.608112425336421e+02   
1.007400000000000e+10    -1.444299302394924e+01   -1.608703268721042e+02   
1.007500000000000e+10    -1.447376768860259e+01   -1.611073710792914e+02   
1.007600000000000e+10    -1.449366820825954e+01   -1.613160191442724e+02   
1.007700000000000e+10    -1.449889882788376e+01   -1.614221216221569e+02   
1.007800000000000e+10    -1.451873128413706e+01   -1.615530347519931e+02   
1.007900000000000e+10    -1.452901561990261e+01   -1.617948112184024e+02   
1.008000000000000e+10    -1.456742422743968e+01   -1.619994475958878e+02   
1.008100000000000e+10    -1.457595011870557e+01   -1.621056594165896e+02   
1.008200000000000e+10    -1.458898032265695e+01   -1.622064237543266e+02   
1.008300000000000e+10    -1.461215980257760e+01   -1.624809563003986e+02   
1.008400000000000e+10    -1.464356142886909e+01   -1.626850936437573e+02   
1.008500000000000e+10    -1.464955251187925e+01   -1.628115956061674e+02   
1.008600000000000e+10    -1.467482488619107e+01   -1.629747467320469e+02   
1.008700000000000e+10    -1.469252563474549e+01   -1.631790432773164e+02   
1.008800000000000e+10    -1.471174912990676e+01   -1.633751611365940e+02   
1.008900000000000e+10    -1.474689789132235e+01   -1.635684671401870e+02   
1.009000000000000e+10    -1.476661043080118e+01   -1.637658888758029e+02   
1.009100000000000e+10    -1.480109979148383e+01   -1.639035636577105e+02   
1.009200000000000e+10    -1.481855199070141e+01   -1.641976813002540e+02   
1.009300000000000e+10    -1.482488954663150e+01   -1.643466222244597e+02   
1.009400000000000e+10    -1.486150783336262e+01   -1.645607550699223e+02   
1.009500000000000e+10    -1.488912945789485e+01   -1.646641847999965e+02   
1.009600000000000e+10    -1.490663032075328e+01   -1.648469695327393e+02   
1.009700000000000e+10    -1.493542950990565e+01   -1.650885402049956e+02   
1.009800000000000e+10    -1.494594356766714e+01   -1.652574425549484e+02   
1.009900000000000e+10    -1.498662569965962e+01   -1.653886918988165e+02   
1.010000000000000e+10    -1.500239950996482e+01   -1.657417073992389e+02   
1.010100000000000e+10    -1.503354707786657e+01   -1.658373126234197e+02   
1.010200000000000e+10    -1.504647634184941e+01   -1.660414389891493e+02   
1.010300000000000e+10    -1.508129751774156e+01   -1.662012988685469e+02   
1.010400000000000e+10    -1.509755723057285e+01   -1.664311171039500e+02   
1.010500000000000e+10    -1.510799400753281e+01   -1.667221142514342e+02   
1.010600000000000e+10    -1.514633343410365e+01   -1.668714553294763e+02   
1.010700000000000e+10    -1.516606412708301e+01   -1.670450639078257e+02   
1.010800000000000e+10    -1.517194750556428e+01   -1.673150100704822e+02   
1.010900000000000e+10    -1.519718326814344e+01   -1.674838399073913e+02   
1.011000000000000e+10    -1.521606891122678e+01   -1.677114941214955e+02   
1.011100000000000e+10    -1.524403718020446e+01   -1.679130851704714e+02   
1.011200000000000e+10    -1.525773084778364e+01   -1.681922838641304e+02   
1.011300000000000e+10    -1.529490765892684e+01   -1.683219214992119e+02   
1.011400000000000e+10    -1.530248030667230e+01   -1.684306166084087e+02   
1.011500000000000e+10    -1.533489556241022e+01   -1.686753132261776e+02   
1.011600000000000e+10    -1.535070476470409e+01   -1.690012182329036e+02   
1.011700000000000e+10    -1.537643191147966e+01   -1.690333340367457e+02   
1.011800000000000e+10    -1.540206059915908e+01   -1.693371120824010e+02   
1.011900000000000e+10    -1.540983884066589e+01   -1.694853964631145e+02   
1.012000000000000e+10    -1.543056063502759e+01   -1.696101332465982e+02   
1.012100000000000e+10    -1.545797292284394e+01   -1.698904793053550e+02   
1.012200000000000e+10    -1.547233033479418e+01   -1.699900773501099e+02   
1.012300000000000e+10    -1.548930168931653e+01   -1.702319539356089e+02   
1.012400000000000e+10    -1.551594794005139e+01   -1.703159930592537e+02   
1.012500000000000e+10    -1.554800280931108e+01   -1.704921974111544e+02   
1.012600000000000e+10    -1.556193908067177e+01   -1.706742060343827e+02   
1.012700000000000e+10    -1.557202968709444e+01   -1.708673215993643e+02   
1.012800000000000e+10    -1.560242707544971e+01   -1.710205405364178e+02   
1.012900000000000e+10    -1.561269056996860e+01   -1.711444420590837e+02   
1.013000000000000e+10    -1.564171474716348e+01   -1.714428850338894e+02   
1.013100000000000e+10    -1.566585814866417e+01   -1.714513909214267e+02   
1.013200000000000e+10    -1.566915832566312e+01   -1.716814245960780e+02   
1.013300000000000e+10    -1.569475909150547e+01   -1.717661488616171e+02   
1.013400000000000e+10    -1.571476847626587e+01   -1.720278089223270e+02   
1.013500000000000e+10    -1.573719982848212e+01   -1.721461177517835e+02   
1.013600000000000e+10    -1.574684082343127e+01   -1.723492729657731e+02   
1.013700000000000e+10    -1.578097379814683e+01   -1.724097524478863e+02   
1.013800000000000e+10    -1.578657102592743e+01   -1.726535479352244e+02   
1.013900000000000e+10    -1.580516380920649e+01   -1.727390391505860e+02   
1.014000000000000e+10    -1.583998487566442e+01   -1.730079066158186e+02   
1.014100000000000e+10    -1.585801076264284e+01   -1.731181121595077e+02   
1.014200000000000e+10    -1.587896453154835e+01   -1.733406477214489e+02   
1.014300000000000e+10    -1.589683438832868e+01   -1.734185474364120e+02   
1.014400000000000e+10    -1.591774162595405e+01   -1.736631705960951e+02   
1.014500000000000e+10    -1.592977835423152e+01   -1.737205102423888e+02   
1.014600000000000e+10    -1.594782285914046e+01   -1.738845963316818e+02   
1.014700000000000e+10    -1.597160163700222e+01   -1.740621060561321e+02   
1.014800000000000e+10    -1.598496261064175e+01   -1.742671857033822e+02   
1.014900000000000e+10    -1.600836230145881e+01   -1.742651726456719e+02   
1.015000000000000e+10    -1.603581038700795e+01   -1.745678341033496e+02   
1.015100000000000e+10    -1.604847875481280e+01   -1.745494025112990e+02   
1.015200000000000e+10    -1.607526906748772e+01   -1.747477352005358e+02   
1.015300000000000e+10    -1.607780696704159e+01   -1.748691771012311e+02   
1.015400000000000e+10    -1.611543745208436e+01   -1.751137441109665e+02   
1.015500000000000e+10    -1.613403213040301e+01   -1.751786197641453e+02   
1.015600000000000e+10    -1.616892329708057e+01   -1.752757343854636e+02   
1.015700000000000e+10    -1.618347995395047e+01   -1.753668529354127e+02   
1.015800000000000e+10    -1.620426512103876e+01   -1.754591397716106e+02   
1.015900000000000e+10    -1.621327525042617e+01   -1.756275858937962e+02   
1.016000000000000e+10    -1.624022728896543e+01   -1.758519550088136e+02   
1.016100000000000e+10    -1.627353587306172e+01   -1.759796187132803e+02   
1.016200000000000e+10    -1.629408328797026e+01   -1.761065924450780e+02   
1.016300000000000e+10    -1.631624204467942e+01   -1.761608900866509e+02   
1.016400000000000e+10    -1.634354309653984e+01   -1.762931434025317e+02   
1.016500000000000e+10    -1.636817366958730e+01   -1.763473214412103e+02   
1.016600000000000e+10    -1.640324415968414e+01   -1.765337907204920e+02   
1.016700000000000e+10    -1.642118401117247e+01   -1.767131533766969e+02   
1.016800000000000e+10    -1.644688245025823e+01   -1.767442795385894e+02   
1.016900000000000e+10    -1.647240199730797e+01   -1.769983629743218e+02   
1.017000000000000e+10    -1.649052977222188e+01   -1.770709526938794e+02   
1.017100000000000e+10    -1.652170135179102e+01   -1.773434773252690e+02   
1.017200000000000e+10    -1.655927802574316e+01   -1.773179790858059e+02   
1.017300000000000e+10    -1.658821000685113e+01   -1.774309427748755e+02   
1.017400000000000e+10    -1.661007175343424e+01   -1.775572710802906e+02   
1.017500000000000e+10    -1.666188736391349e+01   -1.777991099893113e+02   
1.017600000000000e+10    -1.665112575082891e+01   -1.778680047023040e+02   
1.017700000000000e+10    -1.669556538871523e+01   -1.780462457879671e+02   
1.017800000000000e+10    -1.672978839090180e+01   -1.781288775937428e+02   
1.017900000000000e+10    -1.673992728932026e+01   -1.782029445887173e+02   
1.018000000000000e+10    -1.679572726268294e+01   -1.784415972293367e+02   
1.018100000000000e+10    -1.681163803021201e+01   -1.785463777112394e+02   
1.018200000000000e+10    -1.685191910597359e+01   -1.787981460325265e+02   
1.018300000000000e+10    -1.686802669689792e+01   -1.789213653095954e+02   
1.018400000000000e+10    -1.688544111730232e+01   -1.790133773490271e+02   
1.018500000000000e+10    -1.691284977841831e+01   -1.792697041226299e+02   
1.018600000000000e+10    -1.694640471876458e+01   -1.793573418161532e+02   
1.018700000000000e+10    -1.698721578683292e+01   -1.795693634384721e+02   
1.018800000000000e+10    -1.702665017238869e+01   -1.796255170329771e+02   
1.018900000000000e+10    -1.705195785289185e+01   -1.797469466896198e+02   
1.019000000000000e+10    -1.708193904304951e+01   -1.799264900391508e+02   
1.019100000000000e+10    -1.710349615249757e+01   1.799118894961176e+02    
1.019200000000000e+10    -1.711695218155172e+01   1.798295493023946e+02    
1.019300000000000e+10    -1.714565627704300e+01   1.797580502978298e+02    
1.019400000000000e+10    -1.718406781281485e+01   1.795445430760160e+02    
1.019500000000000e+10    -1.721283864032839e+01   1.794696014214327e+02    
1.019600000000000e+10    -1.724212927606094e+01   1.792469846092949e+02    
1.019700000000000e+10    -1.726389794722093e+01   1.791683643059443e+02    
1.019800000000000e+10    -1.727568442641470e+01   1.789914405979445e+02    
1.019900000000000e+10    -1.731457303131328e+01   1.789245021994404e+02    
1.020000000000000e+10    -1.735550839312890e+01   1.786540989730308e+02    
1.020100000000000e+10    -1.736352651631718e+01   1.787182577951752e+02    
1.020200000000000e+10    -1.740690572994280e+01   1.785146841488872e+02    
1.020300000000000e+10    -1.743669344308159e+01   1.785553816423510e+02    
1.020400000000000e+10    -1.747420564556241e+01   1.783030231738134e+02    
1.020500000000000e+10    -1.749396974599023e+01   1.781168362643031e+02    
1.020600000000000e+10    -1.751515793723111e+01   1.780827224516747e+02    
1.020700000000000e+10    -1.752777990220097e+01   1.779476758766552e+02    
1.020800000000000e+10    -1.757044541576104e+01   1.778437474039444e+02    
1.020900000000000e+10    -1.761516505967423e+01   1.775723772725402e+02    
1.021000000000000e+10    -1.764263729515427e+01   1.774801119831652e+02    
1.021100000000000e+10    -1.766781577506584e+01   1.774309612860818e+02    
1.021200000000000e+10    -1.771493693046067e+01   1.772099840240610e+02    
1.021300000000000e+10    -1.774015324612497e+01   1.771192445615209e+02    
1.021400000000000e+10    -1.777700157774120e+01   1.770167576237279e+02    
1.021500000000000e+10    -1.780592089448242e+01   1.769788717003778e+02    
1.021600000000000e+10    -1.783218550029890e+01   1.767563261524313e+02    
1.021700000000000e+10    -1.786497377769683e+01   1.766434629333791e+02    
1.021800000000000e+10    -1.790092551288848e+01   1.765912103918039e+02    
1.021900000000000e+10    -1.795138861932600e+01   1.764959823169412e+02    
1.022000000000000e+10    -1.797117217799653e+01   1.763225382134109e+02    
1.022100000000000e+10    -1.798666885786260e+01   1.762191057015075e+02    
1.022200000000000e+10    -1.806280877842882e+01   1.760773936164721e+02    
1.022300000000000e+10    -1.808278404578176e+01   1.759921514930982e+02    
1.022400000000000e+10    -1.811387529185680e+01   1.757830696052049e+02    
1.022500000000000e+10    -1.814929489189497e+01   1.757947959442852e+02    
1.022600000000000e+10    -1.818934552504686e+01   1.754141145962552e+02    
1.022700000000000e+10    -1.821973371100127e+01   1.753856460045792e+02    
1.022800000000000e+10    -1.825282878397962e+01   1.752719726451932e+02    
1.022900000000000e+10    -1.828312851069371e+01   1.750432136828112e+02    
1.023000000000000e+10    -1.830134813358832e+01   1.750172343906140e+02    
1.023100000000000e+10    -1.832881499396606e+01   1.748607203554845e+02    
1.023200000000000e+10    -1.837113701680187e+01   1.746446298422460e+02    
1.023300000000000e+10    -1.841618709217295e+01   1.745323960759179e+02    
1.023400000000000e+10    -1.843932785635729e+01   1.743535171737640e+02    
1.023500000000000e+10    -1.851819014329444e+01   1.742018491395860e+02    
1.023600000000000e+10    -1.851431912795314e+01   1.742701766114713e+02    
1.023700000000000e+10    -1.855076080444075e+01   1.739389237639315e+02    
1.023800000000000e+10    -1.859465084161638e+01   1.739645635315594e+02    
1.023900000000000e+10    -1.861171304993819e+01   1.736482254181279e+02    
1.024000000000000e+10    -1.867627934403056e+01   1.735613487988193e+02    
1.024100000000000e+10    -1.869882661430010e+01   1.736411246957933e+02    
1.024200000000000e+10    -1.872844189538921e+01   1.733761406387260e+02    
1.024300000000000e+10    -1.878245680451595e+01   1.732117210529055e+02    
1.024400000000000e+10    -1.881232621007860e+01   1.730259736253545e+02    
1.024500000000000e+10    -1.883424094917616e+01   1.730385063178144e+02    
1.024600000000000e+10    -1.886670285069361e+01   1.727998200059701e+02    
1.024700000000000e+10    -1.890352807902569e+01   1.726817218286362e+02    
1.024800000000000e+10    -1.895104776339977e+01   1.726782629292883e+02    
1.024900000000000e+10    -1.899265566718482e+01   1.723093744669984e+02    
1.025000000000000e+10    -1.901102182981233e+01   1.722600355399009e+02    
1.025100000000000e+10    -1.903580525162676e+01   1.723755630577460e+02    
1.025200000000000e+10    -1.907916727615035e+01   1.720070136838164e+02    
1.025300000000000e+10    -1.910233610357679e+01   1.720738994665957e+02    
1.025400000000000e+10    -1.914622543603290e+01   1.719433024769338e+02    
1.025500000000000e+10    -1.920111041219980e+01   1.717207736852192e+02    
1.025600000000000e+10    -1.922853633162504e+01   1.716077097068811e+02    
