[Version] 2.0
! Rohde & Schwarz Vector Network Analyzer
! Rohde-Schwarz,ZNL20-2Port,1323001220200009,1.71.1.10-23.02.1.238
! 
! Port Assignments:
! Nominal Port -> Actual Test Port
! --------------------------------
!   1 -> 1

! Created: GMT 2024-08-27 12:56:12

# Hz S DB R 50

[Number of Ports] 1
[Number of Frequencies] 2001

[Network Data] 
! freq[Hz]               S11[mag dB]              S11[ang]                 
1.000000000000000e+10    -1.381812286037037e+01   -1.458620928920425e+02   
1.000100000000000e+10    -1.383240273580534e+01   -1.459898237545516e+02   
1.000200000000000e+10    -1.383977795544325e+01   -1.460772675404940e+02   
1.000300000000000e+10    -1.385331765272259e+01   -1.463264903994821e+02   
1.000400000000000e+10    -1.385709978308340e+01   -1.465776691397793e+02   
1.000500000000000e+10    -1.386378428000475e+01   -1.467439844759706e+02   
1.000600000000000e+10    -1.387982424856470e+01   -1.469126078725558e+02   
1.000700000000000e+10    -1.388799588150435e+01   -1.470556896771834e+02   
1.000800000000000e+10    -1.389811959807517e+01   -1.472732973477701e+02   
1.000900000000000e+10    -1.391298594644713e+01   -1.475551761668305e+02   
1.001000000000000e+10    -1.392341488757754e+01   -1.476339152167138e+02   
1.001100000000000e+10    -1.393386094142810e+01   -1.478761998194661e+02   
1.001200000000000e+10    -1.393753231498606e+01   -1.480569252583756e+02   
1.001300000000000e+10    -1.396226843666616e+01   -1.483105876383184e+02   
1.001400000000000e+10    -1.395885947917235e+01   -1.485393345957547e+02   
1.001500000000000e+10    -1.397171040505394e+01   -1.487265746741530e+02   
1.001600000000000e+10    -1.397100821257044e+01   -1.488959448414297e+02   
1.001700000000000e+10    -1.398657253492209e+01   -1.491857851383216e+02   
1.001800000000000e+10    -1.399044317830259e+01   -1.493985096962807e+02   
1.001900000000000e+10    -1.400069416735805e+01   -1.495951557465540e+02   
1.002000000000000e+10    -1.400829344981988e+01   -1.498821548262667e+02   
1.002100000000000e+10    -1.401546258459139e+01   -1.501112221323356e+02   
1.002200000000000e+10    -1.402255093519786e+01   -1.502882114922315e+02   
1.002300000000000e+10    -1.402393539706079e+01   -1.505172655546278e+02   
1.002400000000000e+10    -1.402427101312691e+01   -1.507554840293574e+02   
1.002500000000000e+10    -1.404915275953179e+01   -1.509331466398730e+02   
1.002600000000000e+10    -1.404861359518768e+01   -1.512736687537559e+02   
1.002700000000000e+10    -1.405180683122921e+01   -1.515022737104206e+02   
1.002800000000000e+10    -1.406365423532766e+01   -1.516594028266428e+02   
1.002900000000000e+10    -1.406682400863574e+01   -1.518351926319714e+02   
1.003000000000000e+10    -1.408739603044435e+01   -1.520380180643869e+02   
1.003100000000000e+10    -1.407267994897661e+01   -1.523205939978743e+02   
1.003200000000000e+10    -1.408430849278473e+01   -1.525634675691339e+02   
1.003300000000000e+10    -1.407685893417504e+01   -1.527706882643453e+02   
1.003400000000000e+10    -1.408523558804717e+01   -1.529117921578080e+02   
1.003500000000000e+10    -1.410178698541605e+01   -1.531753080341042e+02   
1.003600000000000e+10    -1.408780166490594e+01   -1.532795034987485e+02   
1.003700000000000e+10    -1.410510424980153e+01   -1.535563588050001e+02   
1.003800000000000e+10    -1.410828728042600e+01   -1.537937407541532e+02   
1.003900000000000e+10    -1.412097279435811e+01   -1.540338547417695e+02   
1.004000000000000e+10    -1.411042746106209e+01   -1.542549997052804e+02   
1.004100000000000e+10    -1.412689814042469e+01   -1.544535022612500e+02   
1.004200000000000e+10    -1.412173171275646e+01   -1.546174967371072e+02   
1.004300000000000e+10    -1.413429669121308e+01   -1.548202885272946e+02   
1.004400000000000e+10    -1.414412065303730e+01   -1.550839790063335e+02   
1.004500000000000e+10    -1.413906614145836e+01   -1.552155480573995e+02   
1.004600000000000e+10    -1.415369801744966e+01   -1.554120859629919e+02   
1.004700000000000e+10    -1.415868396574643e+01   -1.556466609835366e+02   
1.004800000000000e+10    -1.416034608689534e+01   -1.558185139346826e+02   
1.004900000000000e+10    -1.416523188078139e+01   -1.560217248804737e+02   
1.005000000000000e+10    -1.417427865570965e+01   -1.563305741077652e+02   
1.005100000000000e+10    -1.415998068985527e+01   -1.563744156582210e+02   
1.005200000000000e+10    -1.418576147939224e+01   -1.565342269738409e+02   
1.005300000000000e+10    -1.419028516287952e+01   -1.567919146263245e+02   
1.005400000000000e+10    -1.419537911273430e+01   -1.569939572190717e+02   
1.005500000000000e+10    -1.420511083122148e+01   -1.571591929128795e+02   
1.005600000000000e+10    -1.422766867169269e+01   -1.573774599765171e+02   
1.005700000000000e+10    -1.422122692931857e+01   -1.574919033620718e+02   
1.005800000000000e+10    -1.422689867143199e+01   -1.577423175405757e+02   
1.005900000000000e+10    -1.423805066175325e+01   -1.579614234066181e+02   
1.006000000000000e+10    -1.423916808727881e+01   -1.580842006096850e+02   
1.006100000000000e+10    -1.426235987284912e+01   -1.582323307342533e+02   
1.006200000000000e+10    -1.426787604502621e+01   -1.584375561407449e+02   
1.006300000000000e+10    -1.428174225290334e+01   -1.586101371398545e+02   
1.006400000000000e+10    -1.427824232517447e+01   -1.587807218268708e+02   
1.006500000000000e+10    -1.429423111227533e+01   -1.589724857969995e+02   
1.006600000000000e+10    -1.430867661451765e+01   -1.591042373736935e+02   
1.006700000000000e+10    -1.431678718645028e+01   -1.593814415185576e+02   
1.006800000000000e+10    -1.432651390506917e+01   -1.594674491906980e+02   
1.006900000000000e+10    -1.434270495959168e+01   -1.596365415350909e+02   
1.007000000000000e+10    -1.434881428116836e+01   -1.598602442685677e+02   
1.007100000000000e+10    -1.435327102546336e+01   -1.600480397883520e+02   
1.007200000000000e+10    -1.437646595612515e+01   -1.601802969597673e+02   
1.007300000000000e+10    -1.439019184736332e+01   -1.604628150722700e+02   
1.007400000000000e+10    -1.439810706580251e+01   -1.605243826582504e+02   
1.007500000000000e+10    -1.442789729539775e+01   -1.607575647044329e+02   
1.007600000000000e+10    -1.444740207286720e+01   -1.609452057586036e+02   
1.007700000000000e+10    -1.445118107750291e+01   -1.610579049654883e+02   
1.007800000000000e+10    -1.447162630340873e+01   -1.611918959858982e+02   
1.007900000000000e+10    -1.448186733670150e+01   -1.614329554943377e+02   
1.008000000000000e+10    -1.451777782901536e+01   -1.616193645605586e+02   
1.008100000000000e+10    -1.452630560354839e+01   -1.617316794240949e+02   
1.008200000000000e+10    -1.453820634365135e+01   -1.618368552463214e+02   
1.008300000000000e+10    -1.456044987747743e+01   -1.620943547522365e+02   
1.008400000000000e+10    -1.459166013911738e+01   -1.623121555786177e+02   
1.008500000000000e+10    -1.459626262956485e+01   -1.624476092235158e+02   
1.008600000000000e+10    -1.462107915593954e+01   -1.626120233201509e+02   
1.008700000000000e+10    -1.463783555841612e+01   -1.628236127337464e+02   
1.008800000000000e+10    -1.465842611563208e+01   -1.630306557790348e+02   
1.008900000000000e+10    -1.469318131073895e+01   -1.632218640626419e+02   
1.009000000000000e+10    -1.471165544279699e+01   -1.634182040183561e+02   
1.009100000000000e+10    -1.474602765367234e+01   -1.635503998206626e+02   
1.009200000000000e+10    -1.476294764230815e+01   -1.638331755198458e+02   
1.009300000000000e+10    -1.476784365077043e+01   -1.639951041771548e+02   
1.009400000000000e+10    -1.480438984601200e+01   -1.642062154049772e+02   
1.009500000000000e+10    -1.483105699411612e+01   -1.643089991356916e+02   
1.009600000000000e+10    -1.484690731197244e+01   -1.644967150907049e+02   
1.009700000000000e+10    -1.487563192714807e+01   -1.647379049296785e+02   
1.009800000000000e+10    -1.488584776376031e+01   -1.649065141827421e+02   
1.009900000000000e+10    -1.492563754608956e+01   -1.650421069783017e+02   
1.010000000000000e+10    -1.493952069407322e+01   -1.653940319902488e+02   
1.010100000000000e+10    -1.496910535739902e+01   -1.654801216352196e+02   
1.010200000000000e+10    -1.498323614302358e+01   -1.657039342580990e+02   
1.010300000000000e+10    -1.501789706376348e+01   -1.658575298098645e+02   
1.010400000000000e+10    -1.503321463496365e+01   -1.661052878445128e+02   
1.010500000000000e+10    -1.504294560736530e+01   -1.663908099561898e+02   
1.010600000000000e+10    -1.508010551694331e+01   -1.665417779097325e+02   
1.010700000000000e+10    -1.509838924147928e+01   -1.667298902368005e+02   
1.010800000000000e+10    -1.510539053463130e+01   -1.669896808456813e+02   
1.010900000000000e+10    -1.512906681245093e+01   -1.671682405744041e+02   
1.011000000000000e+10    -1.514878316982941e+01   -1.673969391032956e+02   
1.011100000000000e+10    -1.517538135444535e+01   -1.675963963621477e+02   
1.011200000000000e+10    -1.518917706267256e+01   -1.678952269167969e+02   
1.011300000000000e+10    -1.522783662044392e+01   -1.680367598870477e+02   
1.011400000000000e+10    -1.523326097305780e+01   -1.681514363489828e+02   
1.011500000000000e+10    -1.526726023489088e+01   -1.684076535107415e+02   
1.011600000000000e+10    -1.528517447705942e+01   -1.687149872856483e+02   
1.011700000000000e+10    -1.531009456964419e+01   -1.687526917066124e+02   
1.011800000000000e+10    -1.533730218789186e+01   -1.690555216028055e+02   
1.011900000000000e+10    -1.534367115789064e+01   -1.691986743550382e+02   
1.012000000000000e+10    -1.536382795651413e+01   -1.693154227515240e+02   
1.012100000000000e+10    -1.539109138252494e+01   -1.696093299005462e+02   
1.012200000000000e+10    -1.540559067539841e+01   -1.696932991924821e+02   
1.012300000000000e+10    -1.542244695211332e+01   -1.699463531440929e+02   
1.012400000000000e+10    -1.544787638322990e+01   -1.700253426848969e+02   
1.012500000000000e+10    -1.547886442611444e+01   -1.701980319965872e+02   
1.012600000000000e+10    -1.549408244828854e+01   -1.703840036534767e+02   
1.012700000000000e+10    -1.550329272165708e+01   -1.705730532126932e+02   
1.012800000000000e+10    -1.553178222550273e+01   -1.707452103048480e+02   
1.012900000000000e+10    -1.554336141012033e+01   -1.708583722253338e+02   
1.013000000000000e+10    -1.557081332375297e+01   -1.711597258150808e+02   
1.013100000000000e+10    -1.559376396183156e+01   -1.711672738457894e+02   
1.013200000000000e+10    -1.559716385159771e+01   -1.714079698178766e+02   
1.013300000000000e+10    -1.562280246783822e+01   -1.714994332612071e+02   
1.013400000000000e+10    -1.564126543851187e+01   -1.717539012899197e+02   
1.013500000000000e+10    -1.566631606943845e+01   -1.718934969298903e+02   
1.013600000000000e+10    -1.567438652406917e+01   -1.720869119445552e+02   
1.013700000000000e+10    -1.570766310000874e+01   -1.721506110990468e+02   
1.013800000000000e+10    -1.571379635520417e+01   -1.724022286944167e+02   
1.013900000000000e+10    -1.573291316577964e+01   -1.724942961528606e+02   
1.014000000000000e+10    -1.576881316410269e+01   -1.727583710668563e+02   
1.014100000000000e+10    -1.578548472238746e+01   -1.728893355688057e+02   
1.014200000000000e+10    -1.580760115573463e+01   -1.730893453024187e+02   
1.014300000000000e+10    -1.582346172226379e+01   -1.731743424160297e+02   
1.014400000000000e+10    -1.584692589912250e+01   -1.734288986422363e+02   
1.014500000000000e+10    -1.585728063386574e+01   -1.734836781975477e+02   
1.014600000000000e+10    -1.587564445494857e+01   -1.736488593143995e+02   
1.014700000000000e+10    -1.590104647825553e+01   -1.738259195583989e+02   
1.014800000000000e+10    -1.591324037197303e+01   -1.740436813395227e+02   
1.014900000000000e+10    -1.593685451232662e+01   -1.740523999126865e+02   
1.015000000000000e+10    -1.596361057121628e+01   -1.743487801453166e+02   
1.015100000000000e+10    -1.597795494421813e+01   -1.743410104232939e+02   
1.015200000000000e+10    -1.600526778372838e+01   -1.745328320204469e+02   
1.015300000000000e+10    -1.600657445843184e+01   -1.746550382245108e+02   
1.015400000000000e+10    -1.604500265891720e+01   -1.748956272240285e+02   
1.015500000000000e+10    -1.606428589844611e+01   -1.749672511638231e+02   
1.015600000000000e+10    -1.609780358830309e+01   -1.750617677884557e+02   
1.015700000000000e+10    -1.611298900716061e+01   -1.751536075431036e+02   
1.015800000000000e+10    -1.613604363175855e+01   -1.752389069117102e+02   
1.015900000000000e+10    -1.614264559021192e+01   -1.754164085494145e+02   
1.016000000000000e+10    -1.616889260768091e+01   -1.756350505699054e+02   
1.016100000000000e+10    -1.620102511151797e+01   -1.757675893581662e+02   
1.016200000000000e+10    -1.622476107875623e+01   -1.758874712504415e+02   
1.016300000000000e+10    -1.624402330372421e+01   -1.759489814674676e+02   
1.016400000000000e+10    -1.627579849894159e+01   -1.760775766899806e+02   
1.016500000000000e+10    -1.629721104875912e+01   -1.761511895308986e+02   
1.016600000000000e+10    -1.633092078871621e+01   -1.763368096456342e+02   
1.016700000000000e+10    -1.634685352521252e+01   -1.764767758532647e+02   
1.016800000000000e+10    -1.637426657705201e+01   -1.765387223330856e+02   
1.016900000000000e+10    -1.639855458281453e+01   -1.767877225924987e+02   
1.017000000000000e+10    -1.641729998549671e+01   -1.768739985559590e+02   
1.017100000000000e+10    -1.644744717329674e+01   -1.771240379455883e+02   
1.017200000000000e+10    -1.648588988501782e+01   -1.771181704533889e+02   
1.017300000000000e+10    -1.651490391076627e+01   -1.772275956628225e+02   
1.017400000000000e+10    -1.653724704223642e+01   -1.773423231686795e+02   
1.017500000000000e+10    -1.658830833682185e+01   -1.776019511277642e+02   
1.017600000000000e+10    -1.657672173263464e+01   -1.776673148467654e+02   
1.017700000000000e+10    -1.662151494450636e+01   -1.778495114430870e+02   
1.017800000000000e+10    -1.665454833843094e+01   -1.779371549355069e+02   
1.017900000000000e+10    -1.666326073760165e+01   -1.780161645373421e+02   
1.018000000000000e+10    -1.672446118480537e+01   -1.782702113841548e+02   
1.018100000000000e+10    -1.673394481377692e+01   -1.783619022857384e+02   
1.018200000000000e+10    -1.678096878352058e+01   -1.786020156201652e+02   
1.018300000000000e+10    -1.679377649705918e+01   -1.787386553141073e+02   
1.018400000000000e+10    -1.681404790662220e+01   -1.788316057291428e+02   
1.018500000000000e+10    -1.684067964776440e+01   -1.790759469307566e+02   
1.018600000000000e+10    -1.687310989130378e+01   -1.791736031761950e+02   
1.018700000000000e+10    -1.691638890264559e+01   -1.793723734241519e+02   
1.018800000000000e+10    -1.695554444745024e+01   -1.794293035937731e+02   
1.018900000000000e+10    -1.698146924942642e+01   -1.795466126461158e+02   
1.019000000000000e+10    -1.701041127317452e+01   -1.796991948629646e+02   
1.019100000000000e+10    -1.703116423421030e+01   -1.798626110338261e+02   
1.019200000000000e+10    -1.704521936411513e+01   -1.799312066277480e+02   
1.019300000000000e+10    -1.707218615517361e+01   1.799849854027100e+02    
1.019400000000000e+10    -1.710896098760014e+01   1.797787920229734e+02    
1.019500000000000e+10    -1.713909570007718e+01   1.796894783029269e+02    
1.019600000000000e+10    -1.716630718927074e+01   1.794926739401765e+02    
1.019700000000000e+10    -1.718983898828195e+01   1.794085060077324e+02    
1.019800000000000e+10    -1.720173789616156e+01   1.792288443245652e+02    
1.019900000000000e+10    -1.723951843509078e+01   1.791624134840989e+02    
1.020000000000000e+10    -1.727834887174530e+01   1.788972066540976e+02    
1.020100000000000e+10    -1.728828256308181e+01   1.789515992614382e+02    
1.020200000000000e+10    -1.732577152667086e+01   1.787590106299291e+02    
1.020300000000000e+10    -1.735750295313131e+01   1.787785689944519e+02    
1.020400000000000e+10    -1.739412227047467e+01   1.785716982955728e+02    
1.020500000000000e+10    -1.741334178457542e+01   1.783599814448408e+02    
1.020600000000000e+10    -1.743403123720797e+01   1.783287101648190e+02    
1.020700000000000e+10    -1.744642107169840e+01   1.782031913862756e+02    
1.020800000000000e+10    -1.748714164531621e+01   1.781030037451194e+02    
1.020900000000000e+10    -1.753066736983193e+01   1.778383294770568e+02    
1.021000000000000e+10    -1.755742063860442e+01   1.777336288454814e+02    
1.021100000000000e+10    -1.758220541183755e+01   1.776721099622681e+02    
1.021200000000000e+10    -1.763211491477027e+01   1.774889286747729e+02    
1.021300000000000e+10    -1.765552065172414e+01   1.773867815429829e+02    
1.021400000000000e+10    -1.768844956830261e+01   1.772819726649693e+02    
1.021500000000000e+10    -1.772098723082776e+01   1.772431389572807e+02    
1.021600000000000e+10    -1.774347877400748e+01   1.770259173825003e+02    
1.021700000000000e+10    -1.777117082898667e+01   1.769404731197289e+02    
1.021800000000000e+10    -1.780547649789075e+01   1.768439645762828e+02    
1.021900000000000e+10    -1.785847813663594e+01   1.767408777397854e+02    
1.022000000000000e+10    -1.787934912728539e+01   1.765804736288742e+02    
1.022100000000000e+10    -1.789374249152559e+01   1.764876044302794e+02    
1.022200000000000e+10    -1.796473051850599e+01   1.763493139413455e+02    
1.022300000000000e+10    -1.798655039100684e+01   1.762647595138147e+02    
1.022400000000000e+10    -1.801776487716353e+01   1.760518559043789e+02    
1.022500000000000e+10    -1.805207563327362e+01   1.760701781617577e+02    
1.022600000000000e+10    -1.808925458455866e+01   1.757092465765439e+02    
1.022700000000000e+10    -1.812030061451699e+01   1.756644360830232e+02    
1.022800000000000e+10    -1.815206046844403e+01   1.755385917009407e+02    
1.022900000000000e+10    -1.818167351487442e+01   1.753280029794340e+02    
1.023000000000000e+10    -1.820103338668371e+01   1.752956156722094e+02    
1.023100000000000e+10    -1.822525197483489e+01   1.751243773716900e+02    
1.023200000000000e+10    -1.826426947113286e+01   1.749065134554770e+02    
1.023300000000000e+10    -1.830924689446086e+01   1.747942407989067e+02    
1.023400000000000e+10    -1.833249907196947e+01   1.746140739878321e+02    
1.023500000000000e+10    -1.841066708094455e+01   1.744713574162389e+02    
1.023600000000000e+10    -1.840415386157107e+01   1.745278594293977e+02    
1.023700000000000e+10    -1.844186470856675e+01   1.742207850640227e+02    
1.023800000000000e+10    -1.848344130625219e+01   1.742348479837350e+02    
1.023900000000000e+10    -1.849596343631684e+01   1.739050603919744e+02    
1.024000000000000e+10    -1.856138487474227e+01   1.738081266251261e+02    
1.024100000000000e+10    -1.857979659988616e+01   1.739042977379360e+02    
1.024200000000000e+10    -1.860763021916296e+01   1.736459967143753e+02    
1.024300000000000e+10    -1.866255331711127e+01   1.734540153743550e+02    
1.024400000000000e+10    -1.869244149990526e+01   1.732782093471329e+02    
1.024500000000000e+10    -1.871008649663452e+01   1.732779860677071e+02    
1.024600000000000e+10    -1.874335001886440e+01   1.730362761070413e+02    
1.024700000000000e+10    -1.877700393115272e+01   1.729303041682810e+02    
1.024800000000000e+10    -1.882705401364919e+01   1.729096416313799e+02    
1.024900000000000e+10    -1.886492596177802e+01   1.725634836444543e+02    
1.025000000000000e+10    -1.888096079193311e+01   1.724926965467478e+02    
1.025100000000000e+10    -1.890361336091634e+01   1.726018490455269e+02    
1.025200000000000e+10    -1.894531423703543e+01   1.722143122134934e+02    
1.025300000000000e+10    -1.896739616746853e+01   1.722814447726643e+02    
1.025400000000000e+10    -1.900746786261648e+01   1.721330279657134e+02    
1.025500000000000e+10    -1.906181272444984e+01   1.718927956281730e+02    
1.025600000000000e+10    -1.908749212085697e+01   1.717867811269892e+02    
