[Version] 2.0
! Rohde & Schwarz Vector Network Analyzer
! Rohde-Schwarz,ZNL20-2Port,1323001220200009,1.71.1.10-23.02.1.238
! 
! Port Assignments:
! Nominal Port -> Actual Test Port
! --------------------------------
!   1 -> 1

! Created: GMT 2024-08-27 12:48:06

# Hz S DB R 50

[Number of Ports] 1
[Number of Frequencies] 2001

[Network Data] 
! freq[Hz]               S11[mag dB]              S11[ang]                 
1.000000000000000e+10    -1.590091245310100e+01   -1.589460260632147e+02   
1.000100000000000e+10    -1.593290962630329e+01   -1.590631618161343e+02   
1.000200000000000e+10    -1.596051309985799e+01   -1.591337094488121e+02   
1.000300000000000e+10    -1.598599870961534e+01   -1.593819691317812e+02   
1.000400000000000e+10    -1.600018066038007e+01   -1.596220293523572e+02   
1.000500000000000e+10    -1.601791443539610e+01   -1.597529842266279e+02   
1.000600000000000e+10    -1.605060262117072e+01   -1.599336002747432e+02   
1.000700000000000e+10    -1.607379758204721e+01   -1.600651012243611e+02   
1.000800000000000e+10    -1.609750160222013e+01   -1.602791889909921e+02   
1.000900000000000e+10    -1.612242767605675e+01   -1.605794293242734e+02   
1.001000000000000e+10    -1.615194742451833e+01   -1.606375635995137e+02   
1.001100000000000e+10    -1.617665596852229e+01   -1.608906317053070e+02   
1.001200000000000e+10    -1.619124417528566e+01   -1.610642947760124e+02   
1.001300000000000e+10    -1.623286460041700e+01   -1.613631653979164e+02   
1.001400000000000e+10    -1.624101951729303e+01   -1.615800092145225e+02   
1.001500000000000e+10    -1.626970514289685e+01   -1.617480011161364e+02   
1.001600000000000e+10    -1.628255761565834e+01   -1.618934730246158e+02   
1.001700000000000e+10    -1.631386160829239e+01   -1.622128233846856e+02   
1.001800000000000e+10    -1.633367815658669e+01   -1.624235095525367e+02   
1.001900000000000e+10    -1.635994623397355e+01   -1.626023781011891e+02   
1.002000000000000e+10    -1.638093839689958e+01   -1.629032530231682e+02   
1.002100000000000e+10    -1.640223588251566e+01   -1.631076688194741e+02   
1.002200000000000e+10    -1.642802150366785e+01   -1.632512015006211e+02   
1.002300000000000e+10    -1.643839022611036e+01   -1.634253994541983e+02   
1.002400000000000e+10    -1.645042676215450e+01   -1.636404335217423e+02   
1.002500000000000e+10    -1.649511862391893e+01   -1.638179683193508e+02   
1.002600000000000e+10    -1.650409259037369e+01   -1.641762461279009e+02   
1.002700000000000e+10    -1.651722839574718e+01   -1.643790025843808e+02   
1.002800000000000e+10    -1.654565263550668e+01   -1.644998611011711e+02   
1.002900000000000e+10    -1.656604918073020e+01   -1.646503133253652e+02   
1.003000000000000e+10    -1.660809040767265e+01   -1.648594426576250e+02   
1.003100000000000e+10    -1.659739048676911e+01   -1.650890556719334e+02   
1.003200000000000e+10    -1.662754090228511e+01   -1.653365693281721e+02   
1.003300000000000e+10    -1.663257530229549e+01   -1.654634861512212e+02   
1.003400000000000e+10    -1.665973487093015e+01   -1.655663593875400e+02   
1.003500000000000e+10    -1.669370616948522e+01   -1.658478075211652e+02   
1.003600000000000e+10    -1.669644225012213e+01   -1.658269607415227e+02   
1.003700000000000e+10    -1.672870059589489e+01   -1.661154469208589e+02   
1.003800000000000e+10    -1.674805037067881e+01   -1.663316848761103e+02   
1.003900000000000e+10    -1.677751536208937e+01   -1.665508655313001e+02   
1.004000000000000e+10    -1.677701500098310e+01   -1.667093305831771e+02   
1.004100000000000e+10    -1.681714995502852e+01   -1.668825704648328e+02   
1.004200000000000e+10    -1.682206267927551e+01   -1.669639038183670e+02   
1.004300000000000e+10    -1.685388362417316e+01   -1.671474591610656e+02   
1.004400000000000e+10    -1.688046196020344e+01   -1.673843186040230e+02   
1.004500000000000e+10    -1.689058784198867e+01   -1.674248071320814e+02   
1.004600000000000e+10    -1.692654849656093e+01   -1.675828595820502e+02   
1.004700000000000e+10    -1.694629697357396e+01   -1.677544730459359e+02   
1.004800000000000e+10    -1.696704898353385e+01   -1.678534338942148e+02   
1.004900000000000e+10    -1.698434796949863e+01   -1.679992292636126e+02   
1.005000000000000e+10    -1.701201492828850e+01   -1.682699068764517e+02   
1.005100000000000e+10    -1.700528725993366e+01   -1.681969477659484e+02   
1.005200000000000e+10    -1.705787928383246e+01   -1.683019832263020e+02   
1.005300000000000e+10    -1.707507693320967e+01   -1.685072974166909e+02   
1.005400000000000e+10    -1.709397343882550e+01   -1.686467510225986e+02   
1.005500000000000e+10    -1.712450652563981e+01   -1.687244362895716e+02   
1.005600000000000e+10    -1.716815408301654e+01   -1.689252616321287e+02   
1.005700000000000e+10    -1.717653721900870e+01   -1.689106954700999e+02   
1.005800000000000e+10    -1.719834457677651e+01   -1.690842134648714e+02   
1.005900000000000e+10    -1.722107051890417e+01   -1.692626087521646e+02   
1.006000000000000e+10    -1.724315271644040e+01   -1.692702038975336e+02   
1.006100000000000e+10    -1.728728833281835e+01   -1.693521030762251e+02   
1.006200000000000e+10    -1.730685443744065e+01   -1.694791620070457e+02   
1.006300000000000e+10    -1.734302695973449e+01   -1.695639463623747e+02   
1.006400000000000e+10    -1.735358426666573e+01   -1.696504681823399e+02   
1.006500000000000e+10    -1.738738415036345e+01   -1.697765884347488e+02   
1.006600000000000e+10    -1.742380230403671e+01   -1.698100601874847e+02   
1.006700000000000e+10    -1.744563026493045e+01   -1.700412252157440e+02   
1.006800000000000e+10    -1.747703751444565e+01   -1.699818800610332e+02   
1.006900000000000e+10    -1.751442111382583e+01   -1.700494326937394e+02   
1.007000000000000e+10    -1.753643164754990e+01   -1.701954496172401e+02   
1.007100000000000e+10    -1.755606776740717e+01   -1.702785004976187e+02   
1.007200000000000e+10    -1.760223697844884e+01   -1.703051206588573e+02   
1.007300000000000e+10    -1.763087207431357e+01   -1.705290829387822e+02   
1.007400000000000e+10    -1.765854614492657e+01   -1.704384243382021e+02   
1.007500000000000e+10    -1.771383897141940e+01   -1.706156494793307e+02   
1.007600000000000e+10    -1.775505470901598e+01   -1.707501717131381e+02   
1.007700000000000e+10    -1.777399158256994e+01   -1.707092757321423e+02   
1.007800000000000e+10    -1.781812958736666e+01   -1.707141130437011e+02   
1.007900000000000e+10    -1.784457445412504e+01   -1.708749357078891e+02   
1.008000000000000e+10    -1.790934574697235e+01   -1.710093214320443e+02   
1.008100000000000e+10    -1.793098827627606e+01   -1.709459714764809e+02   
1.008200000000000e+10    -1.796567911073804e+01   -1.709134214374852e+02   
1.008300000000000e+10    -1.800462230751664e+01   -1.711125126985085e+02   
1.008400000000000e+10    -1.805890533237384e+01   -1.712802346560738e+02   
1.008500000000000e+10    -1.807685573182070e+01   -1.712830275909173e+02   
1.008600000000000e+10    -1.812269283930334e+01   -1.713253765408645e+02   
1.008700000000000e+10    -1.815540019180835e+01   -1.714425494433162e+02   
1.008800000000000e+10    -1.819347709333852e+01   -1.715484988919328e+02   
1.008900000000000e+10    -1.825594799123113e+01   -1.716804234638159e+02   
1.009000000000000e+10    -1.829060385045322e+01   -1.717772797231709e+02   
1.009100000000000e+10    -1.835511639937523e+01   -1.718252456946225e+02   
1.009200000000000e+10    -1.838648094411511e+01   -1.720677026026171e+02   
1.009300000000000e+10    -1.840424289773689e+01   -1.720782681730484e+02   
1.009400000000000e+10    -1.846494800294306e+01   -1.722450997552795e+02   
1.009500000000000e+10    -1.851601690377471e+01   -1.721908583877729e+02   
1.009600000000000e+10    -1.854551174325573e+01   -1.722736268923862e+02   
1.009700000000000e+10    -1.859729266065381e+01   -1.724447354474831e+02   
1.009800000000000e+10    -1.861659452485489e+01   -1.725063296270495e+02   
1.009900000000000e+10    -1.868940540153281e+01   -1.725443835268541e+02   
1.010000000000000e+10    -1.871648178771337e+01   -1.728321702205122e+02   
1.010100000000000e+10    -1.876767123879430e+01   -1.728462894964540e+02   
1.010200000000000e+10    -1.879844477451447e+01   -1.729488482580705e+02   
1.010300000000000e+10    -1.886209757591463e+01   -1.729861744510811e+02   
1.010400000000000e+10    -1.889285138972844e+01   -1.731323167411421e+02   
1.010500000000000e+10    -1.891035133294106e+01   -1.733560293692246e+02   
1.010600000000000e+10    -1.897918978929766e+01   -1.734090512600092e+02   
1.010700000000000e+10    -1.901684422935835e+01   -1.734562511302169e+02   
1.010800000000000e+10    -1.902711043525546e+01   -1.736486675143015e+02   
1.010900000000000e+10    -1.907661173818734e+01   -1.737177615909596e+02   
1.011000000000000e+10    -1.910965115541138e+01   -1.738565637570189e+02   
1.011100000000000e+10    -1.916480082374529e+01   -1.739561305778809e+02   
1.011200000000000e+10    -1.919052707886565e+01   -1.742234249476989e+02   
1.011300000000000e+10    -1.925812930641160e+01   -1.742318790410238e+02   
1.011400000000000e+10    -1.927634170042968e+01   -1.741786213382071e+02   
1.011500000000000e+10    -1.933584366533987e+01   -1.743545263165759e+02   
1.011600000000000e+10    -1.936356152684729e+01   -1.746439518163112e+02   
1.011700000000000e+10    -1.941128769683391e+01   -1.744626263476488e+02   
1.011800000000000e+10    -1.945695514614345e+01   -1.747114273729194e+02   
1.011900000000000e+10    -1.947494389374599e+01   -1.747076087432328e+02   
1.012000000000000e+10    -1.951109164637244e+01   -1.746910384715371e+02   
1.012100000000000e+10    -1.955823287086148e+01   -1.749514065645538e+02   
1.012200000000000e+10    -1.959144678564066e+01   -1.748831624265281e+02   
1.012300000000000e+10    -1.961905050959213e+01   -1.750672413546698e+02   
1.012400000000000e+10    -1.967279644582777e+01   -1.749695998722615e+02   
1.012500000000000e+10    -1.972518869547045e+01   -1.750252782621872e+02   
1.012600000000000e+10    -1.975552937142411e+01   -1.751244032039809e+02   
1.012700000000000e+10    -1.977651944862806e+01   -1.751978134450273e+02   
1.012800000000000e+10    -1.982944366955156e+01   -1.752440795392071e+02   
1.012900000000000e+10    -1.985196470389157e+01   -1.752395174382536e+02   
1.013000000000000e+10    -1.990572612032097e+01   -1.755048266041073e+02   
1.013100000000000e+10    -1.995122493211851e+01   -1.752618475458829e+02   
1.013200000000000e+10    -1.995962029484852e+01   -1.754253992909248e+02   
1.013300000000000e+10    -2.000984174914835e+01   -1.753298644422295e+02   
1.013400000000000e+10    -2.004769100432340e+01   -1.755475792021525e+02   
1.013500000000000e+10    -2.009109857073408e+01   -1.755083224701104e+02   
1.013600000000000e+10    -2.011214053500861e+01   -1.755865599652370e+02   
1.013700000000000e+10    -2.017587158066916e+01   -1.754405433054265e+02   
1.013800000000000e+10    -2.018717789844317e+01   -1.756408008541015e+02   
1.013900000000000e+10    -2.022455933951147e+01   -1.755184940496851e+02   
1.014000000000000e+10    -2.028715813186697e+01   -1.757007067186971e+02   
1.014100000000000e+10    -2.032299931569462e+01   -1.756678205749095e+02   
1.014200000000000e+10    -2.036382671058114e+01   -1.757758371976384e+02   
1.014300000000000e+10    -2.039592391348841e+01   -1.756484343457711e+02   
1.014400000000000e+10    -2.043717806022914e+01   -1.758458064718516e+02   
1.014500000000000e+10    -2.046387207340105e+01   -1.756716629880195e+02   
1.014600000000000e+10    -2.050333996963240e+01   -1.756726968979595e+02   
1.014700000000000e+10    -2.054945107315872e+01   -1.756933851605804e+02   
1.014800000000000e+10    -2.057585726441866e+01   -1.758222837890297e+02   
1.014900000000000e+10    -2.062237239993719e+01   -1.755122499189453e+02   
1.015000000000000e+10    -2.067287028096432e+01   -1.757310806016947e+02   
1.015100000000000e+10    -2.069842178623287e+01   -1.755166031069011e+02   
1.015200000000000e+10    -2.074976507550232e+01   -1.755494079337500e+02   
1.015300000000000e+10    -2.075463189939912e+01   -1.754855716313651e+02   
1.015400000000000e+10    -2.082587063609622e+01   -1.756037984454075e+02   
1.015500000000000e+10    -2.086200599260342e+01   -1.754515804501864e+02   
1.015600000000000e+10    -2.092718777675199e+01   -1.753020337516471e+02   
1.015700000000000e+10    -2.095824466864726e+01   -1.751566799470268e+02   
1.015800000000000e+10    -2.099860760187160e+01   -1.750271190617566e+02   
1.015900000000000e+10    -2.101595075221596e+01   -1.750761988132364e+02   
1.016000000000000e+10    -2.106367615513894e+01   -1.751703274626110e+02   
1.016100000000000e+10    -2.112421258565634e+01   -1.751064507614933e+02   
1.016200000000000e+10    -2.117098805254368e+01   -1.750310334389175e+02   
1.016300000000000e+10    -2.120492852484855e+01   -1.748191276353240e+02   
1.016400000000000e+10    -2.126333880480107e+01   -1.747195274387610e+02   
1.016500000000000e+10    -2.130639505149326e+01   -1.745151516821871e+02   
1.016600000000000e+10    -2.136745242256981e+01   -1.745497909158744e+02   
1.016700000000000e+10    -2.140106607881841e+01   -1.744925939959202e+02   
1.016800000000000e+10    -2.144936230698983e+01   -1.742470981602505e+02   
1.016900000000000e+10    -2.149883827650638e+01   -1.743685378904057e+02   
1.017000000000000e+10    -2.152978928487502e+01   -1.741849292707282e+02   
1.017100000000000e+10    -2.158708198325826e+01   -1.743044066514634e+02   
1.017200000000000e+10    -2.165291283447340e+01   -1.739226325197778e+02   
1.017300000000000e+10    -2.170143584926290e+01   -1.737161824903263e+02   
1.017400000000000e+10    -2.173961478775540e+01   -1.736105894721581e+02   
1.017500000000000e+10    -2.183522067282652e+01   -1.736896955117931e+02   
1.017600000000000e+10    -2.180684179765093e+01   -1.734860326731778e+02   
1.017700000000000e+10    -2.188615298205024e+01   -1.734547009704741e+02   
1.017800000000000e+10    -2.194150783888372e+01   -1.732453316086292e+02   
1.017900000000000e+10    -2.195962747249923e+01   -1.730679338461867e+02   
1.018000000000000e+10    -2.206968395242093e+01   -1.730980881622173e+02   
1.018100000000000e+10    -2.208596297669648e+01   -1.729004855665885e+02   
1.018200000000000e+10    -2.217256143044274e+01   -1.729882389364573e+02   
1.018300000000000e+10    -2.219346438423770e+01   -1.728838128241782e+02   
1.018400000000000e+10    -2.222397296543870e+01   -1.726318163108358e+02   
1.018500000000000e+10    -2.228178859710493e+01   -1.726814006396572e+02   
1.018600000000000e+10    -2.233446250525334e+01   -1.724117505974368e+02   
1.018700000000000e+10    -2.240795149561435e+01   -1.723705977740752e+02   
1.018800000000000e+10    -2.246975705923907e+01   -1.720277268409354e+02   
1.018900000000000e+10    -2.250645748819590e+01   -1.718344311570371e+02   
1.019000000000000e+10    -2.254757224666318e+01   -1.717634246837429e+02   
1.019100000000000e+10    -2.258375690521810e+01   -1.716978853906030e+02   
1.019200000000000e+10    -2.260181906330745e+01   -1.714942990604510e+02   
1.019300000000000e+10    -2.264626327818975e+01   -1.712344213338380e+02   
1.019400000000000e+10    -2.270644743508211e+01   -1.711990679258713e+02   
1.019500000000000e+10    -2.276001321827035e+01   -1.709177470219771e+02   
1.019600000000000e+10    -2.280776350328507e+01   -1.709271227556912e+02   
1.019700000000000e+10    -2.283554392487304e+01   -1.706755479019508e+02   
1.019800000000000e+10    -2.285914595395944e+01   -1.706384428142957e+02   
1.019900000000000e+10    -2.291811235648889e+01   -1.703211853709892e+02   
1.020000000000000e+10    -2.299256051002421e+01   -1.702982121735591e+02   
1.020100000000000e+10    -2.300412424202515e+01   -1.699450477095988e+02   
1.020200000000000e+10    -2.306622596854450e+01   -1.697689981946712e+02   
1.020300000000000e+10    -2.310737782297083e+01   -1.692646786544015e+02   
1.020400000000000e+10    -2.317858957314709e+01   -1.692110884574040e+02   
1.020500000000000e+10    -2.320673908905130e+01   -1.692091109184667e+02   
1.020600000000000e+10    -2.322300288367708e+01   -1.688359968159430e+02   
1.020700000000000e+10    -2.323582717122944e+01   -1.687428142184837e+02   
1.020800000000000e+10    -2.330386833433119e+01   -1.684177657783343e+02   
1.020900000000000e+10    -2.339220392319072e+01   -1.684090460798132e+02   
1.021000000000000e+10    -2.342900234447694e+01   -1.681463419292022e+02   
1.021100000000000e+10    -2.345245440804123e+01   -1.677915074558361e+02   
1.021200000000000e+10    -2.354610784698103e+01   -1.676243363313759e+02   
1.021300000000000e+10    -2.357437267375291e+01   -1.673642846884573e+02   
1.021400000000000e+10    -2.361805788617147e+01   -1.671008091372432e+02   
1.021500000000000e+10    -2.365810586012488e+01   -1.666350070123790e+02   
1.021600000000000e+10    -2.369138493760559e+01   -1.665846130078932e+02   
1.021700000000000e+10    -2.372957302400261e+01   -1.663114221201650e+02   
1.021800000000000e+10    -2.377363401135769e+01   -1.659638294465711e+02   
1.021900000000000e+10    -2.385542083837688e+01   -1.655565423725322e+02   
1.022000000000000e+10    -2.388336635829293e+01   -1.654345638874184e+02   
1.022100000000000e+10    -2.389227003865670e+01   -1.651775893628379e+02   
1.022200000000000e+10    -2.401553703103694e+01   -1.647549075052382e+02   
1.022300000000000e+10    -2.403832758081078e+01   -1.644694921263726e+02   
1.022400000000000e+10    -2.408609269094749e+01   -1.643190296494090e+02   
1.022500000000000e+10    -2.411132829130278e+01   -1.637317210185413e+02   
1.022600000000000e+10    -2.419228374791498e+01   -1.638911688443357e+02   
1.022700000000000e+10    -2.421366401122255e+01   -1.634380789925333e+02   
1.022800000000000e+10    -2.425588496477840e+01   -1.631371156743120e+02   
1.022900000000000e+10    -2.430343566365825e+01   -1.630331039849844e+02   
1.023000000000000e+10    -2.430853454193834e+01   -1.626306803613749e+02   
1.023100000000000e+10    -2.433675260872833e+01   -1.624072115445508e+02   
1.023200000000000e+10    -2.440677598109444e+01   -1.622345357852779e+02   
1.023300000000000e+10    -2.446138935508696e+01   -1.617671514308285e+02   
1.023400000000000e+10    -2.449079183017792e+01   -1.616197854626197e+02   
1.023500000000000e+10    -2.460491035929589e+01   -1.610938013436179e+02   
1.023600000000000e+10    -2.455271584762295e+01   -1.606583650167815e+02   
1.023700000000000e+10    -2.462056964115890e+01   -1.606615282676624e+02   
1.023800000000000e+10    -2.464039157180603e+01   -1.600231749703089e+02   
1.023900000000000e+10    -2.467083273470449e+01   -1.601573284908275e+02   
1.024000000000000e+10    -2.476694726034646e+01   -1.595592929598059e+02   
1.024100000000000e+10    -2.473321727446331e+01   -1.589378866885237e+02   
1.024200000000000e+10    -2.478494422179953e+01   -1.588532737175197e+02   
1.024300000000000e+10    -2.485617574680685e+01   -1.584766518137156e+02   
1.024400000000000e+10    -2.488734962768610e+01   -1.582462222668238e+02   
1.024500000000000e+10    -2.487535368401024e+01   -1.578302077996822e+02   
1.024600000000000e+10    -2.491777206635782e+01   -1.576872645790720e+02   
1.024700000000000e+10    -2.495032593156181e+01   -1.573141939777745e+02   
1.024800000000000e+10    -2.498365957210350e+01   -1.567127005028186e+02   
1.024900000000000e+10    -2.507285614105241e+01   -1.567136204389051e+02   
1.025000000000000e+10    -2.504873733875814e+01   -1.562903951429149e+02   
1.025100000000000e+10    -2.504568051087060e+01   -1.557053136191450e+02   
1.025200000000000e+10    -2.511312088939427e+01   -1.556475815980308e+02   
1.025300000000000e+10    -2.508011966172276e+01   -1.550616917268173e+02   
1.025400000000000e+10    -2.513002779748375e+01   -1.546599072592061e+02   
1.025500000000000e+10    -2.520191428933513e+01   -1.543239464029741e+02   
1.025600000000000e+10    -2.521014724517272e+01   -1.540197602185337e+02   
