[Version] 2.0
! Rohde & Schwarz Vector Network Analyzer
! Rohde-Schwarz,ZNL20-2Port,1323001220200009,1.71.1.10-23.02.1.238
! 
! Port Assignments:
! Nominal Port -> Actual Test Port
! --------------------------------
!   1 -> 1

! Created: GMT 2024-08-27 12:48:36

# Hz S DB R 50

[Number of Ports] 1
[Number of Frequencies] 2001

[Network Data] 
! freq[Hz]               S11[mag dB]              S11[ang]                 
1.000000000000000e+10    -1.563496359436359e+01   -1.579994089807667e+02   
1.000100000000000e+10    -1.566475446709990e+01   -1.581082842606345e+02   
1.000200000000000e+10    -1.568820420037337e+01   -1.581838432525821e+02   
1.000300000000000e+10    -1.571250775066060e+01   -1.584360750580032e+02   
1.000400000000000e+10    -1.572620398939582e+01   -1.586732870634480e+02   
1.000500000000000e+10    -1.574173951474004e+01   -1.588159951192927e+02   
1.000600000000000e+10    -1.577132471766338e+01   -1.589858003327249e+02   
1.000700000000000e+10    -1.579382259926961e+01   -1.591247646857574e+02   
1.000800000000000e+10    -1.581442114456966e+01   -1.593346453255276e+02   
1.000900000000000e+10    -1.583860289791792e+01   -1.596391591370139e+02   
1.001000000000000e+10    -1.586576766221256e+01   -1.596932172761482e+02   
1.001100000000000e+10    -1.588692149649058e+01   -1.599555107724472e+02   
1.001200000000000e+10    -1.589987079379731e+01   -1.601327719469010e+02   
1.001300000000000e+10    -1.593736948044559e+01   -1.604296500188782e+02   
1.001400000000000e+10    -1.594481091881309e+01   -1.606448821620448e+02   
1.001500000000000e+10    -1.597133656528992e+01   -1.608309061853815e+02   
1.001600000000000e+10    -1.598139218560838e+01   -1.609655267576302e+02   
1.001700000000000e+10    -1.601160545633083e+01   -1.612917304808177e+02   
1.001800000000000e+10    -1.602639291853012e+01   -1.615020171856894e+02   
1.001900000000000e+10    -1.605030217432315e+01   -1.616831899865463e+02   
1.002000000000000e+10    -1.606844531224462e+01   -1.619788421367411e+02   
1.002100000000000e+10    -1.608838177959732e+01   -1.621995181525583e+02   
1.002200000000000e+10    -1.610896448999514e+01   -1.623398944529964e+02   
1.002300000000000e+10    -1.611999011881351e+01   -1.625382958393971e+02   
1.002400000000000e+10    -1.613051073560833e+01   -1.627407476088739e+02   
1.002500000000000e+10    -1.617091539107502e+01   -1.629346775581397e+02   
1.002600000000000e+10    -1.617732437236868e+01   -1.632980196809898e+02   
1.002700000000000e+10    -1.618965498613833e+01   -1.634933661666213e+02   
1.002800000000000e+10    -1.621713063330350e+01   -1.636383886294745e+02   
1.002900000000000e+10    -1.623249445870051e+01   -1.637845443410842e+02   
1.003000000000000e+10    -1.627096293351643e+01   -1.639887689023233e+02   
1.003100000000000e+10    -1.625950104066057e+01   -1.642361442902458e+02   
1.003200000000000e+10    -1.628551079002514e+01   -1.644845389581752e+02   
1.003300000000000e+10    -1.628977661380598e+01   -1.646326108997627e+02   
1.003400000000000e+10    -1.631349541850664e+01   -1.647492533471729e+02   
1.003500000000000e+10    -1.634348549285587e+01   -1.650292135778351e+02   
1.003600000000000e+10    -1.634565569159892e+01   -1.650435912327340e+02   
1.003700000000000e+10    -1.637622965743132e+01   -1.653484597347596e+02   
1.003800000000000e+10    -1.639281417296819e+01   -1.655665144281363e+02   
1.003900000000000e+10    -1.642108688677459e+01   -1.657851471614623e+02   
1.004000000000000e+10    -1.641860440038261e+01   -1.659612871113158e+02   
1.004100000000000e+10    -1.645459626689497e+01   -1.661417216511460e+02   
1.004200000000000e+10    -1.646001896346167e+01   -1.662377287543693e+02   
1.004300000000000e+10    -1.648699920409588e+01   -1.664244002163864e+02   
1.004400000000000e+10    -1.651000016489424e+01   -1.666664867763084e+02   
1.004500000000000e+10    -1.651974408480805e+01   -1.667257194170363e+02   
1.004600000000000e+10    -1.655199559871961e+01   -1.668987992331082e+02   
1.004700000000000e+10    -1.657147275666602e+01   -1.671092964944105e+02   
1.004800000000000e+10    -1.658982336902060e+01   -1.672139212300103e+02   
1.004900000000000e+10    -1.660484879421101e+01   -1.673698618262331e+02   
1.005000000000000e+10    -1.663158095233328e+01   -1.676697334054178e+02   
1.005100000000000e+10    -1.662256664391512e+01   -1.676181524127764e+02   
1.005200000000000e+10    -1.667350293492791e+01   -1.677225638764757e+02   
1.005300000000000e+10    -1.668988524527229e+01   -1.679543359570689e+02   
1.005400000000000e+10    -1.670708824466352e+01   -1.680940168633766e+02   
1.005500000000000e+10    -1.673553024583346e+01   -1.682051808596760e+02   
1.005600000000000e+10    -1.677622775914662e+01   -1.684025939320646e+02   
1.005700000000000e+10    -1.678303994985142e+01   -1.684300789725864e+02   
1.005800000000000e+10    -1.680127513647237e+01   -1.686093923125554e+02   
1.005900000000000e+10    -1.682290333536561e+01   -1.688036418572841e+02   
1.006000000000000e+10    -1.684357487585574e+01   -1.688222288909434e+02   
1.006100000000000e+10    -1.688522334771091e+01   -1.689310392586807e+02   
1.006200000000000e+10    -1.690511155075079e+01   -1.690901189796515e+02   
1.006300000000000e+10    -1.693731430835254e+01   -1.691773856518101e+02   
1.006400000000000e+10    -1.694731807369632e+01   -1.692801555090230e+02   
1.006500000000000e+10    -1.697971735461466e+01   -1.694295100084541e+02   
1.006600000000000e+10    -1.701477390620613e+01   -1.694911293751728e+02   
1.006700000000000e+10    -1.703289396274860e+01   -1.697150650171215e+02   
1.006800000000000e+10    -1.706189384596241e+01   -1.696899501969723e+02   
1.006900000000000e+10    -1.709938693875876e+01   -1.697831413563322e+02   
1.007000000000000e+10    -1.711764980222523e+01   -1.699196610893550e+02   
1.007100000000000e+10    -1.713701065406701e+01   -1.700593921855668e+02   
1.007200000000000e+10    -1.718268827906143e+01   -1.700749972876582e+02   
1.007300000000000e+10    -1.720674981769532e+01   -1.703356348364051e+02   
1.007400000000000e+10    -1.723398841638304e+01   -1.702549018486085e+02   
1.007500000000000e+10    -1.728434589046524e+01   -1.704519664698252e+02   
1.007600000000000e+10    -1.732307410799768e+01   -1.706133026731372e+02   
1.007700000000000e+10    -1.734156416354846e+01   -1.705982589569122e+02   
1.007800000000000e+10    -1.738392288944876e+01   -1.706351413289707e+02   
1.007900000000000e+10    -1.740675033463481e+01   -1.708297664660355e+02   
1.008000000000000e+10    -1.746959873041780e+01   -1.709745333171007e+02   
1.008100000000000e+10    -1.749350191530630e+01   -1.709433486129564e+02   
1.008200000000000e+10    -1.752021150927299e+01   -1.709248886964072e+02   
1.008300000000000e+10    -1.756247733472236e+01   -1.711462929572317e+02   
1.008400000000000e+10    -1.761289179784516e+01   -1.713180328871468e+02   
1.008500000000000e+10    -1.763275344407716e+01   -1.713468692507836e+02   
1.008600000000000e+10    -1.767420983443170e+01   -1.714044765273793e+02   
1.008700000000000e+10    -1.770657370194490e+01   -1.715544278164375e+02   
1.008800000000000e+10    -1.774363849738007e+01   -1.716932691743578e+02   
1.008900000000000e+10    -1.780165969281585e+01   -1.718131084732282e+02   
1.009000000000000e+10    -1.783486245456568e+01   -1.719527911251182e+02   
1.009100000000000e+10    -1.789597164993298e+01   -1.720010073103186e+02   
1.009200000000000e+10    -1.792550694970812e+01   -1.722476459945140e+02   
1.009300000000000e+10    -1.794300774781079e+01   -1.723106205324068e+02   
1.009400000000000e+10    -1.800044119040085e+01   -1.724590058893030e+02   
1.009500000000000e+10    -1.805009136956763e+01   -1.724492084321448e+02   
1.009600000000000e+10    -1.807935738141103e+01   -1.725448174674962e+02   
1.009700000000000e+10    -1.812772109250549e+01   -1.727356929822201e+02   
1.009800000000000e+10    -1.814893514342899e+01   -1.728094009119165e+02   
1.009900000000000e+10    -1.821720202652701e+01   -1.728643537019615e+02   
1.010000000000000e+10    -1.824341132835884e+01   -1.731702712124511e+02   
1.010100000000000e+10    -1.829006644804545e+01   -1.731938752151516e+02   
1.010200000000000e+10    -1.832138510262914e+01   -1.733200035132287e+02   
1.010300000000000e+10    -1.838235260130422e+01   -1.733800791000060e+02   
1.010400000000000e+10    -1.840930900035574e+01   -1.735634214540106e+02   
1.010500000000000e+10    -1.842956930235248e+01   -1.737670886127649e+02   
1.010600000000000e+10    -1.849172981511296e+01   -1.738514970748664e+02   
1.010700000000000e+10    -1.852674025358176e+01   -1.739215968543006e+02   
1.010800000000000e+10    -1.853681087512112e+01   -1.741226331260583e+02   
1.010900000000000e+10    -1.858453380638951e+01   -1.742189931466567e+02   
1.011000000000000e+10    -1.861566991504656e+01   -1.743603826803841e+02   
1.011100000000000e+10    -1.866496212416680e+01   -1.744928800957415e+02   
1.011200000000000e+10    -1.868937028297673e+01   -1.747556113849151e+02   
1.011300000000000e+10    -1.875456114126473e+01   -1.748082911843360e+02   
1.011400000000000e+10    -1.877388691042768e+01   -1.747720021592046e+02   
1.011500000000000e+10    -1.882483950461679e+01   -1.749710687327621e+02   
1.011600000000000e+10    -1.885683592707035e+01   -1.752372425599439e+02   
1.011700000000000e+10    -1.890179446036958e+01   -1.751186855123836e+02   
1.011800000000000e+10    -1.894511999728040e+01   -1.753875051302789e+02   
1.011900000000000e+10    -1.896187245921458e+01   -1.754131405054763e+02   
1.012000000000000e+10    -1.899827163247873e+01   -1.754092856646425e+02   
1.012100000000000e+10    -1.904288154411370e+01   -1.756777502824610e+02   
1.012200000000000e+10    -1.907358556006418e+01   -1.756262541658021e+02   
1.012300000000000e+10    -1.910468716117396e+01   -1.758265732655473e+02   
1.012400000000000e+10    -1.915033269918329e+01   -1.757617771413410e+02   
1.012500000000000e+10    -1.920136369039363e+01   -1.758355427986657e+02   
1.012600000000000e+10    -1.922943937925643e+01   -1.759358537360938e+02   
1.012700000000000e+10    -1.924847836291314e+01   -1.760398373230868e+02   
1.012800000000000e+10    -1.929949120618185e+01   -1.761307781504707e+02   
1.012900000000000e+10    -1.932419766297306e+01   -1.761072437168298e+02   
1.013000000000000e+10    -1.936802376659572e+01   -1.763964612819636e+02   
1.013100000000000e+10    -1.941510739400309e+01   -1.761685754238601e+02   
1.013200000000000e+10    -1.942165560972554e+01   -1.763751373449361e+02   
1.013300000000000e+10    -1.946880140887582e+01   -1.763071912411328e+02   
1.013400000000000e+10    -1.950372786060946e+01   -1.765157741396497e+02   
1.013500000000000e+10    -1.953930752268674e+01   -1.765261058249212e+02   
1.013600000000000e+10    -1.956473327857285e+01   -1.766221807761375e+02   
1.013700000000000e+10    -1.962412918794548e+01   -1.765171482440959e+02   
1.013800000000000e+10    -1.963200173413198e+01   -1.767021564275187e+02   
1.013900000000000e+10    -1.966526988324889e+01   -1.766317444234004e+02   
1.014000000000000e+10    -1.972912376774732e+01   -1.768673042950036e+02   
1.014100000000000e+10    -1.975556112228801e+01   -1.768700804092825e+02   
1.014200000000000e+10    -1.979890022364467e+01   -1.769837492947325e+02   
1.014300000000000e+10    -1.983027703053192e+01   -1.768991381235146e+02   
1.014400000000000e+10    -1.987187881816917e+01   -1.771146238124252e+02   
1.014500000000000e+10    -1.989397951587338e+01   -1.769715624333283e+02   
1.014600000000000e+10    -1.993146018708659e+01   -1.770251104623625e+02   
1.014700000000000e+10    -1.997573532243969e+01   -1.770671133521164e+02   
1.014800000000000e+10    -1.999775921340739e+01   -1.772083311769317e+02   
1.014900000000000e+10    -2.004087003065579e+01   -1.769876904482401e+02   
1.015000000000000e+10    -2.009219981742065e+01   -1.772377111266450e+02   
1.015100000000000e+10    -2.011620094779602e+01   -1.770343878356708e+02   
1.015200000000000e+10    -2.016340248852109e+01   -1.770979984483754e+02   
1.015300000000000e+10    -2.017038355667031e+01   -1.770739154458680e+02   
1.015400000000000e+10    -2.023638432952964e+01   -1.772350642124068e+02   
1.015500000000000e+10    -2.027129812544571e+01   -1.770918455659863e+02   
1.015600000000000e+10    -2.033696040667963e+01   -1.770224339483567e+02   
1.015700000000000e+10    -2.036061657935541e+01   -1.769486672613143e+02   
1.015800000000000e+10    -2.040340015331224e+01   -1.768423993396104e+02   
1.015900000000000e+10    -2.041964008175603e+01   -1.768975491498853e+02   
1.016000000000000e+10    -2.046188147500998e+01   -1.770577816701226e+02   
1.016100000000000e+10    -2.052237109118148e+01   -1.770354435072389e+02   
1.016200000000000e+10    -2.056502213859289e+01   -1.769912242644318e+02   
1.016300000000000e+10    -2.059956143442852e+01   -1.768477488976114e+02   
1.016400000000000e+10    -2.065555990495514e+01   -1.768024113082261e+02   
1.016500000000000e+10    -2.069646651682867e+01   -1.766565559417156e+02   
1.016600000000000e+10    -2.075518617039996e+01   -1.767461508701193e+02   
1.016700000000000e+10    -2.078616446794476e+01   -1.767056127832832e+02   
1.016800000000000e+10    -2.083333688594661e+01   -1.765367076467966e+02   
1.016900000000000e+10    -2.087888771624098e+01   -1.766782862486130e+02   
1.017000000000000e+10    -2.091166302340394e+01   -1.765792972693127e+02   
1.017100000000000e+10    -2.096713188304939e+01   -1.767591131351406e+02   
1.017200000000000e+10    -2.102580891471352e+01   -1.764004194116154e+02   
1.017300000000000e+10    -2.107830989491369e+01   -1.763258948698088e+02   
1.017400000000000e+10    -2.111001783726173e+01   -1.762659662408201e+02   
1.017500000000000e+10    -2.120404209035657e+01   -1.763782500922355e+02   
1.017600000000000e+10    -2.118185261991887e+01   -1.762337882969685e+02   
1.017700000000000e+10    -2.125665225589925e+01   -1.762881290759245e+02   
1.017800000000000e+10    -2.131434147824029e+01   -1.760987164780254e+02   
1.017900000000000e+10    -2.133192620235594e+01   -1.759825761369939e+02   
1.018000000000000e+10    -2.143572669503553e+01   -1.760777706520641e+02   
1.018100000000000e+10    -2.145506579756908e+01   -1.759730516160609e+02   
1.018200000000000e+10    -2.153660846393433e+01   -1.760899732808373e+02   
1.018300000000000e+10    -2.155892957040841e+01   -1.760294977832031e+02   
1.018400000000000e+10    -2.158880176992238e+01   -1.758602777409247e+02   
1.018500000000000e+10    -2.163968375827393e+01   -1.759791166975791e+02   
1.018600000000000e+10    -2.169552829678983e+01   -1.757747935325503e+02   
1.018700000000000e+10    -2.176452003023779e+01   -1.758430817790606e+02   
1.018800000000000e+10    -2.183275747166228e+01   -1.755824154766292e+02   
1.018900000000000e+10    -2.186820957184531e+01   -1.754233620378753e+02   
1.019000000000000e+10    -2.191361460387101e+01   -1.754140160030508e+02   
1.019100000000000e+10    -2.194957446716937e+01   -1.754223610585075e+02   
1.019200000000000e+10    -2.197327379090577e+01   -1.752719771523232e+02   
1.019300000000000e+10    -2.201627610279850e+01   -1.750874347143964e+02   
1.019400000000000e+10    -2.207704555146295e+01   -1.751100184753719e+02   
1.019500000000000e+10    -2.212839232892157e+01   -1.749449498450366e+02   
1.019600000000000e+10    -2.217957566847748e+01   -1.749966201818830e+02   
1.019700000000000e+10    -2.221142353815022e+01   -1.748437369808940e+02   
1.019800000000000e+10    -2.223388925634035e+01   -1.748397194376364e+02   
1.019900000000000e+10    -2.229681145885847e+01   -1.745997025749834e+02   
1.020000000000000e+10    -2.237965827799897e+01   -1.746589922723738e+02   
1.020100000000000e+10    -2.238588153587672e+01   -1.743506102569633e+02   
1.020200000000000e+10    -2.245336931353254e+01   -1.742724410468517e+02   
1.020300000000000e+10    -2.249863198440431e+01   -1.738767619884159e+02   
1.020400000000000e+10    -2.256970900327377e+01   -1.738638631500177e+02   
1.020500000000000e+10    -2.260183659237389e+01   -1.739145949536289e+02   
1.020600000000000e+10    -2.262115176682244e+01   -1.736040054744449e+02   
1.020700000000000e+10    -2.264798753440546e+01   -1.735801467202712e+02   
1.020800000000000e+10    -2.271348119434566e+01   -1.733663107704157e+02   
1.020900000000000e+10    -2.279479200796417e+01   -1.734425444281447e+02   
1.021000000000000e+10    -2.283850021170067e+01   -1.732790426937083e+02   
1.021100000000000e+10    -2.287783737140877e+01   -1.729799128329232e+02   
1.021200000000000e+10    -2.296237797998161e+01   -1.729265553576909e+02   
1.021300000000000e+10    -2.300184295882190e+01   -1.727397042806807e+02   
1.021400000000000e+10    -2.305571748622240e+01   -1.725446992765561e+02   
1.021500000000000e+10    -2.309843059469476e+01   -1.721796945198078e+02   
1.021600000000000e+10    -2.314172447270938e+01   -1.721822115886681e+02   
1.021700000000000e+10    -2.318438439873752e+01   -1.719835807766603e+02   
1.021800000000000e+10    -2.323668394450234e+01   -1.716978894402612e+02   
1.021900000000000e+10    -2.331875999012416e+01   -1.714160358999834e+02   
1.022000000000000e+10    -2.335489679149902e+01   -1.714069544398429e+02   
1.022100000000000e+10    -2.337231211724283e+01   -1.712059403519304e+02   
1.022200000000000e+10    -2.350052079496968e+01   -1.708870615928730e+02   
1.022300000000000e+10    -2.352905093479442e+01   -1.706882547376690e+02   
1.022400000000000e+10    -2.358198396159545e+01   -1.706423064206512e+02   
1.022500000000000e+10    -2.362437524643550e+01   -1.701672773068960e+02   
1.022600000000000e+10    -2.370186103115140e+01   -1.703748360421709e+02   
1.022700000000000e+10    -2.374500701924314e+01   -1.700282518574640e+02   
1.022800000000000e+10    -2.379378777974773e+01   -1.698098861181943e+02   
1.022900000000000e+10    -2.384438155554614e+01   -1.697953533566370e+02   
1.023000000000000e+10    -2.386141259601633e+01   -1.694184872652459e+02   
1.023100000000000e+10    -2.390171815907529e+01   -1.692927409752538e+02   
1.023200000000000e+10    -2.397953451438375e+01   -1.692244213062023e+02   
1.023300000000000e+10    -2.404610001088622e+01   -1.688299258860127e+02   
1.023400000000000e+10    -2.408616413968851e+01   -1.687544372504741e+02   
1.023500000000000e+10    -2.421068420284146e+01   -1.683598669615513e+02   
1.023600000000000e+10    -2.417542623172100e+01   -1.679265990166752e+02   
1.023700000000000e+10    -2.424837932562987e+01   -1.680079417494619e+02   
1.023800000000000e+10    -2.428861477645142e+01   -1.674632586191088e+02   
1.023900000000000e+10    -2.432588810470185e+01   -1.676515934427541e+02   
1.024000000000000e+10    -2.442869765412637e+01   -1.672170564100027e+02   
1.024100000000000e+10    -2.442846802513167e+01   -1.666339895511954e+02   
1.024200000000000e+10    -2.447814790553450e+01   -1.665932670468425e+02   
1.024300000000000e+10    -2.456300334735624e+01   -1.663233167677596e+02   
1.024400000000000e+10    -2.460825064030624e+01   -1.661514081833527e+02   
1.024500000000000e+10    -2.460822641326363e+01   -1.657471674320463e+02   
1.024600000000000e+10    -2.466119012178364e+01   -1.656891022759537e+02   
1.024700000000000e+10    -2.470413062401828e+01   -1.654053168158933e+02   
1.024800000000000e+10    -2.475555492399394e+01   -1.648951025423364e+02   
1.024900000000000e+10    -2.485776703402419e+01   -1.649523682457983e+02   
1.025000000000000e+10    -2.485045206751384e+01   -1.646242431778962e+02   
1.025100000000000e+10    -2.486454437078656e+01   -1.640484402432142e+02   
1.025200000000000e+10    -2.494363938901621e+01   -1.640949579889691e+02   
1.025300000000000e+10    -2.494176769799746e+01   -1.634856646930624e+02   
1.025400000000000e+10    -2.499617148691419e+01   -1.631760407534993e+02   
1.025500000000000e+10    -2.509422241826630e+01   -1.629536166562652e+02   
1.025600000000000e+10    -2.511115938864682e+01   -1.626835129557487e+02   
