[Version] 2.0
! Rohde & Schwarz Vector Network Analyzer
! Rohde-Schwarz,ZNL20-2Port,1323001220200009,1.71.1.10-23.02.1.238
! 
! Port Assignments:
! Nominal Port -> Actual Test Port
! --------------------------------
!   1 -> 1

! Created: GMT 2024-08-27 12:50:31

# Hz S DB R 50

[Number of Ports] 1
[Number of Frequencies] 2001

[Network Data] 
! freq[Hz]               S11[mag dB]              S11[ang]                 
1.000000000000000e+10    -1.472886416971238e+01   -1.537469236112814e+02   
1.000100000000000e+10    -1.475153551464070e+01   -1.538669283701796e+02   
1.000200000000000e+10    -1.476641316295348e+01   -1.539413367875389e+02   
1.000300000000000e+10    -1.478559482583385e+01   -1.541990323543294e+02   
1.000400000000000e+10    -1.479238813921834e+01   -1.544386972011650e+02   
1.000500000000000e+10    -1.480318863717376e+01   -1.545985997467057e+02   
1.000600000000000e+10    -1.482559897716085e+01   -1.547723676524590e+02   
1.000700000000000e+10    -1.484038406408766e+01   -1.549154354541012e+02   
1.000800000000000e+10    -1.485632901776588e+01   -1.551475391982470e+02   
1.000900000000000e+10    -1.487497070110240e+01   -1.554429952086998e+02   
1.001000000000000e+10    -1.489509725751345e+01   -1.555220427624880e+02   
1.001100000000000e+10    -1.491075155742325e+01   -1.557589052615863e+02   
1.001200000000000e+10    -1.491880497814070e+01   -1.559390336076815e+02   
1.001300000000000e+10    -1.494869798083377e+01   -1.562246794394212e+02   
1.001400000000000e+10    -1.495174249873545e+01   -1.564434979081695e+02   
1.001500000000000e+10    -1.497202844857978e+01   -1.566338687888227e+02   
1.001600000000000e+10    -1.497655435305053e+01   -1.568063179822196e+02   
1.001700000000000e+10    -1.499755183520671e+01   -1.571172016814358e+02   
1.001800000000000e+10    -1.500783976051425e+01   -1.573230783077224e+02   
1.001900000000000e+10    -1.502414972347184e+01   -1.575156617111186e+02   
1.002000000000000e+10    -1.503951330837072e+01   -1.578193974333754e+02   
1.002100000000000e+10    -1.505194125393193e+01   -1.580468935450749e+02   
1.002200000000000e+10    -1.506544751485004e+01   -1.582069103743848e+02   
1.002300000000000e+10    -1.507106157681293e+01   -1.584064866410502e+02   
1.002400000000000e+10    -1.507748981177490e+01   -1.586348488774322e+02   
1.002500000000000e+10    -1.510875745017353e+01   -1.588325353910992e+02   
1.002600000000000e+10    -1.511178876457273e+01   -1.591929971276981e+02   
1.002700000000000e+10    -1.511849410652717e+01   -1.593992752552733e+02   
1.002800000000000e+10    -1.513880650641203e+01   -1.595559264073234e+02   
1.002900000000000e+10    -1.514936021710736e+01   -1.597199361888526e+02   
1.003000000000000e+10    -1.517833544606613e+01   -1.599237463460051e+02   
1.003100000000000e+10    -1.516508260597710e+01   -1.601828560430502e+02   
1.003200000000000e+10    -1.518425531491164e+01   -1.604443083617165e+02   
1.003300000000000e+10    -1.518272246463479e+01   -1.606196141275617e+02   
1.003400000000000e+10    -1.520148288545296e+01   -1.607628297449985e+02   
1.003500000000000e+10    -1.522321715063107e+01   -1.610376040128793e+02   
1.003600000000000e+10    -1.521947977225697e+01   -1.610894833432540e+02   
1.003700000000000e+10    -1.524092867774203e+01   -1.613843804167574e+02   
1.003800000000000e+10    -1.525062153410185e+01   -1.616055735873345e+02   
1.003900000000000e+10    -1.527018157471616e+01   -1.618364428298484e+02   
1.004000000000000e+10    -1.526636628593003e+01   -1.620464229048925e+02   
1.004100000000000e+10    -1.529284304310785e+01   -1.622445115524633e+02   
1.004200000000000e+10    -1.529347038125407e+01   -1.623744737148076e+02   
1.004300000000000e+10    -1.531272058373479e+01   -1.625811327473187e+02   
1.004400000000000e+10    -1.533051443263911e+01   -1.628345421105476e+02   
1.004500000000000e+10    -1.533418832852214e+01   -1.629338437944099e+02   
1.004600000000000e+10    -1.535778685278755e+01   -1.631131908060435e+02   
1.004700000000000e+10    -1.537072254263289e+01   -1.633397493062028e+02   
1.004800000000000e+10    -1.538055858798649e+01   -1.634688391827831e+02   
1.004900000000000e+10    -1.539134231460803e+01   -1.636618123841899e+02   
1.005000000000000e+10    -1.540967841721241e+01   -1.639574496813021e+02   
1.005100000000000e+10    -1.539683375343037e+01   -1.639490015780667e+02   
1.005200000000000e+10    -1.543482885504074e+01   -1.640832613715671e+02   
1.005300000000000e+10    -1.544478486879715e+01   -1.643424280798443e+02   
1.005400000000000e+10    -1.545693776840112e+01   -1.645137905830671e+02   
1.005500000000000e+10    -1.547445230501868e+01   -1.646669310425015e+02   
1.005600000000000e+10    -1.550542564259640e+01   -1.648685353968236e+02   
1.005700000000000e+10    -1.550629579652529e+01   -1.649528066086755e+02   
1.005800000000000e+10    -1.551854621107858e+01   -1.651762119681362e+02   
1.005900000000000e+10    -1.553432213863877e+01   -1.653717072687334e+02   
1.006000000000000e+10    -1.554612967599636e+01   -1.654719415769678e+02   
1.006100000000000e+10    -1.557897870939737e+01   -1.655933591999503e+02   
1.006200000000000e+10    -1.559068142506253e+01   -1.657746364386106e+02   
1.006300000000000e+10    -1.561400540786731e+01   -1.659311634024546e+02   
1.006400000000000e+10    -1.561759454093770e+01   -1.660698761897766e+02   
1.006500000000000e+10    -1.563930740471358e+01   -1.662469813194894e+02   
1.006600000000000e+10    -1.566563885174670e+01   -1.663435152790789e+02   
1.006700000000000e+10    -1.567714714636334e+01   -1.666136033574922e+02   
1.006800000000000e+10    -1.569788647543429e+01   -1.666618777481387e+02   
1.006900000000000e+10    -1.572393732301687e+01   -1.667987559948707e+02   
1.007000000000000e+10    -1.573705054076412e+01   -1.670098196903644e+02   
1.007100000000000e+10    -1.574815534167756e+01   -1.671644118430208e+02   
1.007200000000000e+10    -1.578406006526222e+01   -1.672493905071249e+02   
1.007300000000000e+10    -1.580256957983501e+01   -1.675363819275020e+02   
1.007400000000000e+10    -1.582110167383257e+01   -1.675439666155672e+02   
1.007500000000000e+10    -1.586278736341880e+01   -1.677654725950443e+02   
1.007600000000000e+10    -1.589352602885456e+01   -1.679544942338859e+02   
1.007700000000000e+10    -1.590612097996988e+01   -1.680162767110946e+02   
1.007800000000000e+10    -1.593895893714306e+01   -1.681183879587181e+02   
1.007900000000000e+10    -1.595776421103592e+01   -1.683273574120587e+02   
1.008000000000000e+10    -1.600597287485250e+01   -1.685165823164654e+02   
1.008100000000000e+10    -1.602319657158367e+01   -1.685609766994068e+02   
1.008200000000000e+10    -1.604448725691303e+01   -1.686060790665321e+02   
1.008300000000000e+10    -1.607920727420154e+01   -1.688737743767882e+02   
1.008400000000000e+10    -1.612012497000547e+01   -1.690703639149625e+02   
1.008500000000000e+10    -1.613365540225050e+01   -1.691538113324583e+02   
1.008600000000000e+10    -1.616698873022291e+01   -1.692637056973812e+02   
1.008700000000000e+10    -1.619344222790343e+01   -1.694532467982066e+02   
1.008800000000000e+10    -1.622167501966152e+01   -1.696208108357237e+02   
1.008900000000000e+10    -1.626958309624194e+01   -1.697952078950156e+02   
1.009000000000000e+10    -1.629661557518200e+01   -1.699753083732566e+02   
1.009100000000000e+10    -1.634511028912338e+01   -1.700893798587532e+02   
1.009200000000000e+10    -1.636970564389171e+01   -1.703415101655753e+02   
1.009300000000000e+10    -1.637966956871733e+01   -1.704593733843088e+02   
1.009400000000000e+10    -1.642937508427391e+01   -1.706375628987416e+02   
1.009500000000000e+10    -1.646604472716555e+01   -1.707034527232409e+02   
1.009600000000000e+10    -1.648938619977617e+01   -1.708403404041587e+02   
1.009700000000000e+10    -1.652840412800431e+01   -1.710610394519527e+02   
1.009800000000000e+10    -1.654315950408843e+01   -1.711980127353905e+02   
1.009900000000000e+10    -1.660011930741400e+01   -1.712963438356053e+02   
1.010000000000000e+10    -1.662093362055435e+01   -1.716260739317034e+02   
1.010100000000000e+10    -1.665881730028466e+01   -1.716748216789693e+02   
1.010200000000000e+10    -1.668011773064089e+01   -1.718569371818783e+02   
1.010300000000000e+10    -1.672695776052193e+01   -1.719685551971976e+02   
1.010400000000000e+10    -1.674769164207390e+01   -1.721823012249396e+02   
1.010500000000000e+10    -1.676016145404451e+01   -1.724494460981635e+02   
1.010600000000000e+10    -1.681171446584825e+01   -1.725751208956687e+02   
1.010700000000000e+10    -1.683800703622941e+01   -1.727151275529073e+02   
1.010800000000000e+10    -1.684597215978431e+01   -1.729503218078252e+02   
1.010900000000000e+10    -1.688280221442795e+01   -1.730861489799020e+02   
1.011000000000000e+10    -1.690814158207389e+01   -1.732824612925176e+02   
1.011100000000000e+10    -1.694615002210007e+01   -1.734384596182404e+02   
1.011200000000000e+10    -1.696454806726356e+01   -1.737376165908218e+02   
1.011300000000000e+10    -1.701616874502594e+01   -1.738370735070349e+02   
1.011400000000000e+10    -1.703048375951509e+01   -1.738800154624984e+02   
1.011500000000000e+10    -1.707111559867804e+01   -1.740980174992750e+02   
1.011600000000000e+10    -1.709226371878040e+01   -1.744027914997985e+02   
1.011700000000000e+10    -1.712656380941692e+01   -1.743849481749666e+02   
1.011800000000000e+10    -1.715973599850135e+01   -1.746821139751946e+02   
1.011900000000000e+10    -1.717269070125965e+01   -1.747665159524972e+02   
1.012000000000000e+10    -1.720094426713470e+01   -1.748441876158280e+02   
1.012100000000000e+10    -1.723526007579452e+01   -1.751145500293381e+02   
1.012200000000000e+10    -1.725956171456785e+01   -1.751572424286682e+02   
1.012300000000000e+10    -1.728047449886402e+01   -1.753959746856901e+02   
1.012400000000000e+10    -1.731779805226557e+01   -1.754072608087234e+02   
1.012500000000000e+10    -1.735972950979085e+01   -1.755616608467480e+02   
1.012600000000000e+10    -1.737905519807673e+01   -1.757092069894295e+02   
1.012700000000000e+10    -1.739417222667144e+01   -1.758704790472549e+02   
1.012800000000000e+10    -1.743259733893695e+01   -1.760065012311300e+02   
1.012900000000000e+10    -1.744987827373507e+01   -1.760619521195310e+02   
1.013000000000000e+10    -1.748640624189644e+01   -1.763781218248087e+02   
1.013100000000000e+10    -1.752155645206519e+01   -1.762972130323207e+02   
1.013200000000000e+10    -1.752738443814344e+01   -1.765235916415180e+02   
1.013300000000000e+10    -1.756356411208334e+01   -1.765526350290012e+02   
1.013400000000000e+10    -1.759128580783435e+01   -1.768161336975495e+02   
1.013500000000000e+10    -1.762344932571743e+01   -1.768898345883595e+02   
1.013600000000000e+10    -1.763824729750710e+01   -1.770487202517221e+02   
1.013700000000000e+10    -1.768730500692778e+01   -1.770557836636194e+02   
1.013800000000000e+10    -1.769289269824589e+01   -1.772735893378996e+02   
1.013900000000000e+10    -1.771915716855096e+01   -1.773040852837924e+02   
1.014000000000000e+10    -1.776843545382236e+01   -1.775579043688266e+02   
1.014100000000000e+10    -1.779293480557683e+01   -1.776206750757084e+02   
1.014200000000000e+10    -1.782187100692315e+01   -1.778041912143634e+02   
1.014300000000000e+10    -1.784575641325286e+01   -1.778206193081937e+02   
1.014400000000000e+10    -1.787517127737621e+01   -1.780767443636789e+02   
1.014500000000000e+10    -1.789285776604285e+01   -1.780567853114204e+02   
1.014600000000000e+10    -1.791988799164822e+01   -1.781659237746790e+02   
1.014700000000000e+10    -1.795274224247891e+01   -1.782964532740664e+02   
1.014800000000000e+10    -1.797180547645782e+01   -1.784973803705688e+02   
1.014900000000000e+10    -1.800351824202401e+01   -1.783972050880463e+02   
1.015000000000000e+10    -1.804283525444233e+01   -1.786872568817898e+02   
1.015100000000000e+10    -1.806381112675285e+01   -1.786370433344243e+02   
1.015200000000000e+10    -1.809795359123434e+01   -1.787872196790927e+02   
1.015300000000000e+10    -1.810380039901024e+01   -1.788485199046815e+02   
1.015400000000000e+10    -1.815480320912160e+01   -1.790862318029527e+02   
1.015500000000000e+10    -1.818172028053448e+01   -1.790668197601201e+02   
1.015600000000000e+10    -1.823274893509202e+01   -1.791198290832504e+02   
1.015700000000000e+10    -1.825653957653035e+01   -1.791437648420827e+02   
1.015800000000000e+10    -1.828901353758628e+01   -1.791593710254413e+02   
1.015900000000000e+10    -1.829831821670726e+01   -1.793046399995212e+02   
1.016000000000000e+10    -1.833422583962129e+01   -1.795037850011121e+02   
1.016100000000000e+10    -1.838241556208685e+01   -1.796091188493199e+02   
1.016200000000000e+10    -1.841174020825539e+01   -1.796643852259000e+02   
1.016300000000000e+10    -1.844591909750448e+01   -1.796593420573119e+02   
1.016400000000000e+10    -1.848710827022336e+01   -1.797160135049977e+02   
1.016500000000000e+10    -1.852107722146102e+01   -1.797077739233168e+02   
1.016600000000000e+10    -1.856522246556425e+01   -1.798521788828577e+02   
1.016700000000000e+10    -1.859150884677364e+01   -1.799512328141055e+02   
1.016800000000000e+10    -1.862961396558191e+01   -1.799423433571372e+02   
1.016900000000000e+10    -1.866183325700902e+01   1.798135445247412e+02    
1.017000000000000e+10    -1.868748914587321e+01   1.798157569278323e+02    
1.017100000000000e+10    -1.873250569701274e+01   1.795758210361669e+02    
1.017200000000000e+10    -1.878592336487717e+01   1.797028586855935e+02    
1.017300000000000e+10    -1.882411483186166e+01   1.796537922236615e+02    
1.017400000000000e+10    -1.885346508382040e+01   1.796370061268032e+02    
1.017500000000000e+10    -1.892439312949079e+01   1.793715430943324e+02    
1.017600000000000e+10    -1.891110525526407e+01   1.794003442639468e+02    
1.017700000000000e+10    -1.896557967349507e+01   1.792518046002058e+02    
1.017800000000000e+10    -1.901207084288048e+01   1.792480826777129e+02    
1.017900000000000e+10    -1.903205934392110e+01   1.792285401830100e+02    
1.018000000000000e+10    -1.911106322821285e+01   1.790036268218182e+02    
1.018100000000000e+10    -1.912777279625562e+01   1.789721602619807e+02    
1.018200000000000e+10    -1.918960207816708e+01   1.787277135206112e+02    
1.018300000000000e+10    -1.921122908467883e+01   1.786549806773373e+02    
1.018400000000000e+10    -1.923594249516735e+01   1.786545185707198e+02    
1.018500000000000e+10    -1.928019232037459e+01   1.784157374672905e+02    
1.018600000000000e+10    -1.932473296283328e+01   1.784269363717943e+02    
1.018700000000000e+10    -1.937945076824921e+01   1.782651472624166e+02    
1.018800000000000e+10    -1.943564517839126e+01   1.782989800273741e+02    
1.018900000000000e+10    -1.946999563043358e+01   1.782844299600458e+02    
1.019000000000000e+10    -1.950361754077277e+01   1.781358457315628e+02    
1.019100000000000e+10    -1.953770502504705e+01   1.780524805711107e+02    
1.019200000000000e+10    -1.955976416140708e+01   1.780274950310130e+02    
1.019300000000000e+10    -1.959761859348860e+01   1.780319902493013e+02    
1.019400000000000e+10    -1.964875004877137e+01   1.778336024287551e+02    
1.019500000000000e+10    -1.969223285885688e+01   1.778422037743320e+02    
1.019600000000000e+10    -1.972934570106995e+01   1.776463667190203e+02    
1.019700000000000e+10    -1.976278474067735e+01   1.776223282448462e+02    
1.019800000000000e+10    -1.978753064273932e+01   1.775419399240669e+02    
1.019900000000000e+10    -1.983769638524403e+01   1.775388369238233e+02    
1.020000000000000e+10    -1.990014089207985e+01   1.773180424074134e+02    
1.020100000000000e+10    -1.991443567615613e+01   1.774891243170491e+02    
1.020200000000000e+10    -1.997136802720107e+01   1.773249672260254e+02    
1.020300000000000e+10    -2.001621696492212e+01   1.774883978465034e+02    
1.020400000000000e+10    -2.007162945130506e+01   1.773146416012658e+02    
1.020500000000000e+10    -2.009916864757071e+01   1.771514948729989e+02    
1.020600000000000e+10    -2.012854955796209e+01   1.772311322518266e+02    
1.020700000000000e+10    -2.014996239798623e+01   1.771528859104521e+02    
1.020800000000000e+10    -2.021295108286552e+01   1.771471653309004e+02    
1.020900000000000e+10    -2.027848256116823e+01   1.769177419073342e+02    
1.021000000000000e+10    -2.031768469729647e+01   1.768993175586778e+02    
1.021100000000000e+10    -2.035670247412848e+01   1.769544313659758e+02    
1.021200000000000e+10    -2.042672244571368e+01   1.768288107785382e+02    
1.021300000000000e+10    -2.046434200168564e+01   1.767869429050965e+02    
1.021400000000000e+10    -2.051484656708613e+01   1.767906018144821e+02    
1.021500000000000e+10    -2.056110885191167e+01   1.769068403113035e+02    
1.021600000000000e+10    -2.059205585501944e+01   1.767409337127200e+02    
1.021700000000000e+10    -2.063488459819731e+01   1.767048934225008e+02    
1.021800000000000e+10    -2.068887118277311e+01   1.767828854875459e+02    
1.021900000000000e+10    -2.076055514416065e+01   1.767792718150067e+02    
1.022000000000000e+10    -2.079746693095313e+01   1.766559210916399e+02    
1.022100000000000e+10    -2.081750722896274e+01   1.766734029492769e+02    
1.022200000000000e+10    -2.092648554303971e+01   1.766521925575899e+02    
1.022300000000000e+10    -2.096087672196078e+01   1.766371597581666e+02    
1.022400000000000e+10    -2.100530785177164e+01   1.765023966558420e+02    
1.022500000000000e+10    -2.105478270695949e+01   1.766936649196016e+02    
1.022600000000000e+10    -2.111196929065512e+01   1.763061235352895e+02    
1.022700000000000e+10    -2.115836159159518e+01   1.763971162453280e+02    
1.022800000000000e+10    -2.120457331927760e+01   1.763804105697638e+02    
1.022900000000000e+10    -2.125264250936414e+01   1.762248293792316e+02    
1.023000000000000e+10    -2.128260108012988e+01   1.762925457035829e+02    
1.023100000000000e+10    -2.132117069855168e+01   1.762441291797690e+02    
1.023200000000000e+10    -2.138483557639454e+01   1.760922200423226e+02    
1.023300000000000e+10    -2.145248100201190e+01   1.761172602201507e+02    
1.023400000000000e+10    -2.148991038746033e+01   1.760262585596827e+02    
1.023500000000000e+10    -2.160656336792538e+01   1.759817793308575e+02    
1.023600000000000e+10    -2.160095564264022e+01   1.762185674574694e+02    
1.023700000000000e+10    -2.166156745909860e+01   1.759191386354001e+02    
1.023800000000000e+10    -2.171962782580200e+01   1.761575815251672e+02    
1.023900000000000e+10    -2.174791683031178e+01   1.758433075102849e+02    
1.024000000000000e+10    -2.184669387921632e+01   1.759176243093183e+02    
1.024100000000000e+10    -2.187221486530375e+01   1.762408612024773e+02    
1.024200000000000e+10    -2.192022349915773e+01   1.760435491383051e+02    
1.024300000000000e+10    -2.199807784513435e+01   1.759790339782782e+02    
1.024400000000000e+10    -2.204389066345242e+01   1.758930700970746e+02    
1.024500000000000e+10    -2.207401372267197e+01   1.760749794731504e+02    
1.024600000000000e+10    -2.212042923297180e+01   1.758949510315673e+02    
1.024700000000000e+10    -2.217481527787307e+01   1.758896272391523e+02    
1.024800000000000e+10    -2.224286514725131e+01   1.760785270672472e+02    
1.024900000000000e+10    -2.231656092785113e+01   1.757454588671175e+02    
1.025000000000000e+10    -2.233656083495248e+01   1.758779021720170e+02    
1.025100000000000e+10    -2.236971832198670e+01   1.761567618246608e+02    
1.025200000000000e+10    -2.243927029119379e+01   1.758465327276395e+02    
1.025300000000000e+10    -2.247155718002033e+01   1.761588158092448e+02    
1.025400000000000e+10    -2.253127603834372e+01   1.761532756029085e+02    
1.025500000000000e+10    -2.261387271821321e+01   1.759719836450879e+02    
1.025600000000000e+10    -2.264882082172690e+01   1.760113077628066e+02    
