[Version] 2.0
! Rohde & Schwarz Vector Network Analyzer
! Rohde-Schwarz,ZNL20-2Port,1323001220200009,1.71.1.10-23.02.1.238
! 
! Port Assignments:
! Nominal Port -> Actual Test Port
! --------------------------------
!   1 -> 1

! Created: GMT 2024-08-27 12:51:02

# Hz S DB R 50

[Number of Ports] 1
[Number of Frequencies] 2001

[Network Data] 
! freq[Hz]               S11[mag dB]              S11[ang]                 
1.000000000000000e+10    -1.453062125450238e+01   -1.524804045907137e+02   
1.000100000000000e+10    -1.455005464426995e+01   -1.525962510400197e+02   
1.000200000000000e+10    -1.456541612845220e+01   -1.526767923936295e+02   
1.000300000000000e+10    -1.458251423452919e+01   -1.529221227605387e+02   
1.000400000000000e+10    -1.458880833090151e+01   -1.531708542137021e+02   
1.000500000000000e+10    -1.459745825470424e+01   -1.533307984133033e+02   
1.000600000000000e+10    -1.461945811851289e+01   -1.535096034665378e+02   
1.000700000000000e+10    -1.463332443898029e+01   -1.536420526820848e+02   
1.000800000000000e+10    -1.464698894294567e+01   -1.538701431968223e+02   
1.000900000000000e+10    -1.466613028262795e+01   -1.541523035043741e+02   
1.001000000000000e+10    -1.468423386332773e+01   -1.542384266675369e+02   
1.001100000000000e+10    -1.469814519563269e+01   -1.544774450119189e+02   
1.001200000000000e+10    -1.470471649344431e+01   -1.546575449773873e+02   
1.001300000000000e+10    -1.473459382617028e+01   -1.549347941118064e+02   
1.001400000000000e+10    -1.473533727649521e+01   -1.551604965474324e+02   
1.001500000000000e+10    -1.475260948355709e+01   -1.553456725485385e+02   
1.001600000000000e+10    -1.475773320302370e+01   -1.555058641010271e+02   
1.001700000000000e+10    -1.477941295362715e+01   -1.558105179005418e+02   
1.001800000000000e+10    -1.478699867228603e+01   -1.560272071019973e+02   
1.001900000000000e+10    -1.480241293092075e+01   -1.562243278000360e+02   
1.002000000000000e+10    -1.481454147202490e+01   -1.565142655262832e+02   
1.002100000000000e+10    -1.482671826837622e+01   -1.567422752493221e+02   
1.002200000000000e+10    -1.484008809900619e+01   -1.569030737149207e+02   
1.002300000000000e+10    -1.484428518993957e+01   -1.571096984876660e+02   
1.002400000000000e+10    -1.484968123178479e+01   -1.573466289050001e+02   
1.002500000000000e+10    -1.487917751382957e+01   -1.575317025582399e+02   
1.002600000000000e+10    -1.488217280001558e+01   -1.578856251228611e+02   
1.002700000000000e+10    -1.488838889734781e+01   -1.580941316123846e+02   
1.002800000000000e+10    -1.490712356854812e+01   -1.582479646280591e+02   
1.002900000000000e+10    -1.491622554902032e+01   -1.584082526263283e+02   
1.003000000000000e+10    -1.494267292750136e+01   -1.586187821605737e+02   
1.003100000000000e+10    -1.493046600220745e+01   -1.588752521294805e+02   
1.003200000000000e+10    -1.494834640685577e+01   -1.591294280356242e+02   
1.003300000000000e+10    -1.494449574787837e+01   -1.593038335267628e+02   
1.003400000000000e+10    -1.495991317539389e+01   -1.594421185888811e+02   
1.003500000000000e+10    -1.498240974614474e+01   -1.597066959017700e+02   
1.003600000000000e+10    -1.497481343270987e+01   -1.597691994919004e+02   
1.003700000000000e+10    -1.499524617064746e+01   -1.600591375232101e+02   
1.003800000000000e+10    -1.500229015811310e+01   -1.602819399697481e+02   
1.003900000000000e+10    -1.502057346832221e+01   -1.605064840482235e+02   
1.004000000000000e+10    -1.501312965529677e+01   -1.607126698050768e+02   
1.004100000000000e+10    -1.503960005342202e+01   -1.609122918599328e+02   
1.004200000000000e+10    -1.503667833639379e+01   -1.610556121145211e+02   
1.004300000000000e+10    -1.505345512905613e+01   -1.612584510421265e+02   
1.004400000000000e+10    -1.506927695523682e+01   -1.615200157892291e+02   
1.004500000000000e+10    -1.507151630586785e+01   -1.616160631841936e+02   
1.004600000000000e+10    -1.509257850329688e+01   -1.618059169599386e+02   
1.004700000000000e+10    -1.510324623036815e+01   -1.620383276370162e+02   
1.004800000000000e+10    -1.511122957022732e+01   -1.621837983240628e+02   
1.004900000000000e+10    -1.512008250175177e+01   -1.623666498952864e+02   
1.005000000000000e+10    -1.513534466103314e+01   -1.626640020907648e+02   
1.005100000000000e+10    -1.512277182886276e+01   -1.626779299934336e+02   
1.005200000000000e+10    -1.515764309170687e+01   -1.628187118944316e+02   
1.005300000000000e+10    -1.516536779290043e+01   -1.630763778987309e+02   
1.005400000000000e+10    -1.517418747508876e+01   -1.632474872503497e+02   
1.005500000000000e+10    -1.519003673890516e+01   -1.634013410941251e+02   
1.005600000000000e+10    -1.521946653093251e+01   -1.636273929469885e+02   
1.005700000000000e+10    -1.521870258530253e+01   -1.637172393462705e+02   
1.005800000000000e+10    -1.523026026700253e+01   -1.639359041268460e+02   
1.005900000000000e+10    -1.524496542497839e+01   -1.641641566875977e+02   
1.006000000000000e+10    -1.525479075547504e+01   -1.642561601850550e+02   
1.006100000000000e+10    -1.528302736021253e+01   -1.643989603510177e+02   
1.006200000000000e+10    -1.529548873757960e+01   -1.645830498274729e+02   
1.006300000000000e+10    -1.531668010612327e+01   -1.647298963290430e+02   
1.006400000000000e+10    -1.531754623203347e+01   -1.648841699311897e+02   
1.006500000000000e+10    -1.533716207611057e+01   -1.650828929144005e+02   
1.006600000000000e+10    -1.536065266924405e+01   -1.651730848041975e+02   
1.006700000000000e+10    -1.537149892902230e+01   -1.654580602799817e+02   
1.006800000000000e+10    -1.539002245360658e+01   -1.655057232079531e+02   
1.006900000000000e+10    -1.541462274436638e+01   -1.656645018329907e+02   
1.007000000000000e+10    -1.542618015685077e+01   -1.658676879885284e+02   
1.007100000000000e+10    -1.543730174952062e+01   -1.660504142084720e+02   
1.007200000000000e+10    -1.546938684451169e+01   -1.661548606083078e+02   
1.007300000000000e+10    -1.548821951578176e+01   -1.664282735932269e+02   
1.007400000000000e+10    -1.550405676313193e+01   -1.664514330866347e+02   
1.007500000000000e+10    -1.554476996355673e+01   -1.666803469294990e+02   
1.007600000000000e+10    -1.557241310999597e+01   -1.668758995358141e+02   
1.007700000000000e+10    -1.558363816261999e+01   -1.669460799414915e+02   
1.007800000000000e+10    -1.561416890809612e+01   -1.670571126323770e+02   
1.007900000000000e+10    -1.563088491261225e+01   -1.672734576863471e+02   
1.008000000000000e+10    -1.567710972286470e+01   -1.674567112055537e+02   
1.008100000000000e+10    -1.569193766904532e+01   -1.675145344720019e+02   
1.008200000000000e+10    -1.571264467749671e+01   -1.675754316819286e+02   
1.008300000000000e+10    -1.574257051126584e+01   -1.678390908505994e+02   
1.008400000000000e+10    -1.578231098506570e+01   -1.680413775101798e+02   
1.008500000000000e+10    -1.579249253127003e+01   -1.681459714516236e+02   
1.008600000000000e+10    -1.582661420385040e+01   -1.682679365681314e+02   
1.008700000000000e+10    -1.584872149475746e+01   -1.684674923534627e+02   
1.008800000000000e+10    -1.587476515775447e+01   -1.686497128672908e+02   
1.008900000000000e+10    -1.592150935150619e+01   -1.688341642329870e+02   
1.009000000000000e+10    -1.594777124856168e+01   -1.690198707433087e+02   
1.009100000000000e+10    -1.599337355687437e+01   -1.691348079760428e+02   
1.009200000000000e+10    -1.601496935898478e+01   -1.693963153080556e+02   
1.009300000000000e+10    -1.602628094061301e+01   -1.695166883552512e+02   
1.009400000000000e+10    -1.607164563833195e+01   -1.697174605193490e+02   
1.009500000000000e+10    -1.610743720436417e+01   -1.697858221111983e+02   
1.009600000000000e+10    -1.612876858537826e+01   -1.699406753921130e+02   
1.009700000000000e+10    -1.616433180992117e+01   -1.701733773101901e+02   
1.009800000000000e+10    -1.617885321234577e+01   -1.703130655147083e+02   
1.009900000000000e+10    -1.623048756245502e+01   -1.704332283886760e+02   
1.010000000000000e+10    -1.625175662165372e+01   -1.707663109636640e+02   
1.010100000000000e+10    -1.628857817571754e+01   -1.708402593544960e+02   
1.010200000000000e+10    -1.630912071106020e+01   -1.710447860972197e+02   
1.010300000000000e+10    -1.635505542106723e+01   -1.711606022093580e+02   
1.010400000000000e+10    -1.637231333482208e+01   -1.713793393028811e+02   
1.010500000000000e+10    -1.638643868790367e+01   -1.716385390069688e+02   
1.010600000000000e+10    -1.643720419703292e+01   -1.717692297114765e+02   
1.010700000000000e+10    -1.646249957766614e+01   -1.719299648999495e+02   
1.010800000000000e+10    -1.646987015583035e+01   -1.721528782742955e+02   
1.010900000000000e+10    -1.650548616744277e+01   -1.723085009856221e+02   
1.011000000000000e+10    -1.653042284407287e+01   -1.725013454414784e+02   
1.011100000000000e+10    -1.656438538602846e+01   -1.726948043257701e+02   
1.011200000000000e+10    -1.658335507701149e+01   -1.729750419383342e+02   
1.011300000000000e+10    -1.663058835111005e+01   -1.730800252071161e+02   
1.011400000000000e+10    -1.664255237056453e+01   -1.731456448884118e+02   
1.011500000000000e+10    -1.668240995995982e+01   -1.733735217608785e+02   
1.011600000000000e+10    -1.670335280271731e+01   -1.736676616985604e+02   
1.011700000000000e+10    -1.673763975971736e+01   -1.736558020866210e+02   
1.011800000000000e+10    -1.676948033642779e+01   -1.739577044270391e+02   
1.011900000000000e+10    -1.678010590362661e+01   -1.740544767435173e+02   
1.012000000000000e+10    -1.680729150081272e+01   -1.741328397927968e+02   
1.012100000000000e+10    -1.683965720170296e+01   -1.744182081412749e+02   
1.012200000000000e+10    -1.685857296641233e+01   -1.744585442376010e+02   
1.012300000000000e+10    -1.688092862893306e+01   -1.747079436114101e+02   
1.012400000000000e+10    -1.691514676203735e+01   -1.747338063340640e+02   
1.012500000000000e+10    -1.695295778308228e+01   -1.749022725345130e+02   
1.012600000000000e+10    -1.697379266999909e+01   -1.750521356280934e+02   
1.012700000000000e+10    -1.698647415502464e+01   -1.752290753070057e+02   
1.012800000000000e+10    -1.702358590481849e+01   -1.753596975895726e+02   
1.012900000000000e+10    -1.703965914368015e+01   -1.754428983097252e+02   
1.013000000000000e+10    -1.707659233783935e+01   -1.757388337382070e+02   
1.013100000000000e+10    -1.710870451443784e+01   -1.756861533983306e+02   
1.013200000000000e+10    -1.711275180102396e+01   -1.759058779842437e+02   
1.013300000000000e+10    -1.714802029003484e+01   -1.759410220634583e+02   
1.013400000000000e+10    -1.717161431761036e+01   -1.761833088658512e+02   
1.013500000000000e+10    -1.720203452846894e+01   -1.762809275535735e+02   
1.013600000000000e+10    -1.721604038098345e+01   -1.764459887946184e+02   
1.013700000000000e+10    -1.726021627525878e+01   -1.764687124723832e+02   
1.013800000000000e+10    -1.726601135914072e+01   -1.766986805991693e+02   
1.013900000000000e+10    -1.729020566182366e+01   -1.767262765266571e+02   
1.014000000000000e+10    -1.733661326160028e+01   -1.769960785665010e+02   
1.014100000000000e+10    -1.735825489102151e+01   -1.770764585946593e+02   
1.014200000000000e+10    -1.738558557515359e+01   -1.772645988342728e+02   
1.014300000000000e+10    -1.740687326770814e+01   -1.773008841868403e+02   
1.014400000000000e+10    -1.743380072658551e+01   -1.775342430537925e+02   
1.014500000000000e+10    -1.745198564216690e+01   -1.775394224454728e+02   
1.014600000000000e+10    -1.747645295100930e+01   -1.776702871411774e+02   
1.014700000000000e+10    -1.750759782534071e+01   -1.778294911754070e+02   
1.014800000000000e+10    -1.752633789956178e+01   -1.780144990821115e+02   
1.014900000000000e+10    -1.755612937956162e+01   -1.779454531773843e+02   
1.015000000000000e+10    -1.759148307725158e+01   -1.782410126690567e+02   
1.015100000000000e+10    -1.761088551736865e+01   -1.781865218503881e+02   
1.015200000000000e+10    -1.764331552065217e+01   -1.783409431032477e+02   
1.015300000000000e+10    -1.764651122954299e+01   -1.784160684309871e+02   
1.015400000000000e+10    -1.769628474750142e+01   -1.786475600388535e+02   
1.015500000000000e+10    -1.772383551036040e+01   -1.786697976856125e+02   
1.015600000000000e+10    -1.776931597618715e+01   -1.787287164810876e+02   
1.015700000000000e+10    -1.778780820042357e+01   -1.787643847892188e+02   
1.015800000000000e+10    -1.781904126853928e+01   -1.787934574462646e+02   
1.015900000000000e+10    -1.783081717458678e+01   -1.789344396910681e+02   
1.016000000000000e+10    -1.786175857166656e+01   -1.791626053191574e+02   
1.016100000000000e+10    -1.790316849990130e+01   -1.792522786909608e+02   
1.016200000000000e+10    -1.793289197805698e+01   -1.793433524597223e+02   
1.016300000000000e+10    -1.796070596101703e+01   -1.793346895467318e+02   
1.016400000000000e+10    -1.799762057208727e+01   -1.794314893324582e+02   
1.016500000000000e+10    -1.803085697355807e+01   -1.794532369610080e+02   
1.016600000000000e+10    -1.807410333774876e+01   -1.796228468403735e+02   
1.016700000000000e+10    -1.809601437925497e+01   -1.797266728547203e+02   
1.016800000000000e+10    -1.813314088667945e+01   -1.797211381440900e+02   
1.016900000000000e+10    -1.816616629755544e+01   -1.799620770190840e+02   
1.017000000000000e+10    -1.818969689557650e+01   1.799921441003926e+02    
1.017100000000000e+10    -1.822819705133535e+01   1.797679751615220e+02    
1.017200000000000e+10    -1.827873528451566e+01   1.798600519947655e+02    
1.017300000000000e+10    -1.831547193403893e+01   1.798230851456217e+02    
1.017400000000000e+10    -1.834171791950344e+01   1.797321568662562e+02    
1.017500000000000e+10    -1.840606689587388e+01   1.794936751192885e+02    
1.017600000000000e+10    -1.839173411814238e+01   1.794915838916958e+02    
1.017700000000000e+10    -1.844572410360605e+01   1.793101492049526e+02    
1.017800000000000e+10    -1.848773193279582e+01   1.793028923486503e+02    
1.017900000000000e+10    -1.850020814654639e+01   1.792616332793186e+02    
1.018000000000000e+10    -1.857670640662642e+01   1.790165868741645e+02    
1.018100000000000e+10    -1.859280030730969e+01   1.789616175309474e+02    
1.018200000000000e+10    -1.864896591301340e+01   1.787256564947801e+02    
1.018300000000000e+10    -1.866825048942576e+01   1.785854599456309e+02    
1.018400000000000e+10    -1.869448392171908e+01   1.785795911220639e+02    
1.018500000000000e+10    -1.873437429725986e+01   1.783606508336028e+02    
1.018600000000000e+10    -1.877584729027079e+01   1.783287888355244e+02    
1.018700000000000e+10    -1.883016285621609e+01   1.781300096758578e+02    
1.018800000000000e+10    -1.888036291372993e+01   1.781270739026463e+02    
1.018900000000000e+10    -1.891438644986930e+01   1.780776376017914e+02    
1.019000000000000e+10    -1.894859247821208e+01   1.779453333968245e+02    
1.019100000000000e+10    -1.897978559098270e+01   1.777999034275820e+02    
1.019200000000000e+10    -1.900236858779067e+01   1.778000206025546e+02    
1.019300000000000e+10    -1.903538769411262e+01   1.777655045498818e+02    
1.019400000000000e+10    -1.908429462803288e+01   1.775640806296310e+02    
1.019500000000000e+10    -1.912438169351146e+01   1.775266468270589e+02    
1.019600000000000e+10    -1.916028526340767e+01   1.773528427185441e+02    
1.019700000000000e+10    -1.919430739782359e+01   1.773209060652805e+02    
1.019800000000000e+10    -1.921200590731012e+01   1.771842095281559e+02    
1.019900000000000e+10    -1.925868085704622e+01   1.771632311189080e+02    
1.020000000000000e+10    -1.931697580110872e+01   1.769373406029031e+02    
1.020100000000000e+10    -1.932725658624062e+01   1.770640195420097e+02    
1.020200000000000e+10    -1.938337704103916e+01   1.768896800720208e+02    
1.020300000000000e+10    -1.942440578743978e+01   1.770172562219557e+02    
1.020400000000000e+10    -1.947681942536411e+01   1.768171570505552e+02    
1.020500000000000e+10    -1.950263310607196e+01   1.766395699990644e+02    
1.020600000000000e+10    -1.953279553218810e+01   1.766988130844487e+02    
1.020700000000000e+10    -1.954946967347148e+01   1.765919013550874e+02    
1.020800000000000e+10    -1.960823252159460e+01   1.765517440602427e+02    
1.020900000000000e+10    -1.966598609402805e+01   1.762819949778262e+02    
1.021000000000000e+10    -1.970459108585925e+01   1.762530744436459e+02    
1.021100000000000e+10    -1.974043822656341e+01   1.762767860693780e+02    
1.021200000000000e+10    -1.980775162428684e+01   1.760942096984436e+02    
1.021300000000000e+10    -1.983879915143524e+01   1.760530299897563e+02    
1.021400000000000e+10    -1.988600963738847e+01   1.759953705123646e+02    
1.021500000000000e+10    -1.993062896652822e+01   1.760471541815009e+02    
1.021600000000000e+10    -1.996345879221845e+01   1.759001824522288e+02    
1.021700000000000e+10    -2.000771805060740e+01   1.758342154621704e+02    
1.021800000000000e+10    -2.005669142481819e+01   1.758502018910758e+02    
1.021900000000000e+10    -2.012552059282583e+01   1.758233019525196e+02    
1.022000000000000e+10    -2.015875343906339e+01   1.756984512515693e+02    
1.022100000000000e+10    -2.018096721236340e+01   1.756816741862207e+02    
1.022200000000000e+10    -2.028295004657294e+01   1.756163645294402e+02    
1.022300000000000e+10    -2.031218344198139e+01   1.756006792861679e+02    
1.022400000000000e+10    -2.035372779450329e+01   1.754532027115674e+02    
1.022500000000000e+10    -2.040354339297508e+01   1.755661354738786e+02    
1.022600000000000e+10    -2.045183276268180e+01   1.751878203918142e+02    
1.022700000000000e+10    -2.050101319171809e+01   1.752624820025696e+02    
1.022800000000000e+10    -2.054154907787566e+01   1.752144972855610e+02    
1.022900000000000e+10    -2.058473446407354e+01   1.750264190926150e+02    
1.023000000000000e+10    -2.061194395406635e+01   1.750879873886552e+02    
1.023100000000000e+10    -2.064974522334235e+01   1.750082883776317e+02    
1.023200000000000e+10    -2.070491897147587e+01   1.748014852848819e+02    
1.023300000000000e+10    -2.076862600641536e+01   1.748214698066487e+02    
1.023400000000000e+10    -2.080208406185714e+01   1.746953521965322e+02    
1.023500000000000e+10    -2.090740535920813e+01   1.746335544362130e+02    
1.023600000000000e+10    -2.090349287454505e+01   1.748152808706196e+02    
1.023700000000000e+10    -2.095985576204282e+01   1.744850668921648e+02    
1.023800000000000e+10    -2.101531632883136e+01   1.746666655017065e+02    
1.023900000000000e+10    -2.103959370147825e+01   1.743666994021367e+02    
1.024000000000000e+10    -2.113026842992330e+01   1.743903990487563e+02    
1.024100000000000e+10    -2.115417609683224e+01   1.746162090115180e+02    
1.024200000000000e+10    -2.119953439424080e+01   1.744115136874416e+02    
1.024300000000000e+10    -2.126684372475545e+01   1.743014361919780e+02    
1.024400000000000e+10    -2.130930484415884e+01   1.741982076193121e+02    
1.024500000000000e+10    -2.133314915811816e+01   1.743065751787203e+02    
1.024600000000000e+10    -2.138182585357591e+01   1.741280293782591e+02    
1.024700000000000e+10    -2.142994144890928e+01   1.741183234544699e+02    
1.024800000000000e+10    -2.148844714663129e+01   1.742100464181393e+02    
1.024900000000000e+10    -2.155516499032299e+01   1.738503515498517e+02    
1.025000000000000e+10    -2.157619738116137e+01   1.739233559976051e+02    
1.025100000000000e+10    -2.161160359256394e+01   1.741329931600461e+02    
1.025200000000000e+10    -2.167131067517191e+01   1.737865825465862e+02    
1.025300000000000e+10    -2.170025345316076e+01   1.740488762830134e+02    
1.025400000000000e+10    -2.175989308310872e+01   1.739736633249195e+02    
1.025500000000000e+10    -2.183109985739130e+01   1.737811654357692e+02    
1.025600000000000e+10    -2.186681448598016e+01   1.737937085174484e+02    
