[Version] 2.0
! Rohde & Schwarz Vector Network Analyzer
! Rohde-Schwarz,ZNL20-2Port,1323001220200009,1.71.1.10-23.02.1.238
! 
! Port Assignments:
! Nominal Port -> Actual Test Port
! --------------------------------
!   1 -> 1

! Created: GMT 2024-08-27 12:38:24

# Hz S DB R 50

[Number of Ports] 1
[Number of Frequencies] 2001

[Network Data] 
! freq[Hz]               S11[mag dB]              S11[ang]                 
1.000000000000000e+10    -1.813958395289821e+01   -1.280585967414520e+02   
1.000100000000000e+10    -1.814511884488713e+01   -1.279764334695612e+02   
1.000200000000000e+10    -1.813525632124308e+01   -1.278854373687228e+02   
1.000300000000000e+10    -1.815017368479608e+01   -1.279943386655185e+02   
1.000400000000000e+10    -1.814482672688649e+01   -1.281567422628621e+02   
1.000500000000000e+10    -1.813596859922164e+01   -1.282084827530938e+02   
1.000600000000000e+10    -1.814352792215832e+01   -1.282197971043218e+02   
1.000700000000000e+10    -1.813863907842561e+01   -1.282056907880923e+02   
1.000800000000000e+10    -1.814614107536873e+01   -1.282909497894966e+02   
1.000900000000000e+10    -1.815991351723170e+01   -1.284876338779881e+02   
1.001000000000000e+10    -1.815617964475914e+01   -1.283770836115611e+02   
1.001100000000000e+10    -1.816336296887287e+01   -1.285033013884049e+02   
1.001200000000000e+10    -1.815712970686491e+01   -1.285771157945545e+02   
1.001300000000000e+10    -1.818674773428248e+01   -1.286798531993727e+02   
1.001400000000000e+10    -1.817747406174320e+01   -1.288390469939427e+02   
1.001500000000000e+10    -1.818116755128788e+01   -1.288708400225152e+02   
1.001600000000000e+10    -1.816691307576858e+01   -1.289252094309357e+02   
1.001700000000000e+10    -1.819169779425960e+01   -1.291046092500421e+02   
1.001800000000000e+10    -1.818664122152560e+01   -1.291996351156847e+02   
1.001900000000000e+10    -1.819159881442893e+01   -1.292526550782875e+02   
1.002000000000000e+10    -1.820262082311717e+01   -1.294348271836894e+02   
1.002100000000000e+10    -1.820293440739042e+01   -1.295424656677071e+02   
1.002200000000000e+10    -1.819781614031912e+01   -1.295756207407893e+02   
1.002300000000000e+10    -1.818943764285255e+01   -1.297104310487655e+02   
1.002400000000000e+10    -1.818297729443289e+01   -1.298611103717974e+02   
1.002500000000000e+10    -1.820582527599941e+01   -1.298287376759722e+02   
1.002600000000000e+10    -1.821000000703904e+01   -1.301459844489659e+02   
1.002700000000000e+10    -1.820355265338356e+01   -1.302530545811758e+02   
1.002800000000000e+10    -1.821036031565346e+01   -1.302518476724423e+02   
1.002900000000000e+10    -1.819912297463312e+01   -1.302960195644885e+02   
1.003000000000000e+10    -1.822123608788016e+01   -1.303034227514658e+02   
1.003100000000000e+10    -1.820035313377144e+01   -1.305920641635871e+02   
1.003200000000000e+10    -1.821000154593062e+01   -1.306816637160975e+02   
1.003300000000000e+10    -1.818477014459712e+01   -1.307796560314037e+02   
1.003400000000000e+10    -1.818174418336422e+01   -1.307892508687514e+02   
1.003500000000000e+10    -1.819827766976401e+01   -1.308904910536640e+02   
1.003600000000000e+10    -1.815710279834466e+01   -1.309012339138505e+02   
1.003700000000000e+10    -1.818018897223910e+01   -1.310410266269222e+02   
1.003800000000000e+10    -1.817292188392806e+01   -1.311626273914506e+02   
1.003900000000000e+10    -1.818085249940195e+01   -1.312430332829769e+02   
1.004000000000000e+10    -1.815299852957779e+01   -1.314414421185896e+02   
1.004100000000000e+10    -1.816440517921131e+01   -1.314474255826821e+02   
1.004200000000000e+10    -1.813722476821174e+01   -1.315256449036977e+02   
1.004300000000000e+10    -1.814341210459321e+01   -1.316032392044984e+02   
1.004400000000000e+10    -1.814737716628891e+01   -1.317439328470381e+02   
1.004500000000000e+10    -1.812006859877425e+01   -1.317628875354316e+02   
1.004600000000000e+10    -1.812596042209346e+01   -1.318018933840152e+02   
1.004700000000000e+10    -1.812156728609399e+01   -1.319177942311239e+02   
1.004800000000000e+10    -1.810680661043711e+01   -1.319592704109795e+02   
1.004900000000000e+10    -1.809455802299791e+01   -1.320820911747313e+02   
1.005000000000000e+10    -1.810184297373397e+01   -1.322525598288655e+02   
1.005100000000000e+10    -1.806378967655336e+01   -1.322831295697461e+02   
1.005200000000000e+10    -1.806746641934823e+01   -1.321729976546931e+02   
1.005300000000000e+10    -1.806213383589690e+01   -1.323262594466536e+02   
1.005400000000000e+10    -1.805483240680648e+01   -1.324058937860613e+02   
1.005500000000000e+10    -1.804921853939728e+01   -1.324312331123961e+02   
1.005600000000000e+10    -1.806420725482254e+01   -1.324430919200687e+02   
1.005700000000000e+10    -1.803231769843246e+01   -1.324601316584124e+02   
1.005800000000000e+10    -1.802930011678543e+01   -1.325758632722026e+02   
1.005900000000000e+10    -1.803199479182386e+01   -1.326958295232864e+02   
1.006000000000000e+10    -1.800667423868194e+01   -1.326801524197342e+02   
1.006100000000000e+10    -1.801401436030693e+01   -1.326255023296748e+02   
1.006200000000000e+10    -1.800852343797392e+01   -1.326975201547698e+02   
1.006300000000000e+10    -1.800657036732672e+01   -1.326863902100675e+02   
1.006400000000000e+10    -1.798333398029983e+01   -1.327658486743968e+02   
1.006500000000000e+10    -1.798548723554297e+01   -1.327744680936278e+02   
1.006600000000000e+10    -1.798162324030639e+01   -1.327001407893870e+02   
1.006700000000000e+10    -1.798133341436253e+01   -1.328456646665209e+02   
1.006800000000000e+10    -1.796164751957496e+01   -1.327399139916297e+02   
1.006900000000000e+10    -1.795706859975433e+01   -1.326993325550638e+02   
1.007000000000000e+10    -1.794484707918361e+01   -1.327954933424193e+02   
1.007100000000000e+10    -1.793019100912693e+01   -1.328908629537210e+02   
1.007200000000000e+10    -1.792485038827739e+01   -1.327773265407388e+02   
1.007300000000000e+10    -1.793157557148959e+01   -1.329525619656401e+02   
1.007400000000000e+10    -1.790248747671751e+01   -1.328440148643017e+02   
1.007500000000000e+10    -1.792138585329493e+01   -1.328605153374070e+02   
1.007600000000000e+10    -1.792383410737950e+01   -1.328808940374094e+02   
1.007700000000000e+10    -1.789317319083824e+01   -1.328863301307262e+02   
1.007800000000000e+10    -1.788632073957346e+01   -1.328227137162024e+02   
1.007900000000000e+10    -1.788204881025898e+01   -1.329644661806129e+02   
1.008000000000000e+10    -1.790361231573296e+01   -1.329167593415589e+02   
1.008100000000000e+10    -1.787592860940786e+01   -1.329135923837615e+02   
1.008200000000000e+10    -1.785487254915191e+01   -1.328953269502612e+02   
1.008300000000000e+10    -1.786578643102558e+01   -1.330097310533325e+02   
1.008400000000000e+10    -1.788325763333798e+01   -1.330102770383178e+02   
1.008500000000000e+10    -1.785898274642193e+01   -1.330672895344352e+02   
1.008600000000000e+10    -1.785713811445405e+01   -1.330714527193387e+02   
1.008700000000000e+10    -1.785396458407897e+01   -1.331617953996524e+02   
1.008800000000000e+10    -1.785391074188742e+01   -1.332233467211498e+02   
1.008900000000000e+10    -1.787058232197955e+01   -1.331845102670916e+02   
1.009000000000000e+10    -1.786853817640965e+01   -1.332938822197193e+02   
1.009100000000000e+10    -1.787920256578218e+01   -1.332045903670148e+02   
1.009200000000000e+10    -1.788595396333674e+01   -1.333912224254600e+02   
1.009300000000000e+10    -1.786324049535952e+01   -1.334672610092620e+02   
1.009400000000000e+10    -1.788611192808104e+01   -1.334795784276498e+02   
1.009500000000000e+10    -1.788516345137646e+01   -1.334145861898054e+02   
1.009600000000000e+10    -1.788162248403783e+01   -1.334983760522997e+02   
1.009700000000000e+10    -1.789577309060239e+01   -1.335734027194182e+02   
1.009800000000000e+10    -1.788716056912058e+01   -1.336750521338054e+02   
1.009900000000000e+10    -1.790508929829267e+01   -1.335469791535606e+02   
1.010000000000000e+10    -1.791282232573329e+01   -1.337950104393583e+02   
1.010100000000000e+10    -1.792815094668198e+01   -1.337127578947663e+02   
1.010200000000000e+10    -1.791915538637282e+01   -1.337978187872753e+02   
1.010300000000000e+10    -1.793276139872796e+01   -1.337285519737265e+02   
1.010400000000000e+10    -1.793116643013628e+01   -1.338490693758886e+02   
1.010500000000000e+10    -1.793254475223801e+01   -1.340508223349606e+02   
1.010600000000000e+10    -1.795105860163109e+01   -1.339477503957297e+02   
1.010700000000000e+10    -1.794700290714567e+01   -1.339662370981603e+02   
1.010800000000000e+10    -1.793843410940849e+01   -1.341950003085707e+02   
1.010900000000000e+10    -1.794265375122505e+01   -1.341629496666947e+02   
1.011000000000000e+10    -1.794417707125854e+01   -1.342718792982785e+02   
1.011100000000000e+10    -1.795079637727879e+01   -1.342730196340741e+02   
1.011200000000000e+10    -1.795476444518124e+01   -1.344537375024808e+02   
1.011300000000000e+10    -1.796464740161463e+01   -1.343578424731144e+02   
1.011400000000000e+10    -1.793757063533352e+01   -1.343910454638009e+02   
1.011500000000000e+10    -1.795477644288097e+01   -1.344801285342974e+02   
1.011600000000000e+10    -1.796295949469211e+01   -1.346770589193328e+02   
1.011700000000000e+10    -1.794504918311379e+01   -1.345844235997755e+02   
1.011800000000000e+10    -1.796301943437311e+01   -1.347541484284492e+02   
1.011900000000000e+10    -1.793858649972463e+01   -1.348648090845569e+02   
1.012000000000000e+10    -1.793073346017647e+01   -1.348865600300531e+02   
1.012100000000000e+10    -1.794721233878356e+01   -1.350317597044487e+02   
1.012200000000000e+10    -1.793023938674139e+01   -1.350646491076950e+02   
1.012300000000000e+10    -1.793151369501888e+01   -1.352305016839312e+02   
1.012400000000000e+10    -1.792506069537787e+01   -1.351716233844115e+02   
1.012500000000000e+10    -1.793048167848263e+01   -1.352115932131343e+02   
1.012600000000000e+10    -1.792476414290736e+01   -1.353202099679127e+02   
1.012700000000000e+10    -1.791385937578956e+01   -1.354857294775810e+02   
1.012800000000000e+10    -1.792102257677313e+01   -1.355076077704923e+02   
1.012900000000000e+10    -1.790397767792514e+01   -1.355837370833635e+02   
1.013000000000000e+10    -1.792976206534804e+01   -1.357605911374415e+02   
1.013100000000000e+10    -1.790592321981574e+01   -1.356563433095919e+02   
1.013200000000000e+10    -1.789729202343855e+01   -1.358839891914187e+02   
1.013300000000000e+10    -1.789270690373663e+01   -1.358524296018953e+02   
1.013400000000000e+10    -1.790195683435006e+01   -1.360159331494577e+02   
1.013500000000000e+10    -1.789695464282031e+01   -1.360516395865552e+02   
1.013600000000000e+10    -1.789024183088617e+01   -1.362059887157907e+02   
1.013700000000000e+10    -1.789020370787628e+01   -1.361089620489312e+02   
1.013800000000000e+10    -1.788525852977957e+01   -1.363428818595801e+02   
1.013900000000000e+10    -1.787365412340770e+01   -1.363316983583731e+02   
1.014000000000000e+10    -1.790189475037946e+01   -1.364152115208996e+02   
1.014100000000000e+10    -1.789416218849929e+01   -1.364471318075226e+02   
1.014200000000000e+10    -1.790020058286497e+01   -1.365557015062234e+02   
1.014300000000000e+10    -1.788529266205311e+01   -1.365626295426632e+02   
1.014400000000000e+10    -1.789951484197093e+01   -1.366833765145813e+02   
1.014500000000000e+10    -1.787780891186177e+01   -1.366810016347147e+02   
1.014600000000000e+10    -1.787219546714807e+01   -1.367199171056754e+02   
1.014700000000000e+10    -1.787582393970595e+01   -1.367647583250531e+02   
1.014800000000000e+10    -1.787491445610388e+01   -1.369123059832374e+02   
1.014900000000000e+10    -1.785232304476638e+01   -1.367862693292862e+02   
1.015000000000000e+10    -1.786287895231204e+01   -1.369297874006066e+02   
1.015100000000000e+10    -1.784912819945668e+01   -1.368821696822599e+02   
1.015200000000000e+10    -1.784710801545837e+01   -1.369405550500983e+02   
1.015300000000000e+10    -1.782343690626004e+01   -1.370693420045294e+02   
1.015400000000000e+10    -1.784053631186667e+01   -1.371059814045462e+02   
1.015500000000000e+10    -1.782526795186392e+01   -1.370918008617909e+02   
1.015600000000000e+10    -1.782294733389200e+01   -1.370233061840970e+02   
1.015700000000000e+10    -1.780371407339773e+01   -1.370518705267068e+02   
1.015800000000000e+10    -1.778805823555050e+01   -1.370632564968634e+02   
1.015900000000000e+10    -1.777348269564768e+01   -1.372511728951489e+02   
1.016000000000000e+10    -1.778218736489981e+01   -1.373653131763284e+02   
1.016100000000000e+10    -1.778323359247772e+01   -1.373387297338330e+02   
1.016200000000000e+10    -1.777538278324931e+01   -1.373955552051630e+02   
1.016300000000000e+10    -1.775678282514093e+01   -1.373950251341011e+02   
1.016400000000000e+10    -1.775305902676371e+01   -1.374204678923699e+02   
1.016500000000000e+10    -1.773700477295377e+01   -1.374263920084663e+02   
1.016600000000000e+10    -1.774627414246047e+01   -1.374928391808087e+02   
1.016700000000000e+10    -1.773604762383024e+01   -1.376161882502739e+02   
1.016800000000000e+10    -1.772240696304791e+01   -1.375652088485845e+02   
1.016900000000000e+10    -1.772800961856457e+01   -1.377391276403385e+02   
1.017000000000000e+10    -1.771238602633180e+01   -1.377889645557359e+02   
1.017100000000000e+10    -1.772649718374362e+01   -1.379408816431550e+02   
1.017200000000000e+10    -1.771324230701172e+01   -1.378304136756073e+02   
1.017300000000000e+10    -1.770892661628676e+01   -1.378530832362484e+02   
1.017400000000000e+10    -1.769971330169927e+01   -1.379424188773461e+02   
1.017500000000000e+10    -1.773270211692084e+01   -1.379647899370385e+02   
1.017600000000000e+10    -1.769237653061738e+01   -1.381627872281832e+02   
1.017700000000000e+10    -1.770623214618690e+01   -1.381678746080683e+02   
1.017800000000000e+10    -1.770427030058513e+01   -1.381562139025160e+02   
1.017900000000000e+10    -1.768628883456277e+01   -1.382367163829167e+02   
1.018000000000000e+10    -1.772155346734884e+01   -1.382229391617773e+02   
1.018100000000000e+10    -1.770106710972522e+01   -1.383257084419913e+02   
1.018200000000000e+10    -1.772981735244721e+01   -1.383707109558238e+02   
1.018300000000000e+10    -1.771610096355015e+01   -1.384657803609107e+02   
1.018400000000000e+10    -1.770139437324565e+01   -1.385311926960219e+02   
1.018500000000000e+10    -1.771399767962462e+01   -1.386459198688087e+02   
1.018600000000000e+10    -1.771103606846121e+01   -1.386498574937899e+02   
1.018700000000000e+10    -1.772490122493326e+01   -1.386897721491817e+02   
1.018800000000000e+10    -1.772339312605049e+01   -1.386062249597867e+02   
1.018900000000000e+10    -1.771494010830942e+01   -1.386455973962654e+02   
1.019000000000000e+10    -1.772183610339593e+01   -1.387457956392474e+02   
1.019100000000000e+10    -1.772069678346996e+01   -1.388221410857590e+02   
1.019200000000000e+10    -1.770327690090343e+01   -1.388756046891737e+02   
1.019300000000000e+10    -1.769486171414847e+01   -1.388753272958760e+02   
1.019400000000000e+10    -1.770787415173977e+01   -1.389407536613154e+02   
1.019500000000000e+10    -1.770043202354992e+01   -1.389163389521471e+02   
1.019600000000000e+10    -1.770837631907898e+01   -1.390320226937983e+02   
1.019700000000000e+10    -1.769597837708280e+01   -1.390668772116268e+02   
1.019800000000000e+10    -1.768463618584860e+01   -1.392083169352303e+02   
1.019900000000000e+10    -1.767934891237912e+01   -1.391937473842520e+02   
1.020000000000000e+10    -1.769628244654054e+01   -1.392816595138143e+02   
1.020100000000000e+10    -1.767335103208880e+01   -1.392334496621980e+02   
1.020200000000000e+10    -1.767763344707335e+01   -1.393340583148261e+02   
1.020300000000000e+10    -1.765893277582736e+01   -1.392548369322143e+02   
1.020400000000000e+10    -1.767186580383423e+01   -1.393322672768326e+02   
1.020500000000000e+10    -1.767003702985095e+01   -1.394703472271060e+02   
1.020600000000000e+10    -1.765008442716761e+01   -1.395335117661515e+02   
1.020700000000000e+10    -1.763792232414780e+01   -1.396652617190410e+02   
1.020800000000000e+10    -1.764148029578441e+01   -1.396412686283439e+02   
1.020900000000000e+10    -1.766307261735591e+01   -1.397282095410008e+02   
1.021000000000000e+10    -1.765233263372865e+01   -1.397758726766439e+02   
1.021100000000000e+10    -1.764246562925234e+01   -1.398357357041050e+02   
1.021200000000000e+10    -1.765972327657535e+01   -1.398453862080258e+02   
1.021300000000000e+10    -1.765063102936038e+01   -1.399304865840240e+02   
1.021400000000000e+10    -1.764989443199078e+01   -1.399578817511812e+02   
1.021500000000000e+10    -1.764115149816358e+01   -1.399634561360810e+02   
1.021600000000000e+10    -1.764627405746357e+01   -1.401066732747081e+02   
1.021700000000000e+10    -1.764324748587502e+01   -1.401573429090283e+02   
1.021800000000000e+10    -1.764405819923822e+01   -1.401406719830134e+02   
1.021900000000000e+10    -1.765267127537775e+01   -1.401163172852256e+02   
1.022000000000000e+10    -1.765396871296861e+01   -1.402211174093075e+02   
1.022100000000000e+10    -1.763776798515254e+01   -1.403132941241300e+02   
1.022200000000000e+10    -1.766638353479350e+01   -1.401802230689242e+02   
1.022300000000000e+10    -1.765885932708876e+01   -1.402422646026232e+02   
1.022400000000000e+10    -1.766527313149427e+01   -1.403332928347582e+02   
1.022500000000000e+10    -1.765205232097198e+01   -1.402775387079974e+02   
1.022600000000000e+10    -1.767951602167916e+01   -1.404526514472175e+02   
1.022700000000000e+10    -1.767236381607960e+01   -1.404353363394922e+02   
1.022800000000000e+10    -1.766833103593608e+01   -1.404826959843736e+02   
1.022900000000000e+10    -1.767600536885415e+01   -1.405952769030160e+02   
1.023000000000000e+10    -1.765883098245993e+01   -1.406367145274534e+02   
1.023100000000000e+10    -1.765267845548462e+01   -1.407176386019712e+02   
1.023200000000000e+10    -1.766816754375052e+01   -1.407934495383691e+02   
1.023300000000000e+10    -1.766871787966197e+01   -1.407560892333137e+02   
1.023400000000000e+10    -1.766290370451927e+01   -1.408952767722612e+02   
1.023500000000000e+10    -1.768955997035189e+01   -1.407663712536197e+02   
1.023600000000000e+10    -1.764983292125391e+01   -1.408668967925797e+02   
1.023700000000000e+10    -1.766520484969626e+01   -1.410247876687470e+02   
1.023800000000000e+10    -1.765263385052681e+01   -1.409876899946023e+02   
1.023900000000000e+10    -1.765885556309371e+01   -1.412141215469545e+02   
1.024000000000000e+10    -1.767160548476091e+01   -1.411429570568721e+02   
1.024100000000000e+10    -1.763863587907613e+01   -1.411664891951072e+02   
1.024200000000000e+10    -1.764653036396865e+01   -1.413283882998759e+02   
1.024300000000000e+10    -1.765699546647851e+01   -1.413640808703842e+02   
1.024400000000000e+10    -1.765673301565938e+01   -1.415009549164150e+02   
1.024500000000000e+10    -1.763540876678408e+01   -1.415730596234762e+02   
1.024600000000000e+10    -1.764308012914829e+01   -1.417522245533394e+02   
1.024700000000000e+10    -1.764005133285107e+01   -1.418196509548195e+02   
1.024800000000000e+10    -1.763949491257155e+01   -1.418095841698006e+02   
1.024900000000000e+10    -1.766683265173125e+01   -1.419869576092008e+02   
1.025000000000000e+10    -1.764338327669501e+01   -1.421327159104619e+02   
1.025100000000000e+10    -1.763055223973164e+01   -1.420816276812641e+02   
1.025200000000000e+10    -1.765232719248981e+01   -1.423180576690270e+02   
1.025300000000000e+10    -1.762772264977255e+01   -1.423488927761306e+02   
1.025400000000000e+10    -1.763761974301298e+01   -1.424308225488133e+02   
1.025500000000000e+10    -1.766528284144261e+01   -1.425085583224333e+02   
1.025600000000000e+10    -1.765837666186260e+01   -1.426168225764962e+02   
