#  HZ   S   RI   R     50.00 
! Rohde & Schwarz Vector Network Analyzer 
! Rohde-Schwarz,ZNB20-2Port,1311601062102128,3.60
! Created: UTC 4/29/2024, 2:51:30 PM
! freq[Hz]                re:S11                  im:S11                  re:S21                  im:S21                  re:S12                  im:S12                  re:S22                  im:S22
 1.000000000000000E5     9.963395592217138E-1    3.717566832819158E-3    5.155519454156175E-5    2.491282842279477E-5   -3.524472864310527E-5    1.668440414728641E-4    1.010529062813202      -1.116959940974149E-2
 1.007003988035892E7     9.978136645582246E-1   -1.377875365970138E-2    3.898280797725641E-6    1.822527866517497E-5    2.060504494033024E-5    1.413021210591059E-6    9.959181713594870E-1   -1.448920291341902E-2
 2.004007976071785E7     9.999610329410326E-1   -2.709222906276510E-2   -6.511271952354123E-7    2.253411360139529E-5    7.518500611140832E-6    2.376898203845657E-5    9.987864807696007E-1   -2.749751641696396E-2
 3.001011964107677E7     9.980740964483897E-1   -4.107027885282356E-2   -2.240759747195907E-6   -8.790265440355420E-6    1.583423111938713E-5    5.562054247746434E-8    9.975455075161133E-1   -4.204164140532068E-2
 3.998015952143569E7     9.977224232129032E-1   -5.318207274329279E-2    9.339519272686316E-6   -9.932515930647669E-6    8.754002143435141E-7   -1.071092200515578E-5    9.976351638869995E-1   -5.666743072921210E-2
 4.995019940179461E7     9.960978777718047E-1   -6.597677916055623E-2   -3.968219731706775E-6   -1.371829706102401E-6   -2.042599091434833E-7    1.441305146666230E-5    9.966825240830323E-1   -6.913789551398319E-2
 5.992023928215354E7     9.942735338325202E-1   -7.876613824628037E-2    7.662072625075803E-6    1.888134568471277E-5   -1.400088726821630E-5   -4.998793495195712E-6    9.947141386788115E-1   -8.197080986912673E-2
 6.989027916251247E7     9.932314500247549E-1   -9.177420083519539E-2    1.074805394798079E-5   -1.257794837012184E-5   -1.513224417141768E-5   -2.720631215544776E-6    9.933830828047866E-1   -9.467062227552528E-2
 7.986031904287139E7     9.926723366066029E-1   -1.052609588157027E-1    4.714337271367509E-6   -1.245822647185154E-5   -1.261766931107123E-5    4.177201044772423E-6    9.923254124484689E-1   -1.078504567135918E-1
 8.983035892323031E7     9.915611039662008E-1   -1.188533162715120E-1    1.357461110529828E-5    8.463127327326073E-7   -1.979381500216775E-5    3.784061314501630E-6    9.908051037316741E-1   -1.210878628018988E-1
 9.980039880358922E7     9.893749132829164E-1   -1.324420339624217E-1    1.038843171543295E-5    8.454618584096642E-7    2.860724171924677E-6   -4.014456014403877E-6    9.886918730954308E-1   -1.344248831740078E-1
 1.097704386839482E8     9.865672162085835E-1   -1.456005387248116E-1    5.437366110182556E-6   -6.432853783674566E-6   -9.466385277420987E-6   -2.275745255279386E-6    9.860023056438406E-1   -1.477320102508014E-1
 1.197404785643071E8     9.849771718920972E-1   -1.590012677249204E-1    1.530008046451164E-5   -5.339586361463513E-7    1.081634815401971E-5    8.036821773432501E-6    9.843451315521305E-1   -1.611667315822492E-1
 1.297105184446660E8     9.832967835519194E-1   -1.718140983331849E-1    1.183694260548908E-5   -8.987975783657383E-7    2.034014640405224E-6   -2.307750208790915E-6    9.827033288808807E-1   -1.744028976347033E-1
 1.396805583250249E8     9.817326305491696E-1   -1.847405626828408E-1   -5.470100699302187E-6    7.662662279393867E-7    2.059450374765834E-6    1.413436707881866E-5    9.810090195473142E-1   -1.875648496077369E-1
 1.496505982053838E8     9.790066394171235E-1   -1.971537326238989E-1   -3.318248985318884E-8   -7.912070253906355E-6   -7.145596251988392E-6    9.041950520303944E-6    9.785557501579198E-1   -2.002972393261623E-1
 1.596206380857428E8     9.762405827049569E-1   -2.095254583602409E-1    5.194654607046958E-6    1.381022180576264E-5    1.729853981981513E-6    4.097417139850610E-6    9.756116346688800E-1   -2.132824374050891E-1
 1.695906779661017E8     9.732912314784853E-1   -2.223771794759173E-1   -1.380294818165484E-6    1.508589859389580E-6    3.957908567862398E-6    3.873130822631329E-6    9.729058273677325E-1   -2.261467156833189E-1
 1.795607178464606E8     9.708900188505337E-1   -2.348148403025195E-1    8.634822307801964E-6   -4.619345778701861E-6   -5.013465691641933E-6   -1.089485044446748E-5    9.703813086206747E-1   -2.381235080101148E-1
 1.895307577268195E8     9.678575813186774E-1   -2.471007006268467E-1   -2.672036097626997E-6    1.295288742447648E-6    3.025640674801133E-6   -3.434323201235494E-6    9.668651675614427E-1   -2.505990813677518E-1
 1.995007976071784E8     9.638666005271069E-1   -2.595285571452844E-1   -2.119634412636667E-5    7.398717771623084E-6    7.616402532925217E-6   -4.892287118693364E-6    9.627203130601164E-1   -2.632937725525286E-1
 2.094708374875374E8     9.605232849443490E-1   -2.724262161970202E-1   -9.409472131361826E-7    8.951713505575794E-6    3.175612081885750E-6    1.863144119944850E-6    9.588323636843118E-1   -2.762241093725849E-1
 2.194408773678963E8     9.575172274279359E-1   -2.852250244493129E-1    9.024388636929525E-6   -2.172204485738855E-6   -7.468804676325844E-6   -4.696449706992752E-6    9.553570432712574E-1   -2.891729801375214E-1
 2.294109172482552E8     9.537986143104494E-1   -2.974862842421658E-1   -1.291788517457526E-5   -1.926955909656153E-6   -2.218728612091190E-5   -3.004531864482806E-6    9.511454586022093E-1   -3.018739385927832E-1
 2.393809571286142E8     9.506332501698916E-1   -3.095787976138008E-1   -6.390624947986247E-6   -7.131621861819505E-6    5.756220199331265E-6    1.908734544775349E-6    9.468918200871345E-1   -3.140094075358890E-1
 2.493509970089731E8     9.468903227269293E-1   -3.233542285931156E-1    6.957239295923432E-8   -1.346124877643550E-5   -8.072825291713319E-6    1.164055016240209E-5    9.440543572177958E-1   -3.276586678413014E-1
 2.593210368893320E8     9.427994637727068E-1   -3.353787651546324E-1   -1.308968891963727E-5    2.928835388080703E-6    7.474302245210929E-6   -1.907642218851912E-5    9.399636595596497E-1   -3.408815064236567E-1
 2.692910767696909E8     9.386469095451337E-1   -3.469358350594301E-1   -6.104175899742999E-7   -1.617284100649015E-5    6.018089614053326E-7   -9.489005641537158E-6    9.357083461386346E-1   -3.528365786597207E-1
 2.792611166500499E8     9.338648734847732E-1   -3.585570126891592E-1    1.095080340244755E-5    3.788848530192819E-6    2.147849793576474E-5   -8.919813236776278E-6    9.310099028447237E-1   -3.646338822443452E-1
 2.892311565304088E8     9.291187758901243E-1   -3.705452445941186E-1    1.092181713751754E-5    3.820078167810865E-6    2.986636995329437E-6    2.025306243383149E-5    9.261249221312856E-1   -3.768208108761747E-1
 2.992011964107677E8     9.241280267049716E-1   -3.827056084360085E-1   -2.453675715351976E-6    1.059206875510853E-5    2.586802727884051E-5    1.068630905949393E-5    9.213325543466926E-1   -3.887025802004738E-1
 3.091712362911266E8     9.189465983867203E-1   -3.950274401332142E-1    9.019863248271125E-6   -9.149434647006449E-6   -3.234794083136265E-6   -4.306741925093795E-6    9.157478799395569E-1   -4.001261502567905E-1
 3.191412761714855E8     9.133377232673228E-1   -4.074431222989116E-1   -3.182665967813060E-6   -1.241962424785220E-6   -1.242071405651716E-5   -7.602872368808904E-6    9.097799480246672E-1   -4.118278454907449E-1
 3.291113160518445E8     9.075493714902697E-1   -4.200323941087797E-1   -1.828600039617252E-6   -1.645391752466815E-6    1.117083475902292E-5   -8.158336247029256E-6    9.033611241088327E-1   -4.244016338827983E-1
 3.390813559322034E8     9.019813729339096E-1   -4.328319370221101E-1   -1.494916376599370E-5    3.514652917384409E-6    3.226456869813466E-6   -3.628794525741506E-6    8.968215331080959E-1   -4.369476704887821E-1
 3.490513958125623E8     8.968370285222356E-1   -4.454418277222443E-1    5.269170267811909E-6   -9.330070178178460E-6   -5.239796917296020E-6    3.198520681752167E-6    8.905902188306120E-1   -4.494589253723033E-1
 3.590214356929212E8     8.914131850830063E-1   -4.579257940909104E-1   -4.209178730910246E-6   -2.818703746582158E-6   -1.338928336373958E-5   -4.456332859342437E-6    8.846653570979068E-1   -4.622052604754435E-1
 3.689914755732802E8     8.859342112866343E-1   -4.701359858230340E-1    1.340473710447194E-6    4.080340002412529E-6   -1.309575200917174E-6   -2.381192268898729E-6    8.791057977230057E-1   -4.747462926460200E-1
 3.789615154536391E8     8.797777408076026E-1   -4.813219773314670E-1    2.840725056083562E-6   -5.052366877582936E-6    1.973480504021435E-5   -1.670702576409213E-5    8.738042292242091E-1   -4.867935271879035E-1
 3.889315553339980E8     8.742367423908461E-1   -4.921175881369607E-1   -1.719177744835681E-5   -2.762247889827918E-7    1.092314632107402E-5    8.412853560131023E-6    8.680001389058168E-1   -4.988096933216098E-1
 3.989015952143569E8     8.674171745030806E-1   -5.028158066915270E-1    1.634890123742993E-5   -6.291351860519047E-6   -8.010635370568691E-6    1.299829708493305E-6    8.612868634319901E-1   -5.097462014315571E-1
 4.088716350947158E8     8.602541048403044E-1   -5.136337279858824E-1    1.165591551904821E-5   -1.268961523721968E-6    1.384243150061456E-5   -8.866247431571188E-6    8.542789518429228E-1   -5.206938647362684E-1
 4.188416749750748E8     8.533142113293192E-1   -5.251575378555327E-1    6.353057480179851E-6    1.807359229685299E-6   -8.292802074078678E-6    1.470811746950727E-5    8.476663175422656E-1   -5.314508577754621E-1
 4.288117148554337E8     8.460949840553639E-1   -5.368602253132078E-1    7.632870758232645E-6    1.358193657507803E-6   -3.102853691488023E-7   -1.571976783392626E-6    8.406802607644726E-1   -5.418732592634617E-1
 4.387817547357926E8     8.382788654269394E-1   -5.482619930218530E-1    2.454422726268784E-6    1.929464743390559E-6    1.532841647512108E-6    1.288571440954064E-5    8.326688213316620E-1   -5.523901206168808E-1
 4.487517946161516E8     8.305540877426238E-1   -5.600857974340818E-1    1.840605171389104E-5   -1.634495638372634E-5    3.068970281446738E-6    8.803746733148748E-6    8.241825116330043E-1   -5.634265382907797E-1
 4.587218344965104E8     8.235918497107833E-1   -5.719887111077281E-1   -1.092443266605287E-6    7.947793303986165E-6    1.760370167135315E-5   -1.085901304096038E-5    8.159724194908063E-1   -5.752189544149636E-1
 4.686918743768694E8     8.169713871733248E-1   -5.833811050487151E-1   -1.101748804783552E-5    7.355210217059694E-6   -4.599734004746653E-6   -4.925834622963486E-6    8.079677675151585E-1   -5.869456318964460E-1
 4.786619142572283E8     8.097862227087844E-1   -5.942347935481957E-1   -7.366463880103921E-6    4.022606719053365E-6    1.586476174924339E-5   -1.588384757484927E-5    7.994217234698687E-1   -5.980713752299518E-1
 4.886319541375872E8     8.023051378556280E-1   -6.046838392023683E-1    4.957144457736677E-7    6.969453650953308E-6   -1.000908732057417E-5    5.246774117945451E-6    7.905016701096086E-1   -6.088522770791319E-1
 4.986019940179462E8     7.940604796195466E-1   -6.154523945286362E-1    3.475300771855110E-6    1.405049150286583E-5    8.758435453965504E-6    1.989574694889181E-6    7.822692484054700E-1   -6.196012096309577E-1
 5.085720338983051E8     7.857279864494756E-1   -6.245795632817556E-1   -7.387717414497023E-6   -9.203614897753774E-6    9.028229092308914E-6    1.055592291592437E-5    7.746905296972154E-1   -6.302951378795033E-1
 5.185420737786640E8     7.782854708460997E-1   -6.336224840174837E-1   -1.573526442552949E-6   -8.162587680538801E-6   -6.651890656517006E-6   -7.195813543666776E-6    7.671270369131948E-1   -6.402005642406050E-1
 5.285121136590229E8     7.699039923767422E-1   -6.430442170103021E-1   -8.174637103197337E-6   -7.782295836422070E-6   -1.393877612790196E-5   -2.509418391264698E-5    7.590469432174967E-1   -6.496952031550524E-1
 5.384821535393819E8     7.614784356496880E-1   -6.532310270273779E-1    1.348533657135145E-7   -9.652617364509109E-6   -6.865448411985618E-6   -7.700194264092913E-6    7.508672139054899E-1   -6.592229913056775E-1
 5.484521934197408E8     7.533385282416291E-1   -6.637505596607417E-1   -1.390834218325231E-6    9.804871168433222E-6    3.901716340119154E-6   -5.793653135949095E-7    7.423818918665341E-1   -6.691675078493942E-1
 5.584222333000997E8     7.447648013491605E-1   -6.747212244818014E-1   -4.107729226258718E-6   -1.042171188549073E-6   -1.550765400481308E-6    5.679585446673997E-6    7.334582157397376E-1   -6.793157593961928E-1
 5.683922731804587E8     7.355454011784914E-1   -6.851950594482608E-1    3.654322279097529E-6    9.009720003827289E-6   -1.429878754586478E-5   -3.515514428155003E-6    7.232275821757095E-1   -6.892242730112839E-1
 5.783623130608176E8     7.263831664546520E-1   -6.951265965925605E-1    1.370397891540490E-5    1.992698454460667E-6    1.621411711307230E-5   -3.075919209965553E-6    7.126611624574898E-1   -6.989443789053355E-1
 5.883323529411764E8     7.172162210986333E-1   -7.051778985740731E-1    4.889775715310545E-6    2.402367782444915E-6   -2.678390085028081E-5   -2.039674936170287E-6    7.020772955132526E-1   -7.088308067342488E-1
 5.983023928215353E8     7.078560880022513E-1   -7.151800787436348E-1    1.849243090318716E-7   -8.387137010528824E-6    4.747888194618638E-6    1.607872703914468E-5    6.919512440880429E-1   -7.183913954575939E-1
 6.082724327018943E8     6.984477791539041E-1   -7.249643269569603E-1   -3.707841783598833E-6    1.879844728895761E-5   -1.272945580342980E-5    1.233740448296896E-6    6.817364168466732E-1   -7.278848960986462E-1
 6.182424725822532E8     6.885736987916502E-1   -7.346905118882566E-1   -5.817522523381960E-6   -9.769376820862429E-6   -4.399980017895979E-6    2.186782071127580E-6    6.717348601335394E-1   -7.372121957263665E-1
 6.282125124626122E8     6.780792809781787E-1   -7.439539631814919E-1    6.226448098523351E-6   -1.395259528111709E-5   -1.200880468643620E-5   -1.038530004665080E-5    6.626685472401971E-1   -7.467899914489147E-1
 6.381825523429711E8     6.684406779126201E-1   -7.512359945363151E-1   -2.777498162666391E-6    7.675723046195969E-6   -5.867864975457504E-6    1.038286399784345E-5    6.538411519367897E-1   -7.557585182607368E-1
 6.481525922233300E8     6.593813809823057E-1   -7.596839388064265E-1    3.983564208294914E-6    1.563249980798242E-5    5.494576697644418E-6    2.151702469822646E-5    6.446709278825908E-1   -7.641732719326353E-1
 6.581226321036890E8     6.496875411331887E-1   -7.685750144163448E-1   -4.211483148153800E-6    8.426903096935064E-6    2.126442101955742E-5    6.477653141547386E-6    6.346777205029299E-1   -7.724581223928381E-1
 6.680926719840479E8     6.397290153470416E-1   -7.772201525507195E-1    1.092673290098371E-5    8.658821601125213E-6   -3.673710474546673E-6   -6.536421216267967E-7    6.239986560415675E-1   -7.804977868228328E-1
 6.780627118644068E8     6.299711488172614E-1   -7.854579485591361E-1   -7.777239885695442E-6    6.194268096165386E-6   -1.010470240734326E-5   -5.132438080172641E-6    6.129793922189807E-1   -7.884708944693046E-1
 6.880327517447658E8     6.195729028251027E-1   -7.937518933904265E-1    1.661675275026979E-5    3.611394941143290E-6   -9.096106728002633E-6   -6.646642843781691E-7    6.016926087592012E-1   -7.959457977092900E-1
 6.980027916251246E8     6.086891512736112E-1   -8.018903559514657E-1   -6.723305560910732E-6   -6.382906684361546E-6   -6.903949792777548E-6    1.979595687568516E-5    5.900244642299725E-1   -8.036810028470376E-1
 7.079728315054835E8     5.972056307623057E-1   -8.102290796069311E-1    9.625766589120426E-6    8.812597022212649E-6    8.045543606213592E-6    5.531654813903386E-6    5.786054523673817E-1   -8.115868550821058E-1
 7.179428713858424E8     5.861166814080887E-1   -8.187725672535389E-1   -1.551556192430554E-5    4.058932628341422E-6    3.443666740542923E-6    3.911984124683893E-6    5.673070771844058E-1   -8.203088583124690E-1
 7.279129112662014E8     5.752096700278104E-1   -8.273493579928156E-1   -2.000170753574446E-5   -4.005581279373371E-6   -2.311385583155942E-5   -1.801455320193048E-5    5.559435845741524E-1   -8.288571880689150E-1
 7.378829511465603E8     5.638349161888155E-1   -8.361016039154548E-1   -7.802707471672014E-6   -9.020113058539788E-6   -1.257079433833461E-5    5.401860863324220E-6    5.446241809513475E-1   -8.371795017145787E-1
 7.478529910269192E8     5.517658718861083E-1   -8.444533221242135E-1   -3.270466459714800E-6    7.512305886642002E-6   -9.536228435012593E-8    7.418534079081385E-6    5.334227806630683E-1   -8.450016926521263E-1
 7.578230309072782E8     5.391727882145450E-1   -8.516190238541993E-1   -1.760274747760425E-6   -1.928881241905504E-6    5.670028173879932E-8   -2.115856761802225E-6    5.223404100343040E-1   -8.518936786028751E-1
 7.677930707876371E8     5.288370260111644E-1   -8.571128856572355E-1   -2.116133028020542E-5    2.155387122611637E-6   -3.528597225744956E-6   -1.338293838014828E-5    5.110915833849129E-1   -8.583243130228370E-1
 7.777631106679960E8     5.192839026491937E-1   -8.641084872257458E-1    2.758761235156880E-7    8.053606750519799E-6   -3.070274782578753E-6    7.809984438059776E-6    4.995311716525159E-1   -8.647984029317596E-1
 7.877331505483550E8     5.088972992744861E-1   -8.708789293094744E-1    7.101240358880037E-6   -3.113239995685719E-6    1.056072390124165E-6    1.971214232394671E-6    4.877100362992228E-1   -8.715592672689129E-1
 7.977031904287138E8     4.976092655398037E-1   -8.773272204946246E-1    9.761188794620232E-6    1.752973512114110E-5    4.764064822492453E-6   -5.927706496791415E-6    4.749850241068851E-1   -8.779849114943015E-1
 8.076732303090727E8     4.858441149105406E-1   -8.830640316871227E-1   -5.921160004753437E-7    4.482633992105010E-6    2.481957953514805E-6    8.067427522309025E-6    4.620867256207181E-1   -8.841098442097436E-1
 8.176432701894317E8     4.738252907044021E-1   -8.892280835839749E-1   -8.227323813633697E-6   -1.991469535540585E-6   -7.364731170819185E-6   -6.222776973056607E-6    4.492216200637320E-1   -8.903905713828741E-1
 8.276133100697906E8     4.615104088559833E-1   -8.956810743711774E-1   -4.006292244011528E-6    1.377854772397250E-5    2.323676470048533E-6    3.465925516774814E-6    4.366469740313607E-1   -8.970697534236942E-1
 8.375833499501495E8     4.489267247736835E-1   -9.020037233073598E-1    7.447396048860256E-6    6.750259855997675E-6   -2.531846514529319E-6   -1.168975222988875E-5    4.245058875860727E-1   -9.039132309494329E-1
 8.475533898305085E8     4.361164061592497E-1   -9.084844198728159E-1    5.135191139277057E-6    2.550346521276316E-7   -1.395821365167756E-5   -4.858863817260369E-6    4.125538843261212E-1   -9.098590585650865E-1
 8.575234297108674E8     4.232860605919016E-1   -9.147934807094754E-1   -6.987934005112915E-6   -6.774416349408870E-6   -1.264200910819074E-5    1.109177289435812E-6    4.008325318782746E-1   -9.152381810898540E-1
 8.674934695912263E8     4.104604955343640E-1   -9.214242484838649E-1    5.695395692385993E-6    1.681958469490606E-5   -5.724883570401852E-6   -9.398429197067921E-6    3.888164767062330E-1   -9.201057034979493E-1
 8.774635094715853E8     3.974763629480065E-1   -9.280994328625949E-1   -2.975207996009931E-6   -2.589311457553486E-6   -6.071831449253270E-6   -2.079902228538285E-7    3.761733798045793E-1   -9.246286881756463E-1
 8.874335493519442E8     3.844082406505913E-1   -9.327701021826046E-1    1.112239554829642E-6   -1.918379427614730E-7   -7.336891926542418E-7   -1.258206443964861E-6    3.631408661572479E-1   -9.290764489371076E-1
 8.974035892323031E8     3.730309751306266E-1   -9.363059734752734E-1   -1.096644270133636E-5    3.436177798651181E-6    7.559915901026989E-7   -4.817580201259728E-6    3.495953196761917E-1   -9.334504279040473E-1
