#  HZ   S   RI   R     50.00 
! Rohde & Schwarz Vector Network Analyzer 
! Rohde-Schwarz,ZNB20-2Port,1311601062102128,3.60
! Created: UTC 4/29/2024, 2:51:26 PM
! freq[Hz]                re:S11                  im:S11                  re:S21                  im:S21                  re:S12                  im:S12                  re:S22                  im:S22
 1.000000000000000E5     9.962268508780442E-1    3.552857829436562E-3    1.004322215094347E-4   -9.125118605384800E-5   -6.175167169051912E-5   -2.933303403698307E-5    1.010377373236450      -1.130607712408110E-2
 1.007003988035892E7     9.977637398226200E-1   -1.392389428570118E-2    1.145529127242339E-5    1.028309072967377E-5   -1.887902746399853E-5   -9.473099532324818E-6    9.956713876687805E-1   -1.455958633401873E-2
 2.004007976071785E7     9.998395400665526E-1   -2.701591347168439E-2    1.969414247081914E-5   -1.455081101216373E-6    1.044725729903240E-5   -3.584499066146260E-6    9.987427517264563E-1   -2.767677556056722E-2
 3.001011964107677E7     9.979869667685602E-1   -4.109239343169605E-2   -7.882045901555955E-7   -4.033386197773448E-7   -7.975207877993377E-6    1.131327178777826E-5    9.974554678076433E-1   -4.185288511392850E-2
 3.998015952143569E7     9.976299990948925E-1   -5.310449776237017E-2   -6.692905934078902E-6    4.945860855933889E-6    1.027572317428238E-5    9.216286793899084E-6    9.976053282191039E-1   -5.669130141890728E-2
 4.995019940179461E7     9.959131517104627E-1   -6.599727512511722E-2    6.861488683616809E-6   -1.305454317168424E-5   -1.670730186845767E-5   -6.415647711230384E-6    9.966650677964454E-1   -6.908818966432456E-2
 5.992023928215354E7     9.940949669516630E-1   -7.886528693334272E-2    7.326609587276987E-6   -8.758482200164360E-6    4.039446597898825E-7    1.838759136710479E-5    9.946337496324047E-1   -8.182925290859895E-2
 6.989027916251247E7     9.929879398651230E-1   -9.189400078576869E-2   -7.632215081614613E-7   -5.918114394520357E-6   -1.192624934573995E-5    1.788812855050406E-6    9.934585188741726E-1   -9.467994627449125E-2
 7.986031904287139E7     9.925618807372749E-1   -1.052118370517662E-1    5.953703599042398E-6    1.738377442426644E-5    8.538056579758597E-6   -1.136651258741451E-5    9.923939650541075E-1   -1.079013386319906E-1
 8.983035892323031E7     9.914895430569304E-1   -1.187743229129461E-1    3.287213110625719E-6   -2.976693739132858E-6    3.120003013189142E-6    2.712615377519887E-6    9.907999044589085E-1   -1.210708200731353E-1
 9.980039880358922E7     9.891338704451490E-1   -1.323617756301564E-1   -2.007662677574484E-6   -9.204467725982733E-6   -1.122334495795410E-6   -7.892088434746403E-6    9.886379755745690E-1   -1.345063079401530E-1
 1.097704386839482E8     9.864744152313034E-1   -1.455199907840523E-1    1.291445570616433E-5    1.336221548087764E-5    1.261115202020201E-5   -4.716593593104370E-6    9.862345977278343E-1   -1.476441716815422E-1
 1.197404785643071E8     9.848073347546420E-1   -1.589619198734145E-1   -8.385024914625723E-6    2.501323350645275E-5   -2.284069526086801E-6   -1.008534482629383E-6    9.842699697232914E-1   -1.611086725879458E-1
 1.297105184446660E8     9.830680522717176E-1   -1.718211608486881E-1   -1.158429316836314E-5    7.174582721482854E-6    3.061343614141827E-6   -4.351539228124117E-6    9.828034695226995E-1   -1.744060438076542E-1
 1.396805583250249E8     9.816655333430943E-1   -1.847080648193578E-1    2.056728949145204E-6    3.348826226402273E-6    9.555151690409363E-6   -3.850685044178670E-6    9.808696254808558E-1   -1.874951594210700E-1
 1.496505982053838E8     9.790193323145338E-1   -1.971923193636749E-1   -3.045931636808381E-6   -1.449600182812886E-7   -6.682423704828916E-6    2.144772079219937E-5    9.786485792868552E-1   -2.004434221861043E-1
 1.596206380857428E8     9.761126250020711E-1   -2.094660771149837E-1   -3.541772709250365E-7    6.037480912329042E-7    1.764597194160649E-6   -3.031631624504953E-7    9.757867642041880E-1   -2.131952028439705E-1
 1.695906779661017E8     9.731695179378006E-1   -2.223505199189859E-1    6.025193069413782E-6    9.398827875612216E-6    2.319087500706069E-5   -6.792146898507462E-6    9.726324752974821E-1   -2.260904864347072E-1
 1.795607178464606E8     9.707952230107393E-1   -2.347980177335320E-1    1.763548033313204E-7    9.189565613910122E-6    5.902332133716543E-6    1.232036962335170E-5    9.701935156865592E-1   -2.381220945585273E-1
 1.895307577268195E8     9.676390098702853E-1   -2.470831732692667E-1    6.952046966063242E-6    9.956995641280949E-6    1.659611654363025E-5   -1.357976291816809E-5    9.668006396629559E-1   -2.504846516589356E-1
 1.995007976071784E8     9.638013055285326E-1   -2.595318077616253E-1    8.625366887413751E-6   -4.491997539318071E-6   -1.265636574320688E-5   -2.632072150233431E-6    9.627927475880041E-1   -2.631627466799011E-1
 2.094708374875374E8     9.603925363718558E-1   -2.724098652222989E-1   -6.455936318930067E-6    5.349945245878960E-6    1.338300559296401E-5    1.318508100636557E-5    9.589038019549762E-1   -2.762223018197894E-1
 2.194408773678963E8     9.572833473034335E-1   -2.851882165082753E-1   -1.987073601188365E-6   -3.997152663230441E-6   -1.643572502407927E-5    1.011746052320471E-5    9.551072199813616E-1   -2.890643309995066E-1
 2.294109172482552E8     9.537003206241308E-1   -2.975621351405549E-1   -7.880714310375814E-6   -8.909414612344371E-6   -1.639612779975197E-6    6.602968346914999E-6    9.510886929097665E-1   -3.018149374131765E-1
 2.393809571286142E8     9.506385138357861E-1   -3.094958752585547E-1    5.787263321305033E-6    1.817926824717598E-6   -9.380822715960781E-6    6.310765764236180E-6    9.470251587583375E-1   -3.139800287128912E-1
 2.493509970089731E8     9.468979271254823E-1   -3.233188601290355E-1   -3.201744721220850E-6    2.392942020802648E-5    8.094198094439741E-6   -4.331175146911674E-6    9.440765372629123E-1   -3.276062342796894E-1
 2.593210368893320E8     9.427174988589385E-1   -3.354140217425969E-1   -4.653755461490880E-6   -7.127783006735059E-6   -1.325807246044158E-5    2.132071419874439E-5    9.398953170409325E-1   -3.408156563483468E-1
 2.692910767696909E8     9.384989540030819E-1   -3.468349209730829E-1   -1.007614149431669E-5   -5.521955218662295E-6   -2.025874071532986E-5    1.830467934746347E-5    9.356299541734622E-1   -3.528314820688854E-1
 2.792611166500499E8     9.338127561391110E-1   -3.585540066194333E-1    9.795426085488581E-6    1.848841569243395E-5    1.181054566395453E-5    8.271062660880693E-6    9.309022217123663E-1   -3.645693694117176E-1
 2.892311565304088E8     9.288807121599053E-1   -3.704870096237478E-1   -2.109787622420187E-5   -2.822862260639678E-6    8.148585231477451E-6   -9.583270749902625E-6    9.260456659841554E-1   -3.768095553283060E-1
 2.992011964107677E8     9.241007982085216E-1   -3.827071801640869E-1   -9.930772547124867E-6   -9.079306515639500E-6    1.634821195334154E-6   -1.272490500053739E-5    9.212398694940879E-1   -3.886945074470395E-1
 3.091712362911266E8     9.188094482235289E-1   -3.950355502334029E-1    7.735234116649393E-6    1.236282987769061E-5    9.090618641249515E-6    4.568179770837982E-6    9.157946048854053E-1   -4.001623531796721E-1
 3.191412761714855E8     9.132437687805792E-1   -4.073830925222918E-1    1.659833584608773E-5    1.269263092575255E-5   -4.518542229837837E-7    1.541089140411028E-5    9.098515700342908E-1   -4.119204302277443E-1
 3.291113160518445E8     9.076120608037418E-1   -4.200616215445666E-1    2.736311615035768E-6   -4.339931794207473E-6   -1.209393933377182E-6   -2.960841734022337E-5    9.033784129020042E-1   -4.243155202061141E-1
 3.390813559322034E8     9.019037132303611E-1   -4.328195848849842E-1    1.234494991546480E-6    1.724339099257355E-6   -3.098793205451930E-6    1.148191350069632E-5    8.968777709691358E-1   -4.369379206227383E-1
 3.490513958125623E8     8.966888282519888E-1   -4.453765663880543E-1    4.728475341149357E-6   -1.887357402384231E-6    1.059538662441583E-5   -4.249032744879576E-6    8.904859569193152E-1   -4.494432350226801E-1
 3.590214356929212E8     8.911974630769699E-1   -4.578613632167128E-1    7.716985009641342E-6   -5.980515176767988E-6   -1.036596957185902E-5    2.315473171521077E-7    8.846230875021951E-1   -4.621841717920862E-1
 3.689914755732802E8     8.859307237783569E-1   -4.701025415933504E-1   -6.494543744872396E-6    1.468866890141403E-6   -1.270026175340649E-6   -3.844288057998739E-6    8.790859680564717E-1   -4.747452015630048E-1
 3.789615154536391E8     8.798681199452875E-1   -4.813747505822805E-1   -1.045926745908437E-5    2.535442951244100E-6    8.045988526084868E-6    8.510006448082060E-6    8.738751684523884E-1   -4.867159728844523E-1
 3.889315553339980E8     8.740864694643308E-1   -4.920658530625946E-1   -1.506433067261181E-5   -4.853782820458371E-6    4.114436386270350E-6   -6.513512694596006E-6    8.679628050161465E-1   -4.988112027807657E-1
 3.989015952143569E8     8.673534980006111E-1   -5.027733526409023E-1    1.976796518781473E-6    5.275000901494999E-6    5.465324265157528E-6   -1.221978716419514E-5    8.612044318662384E-1   -5.097825114736605E-1
 4.088716350947158E8     8.601667316864147E-1   -5.136030844562519E-1   -1.469914155293703E-5    6.289736370543350E-6   -1.498366071343289E-5   -8.771476478832628E-6    8.543454268543291E-1   -5.207132047020552E-1
 4.188416749750748E8     8.532198693417840E-1   -5.250847171412421E-1    3.586934560795500E-6   -3.007693130840282E-6    2.127409841960732E-5   -8.656913324737189E-6    8.475603630483951E-1   -5.313907137700169E-1
 4.288117148554337E8     8.460005675823382E-1   -5.368294359552880E-1   -7.323258877996662E-6   -1.668403708360348E-5   -1.852484085328270E-6    1.496104886587002E-5    8.405785622352261E-1   -5.418417712108669E-1
 4.387817547357926E8     8.381587650718170E-1   -5.481893265482656E-1   -6.955815772183689E-6    5.298425267072024E-6    4.607623838449819E-6    1.154961702299136E-6    8.326552514832194E-1   -5.523433290030394E-1
 4.487517946161516E8     8.305136407616021E-1   -5.599971569207419E-1   -1.168594390752907E-5   -1.609709608271492E-5    5.723126359838467E-7    1.290693386199121E-5    8.242455664555692E-1   -5.635376007154793E-1
 4.587218344965104E8     8.235551948835463E-1   -5.719789542853966E-1    6.456250443748410E-6   -1.561224449236462E-6    1.175098023174993E-6    2.277177271186407E-6    8.160643773710832E-1   -5.753389664339503E-1
 4.686918743768694E8     8.169263044286806E-1   -5.833886732862874E-1   -1.005824271306779E-6   -3.292802254563595E-6   -7.499584401495993E-6   -2.553371138773783E-6    8.078734815915052E-1   -5.867667290585017E-1
 4.786619142572283E8     8.097910329597084E-1   -5.941964589093831E-1   -9.840564527944479E-6   -9.495178284459430E-6   -5.534251726690839E-6   -6.897425567990029E-6    7.992805166898866E-1   -5.980332519169526E-1
 4.886319541375872E8     8.022428259561081E-1   -6.046194939452790E-1    1.409525662515849E-5   -3.351307489062293E-6   -4.750218271142143E-6   -6.213675816840654E-6    7.907017346132638E-1   -6.090305380623475E-1
 4.986019940179462E8     7.940616194580167E-1   -6.154620180819713E-1    8.404124113942139E-6   -1.412104271050094E-5   -2.068726494490345E-5   -2.504037614201351E-5    7.823529027945672E-1   -6.197532951229694E-1
 5.085720338983051E8     7.856418929098122E-1   -6.246033102427340E-1    1.710964433961008E-6    9.411053839390877E-6   -1.688773814536317E-5    1.297606189996925E-5    7.745997871644322E-1   -6.302450602471469E-1
 5.185420737786640E8     7.782724279415824E-1   -6.336233197585920E-1   -2.060032426669136E-6   -4.898287363811112E-6   -1.619526273413177E-5    1.164498519836833E-5    7.669779119416862E-1   -6.400625759368933E-1
 5.285121136590229E8     7.699715316208916E-1   -6.431095623520954E-1    7.602304875516797E-6    5.764370035390690E-6    4.152493384471050E-6    2.330909947488381E-6    7.590724515172246E-1   -6.497990806875253E-1
 5.384821535393819E8     7.613575009860778E-1   -6.531271281200370E-1   -1.630777700554533E-6   -5.751011193023558E-6   -2.439248279734913E-7    6.765039182918332E-6    7.508862921505477E-1   -6.593553131619753E-1
 5.484521934197408E8     7.531513420247760E-1   -6.637002086168958E-1    4.605444626992693E-7    3.446775892971943E-8   -2.300696817193345E-6    1.112366517376490E-6    7.424710338114869E-1   -6.692508828685777E-1
 5.584222333000997E8     7.447189207117573E-1   -6.746254847880998E-1    2.311472692523230E-6    6.807057673847525E-7   -2.343132218959225E-6    2.293775125824341E-6    7.333624857168323E-1   -6.792331145812814E-1
 5.683922731804587E8     7.355893481075968E-1   -6.851529080386561E-1    2.420973538633375E-6    1.422327697555797E-5    1.499169715639706E-5   -8.952613312500129E-6    7.232529348953040E-1   -6.891740876818032E-1
 5.783623130608176E8     7.262593748889703E-1   -6.950755122018782E-1    4.334029561822175E-6   -8.328270700062210E-6   -1.584116500172145E-5    7.366146711442593E-7    7.125793008706000E-1   -6.989349758404884E-1
 5.883323529411764E8     7.169734379396655E-1   -7.051023026359754E-1    5.019450816670766E-6   -2.679734384735872E-6    4.293559344401368E-6   -7.081603144821567E-6    7.022225136205871E-1   -7.087676552115018E-1
 5.983023928215353E8     7.078243806670924E-1   -7.152169766451274E-1   -1.205861728144077E-6    3.719579884011841E-6   -1.102023645155515E-5    3.352300415702660E-6    6.918773147817807E-1   -7.182613988364008E-1
 6.082724327018943E8     6.983668871391324E-1   -7.249730705906471E-1   -9.362841674791855E-6    1.655935802578233E-5    8.441849900503679E-6    8.021702943687520E-6    6.817601116103321E-1   -7.278231161003527E-1
 6.182424725822532E8     6.884791126690987E-1   -7.346976866028303E-1    3.332211806328539E-7    1.382006703836475E-5    4.379506179180812E-6    1.710167859651587E-6    6.717527011889162E-1   -7.372576513638962E-1
 6.282125124626122E8     6.779956253537027E-1   -7.440129869980429E-1   -3.524351896338495E-6    3.815864955579882E-6   -1.032384376681416E-5   -1.914465434616941E-5    6.628112434086924E-1   -7.468043640355277E-1
 6.381825523429711E8     6.682693592969472E-1   -7.511166936890703E-1   -6.389295148066567E-6    1.560666119327137E-5    6.823230270180042E-6   -1.326015014394768E-5    6.537626832311092E-1   -7.556557933655356E-1
 6.481525922233300E8     6.593091490675225E-1   -7.596412004766477E-1    8.987128043480675E-6   -6.306099169424565E-6    1.111606261637917E-6   -5.205323117606481E-6    6.446893311584883E-1   -7.641173637285242E-1
 6.581226321036890E8     6.496526901892543E-1   -7.686069781201266E-1    2.023453271108404E-6    3.285274793300850E-6   -6.834036142154850E-8    6.732719118023360E-6    6.345732419503020E-1   -7.724279128283572E-1
 6.680926719840479E8     6.397637470840076E-1   -7.773056126802448E-1    1.148837247494287E-6    3.864106157604333E-6   -3.264950995154888E-7    1.536250304876264E-5    6.239265104605943E-1   -7.805145199698899E-1
 6.780627118644068E8     6.298974928401635E-1   -7.854103636990498E-1   -2.863997807734483E-6    7.080609830340657E-6    1.097331828743154E-5    1.670546404752453E-5    6.128728886777717E-1   -7.884390430273416E-1
 6.880327517447658E8     6.196125630030807E-1   -7.937104630158468E-1    4.991633432373728E-6   -1.435575297180690E-5   -1.548617617670602E-6    2.292696000035112E-5    6.016700755511966E-1   -7.961009930598210E-1
 6.980027916251246E8     6.086582600930410E-1   -8.018632042464391E-1   -1.419575862824432E-6    4.516705809279094E-7    9.468411080033615E-6   -6.433407989927544E-6    5.900920883256341E-1   -8.035910204733554E-1
 7.079728315054835E8     5.972933164081903E-1   -8.103944113139950E-1   -1.069771904678023E-5   -2.660320360184681E-6    4.926966114044793E-6   -1.111088085197106E-5    5.784426655934526E-1   -8.115751306787309E-1
 7.179428713858424E8     5.861879774307605E-1   -8.187811872643392E-1   -1.434249321165677E-5    6.293042885692989E-6   -1.506150021453570E-5   -1.388016200090629E-5    5.672695922490574E-1   -8.201617744914949E-1
 7.279129112662014E8     5.751340274562987E-1   -8.271619949804088E-1   -1.144093415317605E-5    1.914837894447773E-6   -2.523396426803090E-6   -1.395042364606906E-5    5.560388849230684E-1   -8.290427941849853E-1
 7.378829511465603E8     5.637930298245595E-1   -8.359889317445137E-1   -7.932753509881135E-6   -1.209205873008974E-5    2.415270544908136E-7   -9.659146688775095E-6    5.445903790760989E-1   -8.373651813268017E-1
 7.478529910269192E8     5.518944098401246E-1   -8.445965786696572E-1   -1.154934224085938E-5   -1.647792107676122E-6    5.771873446847398E-6    8.706305654618333E-6    5.334867185749059E-1   -8.449833793139001E-1
 7.578230309072782E8     5.392625177530841E-1   -8.517075382569584E-1   -5.986180104285765E-6    1.295045035332760E-5    1.405949670439517E-6   -4.812815270548006E-6    5.223063449139321E-1   -8.519275817449858E-1
 7.677930707876371E8     5.288088475732746E-1   -8.570963443935824E-1   -6.069825775630906E-6    4.868266884971810E-6    8.481468139930008E-6   -5.221097251391529E-6    5.109676645533917E-1   -8.583491974753047E-1
 7.777631106679960E8     5.191751613877540E-1   -8.639732560107625E-1   -3.108581825891521E-6    3.895606832277753E-6   -2.428305911483384E-6    1.492161355792151E-5    4.995413194099461E-1   -8.648695561174077E-1
 7.877331505483550E8     5.088861187115215E-1   -8.708375890112202E-1    1.077644551336575E-7   -1.280020434816838E-6   -3.422169463180287E-6   -1.623645659284287E-6    4.876415770977890E-1   -8.713926318786035E-1
 7.977031904287138E8     4.976651741153390E-1   -8.773839375820972E-1   -1.128545162021688E-5   -6.808943189196526E-6   -1.403232418390568E-5   -3.945698673439326E-6    4.749948532564787E-1   -8.779189641749180E-1
 8.076732303090727E8     4.859265461724209E-1   -8.832697056741224E-1    6.805459429145539E-6   -3.244959008889679E-6    2.433223931336484E-6    9.386262892607988E-6    4.621195904441765E-1   -8.839189261057736E-1
 8.176432701894317E8     4.739004093385976E-1   -8.892168549731911E-1    5.392196250185398E-6    5.411214112317737E-6    7.391804031374592E-6    2.291677755793117E-6    4.491977099263710E-1   -8.903705475427022E-1
 8.276133100697906E8     4.615784172570743E-1   -8.956781293292226E-1    4.586940036439009E-6    1.054386180838222E-5   -3.148501946005301E-6   -1.014439344596133E-5    4.366238501141829E-1   -8.972001516290252E-1
 8.375833499501495E8     4.489161654183670E-1   -9.020602238711488E-1   -6.656426709643714E-6   -7.122351292458264E-6    7.245241782410393E-6   -5.989378110095994E-6    4.244707052460736E-1   -9.037306459183725E-1
 8.475533898305085E8     4.360610647646913E-1   -9.084621592905520E-1    4.296573228731675E-6   -4.710211884385084E-6    4.711366237886591E-6    2.691214088148595E-6    4.125825234797090E-1   -9.097713206658812E-1
 8.575234297108674E8     4.233542088299687E-1   -9.148367148293302E-1   -5.135675128629428E-6   -5.332012657569897E-6   -5.834895429034856E-6   -5.822797439579825E-6    4.008019704430113E-1   -9.150440512666640E-1
 8.674934695912263E8     4.105147003939740E-1   -9.214980568886536E-1    9.534729572611031E-7   -2.987711434234903E-6    1.648929812476511E-7   -2.144868551287352E-6    3.888500383967369E-1   -9.200259125063908E-1
 8.774635094715853E8     3.974274793504387E-1   -9.280599887519729E-1   -9.401903718646109E-6   -4.677060090303918E-6    2.362182138851739E-6    4.008125376501947E-6    3.761996694154787E-1   -9.247034399007881E-1
 8.874335493519442E8     3.843559531467726E-1   -9.326866262346863E-1   -1.764347004653807E-5   -1.864095868357728E-6   -3.431907327311057E-6    2.036509934943804E-6    3.630865512512695E-1   -9.291505053837927E-1
 8.974035892323031E8     3.730242835492883E-1   -9.362276938188161E-1    2.617999835809592E-6   -1.468885718309564E-5    7.485997742978941E-7   -6.028545261964880E-6    3.496227211590812E-1   -9.333985295939979E-1
