#  HZ   S   RI   R     50.00 
! Rohde & Schwarz Vector Network Analyzer 
! Rohde-Schwarz,ZNB20-2Port,1311601062102128,3.60
! Created: UTC 4/29/2024, 2:51:17 PM
! freq[Hz]                re:S11                  im:S11                  re:S21                  im:S21                  re:S12                  im:S12                  re:S22                  im:S22
 1.000000000000000E5     9.958089498139966E-1    3.927851956595268E-3    2.398386713704472E-5    6.098236808670857E-5   -1.928522884319691E-5   -7.904327180539916E-5    1.010529211940981      -1.144894406338451E-2
 1.007003988035892E7     9.981624791529398E-1   -1.385415373399055E-2    1.275111423966609E-5    1.562223285412128E-5   -1.051243303320639E-5   -6.335438153749696E-6    9.959104003248321E-1   -1.451917443441991E-2
 2.004007976071785E7     9.998926628154295E-1   -2.712209449131244E-2    1.323365859979131E-5    1.040944929969151E-6   -1.185620676640987E-5    1.504188893686408E-5    9.988087985689639E-1   -2.771149478246981E-2
 3.001011964107677E7     9.982882607282235E-1   -4.097869944558249E-2    1.714886073401901E-5   -4.337105828324965E-6    1.207919814400775E-5   -2.569065361297358E-5    9.975066824370795E-1   -4.194273225764712E-2
 3.998015952143569E7     9.976382671208023E-1   -5.316738405225484E-2   -1.582669634831288E-6   -2.487764108765735E-6   -8.510890278538646E-6    1.711938891209604E-5    9.976851797234763E-1   -5.671912851499565E-2
 4.995019940179461E7     9.958418704077826E-1   -6.602177718644160E-2   -1.107428783761967E-5   -1.077375002846731E-5   -9.874158983484191E-6    2.109329848156547E-5    9.965091022645560E-1   -6.910065868246035E-2
 5.992023928215354E7     9.939778721569369E-1   -7.877367895032195E-2    5.559384086072474E-6   -3.730388283396112E-6   -1.259837099305286E-5   -9.717540674949430E-6    9.945896321955642E-1   -8.203211309030829E-2
 6.989027916251247E7     9.931919421911976E-1   -9.181319648718281E-2   -6.576595414203681E-6    1.696767813384394E-6    6.747731326447165E-6   -1.124416647994998E-5    9.934854717878382E-1   -9.469600690304389E-2
 7.986031904287139E7     9.929142841260435E-1   -1.052421714565457E-1   -3.331007339772117E-6   -2.503925185701519E-6    5.748525711216042E-6    1.290400725122893E-5    9.924628976657968E-1   -1.078679635773826E-1
 8.983035892323031E7     9.917084851267768E-1   -1.188377133910274E-1   -3.879213540804490E-6   -2.619645282608799E-7    1.187649709561998E-5    2.165998355608300E-5    9.907475090808783E-1   -1.210019352890297E-1
 9.980039880358922E7     9.894022943701520E-1   -1.323720031240323E-1    2.121076719787051E-5    7.208722950613882E-6    1.712381794064404E-5   -5.949442830154927E-7    9.886212847660832E-1   -1.345009630764404E-1
 1.097704386839482E8     9.863648150033572E-1   -1.454522178525174E-1   -6.970550511174782E-7   -1.081148279601132E-5    9.345193076945510E-6    6.068380777332132E-6    9.860791918919466E-1   -1.477335448943606E-1
 1.197404785643071E8     9.848194603634671E-1   -1.590523538690076E-1    1.069410348961692E-6    6.776279897707809E-6   -3.579808929802312E-6   -4.435053310003084E-6    9.843171026454264E-1   -1.610128873398049E-1
 1.297105184446660E8     9.830594872302826E-1   -1.718146625565254E-1    5.796666671534012E-6    7.901653418436418E-6    9.051252362688201E-6    5.928076506797059E-6    9.828701123121613E-1   -1.744341340733464E-1
 1.396805583250249E8     9.817525910052227E-1   -1.847469473145855E-1   -1.944749133479674E-7   -5.366176786335122E-6   -2.185207782453487E-6    1.887538287144686E-5    9.809572448531205E-1   -1.874408974728567E-1
 1.496505982053838E8     9.788028979514768E-1   -1.970890740504997E-1   -3.616000999539140E-7    9.354297032052099E-6    3.309189850550590E-6   -8.208910560506461E-7    9.784258236776116E-1   -2.003640560756604E-1
 1.596206380857428E8     9.761551744733938E-1   -2.095581080239916E-1    2.305287352511923E-6    5.056258597695317E-6   -2.114561965729585E-6   -9.409527194071963E-6    9.757072605131148E-1   -2.133200375276380E-1
 1.695906779661017E8     9.732822861054518E-1   -2.224217547406654E-1   -1.472363076927430E-5   -9.261296445949256E-7    1.739209697940570E-5    1.499127762347076E-5    9.729368177420805E-1   -2.261015684195670E-1
 1.795607178464606E8     9.707520743576818E-1   -2.348892115642011E-1   -2.694593245115756E-6    3.018238215785500E-6    8.299734353442287E-6   -9.154315960799420E-6    9.702310806800069E-1   -2.380469645647848E-1
 1.895307577268195E8     9.676029020728614E-1   -2.470743499276261E-1    9.599349536907818E-6    4.354534901175193E-6    1.045173713103352E-5    2.671253690144694E-5    9.667572012953277E-1   -2.504957089189827E-1
 1.995007976071784E8     9.637359060564740E-1   -2.596190561541807E-1   -6.859379828820739E-6    3.164044575086475E-5   -1.900694802878459E-5   -1.076808716863116E-5    9.626665209850122E-1   -2.631797606924549E-1
 2.094708374875374E8     9.604000106729064E-1   -2.723682615503882E-1   -2.314288927168224E-6   -4.451365735038693E-6   -5.837910667369662E-6   -1.083694262351242E-5    9.589805041726249E-1   -2.762508625407546E-1
 2.194408773678963E8     9.572807395928411E-1   -2.851593571371199E-1   -1.523746509003577E-5   -1.068003964045188E-5   -7.205695400273212E-6    5.866274577591211E-6    9.551069741504153E-1   -2.891457874475398E-1
 2.294109172482552E8     9.536596976786125E-1   -2.974302529040240E-1   -9.222836303294515E-6    7.893386904293833E-6    4.221557385183551E-6    2.455841001609797E-6    9.510058733041271E-1   -3.018093537095832E-1
 2.393809571286142E8     9.505375120624858E-1   -3.094610608342387E-1    1.545087646737168E-6   -6.289915248005880E-6    8.479906663981380E-6    6.638771175722015E-6    9.469062695772403E-1   -3.139912031881306E-1
 2.493509970089731E8     9.469821012451014E-1   -3.233621346109746E-1   -1.933891801942410E-5    5.702375857659268E-6   -3.288636478728002E-6   -1.720874422124922E-5    9.441214713500946E-1   -3.276464717930863E-1
 2.593210368893320E8     9.427756585337836E-1   -3.353580367475409E-1    9.118118816044168E-6   -6.998075769385045E-6   -1.727871090251681E-5   -6.350587700301261E-6    9.399494596208963E-1   -3.408289490188531E-1
 2.692910767696909E8     9.385886332626667E-1   -3.468492317810051E-1   -6.199661930654324E-6    2.251436982368013E-6    2.638494140314547E-6   -2.161279927810965E-5    9.355450116931735E-1   -3.527952801627133E-1
 2.792611166500499E8     9.338312788958022E-1   -3.585090925506397E-1   -1.750368625276836E-7    8.525977820649338E-7   -4.806906051651400E-6    1.951713426350369E-5    9.309355646286377E-1   -3.646196895792374E-1
 2.892311565304088E8     9.288950252341585E-1   -3.705472043253209E-1   -8.093936301866600E-6   -8.790009373058287E-6    1.992455743103852E-6    2.392259480000335E-5    9.262042126787878E-1   -3.768515226689215E-1
 2.992011964107677E8     9.242484608967693E-1   -3.827829785453460E-1   -9.609013401169062E-6   -1.119602921081459E-5    1.943716670504946E-5   -4.354335639227525E-6    9.212700259610873E-1   -3.887065947965700E-1
 3.091712362911266E8     9.188731574037788E-1   -3.949647788603061E-1    5.844159182059623E-6    1.345532742693273E-7    2.344299623930157E-8   -8.781339931459349E-6    9.157695694228229E-1   -4.002412623329545E-1
 3.191412761714855E8     9.132472555207209E-1   -4.073713535450157E-1   -3.514638454218182E-6    6.382513186670493E-6    1.447900746094050E-5    8.490827860579922E-7    9.097540631305528E-1   -4.119601711661344E-1
 3.291113160518445E8     9.074760277850631E-1   -4.200050878304519E-1    3.616083909657640E-6   -5.129059207038151E-6    4.389414553674640E-6   -1.450080801718009E-5    9.032738638195273E-1   -4.243415172816899E-1
 3.390813559322034E8     9.019320809309748E-1   -4.328619936102299E-1   -2.572501483164182E-7    1.292356259284188E-5    1.168194641604484E-5   -1.552095329092789E-5    8.968555123980463E-1   -4.369171446422518E-1
 3.490513958125623E8     8.968094039424480E-1   -4.454450058907942E-1    2.801448015035133E-6   -3.551436866286796E-6   -2.117760682655045E-6   -2.182158843694610E-6    8.905782718119519E-1   -4.494918476972167E-1
 3.590214356929212E8     8.914375191745827E-1   -4.578569912029826E-1   -7.458104414532330E-6    9.259671363197121E-6   -1.360562644769169E-6    1.274813919026349E-6    8.844857999135288E-1   -4.621457579255455E-1
 3.689914755732802E8     8.858459012006040E-1   -4.700342248713147E-1   -5.702965912797184E-6   -1.172159666953394E-5   -2.621905424059102E-5    2.066973688278326E-6    8.789946205962690E-1   -4.746965139689211E-1
 3.789615154536391E8     8.797471702425289E-1   -4.813048938709458E-1   -5.755998867034819E-6   -6.978259897693409E-6   -8.771365443793375E-6   -1.904986012374996E-5    8.737383885535503E-1   -4.867493147305632E-1
 3.889315553339980E8     8.742211528860829E-1   -4.920722172589730E-1   -1.945879563083471E-6    4.198949420558373E-6   -8.273454539050310E-6    1.025873439513707E-6    8.678854178797270E-1   -4.987359920049454E-1
 3.989015952143569E8     8.674655075953086E-1   -5.028778085980352E-1   -1.371568674608875E-5    1.419992040382415E-6   -1.024590229607180E-6    9.504901123407988E-6    8.610783109866399E-1   -5.096575121551011E-1
 4.088716350947158E8     8.601576485019646E-1   -5.136657512039184E-1    5.982406236667373E-6    3.712545538915344E-7    9.193633394654414E-6   -9.549753708464430E-6    8.542398970203261E-1   -5.205703276080044E-1
 4.188416749750748E8     8.531780105333542E-1   -5.251635886956462E-1    3.482596504923745E-6   -5.926251188825959E-6    6.134453229017046E-6   -2.938145715776764E-6    8.476138394911941E-1   -5.313933030630387E-1
 4.288117148554337E8     8.460231650721681E-1   -5.368294929362707E-1    7.820962768897549E-6   -3.631908076256544E-7   -3.493435638691784E-6    5.205255498661581E-6    8.405571732961489E-1   -5.417466215747287E-1
 4.387817547357926E8     8.382466424839642E-1   -5.482685850897070E-1   -1.389833902226063E-5   -9.532144747242085E-6   -1.198201720422231E-5    1.954347292208374E-5    8.326511635847451E-1   -5.522821654815583E-1
 4.487517946161516E8     8.305567401618323E-1   -5.600710961243303E-1   -4.762771720846046E-6    2.788754682650258E-6    8.263735739843561E-6    1.461291497623785E-5    8.241937940861325E-1   -5.635305072457885E-1
 4.587218344965104E8     8.235190158204989E-1   -5.720318195248049E-1   -9.772028339533791E-8   -2.637807519785660E-6    1.614828117812038E-6    5.840435472686720E-6    8.160671134587238E-1   -5.753527968566908E-1
 4.686918743768694E8     8.169074629588702E-1   -5.834239856532499E-1    1.039902993704511E-5    8.594852214414859E-6   -1.320736526125156E-5    4.624500880922640E-6    8.078283223429440E-1   -5.867965577994630E-1
 4.786619142572283E8     8.098936434995234E-1   -5.942598871711391E-1   -9.871083755061725E-6   -5.757902359389494E-6    8.108734301780562E-6    5.991207273646948E-6    7.992881567418828E-1   -5.981060738741439E-1
 4.886319541375872E8     8.023632327670693E-1   -6.048507503432894E-1   -3.435192957629763E-6   -3.220746043799343E-6    9.324111292457508E-7   -5.613192341193776E-6    7.905544582224545E-1   -6.088871794181934E-1
 4.986019940179462E8     7.940606785195345E-1   -6.154616454845629E-1   -6.457606771367709E-6    5.336316123580862E-6    7.803715376807161E-6   -8.940120267463776E-6    7.823274112593740E-1   -6.196561931135502E-1
 5.085720338983051E8     7.855543199015997E-1   -6.246034011229700E-1   -1.201736687565980E-6    2.151750822287725E-6    4.757404133368330E-6   -2.125148303411800E-5    7.746170422980643E-1   -6.302992480692292E-1
 5.185420737786640E8     7.782413612729333E-1   -6.336252528237947E-1   -4.866726889682498E-6    4.198674475538481E-6    1.931249002683240E-6   -8.423908550813517E-6    7.669654263854947E-1   -6.400333553836136E-1
 5.285121136590229E8     7.699647651021686E-1   -6.430856144811161E-1   -3.161060925407580E-6    8.886276096139387E-7   -2.137219611463375E-6    5.938883300645953E-6    7.590992911658531E-1   -6.497936473267096E-1
 5.384821535393819E8     7.613664844214916E-1   -6.531651095195709E-1    8.104269037957969E-8   -4.110817390589683E-6   -1.335941967887338E-6    8.796347951135869E-6    7.509394133050038E-1   -6.593714567663753E-1
 5.484521934197408E8     7.532520429694514E-1   -6.638041093709044E-1   -1.428933081645551E-5    8.326851837437860E-6   -6.637155927729669E-6   -4.871276189170550E-6    7.424289402190993E-1   -6.692251946103971E-1
 5.584222333000997E8     7.447082743286063E-1   -6.746378943742808E-1   -9.264341698001455E-6    1.350349889140555E-6    8.028902125478608E-6   -1.059308701263059E-5    7.333213211376303E-1   -6.791623105635456E-1
 5.683922731804587E8     7.355725317035005E-1   -6.851891076298207E-1    1.566027497965828E-5    3.791528652943235E-6    2.165929509429772E-5    5.519325666070122E-6    7.231655671712190E-1   -6.892312649302315E-1
 5.783623130608176E8     7.262853890066884E-1   -6.951364971973206E-1    5.959890540082007E-6    7.446328067138916E-6    8.463739593750536E-7    1.939609926436505E-6    7.126953971413851E-1   -6.989405928084963E-1
 5.883323529411764E8     7.171106342357858E-1   -7.052242610081406E-1   -1.420945177287120E-5    8.901315024451441E-7   -1.909947288776633E-5    4.081242398314009E-8    7.023063147590952E-1   -7.087135868713259E-1
 5.983023928215353E8     7.078361395658072E-1   -7.152193653251031E-1    7.977050974486573E-6   -1.065243105903163E-5   -6.588896270018051E-6    2.010852246034854E-5    6.918705616104512E-1   -7.183173288438951E-1
 6.082724327018943E8     6.983564203105841E-1   -7.249544658549786E-1    1.396541998428379E-5   -1.309815650482753E-5    5.788295980132939E-6    1.105784318687531E-5    6.815419602014535E-1   -7.276745457726941E-1
 6.182424725822532E8     6.885484125445918E-1   -7.347140672603124E-1   -4.534475955055756E-6   -1.715000634803111E-5   -2.425844280842683E-5   -1.523258547908313E-5    6.717649843266069E-1   -7.372078902871368E-1
 6.282125124626122E8     6.780082302513473E-1   -7.439676899332887E-1   -9.083705691278322E-7   -1.839096511412815E-6    1.786426660988551E-6   -1.662704136919385E-5    6.628124409756642E-1   -7.468327232229837E-1
 6.381825523429711E8     6.682994564951681E-1   -7.511799843250804E-1   -3.998360851852974E-6    8.889263874076187E-6    5.407206804042277E-6   -1.030409216756327E-6    6.538297750029909E-1   -7.556823530489729E-1
 6.481525922233300E8     6.593852634283091E-1   -7.596701775076042E-1    3.740273946137702E-6    4.678966336613620E-7    6.479956375599902E-7    2.846438811223035E-6    6.446373811766140E-1   -7.641287452054316E-1
 6.581226321036890E8     6.497368239788911E-1   -7.686242719240228E-1   -3.535214739307454E-6   -1.313654886295950E-5   -1.982547378137072E-6   -1.823287149739624E-5    6.345970245083957E-1   -7.725000025631215E-1
 6.680926719840479E8     6.396834451393162E-1   -7.772776774260717E-1   -5.538730001388232E-6    8.654319931456231E-7    7.343943303741329E-6   -4.265222036110218E-6    6.239597990678545E-1   -7.805298592106051E-1
 6.780627118644068E8     6.298890832586094E-1   -7.853402514397338E-1    4.998531215776847E-7   -2.867604218099280E-6    1.955889569412515E-5   -1.281033735378426E-5    6.129203749755613E-1   -7.883019786269179E-1
 6.880327517447658E8     6.194984202285140E-1   -7.937504462597896E-1    1.480027118582547E-6   -1.188937232686992E-5   -1.791369209780151E-6    1.090514680061104E-5    6.015249430788816E-1   -7.959357064072368E-1
 6.980027916251246E8     6.086802202803172E-1   -8.019976686286434E-1    4.375718474972841E-7    1.169795849329886E-5   -8.701618366030603E-6    1.299876586389568E-5    5.900194148919978E-1   -8.036567213455180E-1
 7.079728315054835E8     5.972770555025213E-1   -8.103024798410287E-1   -3.405591125911725E-6   -1.251775147742039E-5   -1.188192824435814E-5    6.906426687921577E-7    5.785563640478942E-1   -8.115773586437954E-1
 7.179428713858424E8     5.860439444095835E-1   -8.186873880712712E-1    8.641547604197199E-6   -6.547157874843558E-6    1.290374442467339E-5    3.771092928867904E-7    5.672940935780122E-1   -8.202158003290220E-1
 7.279129112662014E8     5.750956685443399E-1   -8.273954160211808E-1   -7.794448250231612E-6    4.968532020088427E-6    1.952803573678560E-5   -2.044755875756759E-5    5.560829655712007E-1   -8.289266372088395E-1
 7.378829511465603E8     5.638347958535337E-1   -8.359508070825989E-1   -5.201233034832815E-6    3.504025664166252E-6   -9.120379257769445E-6    1.184723619045613E-5    5.445810844498987E-1   -8.372518836821956E-1
 7.478529910269192E8     5.517925282274939E-1   -8.445227155869599E-1   -2.388266142597816E-6   -1.669550215043861E-5   -3.447628211741972E-6    1.506968760470191E-6    5.334026363806211E-1   -8.450205352287978E-1
 7.578230309072782E8     5.392262057071395E-1   -8.517544650193746E-1    4.411422580108569E-6   -8.070722178976761E-6   -1.656371382359186E-5   -1.129358210770258E-6    5.222957252637741E-1   -8.518536395430925E-1
 7.677930707876371E8     5.287576387861869E-1   -8.570834200538368E-1    3.426638745800058E-6   -1.238177278270868E-5   -7.808667633691936E-6   -9.365103024346178E-6    5.111037455490103E-1   -8.583428485299781E-1
 7.777631106679960E8     5.192084245841060E-1   -8.639955090808653E-1   -7.502567671009018E-6   -5.267646054180796E-6    7.984878367163384E-6    6.951589539381360E-7    4.995393649252350E-1   -8.649390818747886E-1
 7.877331505483550E8     5.087900083995718E-1   -8.708501428706091E-1   -7.068568210254191E-6   -5.851747686262529E-6    1.736597356270852E-5   -6.656853739406627E-6    4.877474809176547E-1   -8.715159836581488E-1
 7.977031904287138E8     4.975901084356758E-1   -8.772194815210890E-1    2.194555856405737E-5    1.436455961502442E-5    2.319538215296428E-6    1.709785730313883E-5    4.749547791559449E-1   -8.779129188939904E-1
 8.076732303090727E8     4.858268851194291E-1   -8.831359081648350E-1   -4.470694105393753E-6    6.984628413123615E-6    2.740880024145759E-6    1.042761801908297E-5    4.621259668010786E-1   -8.839211850927208E-1
 8.176432701894317E8     4.737277891444807E-1   -8.891649128535095E-1   -2.196731728363834E-5    7.149401558792792E-6    4.352366672549828E-6   -1.376608314325174E-6    4.493066680546528E-1   -8.904545777114591E-1
 8.276133100697906E8     4.615010776533102E-1   -8.956414913441370E-1   -4.794421359482601E-6   -4.736147082251115E-6   -1.068008465594238E-5    1.279484434734074E-5    4.366695250578057E-1   -8.971434653533131E-1
 8.375833499501495E8     4.488703142429403E-1   -9.021429482073807E-1    4.353991770769653E-6   -4.775669148541837E-6   -3.577514741507665E-6   -2.097673072002599E-5    4.244074606804664E-1   -9.037403115134642E-1
 8.475533898305085E8     4.360824731605742E-1   -9.084792579062728E-1    3.366183324101486E-6    5.717618624234196E-6    8.886569536201071E-6   -3.914791016823139E-6    4.125838579994962E-1   -9.098255859345269E-1
 8.575234297108674E8     4.232971386860780E-1   -9.147231987379695E-1   -7.777653603709184E-6    9.813103082553329E-7   -8.644687686539101E-6    1.565943038069830E-6    4.008056330196925E-1   -9.150921078165314E-1
 8.674934695912263E8     4.105533372703896E-1   -9.215417402735215E-1   -7.958715278799104E-6    4.857950402923491E-6   -1.627066565529058E-5    1.412823104914050E-5    3.888302199094998E-1   -9.200252746764792E-1
 8.774635094715853E8     3.974321371538251E-1   -9.281955245598132E-1    1.247493875871547E-6    2.778600628302164E-6    1.560397499176874E-5   -2.016579748923617E-6    3.761860901469011E-1   -9.247069064764970E-1
 8.874335493519442E8     3.843260499920939E-1   -9.326765012441340E-1   -2.479471526422954E-6   -4.992398085759606E-6    1.582616592797335E-6   -8.934716367399568E-6    3.631051956560165E-1   -9.289861760587268E-1
 8.974035892323031E8     3.730059566452980E-1   -9.362231865387862E-1    9.086629448306764E-6    3.373204163326751E-6    1.670024275157465E-6    4.764058367990520E-6    3.495115909686791E-1   -9.333861874263494E-1
