#  HZ   S   RI   R     50.00 
! Rohde & Schwarz Vector Network Analyzer 
! Rohde-Schwarz,ZNB20-2Port,1311601062102128,3.60
! Created: UTC 4/29/2024, 2:51:11 PM
! freq[Hz]                re:S11                  im:S11                  re:S21                  im:S21                  re:S12                  im:S12                  re:S22                  im:S22
 1.000000000000000E5     9.963133707416115E-1    3.886715480845961E-3   -3.476059842029506E-5   -7.753002642136858E-5   -9.176783163055121E-5    1.389904336634530E-4    1.010228742979070      -1.133342501907885E-2
 1.007003988035892E7     9.973952733868002E-1   -1.379666703767258E-2   -1.163395963995377E-5    2.968901280590500E-6   -3.838855560213057E-7    1.441588280936375E-5    9.958306669695959E-1   -1.450852069305388E-2
 2.004007976071785E7     9.995997931039231E-1   -2.729712025236604E-2   -4.079174794920953E-6    6.372363392363114E-6   -7.976280807817667E-7    2.136723622302831E-5    9.988773786449558E-1   -2.769429507136082E-2
 3.001011964107677E7     9.977385610853691E-1   -4.108413371487851E-2    1.279429051710319E-5   -1.218616406403993E-5    1.286994628926265E-5    1.053766817560158E-5    9.975259418888961E-1   -4.208661625883030E-2
 3.998015952143569E7     9.976176536222013E-1   -5.314349291404261E-2   -1.280096967027571E-5   -9.840958608597355E-6    4.659750609218416E-6   -5.193179884574840E-6    9.975854265051749E-1   -5.656077650828567E-2
 4.995019940179461E7     9.961061059310796E-1   -6.606107752034747E-2   -7.209057069692208E-6    4.295396250622261E-6   -7.839212427659849E-6    5.127793383438792E-6    9.965466005541349E-1   -6.911777632606651E-2
 5.992023928215354E7     9.943178287345764E-1   -7.888538055050666E-2   -9.596577347847098E-7   -4.060874746574620E-6    9.101086569522643E-6    7.243239760939812E-6    9.946385678017857E-1   -8.204548108091528E-2
 6.989027916251247E7     9.930514772375943E-1   -9.183229164883601E-2   -9.412363378919024E-6    9.938413542859293E-7   -1.475812887310939E-5   -1.107318807623920E-5    9.934706772285943E-1   -9.477205776659553E-2
 7.986031904287139E7     9.922690635507050E-1   -1.052469556844863E-1    3.115612462432456E-6   -1.185624714846467E-5   -5.562336762507248E-6   -8.237169009485483E-6    9.924491119951243E-1   -1.080049703024225E-1
 8.983035892323031E7     9.913411367793260E-1   -1.187866871894243E-1    2.335003943392324E-7   -1.220422046707275E-5    2.851249580580079E-6    1.955612504650482E-5    9.908940159134741E-1   -1.210208692867381E-1
 9.980039880358922E7     9.894116645969833E-1   -1.323260735089024E-1    5.593727407657662E-6    9.642331959537900E-6   -5.297278296285591E-7   -2.315177626372918E-6    9.885729388415198E-1   -1.343972737818190E-1
 1.097704386839482E8     9.866893397661400E-1   -1.456462856920968E-1   -2.188884938742380E-6    4.527805279278384E-6   -1.905644314271949E-6    5.663123148815050E-6    9.860276576310527E-1   -1.476691327132103E-1
 1.197404785643071E8     9.847757471287788E-1   -1.589500103155308E-1    1.309385826444552E-5    8.435745237726396E-6    2.791288975789351E-6   -4.337677522645600E-6    9.842495801791233E-1   -1.611284588505174E-1
 1.297105184446660E8     9.830792301132473E-1   -1.718000796204994E-1   -5.895690117149965E-7    1.723640032980420E-5    3.301521310617951E-6    1.490474267815160E-6    9.828631613753802E-1   -1.743392649597966E-1
 1.396805583250249E8     9.815110418630406E-1   -1.846301291200692E-1    5.471683362574018E-7   -5.776481050411504E-6    1.159939705875900E-5    4.009077406266863E-6    9.808177678786916E-1   -1.875517888975991E-1
 1.496505982053838E8     9.790264395400352E-1   -1.971253951399063E-1    1.169727637207752E-5   -1.389405378744726E-5    5.818091991655380E-6    4.898887943326879E-6    9.784786744466809E-1   -2.003374410505373E-1
 1.596206380857428E8     9.762654168137914E-1   -2.094785890841819E-1   -2.296953258424393E-6   -8.866222057269290E-6   -1.772112476534675E-6   -9.708668892911973E-6    9.757117904855036E-1   -2.132273209162145E-1
 1.695906779661017E8     9.733094039284169E-1   -2.223984088597975E-1   -1.003268984852394E-5   -1.200382051650405E-6   -9.844225769280869E-6    4.866270549357104E-6    9.728566177101290E-1   -2.261239555518095E-1
 1.795607178464606E8     9.707548328042143E-1   -2.348777953815845E-1    3.625716418583972E-6    1.690789949181403E-6   -5.453135236044815E-6    2.209677265685019E-5    9.701306144974315E-1   -2.379449001632714E-1
 1.895307577268195E8     9.675976419005718E-1   -2.470584657678863E-1    3.011572530979734E-6    3.054079532078063E-6   -4.292195869576022E-6    1.332367421543845E-5    9.667512335960708E-1   -2.504700084253172E-1
 1.995007976071784E8     9.638693738612086E-1   -2.595293866540964E-1   -2.035021279186278E-5   -6.477222932755943E-7   -9.366089942265563E-6    5.918834930166083E-6    9.627399088390354E-1   -2.631161210600944E-1
 2.094708374875374E8     9.603678157076949E-1   -2.723542470586472E-1   -1.255108685380235E-5    1.202925574492312E-5   -1.430346271788122E-6    6.509066660894383E-8    9.589493915668748E-1   -2.762036433985950E-1
 2.194408773678963E8     9.573165201814740E-1   -2.852024800095929E-1   -1.484282500857186E-5   -2.668267082856236E-6    1.614180367772702E-5    1.581493450883535E-5    9.550666894643890E-1   -2.890655306500102E-1
 2.294109172482552E8     9.536705295639601E-1   -2.974241137856858E-1    9.076463449454990E-6   -6.009179693745396E-6   -3.694127111364741E-6    2.767735641829365E-6    9.509559788412656E-1   -3.017495143887459E-1
 2.393809571286142E8     9.505994269390261E-1   -3.095321743099274E-1    1.282142025567100E-5    8.812238966815365E-6   -1.239701237050048E-5   -1.638182851678547E-6    9.470726067046344E-1   -3.139959889997969E-1
 2.493509970089731E8     9.469048638155119E-1   -3.233167514148378E-1   -1.149333321155626E-5    8.148282176443289E-6    1.058575943473376E-5   -2.352289671544674E-5    9.441352901618910E-1   -3.276669483177296E-1
 2.593210368893320E8     9.426978500774625E-1   -3.353599567032254E-1    1.031979374046316E-5   -4.384354058312403E-6   -2.163331075423549E-6    5.413545748417679E-6    9.397592839583547E-1   -3.408712071145006E-1
 2.692910767696909E8     9.385912929466570E-1   -3.468392791560421E-1   -9.625045284117146E-6   -4.159947893158657E-8   -1.024286738943630E-5    1.738529570454742E-5    9.353799950756838E-1   -3.527285996461957E-1
 2.792611166500499E8     9.337668394908561E-1   -3.584929799644069E-1   -1.733785148258877E-7    1.274756056899287E-6   -2.024373698505986E-5    9.143426438895852E-6    9.309115451972694E-1   -3.646274906921877E-1
 2.892311565304088E8     9.289259253651049E-1   -3.705381204408842E-1    1.072499904432243E-5    3.643729865256086E-6    1.010360467087557E-5    2.328374402894779E-5    9.261574009024287E-1   -3.767890786112658E-1
 2.992011964107677E8     9.240893697683709E-1   -3.826982493242264E-1    2.123191828188087E-6   -1.058152515245616E-6   -3.299140900374555E-6   -1.159050474496531E-5    9.211184989865189E-1   -3.886446897341054E-1
 3.091712362911266E8     9.188915463477407E-1   -3.950571233856036E-1    1.688730109760575E-5    5.417446608481898E-6   -3.356970607231874E-6   -9.408624611785881E-6    9.157239931320136E-1   -4.001389384862543E-1
 3.191412761714855E8     9.132665662412411E-1   -4.073852625986402E-1    4.072224811889870E-6    3.533891240249485E-6    5.687214185007431E-6   -3.839319161377003E-6    9.096902723505261E-1   -4.118879361439647E-1
 3.291113160518445E8     9.075304298501196E-1   -4.199805088131275E-1   -1.614531729354040E-5    4.995416300589331E-6    1.668096631383545E-5   -2.709511263717474E-6    9.033980143199258E-1   -4.244265811494721E-1
 3.390813559322034E8     9.020709219226382E-1   -4.329303291283820E-1    3.212458232866497E-6   -3.098175890452681E-6   -2.225609154689917E-6    1.696408668840006E-5    8.967769699921488E-1   -4.369892875490053E-1
 3.490513958125623E8     8.966710649589517E-1   -4.454557370251522E-1    5.213953412371832E-6   -4.890886581562660E-6   -7.183258175439988E-6   -1.470030176433685E-5    8.904249126088297E-1   -4.494459101854442E-1
 3.590214356929212E8     8.912273207541835E-1   -4.578503163411763E-1    1.380796645010217E-5   -9.647508777076710E-6    1.254265950673086E-5    2.785570359343801E-6    8.844656781949186E-1   -4.620445997076709E-1
 3.689914755732802E8     8.858853967874635E-1   -4.701570957316419E-1   -7.308581258894772E-6   -7.398079697347471E-6   -2.373977633336061E-6   -1.020003904293632E-5    8.789663736127040E-1   -4.747677556951263E-1
 3.789615154536391E8     8.798641473538988E-1   -4.813420791307030E-1   -8.538721353822771E-6    7.337857265383297E-7    7.285510228412558E-7    5.590815070132354E-6    8.738688146619830E-1   -4.867921457697042E-1
 3.889315553339980E8     8.742946755194545E-1   -4.921141676719438E-1    6.939695657019628E-6    7.426470235196561E-6   -3.314684449036937E-5    1.696380387843071E-5    8.680516264873164E-1   -4.987281171949798E-1
 3.989015952143569E8     8.672806230172777E-1   -5.027225416403318E-1    1.288047841742450E-5    4.559108778109677E-6    9.556437250032915E-6    1.492447340373241E-5    8.611191650695347E-1   -5.096200151171029E-1
 4.088716350947158E8     8.601464134944838E-1   -5.135607136918438E-1    5.747782965748519E-6   -1.529765351698925E-5   -3.127774289598703E-6   -1.037424936988893E-5    8.541847661675029E-1   -5.206583877586402E-1
 4.188416749750748E8     8.532710984763315E-1   -5.251396743645149E-1   -3.581248203209307E-6    1.119084972009644E-5   -6.651013188043700E-6   -1.670985915214860E-7    8.476094984975370E-1   -5.314928379722667E-1
 4.288117148554337E8     8.459008520970028E-1   -5.367175334253964E-1    2.264782882668554E-6   -8.142485143922374E-6    7.136398964348215E-6   -2.023855245501392E-6    8.405993340244520E-1   -5.418626762748878E-1
 4.387817547357926E8     8.382431631352353E-1   -5.481229937103944E-1    2.468623448384283E-6   -2.093740203005446E-6   -1.411952468067742E-6   -1.144704050265230E-5    8.326429345898348E-1   -5.523031687563775E-1
 4.487517946161516E8     8.304912368965414E-1   -5.600078503614641E-1    2.321838746177727E-6    2.545220667556901E-6    3.656383178683824E-6   -7.376232681825756E-6    8.241149812540253E-1   -5.634761837243107E-1
 4.587218344965104E8     8.236185636648360E-1   -5.719831051338337E-1    3.132826301374692E-6   -1.543206796158964E-5   -6.737452544081363E-6   -1.609702402434578E-5    8.159308663545152E-1   -5.752242904827877E-1
 4.686918743768694E8     8.170535563099314E-1   -5.834557014132610E-1   -3.983413091647023E-6    1.913221502934368E-9   -1.878043979142652E-6   -1.382832736961294E-5    8.078809348919491E-1   -5.867510498838785E-1
 4.786619142572283E8     8.100005856302703E-1   -5.943424026380516E-1    6.753667978572884E-6    1.112707415258729E-5    9.366495903922996E-6   -8.233206355673540E-6    7.993674419021284E-1   -5.981214910733820E-1
 4.886319541375872E8     8.023070864141675E-1   -6.047079575497690E-1    4.502312862451024E-6    4.687456167139976E-7   -1.705722448024315E-5    1.315345486664033E-5    7.905908264017353E-1   -6.088856524908669E-1
 4.986019940179462E8     7.938982283280696E-1   -6.153520515339878E-1    6.152467731667878E-6   -1.483597918953233E-5    6.249551680214353E-6   -1.316702291219967E-5    7.823178882386235E-1   -6.195646456354165E-1
 5.085720338983051E8     7.855466363764416E-1   -6.245506605608272E-1   -8.447723520266906E-6   -6.237999914883694E-6   -1.493326963914275E-5   -6.066012377094315E-7    7.745545170884056E-1   -6.301649295489133E-1
 5.185420737786640E8     7.782510287677599E-1   -6.335988941747778E-1    4.885349805315530E-6   -7.270913391223355E-6   -1.140227304264283E-5   -1.360180362410278E-5    7.670110881220591E-1   -6.401301330107839E-1
 5.285121136590229E8     7.699937143342150E-1   -6.431228869508774E-1   -3.608002916571923E-6    4.167110048171198E-6   -7.575557687608210E-6   -9.933678737714229E-6    7.591489733107935E-1   -6.496779700566642E-1
 5.384821535393819E8     7.614192911606996E-1   -6.532195444422508E-1    1.319349258058622E-5   -4.565110724138229E-6    8.842824848161056E-6   -9.716822759724200E-6    7.508330513021235E-1   -6.593451678405347E-1
 5.484521934197408E8     7.532139211657900E-1   -6.636056447387750E-1    8.673028809962818E-6   -8.792252239899929E-7    2.307867355803597E-7   -1.229901946302236E-5    7.423261892300227E-1   -6.690686588603015E-1
 5.584222333000997E8     7.447395964996916E-1   -6.746256470765594E-1   -1.589663919442255E-5    3.419514637763404E-6    1.409276601197312E-5    6.142968287572041E-6    7.332648668601427E-1   -6.791831745689866E-1
 5.683922731804587E8     7.356547712258996E-1   -6.852144164167290E-1   -8.394152232365705E-7    3.625534650900444E-7    1.636684231733220E-5    6.979840798350155E-6    7.231669723667578E-1   -6.892552375961801E-1
 5.783623130608176E8     7.262754307592636E-1   -6.950306827368128E-1    9.968581037021299E-6    7.768198915285808E-6    1.327062445122145E-5    2.070943570382922E-6    7.127610761141695E-1   -6.990110759064215E-1
 5.883323529411764E8     7.170113663389569E-1   -7.050984214934778E-1    1.143308478719268E-5   -7.670710243595972E-6   -5.584462105440829E-6    1.069665416219060E-5    7.021783873215874E-1   -7.086349728713205E-1
 5.983023928215353E8     7.078415096241198E-1   -7.151806870689658E-1   -1.377220961101539E-5   -7.337004934664160E-6    1.319460530831517E-5    8.427875734589252E-6    6.918689174683810E-1   -7.181822848515343E-1
 6.082724327018943E8     6.983940490773733E-1   -7.250084352783223E-1    1.173379310758159E-5    5.012545466618923E-8    9.763919330464500E-6   -1.721218165526852E-6    6.817521344425623E-1   -7.277469591505618E-1
 6.182424725822532E8     6.885355401816405E-1   -7.346139081321794E-1   -1.545261290874922E-5    2.427198370286621E-7    1.357442809188564E-5    1.377135324694462E-6    6.719592999959848E-1   -7.372738903277124E-1
 6.282125124626122E8     6.780386012844558E-1   -7.440258457743132E-1    8.382836880417506E-6   -4.805740028402861E-6    3.251962107285823E-6    8.738808274178590E-6    6.626608057216635E-1   -7.467605364174407E-1
 6.381825523429711E8     6.684091943707124E-1   -7.511404370199174E-1    1.180740474306009E-5    2.723127334958390E-7   -4.819273822975104E-6   -2.514548002841858E-6    6.537051150546886E-1   -7.555824192485483E-1
 6.481525922233300E8     6.593380764660118E-1   -7.596228525981277E-1   -1.851513313301695E-6    6.199438725123440E-6   -2.239110163531766E-6   -1.853153411117695E-6    6.446434205005903E-1   -7.641469018619749E-1
 6.581226321036890E8     6.497132196190054E-1   -7.685638025892945E-1    5.823209944238863E-6   -1.001427533388364E-5    1.107220917764707E-5    6.933366026291781E-6    6.345727384923104E-1   -7.724381404138221E-1
 6.680926719840479E8     6.397643744866182E-1   -7.773117412212228E-1    7.081496754753347E-6   -5.657949934139159E-7    4.675887138328409E-6    9.849174297423852E-6    6.239509064738143E-1   -7.803979251132395E-1
 6.780627118644068E8     6.298705124121143E-1   -7.853984450244990E-1    5.549761783656687E-6    5.754270881206093E-6   -6.668742519093879E-6   -2.251899654843049E-5    6.128496764599536E-1   -7.882678320990600E-1
 6.880327517447658E8     6.195785391924409E-1   -7.936739038355430E-1    6.708828487758235E-6   -4.929349966401802E-6    2.400857155278780E-6   -7.214711288267992E-7    6.015447575100096E-1   -7.959636172343046E-1
 6.980027916251246E8     6.086600748117049E-1   -8.018374115939919E-1   -1.350870842642426E-5    2.345880939407192E-6    2.012969694279274E-6    2.410088783424341E-5    5.900865440061956E-1   -8.037344923161361E-1
 7.079728315054835E8     5.973183946681949E-1   -8.102601490679296E-1   -1.920956760085219E-6    1.686955345687926E-6   -1.188793615126369E-5    1.421541211462537E-5    5.785133140667637E-1   -8.116095368567975E-1
 7.179428713858424E8     5.860029353952472E-1   -8.187369125042024E-1    2.074800862787587E-6    7.139131136144308E-6    1.648497870142655E-5   -6.086982442257884E-6    5.673332334042896E-1   -8.201619129832949E-1
 7.279129112662014E8     5.750959502590246E-1   -8.272375497966383E-1    1.277044077153679E-5   -1.754954422623561E-5   -7.932936419614102E-7   -1.517597740594761E-5    5.559521479758766E-1   -8.288503746360045E-1
 7.378829511465603E8     5.638065465058704E-1   -8.359647787097656E-1   -1.561784643730227E-6    7.793397016533782E-7    5.633664599354281E-6   -6.506394349193507E-6    5.446660826483460E-1   -8.373466056904567E-1
 7.478529910269192E8     5.518272972454383E-1   -8.445151438265739E-1    9.272817382968773E-6    7.543382282549037E-6    6.502574187972789E-6   -1.714420423501141E-6    5.334782456266134E-1   -8.450130139627298E-1
 7.578230309072782E8     5.391995404137876E-1   -8.515920122750613E-1    2.826526534427797E-6   -7.138579363067599E-6   -1.165822604595077E-5    3.854163823592147E-6    5.222953522843496E-1   -8.518616299571354E-1
 7.677930707876371E8     5.288776645569936E-1   -8.570914558557288E-1   -1.303730506341215E-6   -4.105149122608224E-6   -1.419456519875440E-6   -2.354524742586272E-6    5.110279673676297E-1   -8.582749319579588E-1
 7.777631106679960E8     5.192938009921082E-1   -8.638996215992161E-1    6.428475858706585E-6   -5.255250402187313E-6   -4.637809216599581E-6   -3.060515995056819E-6    4.994921704533083E-1   -8.647159455100407E-1
 7.877331505483550E8     5.088357609192715E-1   -8.708603610863511E-1    5.816047755261683E-6    1.092674733360406E-5    9.328589594823672E-6   -7.342773043380831E-6    4.876714512526137E-1   -8.715089091768711E-1
 7.977031904287138E8     4.976023993466415E-1   -8.772924118290433E-1   -2.357316500000626E-5    7.398565811930259E-6   -5.557298389078250E-6   -3.855471866357104E-7    4.749401072750666E-1   -8.780533516538831E-1
 8.076732303090727E8     4.859058796039387E-1   -8.831260507611277E-1    1.429866918005858E-5    1.225238595831220E-5    1.569280658285211E-6   -4.690510558447067E-6    4.621117391420551E-1   -8.840214144741697E-1
 8.176432701894317E8     4.738221849175905E-1   -8.892090861744105E-1   -1.101996538966007E-5   -1.808249939843435E-6    4.339523723389430E-6    7.325702418198700E-6    4.492121274184040E-1   -8.903623862049045E-1
 8.276133100697906E8     4.615195656072806E-1   -8.955477063470859E-1    5.248586833623378E-6   -2.471749749178738E-6    8.462362339569127E-6    1.655625886753442E-5    4.366266778268275E-1   -8.969656906956113E-1
 8.375833499501495E8     4.489573380092987E-1   -9.020509080244605E-1   -5.073275783427359E-6   -1.879992134749320E-6   -1.737523886723666E-6    5.373518444736055E-6    4.245178341538622E-1   -9.037953728155226E-1
 8.475533898305085E8     4.361420903597598E-1   -9.084629341849545E-1   -4.108831219589899E-6    2.530256066212524E-6    6.847495885907904E-6    4.718797049072748E-6    4.125737304729981E-1   -9.097525709721744E-1
 8.575234297108674E8     4.233531034315250E-1   -9.147820337271231E-1   -1.595369842345691E-6   -2.599650266552335E-6   -1.263561655257305E-5   -4.275376741268802E-6    4.008248895022685E-1   -9.150162599804887E-1
 8.674934695912263E8     4.104059373691649E-1   -9.213487720256357E-1    1.053369914167093E-5    5.128059522894664E-6   -3.576182504126658E-7    2.054073997218670E-6    3.888380318164722E-1   -9.200298810426616E-1
 8.774635094715853E8     3.974074480188150E-1   -9.279375244631490E-1   -2.464478110575449E-6   -1.159948312172961E-6   -1.155037504311914E-5    9.393095101094710E-6    3.762091119427337E-1   -9.246387807445605E-1
 8.874335493519442E8     3.843585569497959E-1   -9.327009458230986E-1    2.576657506770521E-6    3.400113420524594E-6   -1.509574427400480E-5   -2.721663725738371E-6    3.631406665342040E-1   -9.290733354275207E-1
 8.974035892323031E8     3.730474304800883E-1   -9.363568274262919E-1    3.246325180759001E-6   -4.980597196457349E-6   -3.909487388108468E-6    6.630260562684496E-6    3.495826885441239E-1   -9.333880325834804E-1
