#  HZ   S   RI   R     50.00 
! Rohde & Schwarz Vector Network Analyzer 
! Rohde-Schwarz,ZNB20-2Port,1311601062102128,3.60
! Created: UTC 4/29/2024, 2:51:04 PM
! freq[Hz]                re:S11                  im:S11                  re:S21                  im:S21                  re:S12                  im:S12                  re:S22                  im:S22
 1.000000000000000E5     9.962566897841795E-1    3.667767016203938E-3   -1.091492820284123E-5   -1.505646210139419E-4    1.739408152660046E-4   -4.686361217306099E-5    1.010342101615670      -1.131904447865315E-2
 1.007003988035892E7     9.976583007833204E-1   -1.434729612059017E-2   -1.552727836818085E-5    2.045379503755437E-5   -1.213039459019452E-5    3.780135302250080E-6    9.958734668418553E-1   -1.456510432962554E-2
 2.004007976071785E7     9.996794731856964E-1   -2.728884871922643E-2    1.509182532660745E-5    2.518624151407693E-5    4.894787452710770E-6    1.095234300682750E-5    9.988150476654335E-1   -2.778561511882001E-2
 3.001011964107677E7     9.979052615674749E-1   -4.108903969916063E-2    2.632839305118398E-6   -5.983814168751330E-6   -1.203326075247651E-6   -3.132125768429666E-6    9.975860857184590E-1   -4.201301282079983E-2
 3.998015952143569E7     9.975507119667469E-1   -5.309605316196610E-2    1.125826947376997E-5   -2.848739451220702E-5    2.337430627954809E-5    1.357818953616188E-5    9.976949517819794E-1   -5.662302344836214E-2
 4.995019940179461E7     9.961624247501871E-1   -6.594433832629783E-2    2.175025634303827E-6    6.901523460089740E-6   -1.322086617352622E-5   -5.991700467884480E-7    9.965447980017698E-1   -6.909763038203132E-2
 5.992023928215354E7     9.942993468243251E-1   -7.872637287795085E-2    3.074588547676344E-7    4.960802660744084E-6   -3.505067806432708E-6    1.094022591811156E-5    9.946597488084262E-1   -8.191024777735023E-2
 6.989027916251247E7     9.930716615537519E-1   -9.179806393146846E-2    1.560599182193771E-5    6.825394758570536E-6   -9.836771510898362E-6   -1.403024803094933E-5    9.934329143494537E-1   -9.481454502737888E-2
 7.986031904287139E7     9.924936307757046E-1   -1.051906467499660E-1    7.801119850672283E-6   -1.156941809744851E-5    5.544511051502540E-6    7.483424278130762E-6    9.923688421048581E-1   -1.078573407843646E-1
 8.983035892323031E7     9.913791717871329E-1   -1.187382387634210E-1    9.660038708076933E-6   -9.268643642039408E-6   -1.011017058679652E-5    6.700660392561524E-6    9.907774520303010E-1   -1.211201835999097E-1
 9.980039880358922E7     9.893144165884774E-1   -1.322892612155731E-1   -1.550689509123407E-5    1.012518288437024E-6   -2.379632086374236E-5   -9.175148245108275E-6    9.885868114551071E-1   -1.344932342526361E-1
 1.097704386839482E8     9.866767661450662E-1   -1.454501745382857E-1    5.118872465296753E-6    3.031603108714189E-5   -3.781393367177312E-6    6.491727478543622E-6    9.860935965595791E-1   -1.477431208923883E-1
 1.197404785643071E8     9.848427003557640E-1   -1.588010092907193E-1   -6.224768125956567E-6    1.341345193873530E-5   -6.816238765493314E-6   -2.564765453789380E-7    9.843649025323555E-1   -1.610788600555867E-1
 1.297105184446660E8     9.831697752938914E-1   -1.717964603989083E-1    1.431210373492489E-5    8.536651436880477E-6   -1.355372671089526E-5    2.082192574923030E-6    9.827611563451085E-1   -1.743892947290032E-1
 1.396805583250249E8     9.816177763758914E-1   -1.846592703450621E-1   -8.322870192854344E-6   -7.965226117349448E-6   -8.310603176557233E-6    5.057766738817806E-6    9.807793368201051E-1   -1.875042489773193E-1
 1.496505982053838E8     9.790875529210754E-1   -1.970258640291216E-1   -3.290246398385361E-6   -2.396171850871937E-6   -4.107613691986350E-6   -7.326319424515115E-6    9.783937079950036E-1   -2.002947817326804E-1
 1.596206380857428E8     9.763045201195018E-1   -2.094949263894481E-1   -4.899374981527839E-6    8.208788663724511E-6   -9.929001304518907E-6   -4.594258890146366E-6    9.757718103455174E-1   -2.132974590733345E-1
 1.695906779661017E8     9.732744387856440E-1   -2.223214440243196E-1    4.259418557121036E-6   -2.152509484265617E-5   -1.936484912279592E-5   -1.898547553815996E-5    9.729158790299191E-1   -2.261219836858789E-1
 1.795607178464606E8     9.706702981344674E-1   -2.347679323940353E-1   -1.490883271688179E-5   -5.922660832186666E-6   -6.937703692971152E-6    3.223542665526263E-6    9.702041191458975E-1   -2.379766099889898E-1
 1.895307577268195E8     9.678525691775923E-1   -2.470594798066974E-1    1.151413949715155E-5   -3.236316921000628E-6   -8.451449241692389E-6   -9.881128215754981E-8    9.667093538971856E-1   -2.505112614326705E-1
 1.995007976071784E8     9.641360058009830E-1   -2.595871667182423E-1   -1.069716990500130E-5    1.095876979199719E-9   -4.825404287959522E-6   -6.094822010343621E-6    9.627833787504644E-1   -2.631486744972610E-1
 2.094708374875374E8     9.604834410903319E-1   -2.723498446654785E-1    9.549443366256836E-6   -7.288869945202029E-6   -4.344933344749472E-6   -2.114739612810461E-6    9.589745080653831E-1   -2.760881274639000E-1
 2.194408773678963E8     9.572907019570449E-1   -2.851681891082866E-1   -7.105831100119305E-6    8.281690394460055E-6   -4.626672895022967E-6   -1.082204306374557E-5    9.549860801840432E-1   -2.890700290288078E-1
 2.294109172482552E8     9.537657039872930E-1   -2.974573518299201E-1    1.110405717846193E-5   -1.885295245580931E-6    8.700846393221856E-6    1.074609833668390E-5    9.508730481625647E-1   -3.017468576712648E-1
 2.393809571286142E8     9.506078698054596E-1   -3.094525625584323E-1    1.007469550879019E-5    9.902360970444597E-7   -1.000868160782586E-5    6.161099694094658E-6    9.470028734715258E-1   -3.140230745394025E-1
 2.493509970089731E8     9.470580758625030E-1   -3.233112885603051E-1    1.642677029652218E-8   -1.868168961607445E-5   -2.046597065673908E-5    8.476040202117859E-6    9.442426323701959E-1   -3.275676876690692E-1
 2.593210368893320E8     9.428188180489171E-1   -3.354138380578525E-1    1.592022196448692E-6   -6.677193773042283E-6    8.266132423979855E-7    6.831530827113802E-8    9.397880182772089E-1   -3.408318093641593E-1
 2.692910767696909E8     9.385566881592273E-1   -3.467499596296074E-1   -1.976664351850447E-6    1.347567340580481E-5    4.709273910649144E-7   -5.299450698785735E-6    9.354061576382336E-1   -3.528087173887675E-1
 2.792611166500499E8     9.339465440821977E-1   -3.584698710756881E-1   -7.477438398978028E-6    5.801545177606668E-7    1.148513683109960E-5   -1.098250067152930E-5    9.310158927955421E-1   -3.645478302930498E-1
 2.892311565304088E8     9.290074406150807E-1   -3.705002996144586E-1    7.064456090193610E-6    7.868325517289843E-6    2.371075052625974E-5   -3.128840104526206E-6    9.262333808074362E-1   -3.767890002828231E-1
 2.992011964107677E8     9.240519889920773E-1   -3.825334840465711E-1   -7.056102081878398E-6    1.927782935752189E-6    7.246446556999657E-6    2.323491715485692E-6    9.212434835041745E-1   -3.886317777976500E-1
 3.091712362911266E8     9.190443049352972E-1   -3.949928403818365E-1    2.199283937066392E-6    6.270499120183074E-6   -4.380116397026389E-6   -8.823467015960846E-6    9.155399673302450E-1   -4.001725339243571E-1
 3.191412761714855E8     9.133449573513001E-1   -4.073249747094135E-1   -5.590446914941494E-6    3.104408066109841E-7   -1.170738259911759E-5    6.512885755098719E-6    9.097227461444443E-1   -4.119077836169554E-1
 3.291113160518445E8     9.075430324848167E-1   -4.200396680304871E-1   -4.157043116555229E-6   -6.956205475783959E-6    2.406196787583444E-6    6.000025236276688E-6    9.034372309375965E-1   -4.244184609456672E-1
 3.390813559322034E8     9.020245208856884E-1   -4.327970175364032E-1   -8.532781248314146E-7    3.151251793237548E-6   -3.633455656376326E-6   -2.848018438152642E-5    8.968687473057630E-1   -4.369493267924724E-1
 3.490513958125623E8     8.967795492936511E-1   -4.453380204977370E-1    6.308602738443048E-6   -7.998692145336546E-8   -4.548730831883579E-6    2.913442777109133E-6    8.905566294678617E-1   -4.494377416952630E-1
 3.590214356929212E8     8.912967055375185E-1   -4.578750541385794E-1   -1.608803701300090E-7    2.335143289253359E-6   -5.541543304858001E-6   -8.479949913823471E-6    8.845346982285290E-1   -4.621412946101446E-1
 3.689914755732802E8     8.859388046541670E-1   -4.700707160542765E-1   -1.325618767547898E-5   -7.529691523674460E-6   -2.033948857613767E-6   -1.897529825909958E-5    8.790045201397689E-1   -4.747570625296461E-1
 3.789615154536391E8     8.798687324813751E-1   -4.813486779389028E-1    1.468556125248930E-6   -3.062253844055657E-6    4.185097567621010E-6   -9.643514953978980E-6    8.738576476201654E-1   -4.868906950327697E-1
 3.889315553339980E8     8.741947216317950E-1   -4.920426889335376E-1    5.050006940229759E-6   -4.040204372462619E-7   -2.611688527204847E-6   -1.495672102796601E-6    8.679665934035290E-1   -4.987428371670162E-1
 3.989015952143569E8     8.674614569009638E-1   -5.027652207363893E-1   -1.515948708701056E-6    7.840084717655781E-6   -1.964826790910267E-5    1.753043412605075E-5    8.610846655081825E-1   -5.095884525455026E-1
 4.088716350947158E8     8.601911363036570E-1   -5.135454861732830E-1   -4.326622291746693E-7    3.259173953348499E-6    1.246141490227645E-5    4.167217914445002E-6    8.542274738083914E-1   -5.206131549629622E-1
 4.188416749750748E8     8.533048643500613E-1   -5.251919277905480E-1   -7.102932089535215E-6   -9.910335522704506E-6    1.997196226916163E-5    1.029813187973470E-5    8.475931185128210E-1   -5.313609725956585E-1
 4.288117148554337E8     8.461016282427646E-1   -5.367755728460628E-1   -9.996113352189802E-6   -6.369078559740340E-6   -5.884686583785087E-6   -7.780778506941546E-6    8.406629230462450E-1   -5.417705339232157E-1
 4.387817547357926E8     8.382734688621918E-1   -5.482019186675705E-1    7.799846394567026E-7   -6.157124679110457E-6    8.909105977134702E-6   -1.193472012527866E-5    8.326525265170350E-1   -5.522731471560782E-1
 4.487517946161516E8     8.306316649309717E-1   -5.600503870610036E-1    1.051466499514054E-5   -9.415838741288664E-6   -6.570953095848290E-6    7.494820123360088E-6    8.241041961730680E-1   -5.634596798342976E-1
 4.587218344965104E8     8.235854463079517E-1   -5.719430435466646E-1   -9.435168674206032E-6    4.626627207996899E-6    3.220046545922911E-6    1.352983857275738E-5    8.159685247073684E-1   -5.752530432631697E-1
 4.686918743768694E8     8.170675170933769E-1   -5.834261993086354E-1    1.066455001416123E-5    3.555624709422868E-6   -2.673415416724910E-6    1.129850590130799E-5    8.078944756632964E-1   -5.868594506182889E-1
 4.786619142572283E8     8.098470229725474E-1   -5.941249350175754E-1    7.442812873851770E-7    4.146821836334086E-6    8.485368357695337E-6   -6.852496078316760E-6    7.993401423253740E-1   -5.980190975373937E-1
 4.886319541375872E8     8.023555553985419E-1   -6.047141476806245E-1   -5.638558750611212E-7    1.002620822341945E-5   -2.007950692864540E-6    2.707438780049752E-5    7.906121333994311E-1   -6.088339665478312E-1
 4.986019940179462E8     7.941521371203509E-1   -6.153366892332280E-1   -1.306824258407366E-5    1.816448337204097E-6   -6.260690550307478E-6   -4.691193743045535E-6    7.823650536878436E-1   -6.197079508642376E-1
 5.085720338983051E8     7.856766930482797E-1   -6.245259946139422E-1    9.279373453096944E-6    6.884799079198766E-6   -8.203196884725739E-6   -2.226125718839198E-5    7.746488687670273E-1   -6.302840349616787E-1
 5.185420737786640E8     7.782130575965515E-1   -6.334934597567444E-1    1.780341428553030E-6    5.622359536353663E-6   -2.527233882622942E-6   -3.084364413183193E-6    7.669966096690931E-1   -6.400867729477858E-1
 5.285121136590229E8     7.700329028152851E-1   -6.431077977490584E-1   -2.316393252800218E-6   -1.648523992705667E-6   -8.087451541430947E-6    1.514653859221275E-6    7.589025420664506E-1   -6.496700903610216E-1
 5.384821535393819E8     7.614432365086935E-1   -6.532847605226596E-1   -5.652612212633154E-6    3.472808289714054E-6    2.048144959898808E-6   -6.258381556790664E-7    7.508499989817294E-1   -6.592474866975029E-1
 5.484521934197408E8     7.532647311777508E-1   -6.637418798458694E-1    1.005533349165113E-5   -1.162194191101141E-5   -7.663284614805490E-6    6.567963003197462E-6    7.424414150676929E-1   -6.691917039399327E-1
 5.584222333000997E8     7.446956357915652E-1   -6.745679573832343E-1    1.053050727031506E-7    1.645218378953822E-7    6.836369652811536E-6   -1.594085698298895E-6    7.333138795341830E-1   -6.792300750552909E-1
 5.683922731804587E8     7.356617109438173E-1   -6.851457554623521E-1    1.139898613884230E-6    1.425507859720453E-5   -7.412224330483093E-6   -8.425155132503960E-6    7.231298238330262E-1   -6.892015513977837E-1
 5.783623130608176E8     7.262765036536696E-1   -6.951701066768180E-1    1.431289567430447E-5    5.426455180015149E-6   -1.609414006121460E-5   -9.102666776472510E-6    7.125982800119521E-1   -6.989291016839172E-1
 5.883323529411764E8     7.170671920720156E-1   -7.050974326240180E-1    1.141892373975507E-5    8.126860779625248E-6    8.109162484998731E-6    7.625916124836463E-6    7.021946299997939E-1   -7.086506397965642E-1
 5.983023928215353E8     7.079204607020280E-1   -7.152367609187115E-1    8.265189727423391E-6    3.058251284403786E-6   -1.105323106288891E-5    1.385650003826867E-5    6.918244086874143E-1   -7.183689627794417E-1
 6.082724327018943E8     6.984107682251540E-1   -7.249144176386724E-1    3.082045406964393E-6    3.867406440847442E-6    8.072286161831524E-6   -9.570513894943442E-7    6.816955528372126E-1   -7.278082500008950E-1
 6.182424725822532E8     6.886256645086547E-1   -7.345964819600932E-1    1.000120819535946E-5    4.254711376405497E-6    7.750840330698452E-6    1.079888654893957E-5    6.718006050212444E-1   -7.372924881790427E-1
 6.282125124626122E8     6.779613876495076E-1   -7.440114147520446E-1    6.476313817078972E-6    3.793481171674584E-6   -5.243813849001027E-6    1.424066454258554E-5    6.628094028774824E-1   -7.468049861006733E-1
 6.381825523429711E8     6.683017048781602E-1   -7.511168308289525E-1   -7.834110359274556E-6    8.428817845245040E-6    4.587232964256559E-6   -2.168437571809406E-5    6.538013550370102E-1   -7.556897998109028E-1
 6.481525922233300E8     6.594390683527659E-1   -7.596967654100092E-1   -7.590483129099772E-6    3.046851893351357E-6   -2.433156720449481E-6    9.410529095641599E-6    6.446031693894706E-1   -7.640305150359439E-1
 6.581226321036890E8     6.497434819730864E-1   -7.686196548197213E-1    6.430083772689098E-7   -7.882616851709665E-6    2.189765592085021E-5   -4.694276691873831E-6    6.345657324339440E-1   -7.723813270789889E-1
 6.680926719840479E8     6.397098465540602E-1   -7.772197478032861E-1    1.845494279097776E-6   -7.038570781945120E-6   -1.616471957176140E-6   -2.660373222706413E-6    6.239293369747053E-1   -7.803840782665724E-1
 6.780627118644068E8     6.299758712467248E-1   -7.854347589005816E-1   -8.821603072708487E-7    5.218098417175613E-6   -2.109337134561829E-6   -2.460403402718830E-6    6.129646526949994E-1   -7.883963999132717E-1
 6.880327517447658E8     6.195958587258482E-1   -7.938181647603824E-1   -1.051982924591884E-5    2.160754923640446E-7    7.712158717147310E-6    9.706301741581470E-6    6.016469893218123E-1   -7.960179657050124E-1
 6.980027916251246E8     6.086807082829848E-1   -8.019701128596648E-1    2.132849615761291E-6   -1.506734483767172E-5   -4.678657858613510E-6    5.544509711818901E-6    5.899775921093583E-1   -8.034887130153394E-1
 7.079728315054835E8     5.973177498874108E-1   -8.102415300553499E-1    1.993316388327717E-5   -8.784230578034059E-6    4.998630314455938E-6   -3.214439243046984E-6    5.785149551480080E-1   -8.116417029286687E-1
 7.179428713858424E8     5.861780434618461E-1   -8.187147964489130E-1   -5.313058776227146E-6   -8.889071371449787E-6    4.590819492608245E-6   -1.830363608337185E-5    5.673001390972434E-1   -8.201163024605653E-1
 7.279129112662014E8     5.751362544206261E-1   -8.272773784544287E-1    8.779006823921714E-6    2.995037731487477E-6   -3.819359730076273E-6   -6.647282935043784E-6    5.559973500432939E-1   -8.289102007623942E-1
 7.378829511465603E8     5.638009760348650E-1   -8.360993830547013E-1   -8.295931032868166E-6    7.520220505447659E-6   -8.954237523145186E-6    1.286976340518401E-5    5.445919992797763E-1   -8.372679587039388E-1
 7.478529910269192E8     5.518246359657516E-1   -8.446029649957525E-1    7.306905808707783E-6   -1.154173459212105E-6   -3.611592201781763E-6   -1.245715961720306E-5    5.334334825446831E-1   -8.449275012286875E-1
 7.578230309072782E8     5.392955178544286E-1   -8.516681357528394E-1   -5.714630414954128E-6    3.528686491683873E-6    8.052762362277341E-6    1.338493053607748E-6    5.223609314311199E-1   -8.518612837428028E-1
 7.677930707876371E8     5.287184782183871E-1   -8.570606570882172E-1    9.730252363324494E-6   -3.415387941282514E-6   -3.147820177958452E-6    4.146193303115083E-6    5.110323318422120E-1   -8.583312320551008E-1
 7.777631106679960E8     5.191034205250807E-1   -8.639345007763238E-1   -6.192223282845076E-6    4.911545250891156E-6    8.555920485212539E-6    1.670515276477412E-5    4.995483211451267E-1   -8.648219237028134E-1
 7.877331505483550E8     5.088418427482752E-1   -8.709000341467650E-1    6.737402416008655E-6    1.646744188853418E-5   -2.363946147900935E-5   -1.348113247527762E-5    4.876362652413440E-1   -8.713706927193872E-1
 7.977031904287138E8     4.976848716842488E-1   -8.773988764342517E-1   -1.006376024048122E-5    1.205129918249509E-5   -1.155893137898074E-5    1.204011336670819E-5    4.748898137875490E-1   -8.778338077898632E-1
 8.076732303090727E8     4.859262433948556E-1   -8.832663967146799E-1    9.674150054099169E-6    7.760493779309431E-7    2.062702959699800E-6    1.406186149366983E-5    4.620439188034996E-1   -8.839237550667608E-1
 8.176432701894317E8     4.737337734919823E-1   -8.892334466794179E-1   -2.427391362516630E-6    6.928129424943666E-6   -1.643572987199095E-5    8.366610311979989E-6    4.492927648404502E-1   -8.903081840653143E-1
 8.276133100697906E8     4.614627958323583E-1   -8.955610194800145E-1   -1.540987219547036E-6   -3.646691782457080E-7   -1.961104398629903E-6    1.310525151201046E-5    4.367226400575829E-1   -8.971245414154558E-1
 8.375833499501495E8     4.488328802466500E-1   -9.020170030730409E-1    1.244057525035640E-6    1.952238670270558E-8    6.574496891422477E-6    1.205910621155715E-5    4.244816605191633E-1   -9.036551770112158E-1
 8.475533898305085E8     4.360427855032978E-1   -9.085695277189356E-1    7.951869171033009E-6    1.522901719309201E-5   -9.285922440095335E-6    1.618705235601274E-6    4.125255228848221E-1   -9.096896423819334E-1
 8.575234297108674E8     4.233168293662333E-1   -9.148558233916808E-1   -9.549916532620516E-6   -4.413121894610981E-6    8.290913365206781E-6    1.065877799548307E-6    4.008411975661563E-1   -9.151058055275131E-1
 8.674934695912263E8     4.104410828836356E-1   -9.214641448239351E-1   -8.636781597648854E-6    1.177540166876464E-5   -2.386047240436522E-6    6.390785137176614E-6    3.887927106769221E-1   -9.199709072639792E-1
 8.774635094715853E8     3.974928906797859E-1   -9.280553926128055E-1   -3.666732475983785E-6   -6.860941570247577E-6   -4.572757219302802E-8   -1.411572334622922E-5    3.761486477075121E-1   -9.245656291583244E-1
 8.874335493519442E8     3.844397675116826E-1   -9.327390505717574E-1    6.575505618532889E-6   -8.573428774120615E-6   -1.934877584213222E-5    6.862287172504702E-6    3.631449779231508E-1   -9.289957737608638E-1
 8.974035892323031E8     3.730381798467923E-1   -9.364283407156551E-1   -1.837028243832975E-6    1.950524843437670E-6   -8.046450763608038E-7    2.926643722057918E-6    3.495838938998488E-1   -9.332632819147858E-1
