#  HZ   S   RI   R     50.00 
! Rohde & Schwarz Vector Network Analyzer 
! Rohde-Schwarz,ZNB20-2Port,1311601062102128,3.60
! Created: UTC 4/29/2024, 2:55:34 PM
! freq[Hz]                re:S11                  im:S11                  re:S21                  im:S21                  re:S12                  im:S12                  re:S22                  im:S22
 1.000000000000000E5     9.959274792084307E-1    3.898692857659302E-3    1.107795204446395E-4    7.896372109200537E-5    3.840913827215061E-5    1.137239188577402E-4    1.010603228997637      -1.129253962909217E-2
 1.007003988035892E7     9.990607321107595E-1   -1.389044784348212E-2    1.385852076071157E-5    1.089907615996867E-5    4.346772382684395E-6   -1.151511529358796E-6    9.957822686064491E-1   -1.449442546578049E-2
 2.004007976071785E7     9.995819316616865E-1   -2.711901322848201E-2   -1.005702686936245E-5    9.061577743369288E-6   -4.604526558354917E-6    8.549569058783296E-6    9.986349185630425E-1   -2.769419294360729E-2
 3.001011964107677E7     9.984015453814955E-1   -4.097014868799796E-2   -4.106431350216099E-8   -8.629988512358818E-6   -3.545485783377625E-6   -1.589581218611328E-5    9.975555517373982E-1   -4.206241332821657E-2
 3.998015952143569E7     9.972823693086031E-1   -5.311135568740188E-2    9.082516125018321E-6   -6.993204387171748E-6   -2.817805133563191E-5   -1.207655552936848E-5    9.975204649351723E-1   -5.659415873142091E-2
 4.995019940179461E7     9.954240014489649E-1   -6.601479718834280E-2    7.605204277794080E-6    2.173509303378446E-5   -1.632062972521757E-6   -1.112354390132275E-5    9.965249512742074E-1   -6.915670340688265E-2
 5.992023928215354E7     9.938967100375063E-1   -7.877253662398123E-2   -2.899580527237910E-7    1.840507621669867E-5    3.816828357274265E-6    5.489059805351392E-6    9.946668653482139E-1   -8.192899198072874E-2
 6.989027916251247E7     9.934533531325800E-1   -9.187404480203334E-2    2.044124925546571E-6    4.580924455407983E-6   -1.151616751807408E-6    2.399032539267971E-6    9.932593694087272E-1   -9.473701502078111E-2
 7.986031904287139E7     9.930893732719743E-1   -1.052822257932894E-1    2.006742673109089E-5   -7.617317049368773E-6    1.010392789019169E-6   -7.450933872940286E-6    9.923421276455202E-1   -1.079653001346102E-1
 8.983035892323031E7     9.916150165922448E-1   -1.187706784705738E-1   -1.108542805903000E-5   -1.232270137269286E-5    4.309766276342957E-6    1.051772888302342E-5    9.906877319779461E-1   -1.210551495503940E-1
 9.980039880358922E7     9.889609472511149E-1   -1.322344426128782E-1   -1.259218466850944E-5   -1.588763173451900E-5   -8.731569561371658E-6    7.480080874804331E-6    9.885038058540938E-1   -1.344491763484061E-1
 1.097704386839482E8     9.860511627139703E-1   -1.454518644073185E-1    1.669142723824403E-5    4.876374585942349E-6   -5.688307750353478E-6    2.164919489844380E-6    9.859700063471771E-1   -1.477335101765006E-1
 1.197404785643071E8     9.848999751924201E-1   -1.589596277336377E-1   -5.258478165699846E-6    1.970100623568401E-6    4.705679498992431E-6    9.199143599953656E-6    9.843794642597012E-1   -1.611689171682077E-1
 1.297105184446660E8     9.832405161778679E-1   -1.717896936453907E-1   -4.072269978360525E-6    2.872315558002363E-6    3.222716726653422E-6    1.167798935306129E-5    9.828264086379017E-1   -1.744296618344336E-1
 1.396805583250249E8     9.817016948877817E-1   -1.846970235149833E-1    8.668798645373993E-6    7.135991541812580E-6    1.022168110261960E-5    1.133678498972042E-5    9.808182613103738E-1   -1.875898026501625E-1
 1.496505982053838E8     9.787093246441846E-1   -1.970936271842208E-1    4.824672770092481E-6   -3.822717715616066E-6   -3.454919086612191E-6    6.076728705335931E-6    9.783373671702021E-1   -2.003993565794007E-1
 1.596206380857428E8     9.760651110550703E-1   -2.094677160962369E-1   -9.199800110015568E-6   -5.994252837678846E-6    2.647684918758452E-6   -8.901454235151827E-6    9.757141072474542E-1   -2.132540774234290E-1
 1.695906779661017E8     9.733339759802322E-1   -2.222939408791019E-1   -1.806123287762182E-5   -6.969019530827823E-6   -1.113802553137612E-7    1.199092171058410E-5    9.727742022048395E-1   -2.260910476367503E-1
 1.795607178464606E8     9.707555521895789E-1   -2.348260327669771E-1   -5.970722230766717E-6   -2.182863542202426E-6   -1.638691659139436E-6    6.514966656913193E-6    9.701588640822790E-1   -2.380261950387901E-1
 1.895307577268195E8     9.676667456349076E-1   -2.469929573969661E-1    2.935810885616651E-6   -3.074032059073008E-6   -9.250915780516628E-6    1.106231614637905E-6    9.665267162398847E-1   -2.504288981280274E-1
 1.995007976071784E8     9.637494057692833E-1   -2.594338138157860E-1   -5.063833959793025E-6   -2.149493252359222E-6    2.938325615039695E-6   -1.191596942553016E-5    9.626228272911238E-1   -2.630713171716567E-1
 2.094708374875374E8     9.605137827525818E-1   -2.723976856330259E-1   -2.477906311961375E-6   -5.402245896535122E-7    1.441630085499966E-5    2.603016761097806E-6    9.589235565833172E-1   -2.762300370115943E-1
 2.194408773678963E8     9.573663308293061E-1   -2.851963496098523E-1   -6.507537005107092E-6    6.284829215037953E-6   -1.644554368328217E-6   -4.137680360429241E-6    9.551910614114589E-1   -2.890663930729948E-1
 2.294109172482552E8     9.535918856190800E-1   -2.973816043210328E-1   -3.701213170939875E-7    8.413697463560643E-6    4.088983846796780E-6    1.419786297598725E-5    9.507961467275964E-1   -3.017304679865319E-1
 2.393809571286142E8     9.505509182435791E-1   -3.093827705257093E-1   -2.860059635738696E-8    7.622529536737346E-8   -4.423862320798502E-6    8.458523177452152E-6    9.468940536415659E-1   -3.140177942670430E-1
 2.493509970089731E8     9.469045838531451E-1   -3.232794095560628E-1   -1.658856627392499E-5    1.283447821492480E-5   -1.776865845476735E-5    1.660286208602936E-5    9.441465553269425E-1   -3.276702719032971E-1
 2.593210368893320E8     9.426662974392680E-1   -3.353754227437712E-1    1.109350828529631E-5   -1.067403238457140E-5   -2.194602477937309E-6   -5.156720792837612E-6    9.398562238886098E-1   -3.408265528691464E-1
 2.692910767696909E8     9.385646569476268E-1   -3.467726954763382E-1    1.008473239494692E-5   -6.331238980641101E-7    1.045303083517404E-5    2.050396391580444E-5    9.353772464775224E-1   -3.528917544690375E-1
 2.792611166500499E8     9.338003904029283E-1   -3.583050017842552E-1    5.151596322855679E-6   -8.769581846703985E-6    4.333376345923111E-6   -1.249130946513195E-5    9.308210827235101E-1   -3.645751101965417E-1
 2.892311565304088E8     9.290032280625476E-1   -3.704631601642958E-1    1.309961503516979E-5   -4.032318916718947E-6   -5.562301878614952E-6   -2.422293844980197E-5    9.262206465073722E-1   -3.768648326918647E-1
 2.992011964107677E8     9.241456277355856E-1   -3.826826956647325E-1    1.085668550025093E-6    3.289358615044311E-5   -1.749131875719620E-5   -2.594086209952303E-6    9.212509255324592E-1   -3.887498601366923E-1
 3.091712362911266E8     9.187615282373043E-1   -3.948233910052105E-1   -8.913005464768081E-6   -4.423791343126067E-6    1.208556072032093E-5    3.240881969827858E-5    9.156239943746124E-1   -4.000028374823119E-1
 3.191412761714855E8     9.132114280673268E-1   -4.072778632625022E-1   -1.267356921236147E-5    4.674772205356038E-6   -3.849710186346314E-7    3.852168820617207E-6    9.096985242141852E-1   -4.119011522508623E-1
 3.291113160518445E8     9.075907667859872E-1   -4.200324770267365E-1   -2.568322327966873E-6    3.002814717104801E-6   -2.221097719662889E-5    8.818325825021617E-6    9.033778291779611E-1   -4.243612878804404E-1
 3.390813559322034E8     9.020307237603857E-1   -4.327482389145563E-1   -6.917239370207180E-6   -1.146023815607100E-5   -6.211666434957980E-6   -1.033618493647889E-5    8.968599081454961E-1   -4.369639758168575E-1
 3.490513958125623E8     8.967103285685737E-1   -4.453617646746288E-1    8.453669911292563E-6    7.601315335488572E-6    2.548714392514157E-6    8.497242981146676E-6    8.905137274802037E-1   -4.493999159835897E-1
 3.590214356929212E8     8.913289012891159E-1   -4.578149074870381E-1    3.057934732413266E-6    1.183283683781306E-5   -1.771636164216190E-6   -1.927236545586134E-5    8.846378120416610E-1   -4.621067444424524E-1
 3.689914755732802E8     8.858744080351084E-1   -4.700914128595301E-1    4.953988976700757E-7    1.293429393755775E-5   -4.273965698557973E-6   -1.463588189779284E-6    8.790274220588183E-1   -4.747098132910724E-1
 3.789615154536391E8     8.798842859824634E-1   -4.813841325267718E-1    3.109240137206525E-6   -6.501718221001211E-6   -3.653261109556114E-6    2.748835162124032E-5    8.738134834227212E-1   -4.867386448395900E-1
 3.889315553339980E8     8.741626887894637E-1   -4.920474776346883E-1   -2.102149960457727E-6   -7.797561125479418E-7   -4.403989610847323E-6    1.089710064578206E-6    8.679007348657440E-1   -4.987170010603131E-1
 3.989015952143569E8     8.673879953149605E-1   -5.026650722308194E-1   -9.774966116678918E-6   -5.622097823048328E-6   -1.603186039693894E-5   -2.164765764582273E-5    8.609878688039942E-1   -5.097930755815530E-1
 4.088716350947158E8     8.602818171809081E-1   -5.135982618906147E-1   -1.093076742752599E-5    8.981015270735357E-6   -1.156021587347149E-5    9.022333241344849E-6    8.542448860442106E-1   -5.206798242902689E-1
 4.188416749750748E8     8.533451204960658E-1   -5.251565844816063E-1    4.920525400728760E-6    1.392494614702955E-5    5.497249621080549E-6   -5.362176502962776E-6    8.475789544463348E-1   -5.314009774493790E-1
 4.288117148554337E8     8.459555437323337E-1   -5.368100666250963E-1   -1.805325095880447E-6   -7.813756258402023E-6   -9.314510374257829E-6    2.975556064827751E-6    8.405612319923504E-1   -5.418321739762403E-1
 4.387817547357926E8     8.381845610684754E-1   -5.481691071628181E-1   -2.764113105209516E-6    1.155218455331646E-6    5.505072725254922E-7    2.435009642320107E-6    8.326526543980742E-1   -5.523825339038011E-1
 4.487517946161516E8     8.304706725209645E-1   -5.600500241784474E-1    9.360722515601595E-6    1.201568545653326E-5   -1.323629305948237E-5   -9.193977800395118E-7    8.241628703332138E-1   -5.635202101869241E-1
 4.587218344965104E8     8.236699571004441E-1   -5.720326754998379E-1    6.821234686135249E-6    1.533616675564118E-6    3.367728119974913E-6   -4.658171947083916E-6    8.160049560817625E-1   -5.752466147146845E-1
 4.686918743768694E8     8.170433657632084E-1   -5.833789537475816E-1    2.458055015022936E-6    7.915575993494630E-6    8.300616699685935E-6    9.665764942346022E-6    8.077692479205386E-1   -5.867851533300835E-1
 4.786619142572283E8     8.098326657460317E-1   -5.942224283959880E-1    9.609293079146807E-6    5.882019827835688E-6    1.131299110729741E-5   -2.631429564493251E-7    7.992741299419847E-1   -5.980516881009939E-1
 4.886319541375872E8     8.022195858942435E-1   -6.047131969665583E-1   -2.882475836046320E-6   -4.295219340344422E-7   -1.319819890647771E-5   -3.540532827743625E-6    7.904526333548590E-1   -6.088115075263635E-1
 4.986019940179462E8     7.939697428803737E-1   -6.152869530709092E-1   -9.888038461261029E-6    1.540412470818947E-6   -9.506798675574105E-6    1.290002381163988E-5    7.823510208839964E-1   -6.196880727780522E-1
 5.085720338983051E8     7.857075847117778E-1   -6.244993788334956E-1    5.837060771998762E-6    2.910095612708982E-6   -8.551856799412391E-6   -6.508542800817467E-6    7.745974100799936E-1   -6.303131337167313E-1
 5.185420737786640E8     7.781651217107797E-1   -6.336594765753332E-1    1.233203967183477E-5    1.218491300654011E-5   -1.142521545095579E-5    4.359802861755516E-6    7.669312060998734E-1   -6.401378871186817E-1
 5.285121136590229E8     7.699643136228335E-1   -6.430987139220308E-1    3.014200772233590E-6    9.577435534333587E-6    8.120529858077177E-6   -8.526171310685973E-6    7.590281352946046E-1   -6.497122526105567E-1
 5.384821535393819E8     7.613517412242300E-1   -6.531520955560095E-1    6.308757741704399E-7    1.026038310890931E-5   -1.113277405591482E-5    1.518014793909938E-5    7.507985211993753E-1   -6.594022256152600E-1
 5.484521934197408E8     7.532735368922003E-1   -6.637260291437824E-1   -4.483813416911549E-6   -9.656206372339140E-7    4.923535070420766E-6    2.040317318456356E-6    7.424378097306011E-1   -6.692589158303472E-1
 5.584222333000997E8     7.446493498680756E-1   -6.747071402472745E-1    6.047731117545872E-6   -2.134435614256924E-5   -1.023802755737814E-5    9.366065051452377E-6    7.333489577910856E-1   -6.792078411779878E-1
 5.683922731804587E8     7.355255254272018E-1   -6.852137905751094E-1   -5.010623747867455E-6    8.291943421998134E-7   -7.232194441037887E-6   -1.051689357593991E-5    7.230545753933844E-1   -6.891876786890404E-1
 5.783623130608176E8     7.262019647102314E-1   -6.950898324582264E-1    6.389997698583371E-6    7.797395893986539E-6   -1.529897991475122E-5   -3.164362895903006E-6    7.126741548605079E-1   -6.990082290323059E-1
 5.883323529411764E8     7.169593221570851E-1   -7.052212915375723E-1    6.513674892370219E-6    5.969302584088904E-6   -3.201697860834238E-6    3.257588029830584E-6    7.021407487462447E-1   -7.087382854433194E-1
 5.983023928215353E8     7.077828928170242E-1   -7.151940809078708E-1   -3.204670160199561E-6   -1.230880055740356E-5   -1.701890780041481E-5   -1.238173421311886E-5    6.918948085425149E-1   -7.183529833220980E-1
 6.082724327018943E8     6.983322387477190E-1   -7.250214099793483E-1    4.706283158957209E-6    3.681566988369593E-6   -1.131631216423781E-6   -3.014745856098406E-6    6.817246623853109E-1   -7.278367523891927E-1
 6.182424725822532E8     6.884535412817075E-1   -7.346237137087048E-1   -3.560076413982154E-7    1.117005135292075E-5   -5.909920304273612E-6    6.616493390710937E-6    6.717644576316627E-1   -7.372428705218919E-1
 6.282125124626122E8     6.779124925003904E-1   -7.440071708961922E-1   -1.004546387188997E-6    8.165282399205763E-6    4.558075842906488E-6   -1.295398263044373E-5    6.628037527209115E-1   -7.466866714029529E-1
 6.381825523429711E8     6.683288787242999E-1   -7.511468445563804E-1   -6.948491516897279E-7   -8.069870418186429E-6   -4.910388126376709E-6    1.692045815530694E-6    6.536836170130169E-1   -7.556334726059523E-1
 6.481525922233300E8     6.594496667566462E-1   -7.596556528588000E-1    1.044623773297218E-6   -3.705426901225213E-6    4.325692584040000E-6   -1.201549169516057E-5    6.446270354679446E-1   -7.641479183087475E-1
 6.581226321036890E8     6.496956294479134E-1   -7.685774787329217E-1   -3.128317811156611E-6    4.992360558069670E-6   -1.355746320714856E-5    1.011506911014533E-5    6.346266223558825E-1   -7.725422841000049E-1
 6.680926719840479E8     6.397491606965892E-1   -7.771564642460016E-1    9.576395286188338E-7    6.731684364199309E-6    1.349411237085529E-6   -7.454344749986051E-6    6.239730514058797E-1   -7.805128083779974E-1
 6.780627118644068E8     6.299097939329115E-1   -7.855024815460826E-1   -5.722445717994828E-6    1.476903243286390E-5    2.198112607049623E-5   -1.320486631006648E-5    6.128400488626541E-1   -7.882674795358355E-1
 6.880327517447658E8     6.195873418045528E-1   -7.937320677482971E-1   -1.663407501329299E-5    2.032308995003852E-6   -8.714103820027543E-6    5.977586337429811E-6    6.014351258999322E-1   -7.959491802074048E-1
 6.980027916251246E8     6.086134631345268E-1   -8.018180055729447E-1    1.007859835018468E-5    2.116089276376023E-5    1.503519036748904E-6    1.561019416839235E-5    5.900106338151524E-1   -8.037014744401565E-1
 7.079728315054835E8     5.972642657507277E-1   -8.102364755711627E-1   -9.024520829347951E-6    2.021918927151162E-5   -5.211767813130631E-6   -6.085001988408406E-6    5.785317412873788E-1   -8.116113493090760E-1
 7.179428713858424E8     5.861662242167753E-1   -8.188399794501099E-1    1.843639009599460E-5   -2.092409345786492E-5    1.800410634272227E-5   -1.289443210355025E-5    5.672177278579075E-1   -8.202477876575628E-1
 7.279129112662014E8     5.751113612866161E-1   -8.272663126942321E-1   -1.508953652759886E-5    2.228980752778822E-5   -9.695112791897514E-6   -1.155039443022201E-5    5.559492487084920E-1   -8.288477318730550E-1
 7.378829511465603E8     5.638698934356435E-1   -8.360233890363230E-1    6.979334788825087E-6    1.127159303254014E-6   -7.755353549363006E-6    2.064512439807136E-5    5.445823925584650E-1   -8.372616556260557E-1
 7.478529910269192E8     5.518070739333546E-1   -8.445107420517211E-1   -3.366582848174174E-6    7.123982805022887E-6   -1.058511807246690E-5   -1.348057914227942E-5    5.333408371334284E-1   -8.449565380799384E-1
 7.578230309072782E8     5.392574696722678E-1   -8.516188177210355E-1   -1.181659587558107E-5   -3.024212206311836E-6   -6.891927963524673E-6   -1.043888584809307E-5    5.223477787028374E-1   -8.518430570843915E-1
 7.677930707876371E8     5.288593597186099E-1   -8.570565749219701E-1    1.052981753520221E-5   -5.416836706529475E-6    8.072911044924414E-6   -9.066896243811153E-6    5.110175935720088E-1   -8.582860300424309E-1
 7.777631106679960E8     5.191781548887067E-1   -8.640188507445868E-1   -1.841998648087985E-6   -2.989785480526143E-6    2.747751436499653E-6   -1.163939211010645E-5    4.994283513660184E-1   -8.647453059719252E-1
 7.877331505483550E8     5.089398232781669E-1   -8.709059625226298E-1   -4.434222187762665E-6   -3.904938452513648E-7   -3.041774365717158E-7   -5.932019300834100E-6    4.876858873780064E-1   -8.714972149343682E-1
 7.977031904287138E8     4.976780812636999E-1   -8.773208545478227E-1    2.062289301113023E-6    1.037953261538877E-5   -4.478801317244337E-6    1.550478509718305E-5    4.749578283923670E-1   -8.779380930955250E-1
 8.076732303090727E8     4.859641555497097E-1   -8.833520715155647E-1    4.952895635782623E-6    9.147978843927597E-6    1.034785447146067E-6   -3.263894348189550E-6    4.620606002377056E-1   -8.840124962664445E-1
 8.176432701894317E8     4.738756110447655E-1   -8.891995422015324E-1    2.304925997190742E-6   -1.135276561007685E-5   -5.602759738136100E-6   -4.521884258113454E-6    4.492281576376302E-1   -8.903429915721811E-1
 8.276133100697906E8     4.616102806678017E-1   -8.956393125601846E-1    3.311630644560588E-6   -1.260471181143314E-5    4.370060821840213E-6    6.404907250048376E-6    4.365043181106233E-1   -8.970262789340633E-1
 8.375833499501495E8     4.489088049597837E-1   -9.020484872432881E-1    1.893960157020692E-6    6.778276028520558E-6    1.183101551824904E-5    7.858843066338830E-8    4.243915229840221E-1   -9.037968418734240E-1
 8.475533898305085E8     4.361853476057089E-1   -9.084644966248706E-1    2.824925337429763E-7   -6.025460613020855E-7    1.557793167780452E-5    8.021530065616871E-6    4.126215582935068E-1   -9.097620238020970E-1
 8.575234297108674E8     4.233789262125872E-1   -9.148546316455675E-1   -6.829815478209011E-6   -2.609037085564407E-6    3.925290194844217E-6   -4.746394590898994E-7    4.007809731783986E-1   -9.150729164356501E-1
 8.674934695912263E8     4.105986315859084E-1   -9.215326518385756E-1    1.130799321471827E-5   -5.519332636302796E-7    7.749998174317656E-7   -1.787369585863345E-6    3.886628917954103E-1   -9.198709576613651E-1
 8.774635094715853E8     3.974139370372735E-1   -9.280281082760472E-1   -1.006869023444689E-5    5.295383601525018E-6   -1.261738285861747E-6    3.200258621564745E-7    3.761520027040821E-1   -9.246502183771871E-1
 8.874335493519442E8     3.844048835278674E-1   -9.327131357375444E-1   -6.544085412375644E-6   -8.066011222762294E-7   -2.417295868971323E-6    7.413582221727492E-6    3.630070526119467E-1   -9.290951017294242E-1
 8.974035892323031E8     3.731135835844935E-1   -9.363460222963588E-1    1.210947795531995E-5   -7.452117061331595E-6    1.296564635917488E-6    8.719878679492514E-6    3.494733645951260E-1   -9.334383033388692E-1
