#  HZ   S   RI   R     50.00 
! Rohde & Schwarz Vector Network Analyzer 
! Rohde-Schwarz,ZNB20-2Port,1311601062102128,3.60
! Created: UTC 4/29/2024, 2:55:40 PM
! freq[Hz]                re:S11                  im:S11                  re:S21                  im:S21                  re:S12                  im:S12                  re:S22                  im:S22
 1.000000000000000E5     9.962756861462746E-1    3.832959353690801E-3    5.678494297160912E-5   -7.700683524359056E-5    1.766602760019616E-5    1.385479171128085E-4    1.010463063985760      -1.134362979344983E-2
 1.007003988035892E7     9.977561535548772E-1   -1.392289103420867E-2    8.882673160544500E-6   -8.038370269816066E-6   -1.099540647799393E-5   -4.753858678938680E-6    9.958762369531639E-1   -1.448569683432087E-2
 2.004007976071785E7     9.998093477552551E-1   -2.718259543022626E-2    2.637236069666444E-5   -1.210355790246081E-7   -1.327946859404464E-5    2.781374900272178E-5    9.986557026744994E-1   -2.766245946263047E-2
 3.001011964107677E7     9.978997349840996E-1   -4.098731285223439E-2   -4.825844788609396E-6    4.856687703354880E-6    5.738853322418273E-6   -1.305656626282513E-5    9.975418839297903E-1   -4.199416985760353E-2
 3.998015952143569E7     9.975331370646875E-1   -5.308725778128536E-2    4.534172929473574E-6    7.790971393497595E-6    6.935993364699373E-7   -1.215658683937986E-5    9.974682590187750E-1   -5.663790843858154E-2
 4.995019940179461E7     9.959698146426595E-1   -6.592203870665028E-2   -1.278081602156082E-6   -4.826746914463432E-7    1.452488874876542E-7    1.987078974245388E-5    9.965450214347287E-1   -6.909570704541652E-2
 5.992023928215354E7     9.940132456886673E-1   -7.882870834799569E-2   -4.352963892034353E-7   -7.715419188344052E-6   -1.182795799670613E-5    8.730071060801752E-6    9.946229808750131E-1   -8.184174821712635E-2
 6.989027916251247E7     9.930485369787146E-1   -9.193288345613101E-2    6.918343414863650E-7    1.174308460232759E-5   -5.185089610921363E-6   -4.237345772301048E-6    9.933732759242012E-1   -9.479393933483692E-2
 7.986031904287139E7     9.924780273161616E-1   -1.052564864946521E-1   -1.437076147775863E-5    1.110620773014928E-5    1.250839799347058E-5    4.193763744213347E-6    9.923107046381441E-1   -1.078843986271048E-1
 8.983035892323031E7     9.914365556166961E-1   -1.187881153678368E-1   -1.445839569818932E-5    2.055584211027603E-6   -1.879309375461457E-6    1.158062199841183E-5    9.906808012722674E-1   -1.211192679723572E-1
 9.980039880358922E7     9.892703115187866E-1   -1.323464522493384E-1   -1.508361844512897E-5   -6.914979433555086E-6    1.995550626522899E-5   -1.311821442144722E-5    9.884854352590279E-1   -1.344138700981083E-1
 1.097704386839482E8     9.864163032660318E-1   -1.454572236559639E-1   -1.137620348837591E-5    8.832159616059069E-6   -1.255305050105644E-6   -7.691585082166892E-6    9.861323421873593E-1   -1.478320204366909E-1
 1.197404785643071E8     9.847835101492577E-1   -1.590032376445161E-1    1.890954409316388E-6   -1.317581278138412E-5   -8.027147007213033E-7    2.072795398986524E-6    9.841885399345900E-1   -1.610877205201326E-1
 1.297105184446660E8     9.830855697340429E-1   -1.718134166076171E-1    4.436160103063422E-6   -2.683506168438610E-6    3.365266064221235E-6   -1.858598680225722E-5    9.826667157440865E-1   -1.743830030431949E-1
 1.396805583250249E8     9.816249728132118E-1   -1.846398316834134E-1   -9.361026725336187E-6    6.961501008369286E-6    4.927457902913354E-6   -5.598266823936378E-6    9.807894453945424E-1   -1.875382933066675E-1
 1.496505982053838E8     9.789291726358509E-1   -1.970641036947787E-1   -2.131717688825255E-6   -1.268736104042725E-6   -2.598418781234248E-6    1.196307415989046E-5    9.784824530152922E-1   -2.004272268583269E-1
 1.596206380857428E8     9.762313949634098E-1   -2.094579431612264E-1    1.933932850210445E-5    1.048977153167140E-6   -3.516449816830460E-6   -1.406009546937999E-5    9.757586633254576E-1   -2.132310634154535E-1
 1.695906779661017E8     9.731003045856663E-1   -2.224114870593326E-1   -2.644350917936064E-5    1.124355758785670E-5   -6.262539458054740E-6   -5.664627804743122E-6    9.726655517800701E-1   -2.260346871062528E-1
 1.795607178464606E8     9.706225008894789E-1   -2.348743591978125E-1   -3.597226259958513E-6    1.048371076349682E-6   -4.275521919234628E-7   -1.033896827218989E-5    9.700859169506242E-1   -2.380703173300789E-1
 1.895307577268195E8     9.675899988780280E-1   -2.470217302021236E-1   -1.352845036083872E-6    1.465488735298610E-6   -1.028003578757700E-5    9.624561730073133E-7    9.667331493926307E-1   -2.504615301693642E-1
 1.995007976071784E8     9.638066208803483E-1   -2.594468668842371E-1    1.118935249108497E-5   -3.627758166803616E-6    2.182159006410449E-6   -1.606493155314199E-6    9.626478662454584E-1   -2.631030556202483E-1
 2.094708374875374E8     9.604584211005842E-1   -2.724198549288018E-1    8.777339518206056E-6   -1.022986086605899E-5    7.075328524261100E-7   -8.843942704816339E-6    9.588660051443499E-1   -2.760719644693887E-1
 2.194408773678963E8     9.572279384880600E-1   -2.851853119078690E-1    1.012611573162793E-5    1.812529835296311E-6    1.197429105030478E-5   -8.513055745263802E-6    9.551269104576461E-1   -2.890272823172473E-1
 2.294109172482552E8     9.536219735293885E-1   -2.973974612464177E-1    4.328607868009795E-6   -1.837584904509173E-7    9.059045376999515E-6   -7.538536108572819E-6    9.509152735931597E-1   -3.016916620413290E-1
 2.393809571286142E8     9.504501792773422E-1   -3.093794662626007E-1    1.173009932758417E-6   -3.268799548135672E-6   -1.624301750427425E-6   -1.024785949156877E-5    9.469811179793491E-1   -3.140790658437994E-1
 2.493509970089731E8     9.468758334840159E-1   -3.233073200831930E-1    1.684370324931358E-5   -5.048593031711852E-6   -1.257069363932529E-5   -7.884248889493235E-6    9.439964345805515E-1   -3.276018998457740E-1
 2.593210368893320E8     9.427557598024486E-1   -3.353188330031496E-1   -3.663309267180263E-6   -2.123435070304697E-6   -9.870677191731981E-7   -3.750773247167556E-6    9.398263210520587E-1   -3.408440483374036E-1
 2.692910767696909E8     9.384057738626727E-1   -3.467728544270920E-1   -1.602021973839095E-6   -1.943851755054065E-6   -4.089428573863063E-6    2.136220849889277E-5    9.354691798159265E-1   -3.528601477870282E-1
 2.792611166500499E8     9.337986653769179E-1   -3.584222354988790E-1    4.113896911119937E-6   -1.131749457456440E-5    2.159434925404070E-5    3.638317345689331E-6    9.308906252637976E-1   -3.646490449026172E-1
 2.892311565304088E8     9.289056561236074E-1   -3.704962882801883E-1    4.797608045531372E-6   -5.751722450695314E-6    7.440712940353688E-8    2.055016554663592E-7    9.261551976570800E-1   -3.767360911251392E-1
 2.992011964107677E8     9.240778403246815E-1   -3.825876488625487E-1    1.041897295832062E-7   -1.112759102483910E-5    3.729061595633224E-6   -1.283432127720203E-5    9.211780152547422E-1   -3.886548447609972E-1
 3.091712362911266E8     9.187049183359850E-1   -3.949007179401881E-1    8.420988876573042E-6    1.417478450667088E-5   -1.445244073526528E-5    2.190941234831140E-5    9.156015497241002E-1   -4.000895641871293E-1
 3.191412761714855E8     9.132856172568319E-1   -4.073475861392324E-1   -4.383672848651178E-6    9.063994572646985E-6   -6.509884544527899E-6   -1.617234917247933E-5    9.096448834262798E-1   -4.119240144756455E-1
 3.291113160518445E8     9.075900485599145E-1   -4.200354696780274E-1    1.582926009953589E-6   -2.048299743880516E-5   -9.944312453078230E-6    5.981450276810830E-6    9.033321383665974E-1   -4.243753771050927E-1
 3.390813559322034E8     9.018599169691096E-1   -4.327936681611553E-1    6.291703092519452E-6    6.163209371326110E-7   -4.818064104490086E-6    1.142339768258687E-5    8.968050075952646E-1   -4.369129427410745E-1
 3.490513958125623E8     8.965725805973288E-1   -4.454232048576836E-1   -1.148007987570044E-5   -1.469983406767417E-5   -5.137073021230339E-6    3.246383084107451E-6    8.905219676135113E-1   -4.494867581648059E-1
 3.590214356929212E8     8.912127512166038E-1   -4.578798034480162E-1    9.757886270549556E-6    1.089203218253945E-5   -1.076240275265159E-5   -8.876519608976432E-6    8.844182535886432E-1   -4.620456615902045E-1
 3.689914755732802E8     8.859591972377989E-1   -4.700945779536506E-1   -9.380653796880617E-6   -2.004922939526546E-6   -3.666535546026609E-6    8.987932127092069E-7    8.789121976233031E-1   -4.746502153726218E-1
 3.789615154536391E8     8.797837996245721E-1   -4.813501159452824E-1   -4.441183791784917E-6    8.655118307191327E-6   -4.796929763537272E-6   -5.037716300048838E-6    8.738208055113355E-1   -4.866847806429562E-1
 3.889315553339980E8     8.741209245797140E-1   -4.919949379146763E-1   -1.155832666042244E-6   -8.492844316360742E-6    1.217711829661239E-5    1.690216676680992E-6    8.679848507019466E-1   -4.988313775757134E-1
 3.989015952143569E8     8.673636225508580E-1   -5.027154859570458E-1   -7.908069744911348E-6   -2.400463247020456E-5    1.061064295703654E-6    2.961167086685489E-6    8.609502610446869E-1   -5.096378974215301E-1
 4.088716350947158E8     8.601116251418198E-1   -5.135905061717350E-1   -3.658822694554931E-7   -8.401993987416301E-6    1.440928742334437E-5    3.861563294761998E-6    8.542032901106488E-1   -5.206073299757972E-1
 4.188416749750748E8     8.532949942568564E-1   -5.251371540933492E-1    6.453609208446471E-6   -1.006991465827838E-6    1.047106744287862E-5   -1.054574548244587E-5    8.475403645483316E-1   -5.314005985234953E-1
 4.288117148554337E8     8.460019967695610E-1   -5.368176122096194E-1   -1.781987995995837E-5    9.411604548052831E-7   -8.420066519501498E-7    5.080496244177708E-6    8.405984592989620E-1   -5.419115795490420E-1
 4.387817547357926E8     8.382609418585926E-1   -5.481789298708215E-1   -4.261293709494257E-6    1.821628351458316E-6   -1.684554885788410E-5   -1.873437306538766E-5    8.325708935604553E-1   -5.523022888603429E-1
 4.487517946161516E8     8.304121756485775E-1   -5.600447123251489E-1    6.710170769493749E-6   -9.382762604226428E-6   -1.340856080382357E-5   -2.231777278666596E-5    8.241705161531454E-1   -5.634915981596307E-1
 4.587218344965104E8     8.235411573572644E-1   -5.719815700816288E-1   -5.794744150396002E-6    7.590761585817354E-6    1.149249058341831E-5   -8.809424452599736E-6    8.159141331250417E-1   -5.752511849200913E-1
 4.686918743768694E8     8.169000886646789E-1   -5.833990304733887E-1   -1.467367614653304E-6    8.349384254839826E-6    5.605071606141381E-6   -1.055172145856285E-5    8.078437555946238E-1   -5.868820673026104E-1
 4.786619142572283E8     8.096841346612268E-1   -5.940770536142855E-1   -7.485326958233606E-6    1.189292213771471E-7    4.998113700096318E-6   -2.380250604007582E-6    7.992369198488219E-1   -5.980310630811521E-1
 4.886319541375872E8     8.021453479112980E-1   -6.046571049640731E-1    1.718427537238514E-6    1.769640995617190E-5    7.269195093741837E-6    1.700334556169294E-5    7.902721560409625E-1   -6.087562822895426E-1
 4.986019940179462E8     7.939300824667788E-1   -6.154183171432617E-1    3.914391395183306E-6   -3.314895023394352E-6    5.741125526289077E-6   -3.568337949852114E-6    7.822595537608205E-1   -6.196608943789825E-1
 5.085720338983051E8     7.856341015506566E-1   -6.245352256339699E-1    4.733669991978923E-6   -2.357482182812977E-6    6.006261938339964E-6    1.583056488701937E-5    7.747143312157787E-1   -6.303309020035391E-1
 5.185420737786640E8     7.781066906882833E-1   -6.335036194962791E-1   -3.142487900765490E-6   -2.518659645760631E-6    1.165052826735985E-5   -1.106404853052199E-5    7.669195929163980E-1   -6.401688394603400E-1
 5.285121136590229E8     7.698602787104913E-1   -6.430394522090671E-1    8.724085794030351E-6   -6.037480175812971E-6   -9.782102837898955E-6    9.566607447912891E-6    7.588645847205721E-1   -6.496575334091386E-1
 5.384821535393819E8     7.613927053033392E-1   -6.531737917152955E-1   -4.041025379223413E-6   -2.069989085849813E-6   -3.047993495176101E-6    1.252813541596413E-6    7.507148700186428E-1   -6.592594311399441E-1
 5.484521934197408E8     7.532221124904743E-1   -6.637297153964714E-1   -5.767956893208801E-6   -1.338954218909279E-6    1.712794149292842E-5   -1.409395987535050E-5    7.423667583197938E-1   -6.691503945388307E-1
 5.584222333000997E8     7.447517081487723E-1   -6.746644262677806E-1   -1.118676989567984E-6    1.513545775117789E-5    2.786383890269140E-5   -1.862505450509054E-5    7.333414772000624E-1   -6.793113982399388E-1
 5.683922731804587E8     7.355384169903197E-1   -6.850805980532019E-1    2.856589011719145E-6   -1.871744336368182E-6   -7.568856410134583E-6    2.355299963015018E-5    7.230726638027604E-1   -6.892219222209923E-1
 5.783623130608176E8     7.262528137819171E-1   -6.950358113417462E-1   -4.903149585120556E-6    5.202718288884190E-6   -1.169951556702006E-5   -1.201441396495952E-5    7.124919232946055E-1   -6.987492346976741E-1
 5.883323529411764E8     7.170029898517796E-1   -7.050540540482074E-1    7.644883008095206E-7    9.661719943365557E-6    1.388990476947109E-5    5.190586657329725E-6    7.021750367181726E-1   -7.086357180935458E-1
 5.983023928215353E8     7.078028224534317E-1   -7.152033092284398E-1    3.757364251797604E-6   -8.856060850551800E-6   -5.312221120817935E-6   -2.362733780213792E-5    6.919258108230932E-1   -7.185531358971090E-1
 6.082724327018943E8     6.984287287360372E-1   -7.249621903176222E-1    7.102456305483401E-6    1.375881189617765E-5   -9.753295545906868E-6   -8.493123478520872E-6    6.817257314359051E-1   -7.277586685949385E-1
 6.182424725822532E8     6.884544375051320E-1   -7.345839738416983E-1    3.711068137905678E-6    5.093189099097544E-6   -8.849609982550245E-6   -1.684572990030972E-5    6.716116386023601E-1   -7.371802410626271E-1
 6.282125124626122E8     6.779319436021072E-1   -7.439016130025958E-1   -1.002875750558023E-5   -1.195537347686435E-5    6.595378155792685E-6   -1.202858701605317E-5    6.627304675307263E-1   -7.467393124846505E-1
 6.381825523429711E8     6.683626768526463E-1   -7.510786496926476E-1   -1.080293021494488E-5    4.696896123966571E-6   -4.965085336077597E-6   -2.732235473405409E-6    6.536669304202238E-1   -7.557136897403739E-1
 6.481525922233300E8     6.593556305469789E-1   -7.596956180310754E-1    5.991942024135012E-6    7.764806263833931E-7   -2.817587703953104E-6   -3.174977791653594E-6    6.446155964170966E-1   -7.641713787371998E-1
 6.581226321036890E8     6.496177553222441E-1   -7.686024881998933E-1   -4.796715486390479E-6   -3.534231896527082E-6    2.115419663426031E-6    1.124087811605813E-5    6.346211680463147E-1   -7.725056641918346E-1
 6.680926719840479E8     6.396259022263426E-1   -7.771554674077346E-1    8.151702818343693E-6   -8.624532620497715E-6   -1.347878625787819E-5    5.760237553112812E-6    6.239219663328143E-1   -7.803678737017125E-1
 6.780627118644068E8     6.298469017115524E-1   -7.852988843532922E-1    2.324086262198402E-6    1.878744622327571E-6   -4.589792652817997E-6   -2.341506501797101E-5    6.128416816715488E-1   -7.883309905232448E-1
 6.880327517447658E8     6.195774305975673E-1   -7.937144950562843E-1   -6.586211929187624E-6   -7.854496942451422E-6    1.011875926536486E-5   -5.981413951618950E-6    6.015171949477092E-1   -7.960308565181867E-1
 6.980027916251246E8     6.086728432058816E-1   -8.019264029278751E-1    5.034586394401582E-6   -2.411479242576468E-6   -5.226301288452181E-6    1.252728844681759E-5    5.899035206798124E-1   -8.036720685140077E-1
 7.079728315054835E8     5.972201611997354E-1   -8.101652158660866E-1    1.525595585712172E-6    4.964489878626489E-6   -6.105692155036155E-7   -1.629862687003007E-5    5.785935690470048E-1   -8.117320882631788E-1
 7.179428713858424E8     5.860384745661531E-1   -8.186787359628857E-1   -3.156590791974141E-6   -4.250477673086444E-6    6.709696291240743E-6   -4.763741908080786E-7    5.672460782209884E-1   -8.201948457811145E-1
 7.279129112662014E8     5.750974154099719E-1   -8.270891712027459E-1   -5.411302357584068E-6   -1.417689215234182E-5    1.714705021246698E-6    3.139460421914849E-6    5.559322679168383E-1   -8.288779293051202E-1
 7.378829511465603E8     5.638596894307849E-1   -8.359649679066219E-1    6.455198392269509E-6   -6.162192108470407E-6    8.254460994362047E-6   -8.413982191154093E-6    5.446156262701786E-1   -8.372088216377964E-1
 7.478529910269192E8     5.518603951105623E-1   -8.444795750733289E-1    2.671247313019866E-6   -8.116807686882570E-6   -8.693367321458211E-6   -7.261428202719744E-6    5.334644622950643E-1   -8.450029967456529E-1
 7.578230309072782E8     5.391894807396714E-1   -8.515988279542056E-1    9.455779633840021E-6   -8.748569135964395E-6    4.055116576482162E-6   -3.686598924955903E-6    5.223328910088809E-1   -8.519290540256856E-1
 7.677930707876371E8     5.287192604010061E-1   -8.569817729742643E-1    1.540644110928086E-6    3.489715391857304E-6    7.052726158202197E-6   -4.809339021020122E-6    5.111110383682395E-1   -8.582815928477165E-1
 7.777631106679960E8     5.191768549025194E-1   -8.638881107363352E-1   -1.179940537217340E-5    7.237225703398386E-6   -4.394386905592395E-6   -2.378349184869163E-5    4.994703425383899E-1   -8.647935178934227E-1
 7.877331505483550E8     5.088680200656479E-1   -8.708598329761509E-1   -1.542173005253478E-5    4.531821263650024E-6    4.150918999510394E-7   -9.641405035085398E-6    4.876421114167958E-1   -8.715221683779000E-1
 7.977031904287138E8     4.976322822545607E-1   -8.772272103184722E-1   -8.146077417201689E-6   -7.635808646229183E-7    4.816346889038004E-6   -1.685194787005819E-6    4.749551426141483E-1   -8.779429939806311E-1
 8.076732303090727E8     4.858798978042642E-1   -8.830339460146982E-1   -5.671602949130713E-6   -3.573313838378936E-6   -3.118063077345171E-7   -1.406256314666121E-5    4.620210900134743E-1   -8.840155878046841E-1
 8.176432701894317E8     4.738438811577229E-1   -8.892014824240296E-1   -7.177784754311136E-6    1.028254482893245E-6    2.285731162693743E-6   -4.047144705964868E-6    4.491147524525747E-1   -8.903441426624980E-1
 8.276133100697906E8     4.615984736521892E-1   -8.956208990569979E-1   -1.041750020984722E-5   -8.837928865342012E-7    1.202339408937806E-5   -5.128560219873174E-6    4.366308521807962E-1   -8.970226126971735E-1
 8.375833499501495E8     4.488847395565135E-1   -9.019778481271677E-1    4.173267213626470E-6    3.711338913608916E-6   -4.456600293478570E-6   -1.720615382687066E-6    4.244708909030089E-1   -9.037475851129687E-1
 8.475533898305085E8     4.361278115410250E-1   -9.083316906208317E-1    1.197383999570869E-5    4.121921727936791E-6   -3.426847243012475E-6   -2.766593496164909E-6    4.126372558988937E-1   -9.097234981935355E-1
 8.575234297108674E8     4.233609742609541E-1   -9.147441821331199E-1    6.396415098827294E-6    4.017538713870621E-6    1.400359942760539E-5   -6.969901788589329E-6    4.007465829608480E-1   -9.150044709694597E-1
 8.674934695912263E8     4.104983112802182E-1   -9.214942029247982E-1    4.858259249940854E-6    4.450318317971496E-6    2.552548084825611E-6   -1.478047745343175E-5    3.887955037692742E-1   -9.200314397137256E-1
 8.774635094715853E8     3.974487687652490E-1   -9.280095676439918E-1    1.318927453034676E-5   -7.354149354587282E-6    5.692348396282219E-6   -6.456061674360575E-8    3.761239459484547E-1   -9.246155833578513E-1
 8.874335493519442E8     3.843038788451086E-1   -9.325669815535684E-1    2.182468160413181E-5    1.938779581980813E-6   -3.640448743230619E-6   -5.417913378953147E-6    3.630373995421030E-1   -9.290427337463890E-1
 8.974035892323031E8     3.729831165106715E-1   -9.362177984727481E-1    2.428788526286612E-5    5.496802546536019E-6   -9.920829524221174E-6   -2.309387760145267E-6    3.496567040067921E-1   -9.335096343502604E-1
