#  HZ   S   RI   R     50.00 
! Rohde & Schwarz Vector Network Analyzer 
! Rohde-Schwarz,ZNB20-2Port,1311601062102128,3.60
! Created: UTC 4/29/2024, 2:55:46 PM
! freq[Hz]                re:S11                  im:S11                  re:S21                  im:S21                  re:S12                  im:S12                  re:S22                  im:S22
 1.000000000000000E5     9.961836965883696E-1    3.818226151324708E-3    5.669653860969969E-5   -2.341576400564875E-6   -1.832636376079680E-5   -5.166634871070427E-5    1.010309387343312      -1.135178249921515E-2
 1.007003988035892E7     9.975869249024591E-1   -1.378853310373136E-2   -1.956784014259289E-7    6.040092143935609E-6   -9.653497126422939E-7    4.527798967826151E-6    9.959048405013119E-1   -1.449664341733776E-2
 2.004007976071785E7     9.997004911431695E-1   -2.703349867807276E-2   -2.787679782451360E-5   -2.219010339313165E-5    4.322545556709229E-6    4.628649374206860E-6    9.986324765744311E-1   -2.777011997705048E-2
 3.001011964107677E7     9.977918729973352E-1   -4.098877453650768E-2   -3.718543942775191E-6   -7.702204557259517E-7    2.418966550555673E-5    8.634342444057412E-6    9.975237528242907E-1   -4.202706347899748E-2
 3.998015952143569E7     9.977209998915981E-1   -5.313414641971682E-2   -2.446847338672545E-6   -1.524901931914115E-5   -6.657585581544791E-6   -6.630325626012033E-6    9.976477591989295E-1   -5.662190781204018E-2
 4.995019940179461E7     9.961289581308754E-1   -6.598303312739362E-2   -1.188194392223651E-5   -9.507120968738826E-6    2.983411320513227E-6   -2.723206217529572E-6    9.966548605750757E-1   -6.908562803275221E-2
 5.992023928215354E7     9.942277084320504E-1   -7.887361850099851E-2   -1.841530828814439E-6   -1.614871082846324E-5    1.823339194750711E-5   -3.448567636603622E-6    9.946525928663495E-1   -8.198530881199144E-2
 6.989027916251247E7     9.929636129619985E-1   -9.184134994138653E-2   -2.084939504240039E-6   -9.734205333899849E-6    1.241778350488705E-5   -1.782570673501315E-5    9.933500112675723E-1   -9.471510020488419E-2
 7.986031904287139E7     9.923661044529003E-1   -1.052575474814956E-1    6.160584994952437E-6    9.903726192287601E-6   -4.585726141555409E-6    9.041548810155228E-6    9.922193119319296E-1   -1.079129403966869E-1
 8.983035892323031E7     9.913610221649025E-1   -1.187962618413220E-1    7.415339794638026E-7   -1.427256380855171E-5    1.129770002661142E-6    2.913234837168788E-6    9.907756307682898E-1   -1.210420996978252E-1
 9.980039880358922E7     9.893885787163410E-1   -1.324140617063942E-1    1.296229215421247E-5    1.506393190175219E-5   -8.497868992369415E-6   -6.971825341548513E-6    9.887083676900464E-1   -1.343439392363946E-1
 1.097704386839482E8     9.864960186180989E-1   -1.455021078540112E-1   -5.452702612188462E-7   -6.004706074343164E-6   -2.736461444793402E-6    3.064619521819520E-6    9.863043044998239E-1   -1.479129913891553E-1
 1.197404785643071E8     9.847395828205641E-1   -1.588746260002859E-1    1.315458264085420E-5   -4.265923615312830E-6   -2.320748434784847E-6   -7.869573747087696E-6    9.842333214089957E-1   -1.611398904570544E-1
 1.297105184446660E8     9.830104168744491E-1   -1.717797398364533E-1   -4.304871582713828E-6    6.086664674826582E-6   -2.493208911791413E-6    1.934742983401918E-6    9.829837270318761E-1   -1.744190775087029E-1
 1.396805583250249E8     9.815584842496090E-1   -1.846435548503490E-1   -3.243995278059285E-6    1.122323201678136E-5    1.975143753328535E-6    2.893630637674500E-6    9.806947793636526E-1   -1.875495048281115E-1
 1.496505982053838E8     9.789425170690004E-1   -1.970793079689281E-1    6.757731570938106E-6    1.758381918445664E-6   -1.054439210829931E-5    1.981701615479217E-5    9.785002587461377E-1   -2.002953727616846E-1
 1.596206380857428E8     9.762507681415910E-1   -2.095218471974652E-1    1.517783737893630E-5   -2.797187789659863E-6   -9.252686840326590E-6    2.442470446666379E-6    9.758112666030929E-1   -2.132897132912777E-1
 1.695906779661017E8     9.731998077976771E-1   -2.223965550197681E-1   -6.008615918526874E-6    8.937969731466631E-7    1.368478015100950E-5   -1.085426533336595E-5    9.728672883961307E-1   -2.261038584778589E-1
 1.795607178464606E8     9.706803755449145E-1   -2.348352823552037E-1    1.311767212947930E-5    1.866942941301939E-5    1.496686425906748E-6   -1.309025132480793E-5    9.701160034093337E-1   -2.380654945294794E-1
 1.895307577268195E8     9.675926181901302E-1   -2.470147149732997E-1   -1.181159370310984E-5    2.306989030052321E-6   -7.839068106287537E-6    1.520291221485444E-5    9.668440122803403E-1   -2.505200895171536E-1
 1.995007976071784E8     9.638220119328321E-1   -2.595756919130531E-1   -4.815348547128886E-8   -8.132723638324578E-6   -1.057577367128214E-5   -6.603839601311117E-6    9.628662550987651E-1   -2.631744331119855E-1
 2.094708374875374E8     9.604125837691451E-1   -2.723917806711021E-1    1.613880811860016E-6    5.746854173454072E-6    2.090121764419198E-6    9.426214806826461E-6    9.588812202060076E-1   -2.761500701374349E-1
 2.194408773678963E8     9.572052791652208E-1   -2.851203100052984E-1   -2.895205069971119E-6   -9.594482302240704E-6    3.730992845811163E-6    1.467374913039510E-5    9.550860956946489E-1   -2.891093559389828E-1
 2.294109172482552E8     9.535627088272138E-1   -2.973687576902483E-1    1.291897266593055E-5    2.478217887246425E-5   -4.030786656856669E-6   -3.851490636215174E-6    9.509379339942300E-1   -3.017692550048161E-1
 2.393809571286142E8     9.504510607502913E-1   -3.093723272285815E-1    8.084558784846069E-6    2.060467847922513E-5    1.956939181587972E-5   -2.794239440480644E-8    9.470333606819118E-1   -3.139990418925695E-1
 2.493509970089731E8     9.469571055025788E-1   -3.233104206512164E-1    1.188230519483033E-5    2.127808227882194E-6    9.801469324386938E-6    8.566456264458461E-6    9.440510451525010E-1   -3.275762931596897E-1
 2.593210368893320E8     9.427348412571714E-1   -3.353588204744926E-1    7.549729874491667E-6    7.352565658928830E-6    9.857967915135790E-6   -1.276158950640723E-5    9.398040393532299E-1   -3.408480589044482E-1
 2.692910767696909E8     9.384259527411696E-1   -3.467196247140191E-1   -4.925279126653020E-7    1.136891431744044E-5   -8.182870458890972E-7   -7.802185678908014E-7    9.354205411822170E-1   -3.528507278440607E-1
 2.792611166500499E8     9.337125263528906E-1   -3.583486644857332E-1    1.147249418062722E-5    1.284564809536470E-6   -5.162983943207155E-6    1.109602774518202E-5    9.311240676456766E-1   -3.646834918650562E-1
 2.892311565304088E8     9.288909011424411E-1   -3.704435929222137E-1   -2.617329009400424E-6    1.126271851506786E-6   -1.884531993271974E-6   -7.143080830111012E-6    9.261859646179541E-1   -3.768693839421662E-1
 2.992011964107677E8     9.241523942208082E-1   -3.826782826893897E-1    2.688064733215489E-6    1.436751386478332E-5   -2.475964331617537E-6   -3.227383722829495E-6    9.211416883659101E-1   -3.885710277839705E-1
 3.091712362911266E8     9.187916849608307E-1   -3.949034920413115E-1    1.423359769892445E-5   -1.319019079287414E-5    8.684414342679392E-6    7.834407569841722E-6    9.157079306440369E-1   -4.001119024891842E-1
 3.191412761714855E8     9.132414756103051E-1   -4.073466211948444E-1    1.186065817130120E-5    5.041536835025984E-7   -6.712413040669225E-6    3.573922881356272E-6    9.098319413944664E-1   -4.119659461587269E-1
 3.291113160518445E8     9.075372668873817E-1   -4.199436607895780E-1   -1.088625472323655E-5   -7.674665143810350E-6   -8.032127163505859E-6   -7.562601691696711E-6    9.034134270290369E-1   -4.243556811724191E-1
 3.390813559322034E8     9.019290394129639E-1   -4.328196383890002E-1   -4.917191406332170E-6   -3.089492794378690E-6    1.455137695976334E-5   -1.299850445646565E-5    8.967621037856147E-1   -4.369538829767242E-1
 3.490513958125623E8     8.966661153440177E-1   -4.454161757896327E-1    7.569691185243678E-6   -9.526673764060806E-7    1.145448300370424E-5    1.766842152881830E-5    8.905679732824615E-1   -4.493679473710412E-1
 3.590214356929212E8     8.912578290654921E-1   -4.578056443433761E-1    4.001931921523547E-6    1.894491781636856E-5   -1.315426587154241E-5    4.457019620409507E-6    8.844612193820215E-1   -4.621398907819617E-1
 3.689914755732802E8     8.858761415723273E-1   -4.699770225778198E-1   -7.634524026105578E-6    1.638757664736028E-5    1.062974439381758E-6    2.659215586847897E-6    8.792069053485242E-1   -4.746954562002335E-1
 3.789615154536391E8     8.798478098285619E-1   -4.812944503515378E-1    5.224556791703595E-6    6.759427503977223E-7    3.024623653386929E-6    4.744958198847871E-7    8.738634934319458E-1   -4.867217517499957E-1
 3.889315553339980E8     8.741250776679490E-1   -4.919830892728858E-1   -6.129865657562239E-6    2.108254290358253E-5    5.887218626855537E-6   -1.171734877323560E-5    8.678977689543108E-1   -4.987265441758912E-1
 3.989015952143569E8     8.673794859249874E-1   -5.027468063395537E-1    2.055303537990950E-5    6.037189999448604E-8   -9.298330083505383E-6    1.306919429717967E-6    8.611137063452230E-1   -5.096820352788607E-1
 4.088716350947158E8     8.601865101355386E-1   -5.135837322199976E-1    1.689472204225576E-5   -1.839168843502347E-6    1.122614747477361E-5   -1.977523086446581E-6    8.543127342038338E-1   -5.206466874705981E-1
 4.188416749750748E8     8.532953443497603E-1   -5.251399139707355E-1    8.971556980375076E-7    1.498217009158981E-5    3.486435479561882E-6   -1.805376955768195E-5    8.476125497782143E-1   -5.314356618550501E-1
 4.288117148554337E8     8.459746836291510E-1   -5.367724827775717E-1    2.797664712144850E-6    1.687213787642874E-5   -5.945428237528306E-6   -1.366970972002536E-5    8.405637051361216E-1   -5.417543677182286E-1
 4.387817547357926E8     8.382446562499151E-1   -5.481892035717099E-1   -2.917094390644012E-6   -1.171405218929168E-5   -5.271425812397275E-6    1.764808622335887E-7    8.327095913973730E-1   -5.523066534212794E-1
 4.487517946161516E8     8.305147225696313E-1   -5.600047538158892E-1    2.581770888926303E-6   -1.328494433037553E-6    5.548676668462153E-6    5.128541152215450E-6    8.242171867478942E-1   -5.634339167457524E-1
 4.587218344965104E8     8.235575461041480E-1   -5.719857803292703E-1   -1.670273680776968E-5    7.130082704171939E-6   -2.429842665952849E-6   -6.799838063606575E-6    8.160389922497517E-1   -5.752560846120219E-1
 4.686918743768694E8     8.169683648257861E-1   -5.833384976879237E-1    5.149699974938213E-7    1.285044761852683E-5    1.812635292951475E-5   -6.518060942056895E-6    8.078546150036955E-1   -5.867662368619435E-1
 4.786619142572283E8     8.097443572224277E-1   -5.942373168627464E-1   -8.827098611766285E-7    3.077157063688502E-6    2.905349901704252E-6    6.432483105461480E-6    7.992859355171593E-1   -5.979978525441172E-1
 4.886319541375872E8     8.023687057375283E-1   -6.046893377618479E-1    6.560578351377885E-7   -1.156866577893053E-5    1.574168489091279E-6   -8.458551061030698E-7    7.905176034451730E-1   -6.089282515274778E-1
 4.986019940179462E8     7.940526201397001E-1   -6.154078561328813E-1    1.891940585009946E-6   -7.589197672520588E-7   -4.571783991826260E-6    8.358186738465355E-6    7.823212682511502E-1   -6.196240352900044E-1
 5.085720338983051E8     7.856493935475590E-1   -6.245694775405646E-1    1.174223852311875E-5    4.934480676859504E-6    6.083691223307567E-6    1.396247983027921E-5    7.746516920248493E-1   -6.302802008993785E-1
 5.185420737786640E8     7.782147434199591E-1   -6.335368768067844E-1   -1.941322046269826E-6   -1.152573363638718E-5   -7.428981830875004E-6    4.482551624456839E-6    7.669482359687990E-1   -6.401537983493577E-1
 5.285121136590229E8     7.698865955873309E-1   -6.430168464785420E-1    8.689089264997293E-6    3.942172483782546E-6   -3.647178015618992E-6   -7.818901321694905E-7    7.589675579918893E-1   -6.497006368789651E-1
 5.384821535393819E8     7.613916986659558E-1   -6.531771946722160E-1    2.424995046698708E-6    7.369648388347351E-8   -6.578525401964266E-6    1.251566848300168E-5    7.508663624071553E-1   -6.593046645152922E-1
 5.484521934197408E8     7.533521737232974E-1   -6.638122136816057E-1   -2.445779478730661E-6    9.945829845812456E-6   -4.543489618031933E-6    1.238006537220235E-5    7.424839384201958E-1   -6.692597372162722E-1
 5.584222333000997E8     7.447820240271463E-1   -6.747303827873481E-1   -7.504833196999115E-6    5.621421646113636E-6   -1.087762983872526E-6   -8.649392884641429E-6    7.333153693400598E-1   -6.792286289577139E-1
 5.683922731804587E8     7.354978870112151E-1   -6.851665975460747E-1   -4.142293502880107E-6   -3.963781189249424E-6   -2.445133657501963E-6   -1.252173939565954E-5    7.231846284565622E-1   -6.890988184766558E-1
 5.783623130608176E8     7.261939828528601E-1   -6.951652645405781E-1    2.709036388356473E-6   -1.436377781676810E-5    1.795309324024936E-6   -1.170401219416355E-5    7.127289239684885E-1   -6.989413425615056E-1
 5.883323529411764E8     7.170159916260990E-1   -7.051665720758957E-1   -6.447577058515105E-6    3.513210685365694E-6    4.874981769875661E-6   -7.887857661311551E-7    7.022049014548510E-1   -7.086215011112774E-1
 5.983023928215353E8     7.079811463588421E-1   -7.152696956848549E-1    3.720609837140332E-6    5.001156490246099E-6   -1.044918444220752E-5   -4.818390774187750E-6    6.919159617640901E-1   -7.183810271343017E-1
 6.082724327018943E8     6.984454657406346E-1   -7.250754181672157E-1   -6.486687651392624E-6   -2.414937582566467E-6    8.180023746911192E-6   -9.216650461814603E-6    6.816643417330313E-1   -7.277838179787330E-1
 6.182424725822532E8     6.883990166840556E-1   -7.344779154074728E-1   -7.095768107868612E-6   -2.590154268271729E-5    7.506312178902020E-6    1.903615557652436E-5    6.717683826987381E-1   -7.371496812680373E-1
 6.282125124626122E8     6.779972166476299E-1   -7.439131462580364E-1    1.289110722263819E-5   -1.536533547022579E-6    3.818466663900152E-7    1.459194991023304E-5    6.626846758437848E-1   -7.467111771918504E-1
 6.381825523429711E8     6.683603840945113E-1   -7.511276412850160E-1   -6.864178912683683E-6    1.576160105087934E-6   -9.928599165655578E-6    6.512062116366179E-6    6.536518061327803E-1   -7.556445158819963E-1
 6.481525922233300E8     6.593593342037362E-1   -7.597027534584450E-1    5.649551703465448E-6   -5.033109561515345E-6    1.042704430214380E-5   -7.620920893072969E-6    6.445270206907692E-1   -7.640971649124436E-1
 6.581226321036890E8     6.496413371740969E-1   -7.685737917899592E-1    3.063816662675176E-6    1.190322706892785E-5    1.136094387993630E-6   -1.016075563783972E-5    6.345900646053299E-1   -7.725150958784825E-1
 6.680926719840479E8     6.397620639006800E-1   -7.772024002995328E-1    9.132685508394659E-6   -1.886057393651084E-6    7.232433856909033E-6   -5.975938963201871E-6    6.238989536532684E-1   -7.804497157156073E-1
 6.780627118644068E8     6.298487726436854E-1   -7.853597793027863E-1    7.446698143454871E-8   -6.297531060737440E-6    1.242704784792728E-5    1.885664099454472E-5    6.129158912401631E-1   -7.882753259385437E-1
 6.880327517447658E8     6.196335178967652E-1   -7.937485877539717E-1   -1.610533283202696E-5    1.823126184774180E-5   -4.934611839319611E-6   -3.836787353547707E-7    6.014552194282098E-1   -7.959122190371963E-1
 6.980027916251246E8     6.086432401625947E-1   -8.019192602216993E-1   -8.364054076840172E-6   -1.066735418143943E-5   -1.607622352411792E-8   -1.958773441598097E-5    5.899610063993964E-1   -8.036002485295251E-1
 7.079728315054835E8     5.972131472535996E-1   -8.102357255603309E-1    2.626609016138430E-6    7.980091450847742E-6    9.944892510890595E-6   -2.138237026177864E-6    5.785588773011436E-1   -8.116304822241862E-1
 7.179428713858424E8     5.860499633967413E-1   -8.186734925424247E-1    3.437428939311302E-6   -4.291842267346557E-6    1.679244128313291E-5    6.194062195722907E-6    5.673048198466581E-1   -8.202256518328654E-1
 7.279129112662014E8     5.751183846870269E-1   -8.271821693281245E-1   -5.067617961396920E-6    1.495671930370848E-5   -2.052993344233778E-6    3.052515890392906E-6    5.560519159932711E-1   -8.288713181401928E-1
 7.378829511465603E8     5.638224328415767E-1   -8.359439863271099E-1    1.677112153995820E-7   -5.242433288360863E-6    5.858476897180400E-6    3.090394652173961E-6    5.445989183227938E-1   -8.372746079345097E-1
 7.478529910269192E8     5.518702894646725E-1   -8.445527522372686E-1   -4.909523792361491E-6   -3.592067844520079E-7   -1.600225415510986E-6   -4.324888888616248E-6    5.334848303947433E-1   -8.450645677260583E-1
 7.578230309072782E8     5.392210372829281E-1   -8.517235361437770E-1   -6.391874569742051E-6   -8.169118766414876E-6   -9.302395895955172E-8    1.537118569637249E-5    5.223569841322317E-1   -8.518615050776768E-1
 7.677930707876371E8     5.287585271872297E-1   -8.570098352505557E-1    1.335584546255163E-6    2.994851678672298E-6   -1.746625666750442E-5    1.019336165625916E-5    5.111018581408661E-1   -8.582995433076844E-1
 7.777631106679960E8     5.191661319074951E-1   -8.639730668830974E-1    1.725006810647399E-5   -6.504396873818281E-6    8.761015137530630E-6   -2.130839674146798E-6    4.994306104460365E-1   -8.647601456696090E-1
 7.877331505483550E8     5.088668868885610E-1   -8.708994522211551E-1   -7.915817119241290E-6    9.942782399915874E-8   -3.159409230725292E-6   -5.377174430085724E-6    4.876424217939572E-1   -8.714188341228377E-1
 7.977031904287138E8     4.976377511950562E-1   -8.772967299462222E-1   -8.205412442278891E-6   -9.003782349217567E-6   -8.983936769657218E-6   -2.817394304584097E-6    4.749530446630835E-1   -8.779557849120272E-1
 8.076732303090727E8     4.858446458792983E-1   -8.830891619962239E-1    8.558923284098379E-6   -4.096767232737087E-6   -3.884909695187525E-6   -6.930441265609624E-6    4.621238017326211E-1   -8.840674484346946E-1
 8.176432701894317E8     4.738872376079714E-1   -8.891713742365828E-1    7.888645854307304E-6   -1.539299668498331E-6   -8.931173100698005E-7    1.035655818454381E-6    4.492635400873415E-1   -8.904811166470948E-1
 8.276133100697906E8     4.615308174393805E-1   -8.956951660322094E-1   -1.104955991893294E-5    1.786532056441276E-6   -4.369217903524858E-7    2.033532507387313E-5    4.365031566096235E-1   -8.971248163428304E-1
 8.375833499501495E8     4.489345825815023E-1   -9.021178850045092E-1   -1.415278993875338E-5   -7.445908666711486E-6    2.690315977928433E-5    8.891882608444359E-7    4.243781403183917E-1   -9.037477722201247E-1
 8.475533898305085E8     4.361284775998348E-1   -9.084202606541081E-1   -1.143076615733558E-6    8.630383356557487E-6   -1.392723514696878E-7   -1.298932727092602E-5    4.126187457715773E-1   -9.098122325033851E-1
 8.575234297108674E8     4.232835675027358E-1   -9.147730786047883E-1   -8.741933253572263E-7   -8.639683109040371E-6    8.068924332479726E-6   -2.719206143857365E-6    4.008760309264109E-1   -9.150717923910185E-1
 8.674934695912263E8     4.105837204431480E-1   -9.213934003913541E-1    1.125855137411984E-5   -5.342279869498208E-6   -1.140393431078140E-5   -8.291990998254497E-6    3.888000450578650E-1   -9.199412888410339E-1
 8.774635094715853E8     3.974482493495486E-1   -9.280600364254640E-1   -8.283857090112174E-6    4.168524231135469E-6   -5.162122631121603E-6    1.556957791167086E-5    3.761842872971398E-1   -9.246060391712141E-1
 8.874335493519442E8     3.843454297980278E-1   -9.326780037521378E-1    8.646012072286870E-6   -2.791420473354021E-6   -8.755008088850472E-6   -1.627584850937217E-5    3.630765850042441E-1   -9.290785097372753E-1
 8.974035892323031E8     3.730485303643590E-1   -9.362993829582553E-1   -8.379243282946149E-6    4.215026434501810E-6    1.752912322587416E-5   -5.104343442746962E-6    3.495621655890119E-1   -9.334696024519539E-1
