#  HZ   S   RI   R     50.00 
! Rohde & Schwarz Vector Network Analyzer 
! Rohde-Schwarz,ZNB20-2Port,1311601062102128,3.60
! Created: UTC 4/29/2024, 2:56:40 PM
! freq[Hz]                re:S11                  im:S11                  re:S21                  im:S21                  re:S12                  im:S12                  re:S22                  im:S22
 1.000000000000000E5     9.961885526741531E-1    3.761653995732134E-3   -1.796108051283211E-5    3.843980186695863E-5   -8.100452888493984E-5   -9.053978466901442E-6    1.010673530114695      -1.136482066651081E-2
 1.007003988035892E7     9.976025630238402E-1   -1.396396763111346E-2   -3.987662766614270E-7    3.550013075074989E-6    3.689434846996971E-6   -4.456162444210685E-6    9.958653944571074E-1   -1.451218572318966E-2
 2.004007976071785E7     9.998797997260758E-1   -2.714339593880194E-2   -4.118870967543385E-6    1.013793434230363E-6    1.270929141306004E-5   -8.040954234071718E-6    9.986199128058854E-1   -2.772276402810277E-2
 3.001011964107677E7     9.976827202360060E-1   -4.103244192825928E-2    8.065894796646934E-6    3.733203145726766E-6    3.047884243517156E-6    1.112749393373854E-5    9.974918340967237E-1   -4.201390761686079E-2
 3.998015952143569E7     9.976771115558478E-1   -5.311134014606073E-2    8.499052682531273E-6    1.173356962276495E-6   -3.669040790191085E-6    9.053862274503000E-7    9.976461829280103E-1   -5.671082888341722E-2
 4.995019940179461E7     9.960574637451759E-1   -6.600086882451313E-2   -1.306718598036549E-6    2.556485526680056E-5   -2.017214999711122E-5    1.418579620491178E-6    9.965662827788269E-1   -6.915615343304676E-2
 5.992023928215354E7     9.941674823079403E-1   -7.888791752554188E-2    2.404986160272853E-6   -9.580534131347135E-6   -1.577586249637287E-5   -1.128696179924049E-6    9.945277682312346E-1   -8.193420537464589E-2
 6.989027916251247E7     9.929364003371914E-1   -9.180253861672602E-2    5.426654295642770E-6    1.622140915534518E-5    1.237973848682093E-5    6.843463249013191E-6    9.934633508958118E-1   -9.464237213893235E-2
 7.986031904287139E7     9.923673429551289E-1   -1.052499820865064E-1   -1.071861997348529E-5    3.404407975493715E-6   -2.033474868184032E-5   -3.313480802520734E-6    9.924042857178778E-1   -1.079498054862247E-1
 8.983035892323031E7     9.915057067373202E-1   -1.187781268971984E-1   -3.276054363451145E-6    9.103910239323792E-6    7.031748113948336E-6    5.585717885509313E-6    9.908345335810393E-1   -1.211303629159347E-1
 9.980039880358922E7     9.893210701495316E-1   -1.323123353044881E-1   -4.416564340974346E-6   -1.354023980957723E-5   -2.111427316327399E-5   -1.440229353141301E-6    9.885898916714113E-1   -1.344540698540828E-1
 1.097704386839482E8     9.865422477907885E-1   -1.455339788295180E-1   -1.523748785377875E-5   -5.319435988214159E-6    4.470391388085504E-6   -9.883794660662826E-6    9.861780346700657E-1   -1.477454109015947E-1
 1.197404785643071E8     9.847628033837265E-1   -1.589946291046745E-1   -6.081377718956751E-6    1.913627988264775E-5   -1.652576429635255E-6    4.722302266755193E-6    9.844158980158670E-1   -1.611198908742107E-1
 1.297105184446660E8     9.829486500496049E-1   -1.717800883482481E-1    1.961779974376344E-7   -5.366706483081315E-7   -3.997329084158924E-6    4.049855919494703E-8    9.827654035456787E-1   -1.744563772644222E-1
 1.396805583250249E8     9.815793756908503E-1   -1.846197599846340E-1    7.139747956388162E-7    9.231656759418468E-7    1.258096041319670E-5   -3.987512854248082E-6    9.809341994060237E-1   -1.876093196303331E-1
 1.496505982053838E8     9.789309704287505E-1   -1.970521824199661E-1    3.301296241137860E-6    3.380486208661742E-6    2.751233320785783E-6   -1.037484102644202E-5    9.784780908640019E-1   -2.004021945680060E-1
 1.596206380857428E8     9.761686880417293E-1   -2.094079847528625E-1   -1.873874537169886E-5    1.120620446123749E-5    4.358021013957554E-6   -9.105545080816785E-6    9.756970675094615E-1   -2.131973053424817E-1
 1.695906779661017E8     9.730735259138574E-1   -2.222870802616941E-1   -5.756100606127991E-7    5.400044290288996E-6    8.311903493337238E-6   -4.547810246171509E-6    9.728698287785096E-1   -2.260609858437821E-1
 1.795607178464606E8     9.706551715209700E-1   -2.348076812739665E-1   -8.367158454870489E-7    3.098691172209596E-6    1.167304541739920E-5   -6.146781227309533E-7    9.702968700495092E-1   -2.379674738449535E-1
 1.895307577268195E8     9.677030473612509E-1   -2.469977939991058E-1   -1.443749573272009E-5    1.571903782268947E-6    1.278130214984927E-6    1.072977675869705E-5    9.666743422673706E-1   -2.505184237669160E-1
 1.995007976071784E8     9.637809899967976E-1   -2.595174338893939E-1    5.435183494324417E-6    3.503153996731231E-7    1.569240544340748E-5   -1.850536327696885E-6    9.626140049483429E-1   -2.631914095370772E-1
 2.094708374875374E8     9.604145473395178E-1   -2.722939341030967E-1    6.092751337643058E-6   -5.672998998268536E-6   -1.463065139786155E-6    1.804463130328712E-6    9.588871229759278E-1   -2.762306756398756E-1
 2.194408773678963E8     9.572274630905012E-1   -2.851273807090740E-1   -1.506046448189444E-5    5.512079276009324E-7   -1.494735057866138E-6   -6.335949316177307E-8    9.551726372970893E-1   -2.892226810387932E-1
 2.294109172482552E8     9.535561086985614E-1   -2.973560473505099E-1    8.419610112950596E-6    1.267326935991719E-5    5.584130911994527E-7   -2.658128050153113E-6    9.509715936578508E-1   -3.018739994339643E-1
 2.393809571286142E8     9.506130129621543E-1   -3.095170964337625E-1    5.403716981477835E-6    1.291852324807132E-5    9.884163227526026E-6   -1.588912629240780E-5    9.469136254645406E-1   -3.139521367634164E-1
 2.493509970089731E8     9.469076213567241E-1   -3.232723452395241E-1   -3.276076708748382E-6    6.671010455021167E-7   -6.654636219869642E-6    1.589848907034057E-6    9.440833296420607E-1   -3.276705684874193E-1
 2.593210368893320E8     9.426108565610080E-1   -3.352900444261520E-1   -6.689216091317070E-6    3.143240575544470E-6   -1.453536157647095E-5    2.062998520144565E-5    9.398057142919808E-1   -3.408186994319913E-1
 2.692910767696909E8     9.384569202569353E-1   -3.467801324669421E-1    6.899019901039074E-7   -1.464746892317584E-5    1.671142725122693E-5   -1.017029831719601E-5    9.355636961314060E-1   -3.529322805312297E-1
 2.792611166500499E8     9.338072026955213E-1   -3.584396661735325E-1   -1.195589582756269E-5   -2.044670894480479E-6   -2.329576521384104E-7    1.265081556610019E-5    9.307485440074816E-1   -3.646395479783499E-1
 2.892311565304088E8     9.288730344733089E-1   -3.704520984406225E-1   -3.938049251331078E-7    4.424713026502156E-6   -6.084700440751352E-6   -1.628946565447510E-5    9.261708161674300E-1   -3.769455618443187E-1
 2.992011964107677E8     9.240624265375579E-1   -3.826038120338444E-1    1.891734413506859E-6   -6.476567863414862E-7    8.931569321311524E-6    9.870598746160081E-6    9.212427064552232E-1   -3.887037446177475E-1
 3.091712362911266E8     9.187807026000125E-1   -3.949789375568634E-1   -1.399452820475932E-6    2.504004779779914E-6    2.284269695589547E-5    3.483499469112037E-5    9.156512495509961E-1   -4.002648060675513E-1
 3.191412761714855E8     9.132180567550918E-1   -4.073524716574100E-1   -4.700844607585157E-6   -2.768222035872522E-6   -1.081498916830755E-7    1.030793904756950E-5    9.096869332737388E-1   -4.118496164023016E-1
 3.291113160518445E8     9.075330997196438E-1   -4.199253526021218E-1    4.561220869649155E-6    1.377334620821410E-6   -9.729473105627126E-6    7.090530612236578E-8    9.033406810871508E-1   -4.243146825112975E-1
 3.390813559322034E8     9.018679021353195E-1   -4.327474524238983E-1   -4.452646271079490E-6    1.325682327188568E-5   -8.191662363004717E-7   -2.598724595028241E-5    8.967337584720632E-1   -4.370480842012606E-1
 3.490513958125623E8     8.966058776614459E-1   -4.453126590495483E-1    9.585926426591183E-6   -9.602790474382874E-6    2.125043984652712E-5    1.415380115512547E-6    8.905441981555331E-1   -4.494503829217108E-1
 3.590214356929212E8     8.913018495868048E-1   -4.578076445185891E-1    2.303881169843117E-6   -6.205313795234669E-6   -6.304618678433867E-6    1.313447432112990E-5    8.844793546824447E-1   -4.620719198334306E-1
 3.689914755732802E8     8.858755475270270E-1   -4.700743569013796E-1   -6.083426722942096E-6    2.652553986258359E-6    2.425987218457793E-5    1.502520461190743E-5    8.790284126340648E-1   -4.748177450965546E-1
 3.789615154536391E8     8.796380016057646E-1   -4.812665008767880E-1    3.465098506674174E-6    4.249574059318607E-7   -2.108209273034707E-5    4.896448561892643E-6    8.738343854658229E-1   -4.868500277959871E-1
 3.889315553339980E8     8.741456538930832E-1   -4.920140803070950E-1   -7.566470288033276E-6    1.221306781323290E-6    1.273340016301523E-5    1.288380797414932E-5    8.678534273474603E-1   -4.987166191152417E-1
 3.989015952143569E8     8.674126486102464E-1   -5.027272978622011E-1   -1.466388334419725E-6    6.646365852382714E-6    1.857509781396490E-6    9.795570875985401E-7    8.610795685988807E-1   -5.096988879100278E-1
 4.088716350947158E8     8.601053735374575E-1   -5.134981771732989E-1    1.237913544377647E-5    4.940283436037927E-7    1.612813762777786E-6    1.342030935188181E-5    8.542314238630246E-1   -5.206644357110387E-1
 4.188416749750748E8     8.531683298064786E-1   -5.250560260064914E-1   -1.923181015961063E-6   -3.054261877949455E-6   -4.072563474211663E-6    3.134021380076511E-6    8.476198539138001E-1   -5.314375527868446E-1
 4.288117148554337E8     8.460818466745593E-1   -5.368182084679228E-1   -6.099608161361269E-6   -8.530452896536386E-6    2.455736823248850E-6   -7.216512057666641E-6    8.405670308095486E-1   -5.418378114923664E-1
 4.387817547357926E8     8.381767783251489E-1   -5.481636855133022E-1   -2.917516003549429E-6   -7.757777495518649E-6   -1.157362863697250E-5   -8.457562637970951E-7    8.325682476939279E-1   -5.523619502800970E-1
 4.487517946161516E8     8.303912295982997E-1   -5.599200509606322E-1   -4.814064693889587E-6   -8.294195299700857E-6   -2.219448678274749E-5   -1.062804780404168E-5    8.241638814860373E-1   -5.634679611036881E-1
 4.587218344965104E8     8.235209111869907E-1   -5.718949492245198E-1   -1.698774508465591E-7   -9.639586537906973E-7   -6.637077541312730E-6    1.421541103994304E-5    8.159921820562837E-1   -5.753597082659537E-1
 4.686918743768694E8     8.169839583795294E-1   -5.834357070535793E-1    5.223057428538174E-6   -2.507965187997206E-6    9.526388348481648E-6    2.147789530496856E-5    8.078751855059290E-1   -5.868772504097302E-1
 4.786619142572283E8     8.098881620386914E-1   -5.941391926284070E-1    3.082890435817856E-6   -5.684676923666102E-6    7.191601974225728E-6   -9.415635269770564E-6    7.993112896879014E-1   -5.981210929209267E-1
 4.886319541375872E8     8.022980062095016E-1   -6.046004508693118E-1    1.967896011879392E-6   -2.041874713286732E-6    7.808335922222290E-6    2.175335724041062E-6    7.905504658709974E-1   -6.089143456486488E-1
 4.986019940179462E8     7.939099835192210E-1   -6.152563951352593E-1   -1.355140202268092E-5    7.888318775391500E-6   -4.933859527627997E-6   -1.354714804888561E-5    7.823523154010621E-1   -6.198270097358793E-1
 5.085720338983051E8     7.855226084941547E-1   -6.244256754369522E-1   -9.573300352925482E-6    2.091891385329220E-6    8.156951151207771E-6    4.593447033758336E-6    7.745424703658983E-1   -6.302822211829694E-1
 5.185420737786640E8     7.783070965594078E-1   -6.334834231902895E-1   -5.611697237528339E-6    3.539454185820591E-6    3.611347507056493E-6   -9.222837115948929E-6    7.669212090835492E-1   -6.402226738553671E-1
 5.285121136590229E8     7.699812178601314E-1   -6.430447159976478E-1    5.856075404790586E-6   -2.252102351247388E-6    2.582693557011352E-7   -2.819572180205040E-5    7.589571341525462E-1   -6.496961077377311E-1
 5.384821535393819E8     7.613797938864312E-1   -6.530350716392267E-1    7.906897258740914E-6   -1.470252890545183E-5   -1.377663259381936E-5    2.192765856108026E-5    7.507462082423534E-1   -6.593670130169186E-1
 5.484521934197408E8     7.532617491014886E-1   -6.636766371970871E-1    1.516054072953072E-6    4.582486930193889E-6   -1.858727352498462E-5   -6.401016045513675E-6    7.423832149715776E-1   -6.692376122459417E-1
 5.584222333000997E8     7.447279554596448E-1   -6.746691083402001E-1   -1.785163273380069E-5    9.435038590420097E-6   -1.734371266427813E-6    1.582515039567898E-5    7.333115478565247E-1   -6.792113707843970E-1
 5.683922731804587E8     7.355716112589752E-1   -6.851109827180688E-1   -4.641425951979868E-6    3.211068510663295E-6   -1.415770383498394E-5   -1.182112901553873E-5    7.231767090602275E-1   -6.892299008670156E-1
 5.783623130608176E8     7.261794733570204E-1   -6.949428265241028E-1   -1.298773745532182E-5    5.127455028465657E-6   -1.775127660938043E-5    2.248939250669489E-5    7.126771427416816E-1   -6.989704040401592E-1
 5.883323529411764E8     7.169910573556224E-1   -7.050132067459777E-1   -5.292079190573777E-6    1.220892883676198E-5   -9.102833159583163E-7    3.475194688000487E-6    7.021359859717833E-1   -7.086985286718215E-1
 5.983023928215353E8     7.079293752050373E-1   -7.152689396543713E-1   -6.267768751732738E-6   -8.299987352602456E-6   -1.344165368770608E-5    1.893652740613831E-5    6.919118101584200E-1   -7.183833021400307E-1
 6.082724327018943E8     6.983594116068890E-1   -7.248739191096029E-1   -3.962041838734679E-6   -6.659892754621223E-6    2.085567410504685E-5   -1.514965514354193E-5    6.817040439389812E-1   -7.278870763874898E-1
 6.182424725822532E8     6.885789194880674E-1   -7.344984949626365E-1   -1.050842737200069E-5    8.768365091970747E-6   -1.585448830195946E-5    1.197664432193657E-5    6.717428298247827E-1   -7.372773439417076E-1
 6.282125124626122E8     6.780110758976012E-1   -7.439458636265056E-1   -4.103764606112285E-6    1.208315214367090E-5   -9.153840521802607E-6    9.947870852680775E-6    6.627488588838570E-1   -7.467843671464129E-1
 6.381825523429711E8     6.683795338049033E-1   -7.511351847760457E-1    4.067577292561187E-6    5.768276752381133E-6   -9.362246249566539E-6   -1.816362669977531E-5    6.536993568500853E-1   -7.556566794913441E-1
 6.481525922233300E8     6.593266703451985E-1   -7.596157843111438E-1    1.407745148634410E-5    8.456619958680612E-6   -4.207158941783880E-7    1.434000502394485E-5    6.445821974303478E-1   -7.641586105023302E-1
 6.581226321036890E8     6.496102085826889E-1   -7.684617320775649E-1    6.076777422705941E-6   -3.203739385843563E-6    1.177126952394086E-5    3.444758248968096E-6    6.345805478097551E-1   -7.725013234875722E-1
 6.680926719840479E8     6.397508518808815E-1   -7.771838190242606E-1    2.935954753103947E-6    1.528422418991211E-5   -3.370964120874800E-6   -1.257914780305111E-5    6.240279836801251E-1   -7.804491664090104E-1
 6.780627118644068E8     6.300071569365654E-1   -7.854458095893577E-1   -2.406967835346701E-5   -4.596033930904787E-6    1.040152565595643E-5   -2.804556517013140E-5    6.128451529409528E-1   -7.884365140305338E-1
 6.880327517447658E8     6.196547256873558E-1   -7.936205594213378E-1   -4.563492690008352E-6   -3.030641679283572E-6   -9.032195747905179E-6   -6.667090188565673E-6    6.014101976717917E-1   -7.959445552156403E-1
 6.980027916251246E8     6.086105124528075E-1   -8.017627573180806E-1    1.336415415442348E-5   -3.990086080574962E-6   -3.814690727359525E-7    8.019184961534040E-6    5.899420976717039E-1   -8.036189623455999E-1
 7.079728315054835E8     5.972376931271514E-1   -8.102160176642612E-1   -3.316413092518089E-6   -3.792515199936085E-6    1.377743544053547E-5   -2.377540368142913E-5    5.786091055102843E-1   -8.117129145594323E-1
 7.179428713858424E8     5.861784927353514E-1   -8.187977597939774E-1    9.957246034003829E-6   -7.985176266782285E-6    1.481476247794434E-5   -1.375452558653899E-5    5.672305764906551E-1   -8.202036048062716E-1
 7.279129112662014E8     5.751722440336733E-1   -8.271516546901410E-1   -1.245625157019193E-5   -1.067801247553055E-6    4.955438590761861E-8    3.310900419047278E-5    5.559729592150356E-1   -8.288839236348465E-1
 7.378829511465603E8     5.638816429057404E-1   -8.359337262081612E-1    3.764941728256277E-6    4.300193352879027E-6   -5.076162943042813E-6    4.499014371884807E-6    5.445904464664565E-1   -8.372863142006594E-1
 7.478529910269192E8     5.517675054613770E-1   -8.444890626788157E-1   -1.062460917914432E-6   -6.473092274845160E-6   -1.038984929635974E-6    1.849286577503660E-6    5.334172393582456E-1   -8.449877407008602E-1
 7.578230309072782E8     5.392200354738613E-1   -8.516812196313293E-1    1.077244988579358E-5   -2.577665150006604E-7   -2.871098146796117E-6   -9.348187609788235E-6    5.223604749381683E-1   -8.519378028357518E-1
 7.677930707876371E8     5.287601241152922E-1   -8.570284874389104E-1    2.935294863156866E-6    1.226569390126462E-5    1.178307188327468E-5    3.719941545284331E-6    5.109915288382538E-1   -8.584338768683962E-1
 7.777631106679960E8     5.191428131430378E-1   -8.638750582055617E-1    1.251165907371149E-6   -3.394154624427110E-7    5.154054653322422E-6    9.275933444961487E-6    4.994432658422201E-1   -8.648140958067896E-1
 7.877331505483550E8     5.088867963101086E-1   -8.708940640422261E-1    1.120111009580381E-5   -5.976441894525840E-6   -5.341048875206483E-6    1.259322044002156E-5    4.877453027431448E-1   -8.715505060755392E-1
 7.977031904287138E8     4.976569984620701E-1   -8.772952131214329E-1    4.577005664097127E-6   -1.069132022268669E-5   -2.783298224737058E-6   -1.555502695041625E-6    4.748639442761965E-1   -8.780057999712857E-1
 8.076732303090727E8     4.859183616401085E-1   -8.831190012959521E-1   -1.347042542614720E-5    2.109501894953134E-6    1.166219858999720E-5   -1.475910750339621E-6    4.619221602387577E-1   -8.840498957070253E-1
 8.176432701894317E8     4.738524973821340E-1   -8.891302558870505E-1   -2.551238845560730E-5   -8.740898621431745E-7   -3.213699384037052E-7    1.571331436039414E-6    4.492044661422970E-1   -8.904747918479496E-1
 8.276133100697906E8     4.615766148445373E-1   -8.956180520892119E-1   -5.872771409062045E-7    1.644447749308081E-5    3.830873507072336E-6    3.513158602179920E-6    4.365770018334428E-1   -8.971649412582042E-1
 8.375833499501495E8     4.488826128914343E-1   -9.019656911853007E-1    8.280202125302209E-6    1.292427359568830E-6    4.505682133335070E-6   -3.013652672721121E-6    4.243803149321574E-1   -9.037767301340527E-1
 8.475533898305085E8     4.361788431137898E-1   -9.084848622678271E-1   -1.144780007130303E-5    7.175887732838832E-6    7.955878596066947E-6   -1.654214962028841E-6    4.124989305510721E-1   -9.097822707724305E-1
 8.575234297108674E8     4.233866642951956E-1   -9.147275940711498E-1   -7.822730167431322E-7   -4.490341498148862E-7   -9.962579915212042E-7    9.549532693166232E-6    4.007953829679914E-1   -9.151829127998823E-1
 8.674934695912263E8     4.105409253790311E-1   -9.214454754841226E-1    1.048867510184473E-5   -1.029708458502606E-5    9.878330141278958E-6   -1.497617777077088E-5    3.887120105759654E-1   -9.199825083222563E-1
 8.774635094715853E8     3.974477411209905E-1   -9.279765977380021E-1   -1.670253298660652E-7    1.120295110318425E-5    3.223573056540225E-6   -9.281044459545503E-6    3.761741571441863E-1   -9.246260990442655E-1
 8.874335493519442E8     3.844334661552030E-1   -9.326767754103782E-1    1.192320299148999E-5    5.953843209525939E-6   -2.086212879271828E-6   -4.730249159982257E-6    3.630901823955190E-1   -9.291247667979345E-1
 8.974035892323031E8     3.731250198608087E-1   -9.363330027389302E-1   -1.156465873196034E-5   -7.376534815491372E-6    8.104373692099990E-6   -1.251017929785949E-5    3.494704791671914E-1   -9.333950476754718E-1
