#  HZ   S   RI   R     50.00 
! Rohde & Schwarz Vector Network Analyzer 
! Rohde-Schwarz,ZNB20-2Port,1311601062102128,3.60
! Created: UTC 4/29/2024, 2:57:01 PM
! freq[Hz]                re:S11                  im:S11                  re:S21                  im:S21                  re:S12                  im:S12                  re:S22                  im:S22
 1.000000000000000E5     9.958914300489087E-1    3.840194265881290E-3    1.201489008162849E-5    1.187744233470534E-4    8.221389938666448E-5   -5.272951743709416E-5    1.010664607953780      -1.131400778354557E-2
 1.007003988035892E7     9.989017596660043E-1   -1.441031676278600E-2    7.601329706974126E-6    8.875308690517176E-6   -1.324028268304462E-5    1.350845650755448E-5    9.959062939929395E-1   -1.447823493590639E-2
 2.004007976071785E7     9.994342023917231E-1   -2.720240676106006E-2   -9.905221712617037E-6    1.893725615613372E-5   -8.420855628867668E-6   -2.569635994099664E-5    9.987419056290432E-1   -2.764211672612673E-2
 3.001011964107677E7     9.983714953283950E-1   -4.099382181156944E-2   -5.324526911966769E-6   -1.579838343744525E-5   -4.040738739764222E-7   -4.393033773516730E-6    9.975422293017414E-1   -4.194218682224644E-2
 3.998015952143569E7     9.973689978250825E-1   -5.306427917779214E-2    4.412044468762679E-6    1.065843134211918E-5   -1.384961258261375E-5   -6.166948842740023E-6    9.975841980509499E-1   -5.662130839369363E-2
 4.995019940179461E7     9.955682504595502E-1   -6.593508573650425E-2    6.621710003091406E-6    3.576110654449469E-6    6.669849391363338E-6    4.253263369827427E-7    9.965706597899239E-1   -6.916394554637124E-2
 5.992023928215354E7     9.938403913584228E-1   -7.870990546537984E-2   -6.377692428328365E-6    1.248975647765872E-5    5.498072343971654E-6   -1.164532183642948E-6    9.948221708368299E-1   -8.197490463269513E-2
 6.989027916251247E7     9.934149983257451E-1   -9.177890480126041E-2   -1.448791579435631E-5    1.738008292428966E-5   -4.689355114013275E-6    3.196466258988247E-6    9.935115133420750E-1   -9.465054657508304E-2
 7.986031904287139E7     9.931022971964771E-1   -1.052633868145571E-1    2.931155276703509E-5    1.201020112124904E-6    1.521491540039404E-6    2.594787548440551E-6    9.924591839475131E-1   -1.079126600424759E-1
 8.983035892323031E7     9.916812851098845E-1   -1.187473414461404E-1   -4.118683147132731E-6   -5.609984001429632E-6   -7.292334124325884E-6    8.887921656028108E-7    9.908041740309245E-1   -1.210966452608319E-1
 9.980039880358922E7     9.889683902256828E-1   -1.321785781703072E-1    7.000069207612510E-6   -4.492031006280781E-6    1.036237476603714E-5    1.064066104233894E-5    9.884601849867811E-1   -1.344144087578104E-1
 1.097704386839482E8     9.862258993487831E-1   -1.454203837431319E-1   -1.573229541943595E-5    2.337496021715381E-6    9.718588137042695E-6   -1.055517846345922E-5    9.861432676341498E-1   -1.478057137081643E-1
 1.197404785643071E8     9.850624772945535E-1   -1.589238502422253E-1   -4.353690326927410E-6    6.837286381057694E-6    1.334230997152456E-6   -9.518022097739602E-6    9.842970908949092E-1   -1.611519302767121E-1
 1.297105184446660E8     9.833469996255156E-1   -1.717801132970751E-1   -9.408060866479461E-6   -6.030520279214536E-7    1.017265934803707E-5   -1.814035458175504E-5    9.827897694452843E-1   -1.743886459656502E-1
 1.396805583250249E8     9.819293383329507E-1   -1.846130496682055E-1   -6.136481400005023E-6   -3.443082341603388E-6    1.442615596958342E-5    2.432174352769469E-6    9.808825708186012E-1   -1.875700887117752E-1
 1.496505982053838E8     9.787602995758639E-1   -1.970381748684274E-1   -6.551281271385143E-6   -2.611838974805277E-7    5.834485747003322E-6    4.617790864292904E-6    9.785893816850008E-1   -2.004240707627331E-1
 1.596206380857428E8     9.761647826119547E-1   -2.093701487127881E-1   -1.690257196318550E-5   -1.073121035551125E-5    1.288192178370515E-5   -4.143643107768743E-6    9.757271393537349E-1   -2.132608442543541E-1
 1.695906779661017E8     9.735374546513387E-1   -2.223000674267660E-1    1.932315025029330E-5   -2.528118920205921E-6   -1.664201352332045E-5    5.351331482302935E-6    9.729237701687169E-1   -2.262287231057351E-1
 1.795607178464606E8     9.709224485852002E-1   -2.348586267787015E-1    9.106934596825807E-6   -1.154484830067350E-5    5.010319065191761E-6   -4.731660142784028E-6    9.702884392722236E-1   -2.380059979079873E-1
 1.895307577268195E8     9.676936688818225E-1   -2.469300482319669E-1    1.439739181734987E-6    6.531145740874246E-6    1.917019299779907E-7    1.027078908808156E-5    9.668009049309454E-1   -2.506547620376668E-1
 1.995007976071784E8     9.637368410503035E-1   -2.594068295454628E-1   -1.657666392150325E-6    3.929870534792422E-6    1.914604511123304E-5    1.245568910946335E-5    9.626926899329427E-1   -2.632093156429382E-1
 2.094708374875374E8     9.606969212738100E-1   -2.724486869714324E-1    9.117977771853324E-6   -4.907021999912335E-6   -1.211385339266434E-6    5.595978088889180E-7    9.589233143163270E-1   -2.761247806114506E-1
 2.194408773678963E8     9.573666405426466E-1   -2.850606221680937E-1   -1.170934095285213E-5    7.382235220936793E-6   -1.204595653551948E-5    1.206998161384169E-6    9.551439362393941E-1   -2.890899156651146E-1
 2.294109172482552E8     9.536096670126388E-1   -2.973499647990261E-1    9.008524533187737E-6   -2.006845292039571E-5    3.317232148333616E-6   -4.151628567333802E-6    9.509603586118356E-1   -3.017465990255023E-1
 2.393809571286142E8     9.504677450099336E-1   -3.092819424072427E-1   -7.859695699069154E-6    5.463987338441700E-7   -4.075981852746339E-6    2.104157172099828E-6    9.469242270068149E-1   -3.139968349042400E-1
 2.493509970089731E8     9.470314815730032E-1   -3.233153552774985E-1    2.397358536364182E-6    7.709273977549477E-8    4.101609425190717E-6    5.917437681700340E-6    9.440800963555194E-1   -3.276878598049024E-1
 2.593210368893320E8     9.429243015247604E-1   -3.353457151536718E-1    1.788570867963364E-7   -1.275018424255203E-5   -1.444009861214212E-5   -6.428399868364954E-6    9.399105421118789E-1   -3.408494796812520E-1
 2.692910767696909E8     9.385659597988950E-1   -3.466648891604334E-1    7.195798219176182E-6    6.377170689147141E-6    1.174054820971999E-5   -5.760715048434948E-6    9.355437096861527E-1   -3.527965173430320E-1
 2.792611166500499E8     9.337668680045980E-1   -3.582870781862671E-1    1.166742347449157E-5    1.678358510758683E-5   -2.125910272218505E-5    9.679847989080109E-6    9.309784304144002E-1   -3.646726232958701E-1
 2.892311565304088E8     9.291822325823311E-1   -3.705050233796920E-1    6.585026444752931E-6    9.313921203679980E-6    1.563503396567908E-5   -1.968338835150417E-5    9.261799436018450E-1   -3.769193265353112E-1
 2.992011964107677E8     9.243279765029712E-1   -3.825663459087800E-1    1.031925242708716E-5   -1.599435812394861E-5   -1.609211525584713E-5    1.966678500767757E-6    9.212675503080695E-1   -3.887161501517876E-1
 3.091712362911266E8     9.188626025988340E-1   -3.948263420699268E-1   -3.252336915831413E-6   -1.492872126334378E-6   -9.650476128662691E-6   -4.064827734185355E-6    9.158466384910388E-1   -4.001430320511702E-1
 3.191412761714855E8     9.133993653547345E-1   -4.073023210753437E-1   -1.122129008698394E-6    5.178238425946144E-6    2.170415375116399E-6   -2.006056220732081E-5    9.098034068542330E-1   -4.119823120701898E-1
 3.291113160518445E8     9.076292651331127E-1   -4.199807296566716E-1    8.309873579423419E-6   -7.322110354397862E-6   -6.497391067860172E-6    4.900500036779471E-6    9.032867337702871E-1   -4.243308492300834E-1
 3.390813559322034E8     9.019988426234644E-1   -4.328191383553741E-1    9.588954660639195E-7    3.584188916218126E-6   -8.823205504861600E-6   -1.620938334798291E-5    8.967404440780049E-1   -4.369685921718180E-1
 3.490513958125623E8     8.967080408484788E-1   -4.452477174522291E-1    1.116754424847605E-5   -1.713174186779910E-5   -1.570991174761345E-5   -1.095866842080856E-5    8.906984724416952E-1   -4.495286072365986E-1
 3.590214356929212E8     8.913603540679039E-1   -4.577429820332245E-1   -6.981934002606244E-6   -8.320152273471740E-6   -8.935526459785605E-6   -1.651643239864410E-6    8.846359385961147E-1   -4.621392333304210E-1
 3.689914755732802E8     8.859998771706488E-1   -4.700076246655626E-1   -1.648581139766387E-6    3.532429943389761E-6    1.025512233988527E-5   -6.036416852564675E-6    8.791268535096454E-1   -4.747693131948310E-1
 3.789615154536391E8     8.798462787525581E-1   -4.812405680016188E-1    7.569784364051450E-6   -3.487271353760419E-6   -4.628068164374990E-6    7.405261370550169E-6    8.737561781092389E-1   -4.868551927718493E-1
 3.889315553339980E8     8.741203593622409E-1   -4.919639145105190E-1   -1.613748287641397E-5    1.553567602541361E-6   -7.844441838722490E-6    9.218440982665888E-6    8.680369119296560E-1   -4.988461397950698E-1
 3.989015952143569E8     8.674500067238453E-1   -5.026647143984005E-1   -3.402512508730243E-6   -2.636293499448325E-6   -9.676218670904092E-6    1.240495036969990E-5    8.612246737448398E-1   -5.098685665208555E-1
 4.088716350947158E8     8.603599400186736E-1   -5.135142371524921E-1   -1.526814615171803E-6    1.950428523465972E-5    2.620674820883736E-7    1.202843823476986E-5    8.541920501217670E-1   -5.205711585936745E-1
 4.188416749750748E8     8.533409762048977E-1   -5.250211482123366E-1   -8.175192727006254E-7   -3.199723509379430E-6   -9.895600519841446E-7    7.824342420490933E-6    8.475815663017905E-1   -5.314587475074222E-1
 4.288117148554337E8     8.461081227247240E-1   -5.367286704166158E-1   -3.374548949697779E-6    4.008676311403882E-6   -4.815137360856352E-6    7.967064651748793E-6    8.405473926782369E-1   -5.418282741383785E-1
 4.387817547357926E8     8.382876068371521E-1   -5.481342190387338E-1    1.611613724333797E-6   -4.681390133181696E-7    1.850323426794360E-6    3.405701291626440E-6    8.327347044542364E-1   -5.523266012476777E-1
 4.487517946161516E8     8.306028258469302E-1   -5.599432105678819E-1    1.345375037479801E-6   -6.541138183780871E-6   -5.553036786126251E-6    5.015543663090309E-7    8.242628161604327E-1   -5.635512813695774E-1
 4.587218344965104E8     8.236658974828290E-1   -5.719716036410996E-1    1.408236694284959E-5    8.937928225312909E-7    4.296120527357298E-6    2.733677893299994E-6    8.160264417508022E-1   -5.752721784885965E-1
 4.686918743768694E8     8.172121290186546E-1   -5.833996121607590E-1    4.713697721379393E-6   -3.477145370675005E-6   -2.360039477974819E-6   -5.869980888214713E-6    8.078888715500800E-1   -5.868141574905013E-1
 4.786619142572283E8     8.099667233625151E-1   -5.941785567265169E-1    5.566094900230835E-6   -3.805317778353158E-6   -5.651160600253567E-6    8.710422895421801E-6    7.992944882844036E-1   -5.980227500843535E-1
 4.886319541375872E8     8.024267199539840E-1   -6.046252298131201E-1    8.910049042118427E-6   -2.688174512741865E-7   -1.047906682081836E-5    1.065591666212612E-5    7.907023986442655E-1   -6.089631022904438E-1
 4.986019940179462E8     7.940764743779989E-1   -6.153560098235964E-1    3.904588666056401E-6   -2.517591427872607E-6   -1.869119868970284E-5   -4.855423829265928E-6    7.822922098725129E-1   -6.197729773626018E-1
 5.085720338983051E8     7.858196102453304E-1   -6.244910220520388E-1   -4.786669167026930E-6    7.485760687030902E-6   -1.254557962066130E-5   -3.046277923740669E-5    7.745301584170036E-1   -6.302137982693569E-1
 5.185420737786640E8     7.783407699502937E-1   -6.335971911217925E-1   -5.006359376392476E-6   -1.434168121765131E-5    1.635403585932417E-5   -8.446197739267762E-6    7.669374092156125E-1   -6.401112588546604E-1
 5.285121136590229E8     7.701021578082189E-1   -6.430648689292597E-1    1.049994158495795E-5    2.286540447197592E-6    1.861249012774498E-5   -6.031482622212587E-7    7.590375092455726E-1   -6.497902546086518E-1
 5.384821535393819E8     7.614852037151448E-1   -6.530829434461871E-1   -3.975639770309277E-6    9.055963355007595E-7    3.400687072224819E-6    8.462773597665390E-6    7.509066610035592E-1   -6.594252911835057E-1
 5.484521934197408E8     7.534269985027163E-1   -6.637294036179346E-1   -1.025836148516275E-5   -5.610602361683536E-6   -7.411251926511232E-6   -3.405390411510012E-6    7.423776935707500E-1   -6.692529932656012E-1
 5.584222333000997E8     7.447906438182431E-1   -6.746304990968202E-1    3.068432252852577E-6    1.072018246991749E-5   -1.202436409224680E-5    7.056588493291879E-6    7.332827099767858E-1   -6.792229503773993E-1
 5.683922731804587E8     7.356417279168799E-1   -6.850693583653162E-1   -2.585495718682789E-6   -6.625527061057564E-6    2.790956061408601E-5   -1.168908573104908E-5    7.231900837301519E-1   -6.892975210766319E-1
 5.783623130608176E8     7.263522510896314E-1   -6.950793532606113E-1    1.259629365012096E-5    1.289048417049391E-5   -7.746461538585560E-6   -7.734764355369316E-6    7.127941958675322E-1   -6.990433585802429E-1
 5.883323529411764E8     7.171876049580324E-1   -7.051731767350736E-1    9.250936737043322E-7   -9.594011449641103E-7    3.185573471267682E-6    1.517621885451192E-5    7.021669103756093E-1   -7.087233730371115E-1
 5.983023928215353E8     7.079976792054649E-1   -7.151210738413740E-1   -4.437503253884468E-7    5.086363728164048E-6    5.502231525098791E-6    3.149799931377686E-6    6.918221429708645E-1   -7.182612242858695E-1
 6.082724327018943E8     6.984395678811985E-1   -7.248531331391523E-1   -1.758201842257886E-5    7.914265291180431E-6   -8.147302591592464E-6    1.932435699055438E-5    6.816695889511349E-1   -7.279019709538310E-1
 6.182424725822532E8     6.885760736417766E-1   -7.345622842549856E-1   -4.438976969033874E-6    2.167900779324373E-6    4.404371880068115E-6    1.724128094912132E-5    6.718209327191341E-1   -7.373021996097506E-1
 6.282125124626122E8     6.780245409209276E-1   -7.439360470074554E-1    3.107765712936401E-6   -7.698399600544638E-6    5.447318849663916E-6   -4.622850453372402E-7    6.628417705264046E-1   -7.469083220801005E-1
 6.381825523429711E8     6.684451749528448E-1   -7.511840030742333E-1   -7.281329367064421E-6    6.590703706457626E-6    4.101340923539897E-6    1.311803789042518E-5    6.537602046393340E-1   -7.556074993010795E-1
 6.481525922233300E8     6.593816842055602E-1   -7.596015527676104E-1   -1.346878348266313E-6   -9.892297656189165E-7    1.040602625487147E-5   -1.093451437680370E-5    6.445299289682006E-1   -7.641560169627877E-1
 6.581226321036890E8     6.496309278415489E-1   -7.685018361841151E-1   -8.858121486534636E-6   -3.883725522893149E-6   -1.830805318740131E-5   -9.204641632190231E-7    6.345993959278086E-1   -7.724389324562549E-1
 6.680926719840479E8     6.397563282574064E-1   -7.773152198794219E-1   -9.404376200787847E-9   -9.547197720141390E-6    2.280554489124163E-6    7.587889420501166E-6    6.239478679300353E-1   -7.805058798147100E-1
 6.780627118644068E8     6.299187640686749E-1   -7.854336798469660E-1   -8.518168538795960E-7   -1.106477975405216E-5   -7.871457831240329E-6    1.236428117215782E-5    6.128994392081510E-1   -7.883629627940989E-1
 6.880327517447658E8     6.195720261712109E-1   -7.936010203829480E-1   -3.493890145730596E-6   -3.002753525187997E-6    1.104376384493902E-5   -1.720185430438209E-6    6.015186709164665E-1   -7.959808148725820E-1
 6.980027916251246E8     6.086638398871735E-1   -8.018953206097081E-1   -8.629822280679167E-6   -1.107568446704422E-5   -9.653700852420040E-6   -4.655929731040289E-6    5.899812805549983E-1   -8.036499614121810E-1
 7.079728315054835E8     5.972687086403529E-1   -8.101317718372353E-1    2.935856803655475E-6   -2.519354390610095E-6   -2.394732868686643E-6   -1.121696478455532E-5    5.785028845707623E-1   -8.116310689915687E-1
 7.179428713858424E8     5.860488281681860E-1   -8.186785475610289E-1    5.452188104083656E-6   -7.788540621066535E-6    2.003318964733161E-5   -5.268630021801715E-6    5.672478822241183E-1   -8.202131631255795E-1
 7.279129112662014E8     5.751372553015808E-1   -8.272254088588973E-1   -5.006944797352611E-6    6.703343077761400E-6   -7.656991021589676E-6   -8.141768168709805E-6    5.559194081884329E-1   -8.289146864592623E-1
 7.378829511465603E8     5.638402914641508E-1   -8.360397644177859E-1    1.339680089555061E-5   -3.451519972918968E-6    2.015112884916313E-5    1.041175535906693E-5    5.445937160116597E-1   -8.372470800134421E-1
 7.478529910269192E8     5.518596534280059E-1   -8.444268970289864E-1   -3.149462191587285E-5    3.054874587295307E-6    5.691426199035618E-6   -4.298892928485398E-6    5.333432268894083E-1   -8.450123831516919E-1
 7.578230309072782E8     5.391734439419772E-1   -8.515115683530048E-1   -5.718403922090632E-6   -2.772682135532240E-6   -4.769190654434677E-6   -1.361070934437663E-5    5.223519769103537E-1   -8.520154363519126E-1
 7.677930707876371E8     5.288867146549989E-1   -8.570708623776295E-1   -7.980623584409236E-7   -1.074468816917307E-5   -2.156160124671340E-7   -1.717487677170933E-6    5.110091930567016E-1   -8.584784474173529E-1
 7.777631106679960E8     5.192655740667527E-1   -8.640226780677096E-1    7.787139950581502E-6    8.449912911911183E-6   -4.056164142674524E-7   -3.474899705823439E-6    4.994965180639850E-1   -8.648348176516467E-1
 7.877331505483550E8     5.089204488419997E-1   -8.709091327304104E-1    5.000712414266974E-6   -2.091987701783273E-6    1.685768275436452E-5    7.164716259223157E-7    4.876669328148044E-1   -8.715360808975203E-1
 7.977031904287138E8     4.975473461234006E-1   -8.772242831278159E-1    4.507477980980886E-8    1.511466198413828E-5   -7.757082893875747E-7   -2.477382717401878E-6    4.749595480431694E-1   -8.779890363750787E-1
 8.076732303090727E8     4.859027704887179E-1   -8.830529024576202E-1   -4.674182894941381E-6   -5.450416680291254E-6    9.239858833720299E-6    1.606395005102312E-5    4.620372314896996E-1   -8.841087293055595E-1
 8.176432701894317E8     4.738896899660888E-1   -8.890901418595045E-1   -1.602950139881253E-6   -1.276972903963573E-5   -2.389951943029743E-6    9.836412233671583E-6    4.491645989999622E-1   -8.904500443557475E-1
 8.276133100697906E8     4.616308850585890E-1   -8.956755968963949E-1   -9.909099455863324E-7    1.985460598271605E-5    5.311382410759026E-6    3.992050281430102E-6    4.366176318855980E-1   -8.971385501261124E-1
 8.375833499501495E8     4.489217444384483E-1   -9.019830489119406E-1    3.591469485471424E-6    8.406565529708745E-7    2.068435113818952E-5   -5.698373911766487E-6    4.244496986139915E-1   -9.037859810734674E-1
 8.475533898305085E8     4.361765146506252E-1   -9.083646932987171E-1    8.481124552374095E-6    3.970321553987289E-6   -6.046498592469042E-6    9.331984001132242E-6    4.125934409177127E-1   -9.098728309003588E-1
 8.575234297108674E8     4.233903649270974E-1   -9.146585733219013E-1    3.393985132251906E-6    6.415973334618664E-7   -4.351899606320065E-6    1.257830269546640E-5    4.008523327794914E-1   -9.152356505402777E-1
 8.674934695912263E8     4.106519796883780E-1   -9.214563865691333E-1   -3.154501307328239E-6   -3.960790068839775E-6   -1.471149009910065E-5   -1.419367325326024E-6    3.887325923920124E-1   -9.199873031681823E-1
 8.774635094715853E8     3.975395636586693E-1   -9.281943009651563E-1    1.908304019896720E-5    1.260181219321999E-6   -3.293516919568442E-6   -2.247924273284336E-5    3.761298420529980E-1   -9.246608561362174E-1
 8.874335493519442E8     3.843772068365949E-1   -9.326309106380757E-1    2.079084211059945E-7   -1.046433614489969E-6    8.216888065668499E-6   -1.033273990824611E-5    3.630773466478826E-1   -9.291914909554011E-1
 8.974035892323031E8     3.729714136293788E-1   -9.362142076293866E-1   -5.151360503633780E-6   -3.575626745140823E-6    8.932390678189349E-6    2.199276611956751E-6    3.495811039047900E-1   -9.335098495847501E-1
