#  HZ   S   RI   R     50.00 
! Rohde & Schwarz Vector Network Analyzer 
! Rohde-Schwarz,ZNB20-2Port,1311601062102128,3.60
! Created: UTC 4/29/2024, 2:56:43 PM
! freq[Hz]                re:S11                  im:S11                  re:S21                  im:S21                  re:S12                  im:S12                  re:S22                  im:S22
 1.000000000000000E5     9.963085573404734E-1    3.742291676880170E-3   -9.229173134120078E-5    4.936952245827329E-5   -3.312162943202216E-5    3.075303558170618E-5    1.010571515488505      -1.138223962855685E-2
 1.007003988035892E7     9.975092843934743E-1   -1.382073766113511E-2    4.218736527454463E-6   -1.572306766838189E-6   -1.659159168559831E-5   -1.394512506883559E-5    9.958090386160576E-1   -1.451582052741218E-2
 2.004007976071785E7     9.998854891120058E-1   -2.710386985590034E-2   -2.651146903142384E-5    3.040200178004689E-5    9.334125160314307E-6   -1.160761664842612E-5    9.987291399206335E-1   -2.772528709388098E-2
 3.001011964107677E7     9.978892832358536E-1   -4.102419952284295E-2   -2.353031866189654E-6    1.541003978456829E-6    1.424595899745075E-6    5.239445542893037E-6    9.975111728890406E-1   -4.196463585685718E-2
 3.998015952143569E7     9.975283705608871E-1   -5.322689296223795E-2   -1.749005707043916E-5    2.607630956510166E-6    1.285663093706706E-5    1.310784074970824E-5    9.976859326824432E-1   -5.666110279449212E-2
 4.995019940179461E7     9.960833968852445E-1   -6.600682123127297E-2    7.093862103407498E-6    4.328868665636609E-6    8.127270511278444E-6    1.567182966035921E-5    9.965081360021326E-1   -6.912796690481875E-2
 5.992023928215354E7     9.941871886730053E-1   -7.886908856402822E-2    5.431981954468553E-6    1.309717112737775E-6    1.045712835406824E-5   -1.087907251939929E-5    9.946719796185527E-1   -8.181169741712667E-2
 6.989027916251247E7     9.931836395638519E-1   -9.190055956867087E-2   -1.410852530384158E-5   -5.942877347001880E-6   -7.696925638651288E-6   -1.408754123434867E-5    9.935247063136984E-1   -9.478701365098116E-2
 7.986031904287139E7     9.923938143275228E-1   -1.052343970447104E-1    1.207730888854053E-5   -2.714769247577247E-6   -2.058440180456951E-6    7.778944844498982E-6    9.924076123141788E-1   -1.079772258100148E-1
 8.983035892323031E7     9.913254378769522E-1   -1.187793172128576E-1   -4.220864070390342E-6    9.726610954680449E-6   -6.749313630204268E-6    7.743253133755969E-6    9.907784918568222E-1   -1.210473344325265E-1
 9.980039880358922E7     9.893908121153577E-1   -1.324288870595736E-1   -3.939515963587122E-6    2.479483922273937E-6    8.012958839595122E-6    9.498950557221309E-6    9.884255181999759E-1   -1.344007793134295E-1
 1.097704386839482E8     9.865359197165579E-1   -1.454359140889887E-1   -1.484050652635168E-5   -1.967214299567421E-6   -1.522312118123738E-5    1.266651283351198E-5    9.861321313026571E-1   -1.477505283013124E-1
 1.197404785643071E8     9.847834992075564E-1   -1.589341385436763E-1    9.514510513615184E-6   -1.456263709483460E-6    1.994661408646938E-5    6.128206891395378E-6    9.843443990711862E-1   -1.612004721974128E-1
 1.297105184446660E8     9.830744257074835E-1   -1.717432981851409E-1   -2.784746122461816E-6    2.734909159566006E-6   -1.710664152270674E-6   -1.164244205261485E-5    9.828943278620202E-1   -1.744302465118441E-1
 1.396805583250249E8     9.814791647166634E-1   -1.846705119895470E-1   -7.991648640308454E-6   -1.052198518809595E-5   -6.597789502312131E-6   -1.047886236936143E-5    9.810665609844623E-1   -1.874807277273060E-1
 1.496505982053838E8     9.788660446200521E-1   -1.971234566750566E-1    4.088146400505010E-6    4.351318887144298E-7   -5.112788550405651E-6    6.426300450689639E-6    9.784986654597011E-1   -2.004540806682424E-1
 1.596206380857428E8     9.762716628667863E-1   -2.094599441850576E-1    2.112623643123034E-6    1.099092139167580E-5    7.429593355198887E-6   -3.407214428430036E-6    9.756981206709379E-1   -2.133129094925600E-1
 1.695906779661017E8     9.731585268458590E-1   -2.223229925075548E-1    8.743951379460068E-6   -4.520885438399324E-6    7.699401711490692E-6    8.993679929712983E-6    9.728207829024765E-1   -2.260955026000602E-1
 1.795607178464606E8     9.706296453025919E-1   -2.347828388751349E-1    7.171340003025169E-6   -8.138652333256928E-6    5.824641849684144E-6   -1.251019243637524E-5    9.702171140105262E-1   -2.379872977610487E-1
 1.895307577268195E8     9.677673142170781E-1   -2.471031755600439E-1    1.373513106766524E-5    2.278804071730701E-5    2.660439432255488E-6    1.065480077635664E-6    9.668398132662642E-1   -2.505479724637401E-1
 1.995007976071784E8     9.639488949495560E-1   -2.595547567390797E-1   -5.834543522469817E-7   -2.056066729061386E-6   -5.841760712105281E-6    8.293517107655429E-6    9.628399078504396E-1   -2.631385196223871E-1
 2.094708374875374E8     9.602856492593552E-1   -2.722887797869010E-1    3.540074748382358E-6    1.299729712727394E-5    3.931341480375980E-6    2.261044701920729E-6    9.588931661309895E-1   -2.762187574979054E-1
 2.194408773678963E8     9.572373584307885E-1   -2.850879655377380E-1   -4.592545585938716E-6    1.111078764941595E-5   -1.687079147764835E-5   -8.430802458920060E-6    9.551287139761028E-1   -2.891180780811312E-1
 2.294109172482552E8     9.537415228945137E-1   -2.974486210767666E-1    3.045940034349836E-6    3.615663183901468E-6   -2.174590585863278E-5    6.517389832550040E-6    9.510007417377941E-1   -3.017256948674920E-1
 2.393809571286142E8     9.505926266360644E-1   -3.093607109833114E-1    9.854318234781193E-6    2.119516634353109E-6    2.984958301803768E-6   -1.076313608901996E-5    9.468956685585737E-1   -3.140103239482921E-1
 2.493509970089731E8     9.467677477900118E-1   -3.232227212754415E-1    8.302194839654981E-7   -2.234885892342918E-5    3.578494280664865E-6    1.860341571253340E-5    9.440880520302490E-1   -3.276068553136019E-1
 2.593210368893320E8     9.427065281155974E-1   -3.353589593207923E-1    1.091334297651026E-5    7.569212125586493E-6    9.538198368657444E-6   -1.319363063481886E-6    9.398221392365065E-1   -3.408325322432398E-1
 2.692910767696909E8     9.385891092473698E-1   -3.468387440863444E-1    6.252966351189711E-6   -3.733501427828606E-6   -6.692530316189459E-6    8.806911457902993E-6    9.355817994856771E-1   -3.529188404992054E-1
 2.792611166500499E8     9.339078600154267E-1   -3.584992617073184E-1   -2.989793658226032E-6   -1.152509794814918E-5    3.139117404423930E-6    4.215227328216809E-6    9.309396272524733E-1   -3.646640563819322E-1
 2.892311565304088E8     9.289203942701275E-1   -3.704547300910155E-1   -4.192570245806263E-6    3.811880422064569E-6   -1.722331497941180E-5    1.334262224822519E-6    9.261252940851628E-1   -3.768424213255486E-1
 2.992011964107677E8     9.240667541419459E-1   -3.826493644364201E-1    1.723555187414258E-5   -6.953702967833111E-6   -3.241032662055526E-6   -1.414025126420026E-5    9.211819753602567E-1   -3.886345706453675E-1
 3.091712362911266E8     9.188932308195027E-1   -3.949239037113496E-1    5.569550044069762E-6   -6.676022836045227E-6   -9.028903173440451E-7    2.074897034667214E-5    9.156249845172691E-1   -4.001508249694101E-1
 3.191412761714855E8     9.133537514186846E-1   -4.073009919190916E-1   -4.496723122163005E-6    5.160228139832509E-6    1.925033468767731E-6    2.196682937347447E-6    9.098230242160020E-1   -4.118863889139089E-1
 3.291113160518445E8     9.075184492213680E-1   -4.199817583507554E-1   -9.887769499500034E-6    1.868748636140953E-6    1.381105567047565E-5    2.782844325537148E-6    9.033119271394096E-1   -4.243599203541243E-1
 3.390813559322034E8     9.018432381060096E-1   -4.327881924270902E-1   -1.484059351454704E-5    1.892971887486512E-7   -4.764954455378651E-8   -1.013992446534656E-5    8.968109266903935E-1   -4.369195069613624E-1
 3.490513958125623E8     8.967334255057353E-1   -4.452942463454421E-1   -5.530456760197562E-6    3.280910842898393E-6   -4.233043349266642E-7   -4.315547355664676E-6    8.904380732397085E-1   -4.494251911569241E-1
 3.590214356929212E8     8.913736610912604E-1   -4.579088588641954E-1    4.789776090588989E-6   -1.861325184224380E-6   -4.554651374810864E-6    4.313616765750742E-6    8.845490936677148E-1   -4.620989650323752E-1
 3.689914755732802E8     8.859717150092463E-1   -4.700862234227584E-1    1.657751594780266E-5    6.727077250273374E-6   -1.429802654611483E-5   -7.764256549145905E-7    8.791001754317959E-1   -4.747948316169936E-1
 3.789615154536391E8     8.797790498597369E-1   -4.812537553988626E-1   -4.714227320060376E-6    1.636635113790532E-6   -2.778809341395301E-6    6.402116207955632E-6    8.737890008616147E-1   -4.868201300277064E-1
 3.889315553339980E8     8.740503508715737E-1   -4.920099474178864E-1    7.788023275942763E-6    6.999396981371887E-7    6.316379998746243E-6    6.101338271064266E-6    8.679628498009433E-1   -4.987517438498977E-1
 3.989015952143569E8     8.674883653167240E-1   -5.027798985819490E-1    9.798670014372763E-6   -4.637275528828869E-6   -6.889576794862709E-6    2.050395492828041E-5    8.609475134627127E-1   -5.096620667450950E-1
 4.088716350947158E8     8.602910076599277E-1   -5.136069048019047E-1    3.088185990130240E-6    2.665009703214841E-8   -2.642229259917755E-5    2.040393260723693E-5    8.541823772319657E-1   -5.206878464590159E-1
 4.188416749750748E8     8.531359267688883E-1   -5.250288309365025E-1    1.452007488912179E-6    1.776243514596128E-6   -2.592779012629089E-6    3.753485641801746E-6    8.476549693784383E-1   -5.315567949766852E-1
 4.288117148554337E8     8.459318158526620E-1   -5.367221939195922E-1    5.475798738546596E-7   -2.646272323400053E-6    3.829540104814807E-6   -1.185524394410972E-5    8.406404236868581E-1   -5.418191563213477E-1
 4.387817547357926E8     8.382184086364406E-1   -5.482094652180642E-1   -1.116420496125903E-5    4.266057851262868E-6    4.760588704379577E-6    1.351332124741165E-5    8.325905560194579E-1   -5.522758020842036E-1
 4.487517946161516E8     8.305720620677645E-1   -5.600133472455219E-1    1.083412726868587E-5    1.736918871713428E-6    1.141115558091591E-5    1.655238383398077E-6    8.241260645321132E-1   -5.634284157396264E-1
 4.587218344965104E8     8.236204966108829E-1   -5.719733414780039E-1   -4.817952772129134E-6   -4.619445175150083E-6   -1.701232732680573E-6    1.350899488405882E-5    8.160656762043699E-1   -5.753114304340473E-1
 4.686918743768694E8     8.169578754165089E-1   -5.834499043104144E-1    1.008498451535525E-5   -1.339251625514142E-5   -5.601132302114790E-6    3.350006940410474E-6    8.078952088743961E-1   -5.869046809150132E-1
 4.786619142572283E8     8.099113585527186E-1   -5.942621618804695E-1    3.701755686397253E-6   -7.846267603613071E-6    7.431370961081267E-6    1.264912783859179E-6    7.992862316893959E-1   -5.980921895572061E-1
 4.886319541375872E8     8.023178114302132E-1   -6.046593532726787E-1   -1.230242690319592E-6    9.513956436387277E-7   -2.995703187988323E-7   -1.706625721809979E-5    7.905937942994784E-1   -6.088909008543116E-1
 4.986019940179462E8     7.939541775625107E-1   -6.153194774670557E-1    1.724459220289109E-5   -2.920025541569118E-6   -1.302366649859444E-5   -6.105342351428521E-6    7.821959277894095E-1   -6.196151044477805E-1
 5.085720338983051E8     7.856509720306467E-1   -6.245171430410701E-1    1.835618255043961E-6   -2.841775950553051E-6    4.605657978123252E-6    1.017542643111344E-5    7.746618927367458E-1   -6.303125115328965E-1
 5.185420737786640E8     7.783399428772735E-1   -6.335633132138710E-1    9.390775706077537E-6   -9.009202345821235E-6   -8.052541881838033E-6   -2.154703909139953E-5    7.668835346622089E-1   -6.400835215655277E-1
 5.285121136590229E8     7.698393905648803E-1   -6.430684017483607E-1    5.039263251484061E-6   -6.352203617931694E-6    1.307926034307329E-5   -1.442127805600043E-5    7.589302277081926E-1   -6.497739243126249E-1
 5.384821535393819E8     7.613659964018298E-1   -6.531125614089880E-1   -6.987665299223755E-6   -1.144281564031704E-5    1.053336258661337E-5    2.005805968862354E-5    7.507857709468763E-1   -6.593587931684683E-1
 5.484521934197408E8     7.532406825068996E-1   -6.636604762105336E-1    1.458671620986228E-5   -9.165218086355729E-8   -1.888296161331514E-6   -1.186643803459482E-7    7.425067110843108E-1   -6.692369046974738E-1
 5.584222333000997E8     7.448373256900797E-1   -6.746454163434951E-1    1.344851672685130E-5    6.814404590391725E-7    4.762597017119729E-6    5.458329493825344E-6    7.332389345252033E-1   -6.791315960283153E-1
 5.683922731804587E8     7.355278448514312E-1   -6.851277944019974E-1   -1.390353724363504E-5    2.602937381232982E-6   -3.416105748788666E-6    1.447858914238306E-5    7.231380214733435E-1   -6.892145444417035E-1
 5.783623130608176E8     7.262922641876315E-1   -6.950148879375618E-1    8.544846824367597E-6    5.229547621001677E-6   -5.641474526805884E-8    1.347572158677493E-5    7.126352574065320E-1   -6.989227123731279E-1
 5.883323529411764E8     7.170955530805690E-1   -7.052235562541463E-1   -4.063833616347844E-7   -9.985867025575224E-8    6.013522547929165E-6   -6.009709932946551E-6    7.020776187323999E-1   -7.086974394035839E-1
 5.983023928215353E8     7.078243563309793E-1   -7.151520300829003E-1    4.685346346374991E-6   -1.491645253048478E-5    1.258631652039267E-5   -1.738027416919772E-5    6.919097020327951E-1   -7.183431616742015E-1
 6.082724327018943E8     6.984804223041444E-1   -7.249525530510346E-1    2.823749579135849E-6    4.702071417903724E-6   -3.533723233566138E-6   -4.910807667954505E-6    6.816909142435820E-1   -7.278872666380014E-1
 6.182424725822532E8     6.885500519596395E-1   -7.346465975958016E-1   -2.146874452954711E-5   -1.606910414329250E-6    9.922454020883988E-6   -1.395182249132048E-5    6.716502667707749E-1   -7.372221734851897E-1
 6.282125124626122E8     6.779150688882343E-1   -7.439412880590583E-1    1.774801165677744E-6   -9.533333742113540E-6   -1.489636268986345E-5   -2.059235607136591E-6    6.627332805466207E-1   -7.467774513382002E-1
 6.381825523429711E8     6.682757124093233E-1   -7.510532766786099E-1    8.248152979852703E-6    1.345837251116531E-6    1.004264183874832E-5   -8.104868237260807E-6    6.537652261546999E-1   -7.556831743387145E-1
 6.481525922233300E8     6.593579993418368E-1   -7.596360704925220E-1   -2.110726742696195E-6    1.593921981216219E-6    1.819838412724005E-5   -1.981401213533429E-5    6.446400820266563E-1   -7.642916010349572E-1
 6.581226321036890E8     6.496390240900084E-1   -7.685857047927348E-1    1.531598963141343E-5    6.823611909100086E-6   -3.230170170547650E-6   -1.390352522807851E-6    6.345636740484851E-1   -7.725625595722567E-1
 6.680926719840479E8     6.396864559278161E-1   -7.772328626765469E-1   -8.701725295535061E-6   -1.114801589044624E-5   -1.284413063899993E-5   -1.661748201028065E-6    6.239640001812125E-1   -7.804086421566767E-1
 6.780627118644068E8     6.297947811430366E-1   -7.854067013742752E-1   -6.876164191609934E-6    6.861934770259794E-6    1.661997374342642E-5    3.086728938803906E-6    6.128912568111474E-1   -7.883456567597781E-1
 6.880327517447658E8     6.194780673045550E-1   -7.936206915137448E-1    8.882348431359124E-6   -1.099400614007218E-5   -2.412450199154272E-6   -7.016239309216201E-8    6.014661579571380E-1   -7.959549480380368E-1
 6.980027916251246E8     6.086804364446228E-1   -8.018413014506989E-1    1.267731113410752E-5    1.431766233905688E-5    5.736607684418242E-6   -1.242793082539159E-6    5.900118847938706E-1   -8.037610816718379E-1
 7.079728315054835E8     5.972169392713850E-1   -8.101681349586812E-1    6.427588601371924E-6    5.558854017162044E-6   -7.839315818108931E-6   -2.875706252978953E-6    5.785331510507170E-1   -8.116144355654054E-1
 7.179428713858424E8     5.861026517206729E-1   -8.187594351406809E-1   -4.853582217366451E-6   -8.459102323912903E-6    2.631996549738558E-5   -2.019706459748582E-6    5.673253602513680E-1   -8.201497515326929E-1
 7.279129112662014E8     5.751447709178874E-1   -8.272443876249788E-1   -1.571897113874758E-6   -1.121348713593292E-5    7.471831909499400E-7   -4.223310334662163E-6    5.559329755743511E-1   -8.289285981710626E-1
 7.378829511465603E8     5.638552840303204E-1   -8.359984003340827E-1   -2.059265834744358E-8   -5.579246197187419E-6    1.244109021581753E-5    7.657329584861569E-6    5.445926944008260E-1   -8.373411342535176E-1
 7.478529910269192E8     5.517964213051445E-1   -8.444719307103915E-1    1.919664553862230E-6   -8.223065355530323E-6   -1.993343611721086E-6   -8.728811637788289E-6    5.333676548952814E-1   -8.450481017397837E-1
 7.578230309072782E8     5.391739684087653E-1   -8.516388649346488E-1    1.347344420132831E-5   -3.983469667160626E-6   -1.005975394731928E-5    2.955507597432993E-7    5.222982827399525E-1   -8.518599353915074E-1
 7.677930707876371E8     5.288059423126290E-1   -8.570897082909747E-1    1.103845187940396E-5    1.075986817436379E-5    3.231067344861967E-6    1.212207829596212E-5    5.109490889261297E-1   -8.583618578014878E-1
 7.777631106679960E8     5.192282671357528E-1   -8.640234911293923E-1    4.016342394134658E-7   -7.099655294869258E-7    1.127551945442155E-5   -4.201146267089747E-8    4.994672474069837E-1   -8.648147025022420E-1
 7.877331505483550E8     5.088891266324981E-1   -8.709469636614715E-1    4.456587559098742E-6    1.226910330712208E-5    3.101140029255159E-6    4.779242909635856E-6    4.875395975253751E-1   -8.714938623111746E-1
 7.977031904287138E8     4.975337089243920E-1   -8.772664471265708E-1    1.691959197520979E-6    1.995597930424415E-6    2.468647139856501E-6   -5.935228364418942E-6    4.749226788664813E-1   -8.779852324746468E-1
 8.076732303090727E8     4.858640712329809E-1   -8.830943095042330E-1   -7.810833539802512E-6   -7.740008398252865E-6   -1.075746032485041E-5   -6.730085790024942E-6    4.621011748227694E-1   -8.840271562598548E-1
 8.176432701894317E8     4.739177422906132E-1   -8.891980053331258E-1    3.857941912710558E-6   -3.089694117196838E-6   -1.977250823585620E-6    3.107171757235710E-6    4.491476372366934E-1   -8.902845764951381E-1
 8.276133100697906E8     4.615174832574599E-1   -8.956898655297053E-1   -4.887103631113123E-6   -1.619988393995660E-5   -9.814316908205581E-6   -3.627118822523913E-6    4.364546598007517E-1   -8.969356325242854E-1
 8.375833499501495E8     4.489731504404509E-1   -9.020559119594093E-1   -7.141920080268507E-7    1.485568266072003E-6    1.168081170257267E-6    2.494051781422022E-6    4.244703194708246E-1   -9.037606668780818E-1
 8.475533898305085E8     4.362171055377377E-1   -9.084343906039122E-1    9.222696276616986E-6   -2.105328784825849E-5    2.373803986333216E-7   -1.450590029095002E-6    4.125041784866161E-1   -9.098310453361779E-1
 8.575234297108674E8     4.233767442091597E-1   -9.147825877015581E-1   -4.166645085225284E-6    9.197983866930169E-6   -1.456117083870016E-5    5.612603549557151E-6    4.007180134303472E-1   -9.151236991405441E-1
 8.674934695912263E8     4.105242168352247E-1   -9.214962802129605E-1   -3.421814344746362E-6   -1.029225712392331E-5    4.380413082054174E-6   -4.428841076918331E-6    3.887501555468647E-1   -9.199276535389148E-1
 8.774635094715853E8     3.974138810682276E-1   -9.280419903056578E-1   -1.977940251185685E-5    1.159872601371736E-5    5.572257845006950E-6   -1.135840766865255E-5    3.760549401714962E-1   -9.245538831267504E-1
 8.874335493519442E8     3.843208193667397E-1   -9.326121569385953E-1   -1.883050092738887E-6   -2.830391821537162E-6   -4.976523455624219E-6    1.250698547081446E-5    3.630125048031790E-1   -9.291355731273199E-1
 8.974035892323031E8     3.730589922240823E-1   -9.362995127912253E-1    7.836973216204312E-7    4.136723627578808E-6    9.487662734195524E-6   -1.624660473900221E-6    3.495837322329107E-1   -9.334729781142213E-1
