#  HZ   S   RI   R     50.00 
! Rohde & Schwarz Vector Network Analyzer 
! Rohde-Schwarz,ZNB20-2Port,1311601062102128,3.60
! Created: UTC 4/29/2024, 2:56:58 PM
! freq[Hz]                re:S11                  im:S11                  re:S21                  im:S21                  re:S12                  im:S12                  re:S22                  im:S22
 1.000000000000000E5     9.964040994361911E-1    3.679073994332401E-3   -1.068759027174973E-5    5.118339286616712E-5    6.035702418767793E-5   -4.750087271813002E-5    1.010586583257962      -1.137190779404031E-2
 1.007003988035892E7     9.974342083887389E-1   -1.384087633611165E-2   -1.406802199280654E-5    6.643130754459057E-6    7.673822210262800E-6   -4.374588947136494E-6    9.960648249002949E-1   -1.449117584947108E-2
 2.004007976071785E7     9.999251363337437E-1   -2.718057126707459E-2    2.676999975421084E-5    9.480038035976111E-6   -2.881600937438138E-6    3.880617488407611E-6    9.989194973002332E-1   -2.767452921610523E-2
 3.001011964107677E7     9.979165494947249E-1   -4.097488602903682E-2    4.179211550521280E-6    1.111943280216767E-5   -1.285460956977830E-5    7.375984029624740E-6    9.976141955932768E-1   -4.201578407267720E-2
 3.998015952143569E7     9.977445179323596E-1   -5.315625416638661E-2   -9.528592524492895E-6    4.085832196709888E-6    4.492628357279133E-6    7.792448503053504E-6    9.976366025802627E-1   -5.666844646930803E-2
 4.995019940179461E7     9.961945151623443E-1   -6.602949189898227E-2    1.111643748101814E-5   -5.573010970749102E-6   -9.203446465941340E-6   -1.157612185308138E-5    9.965478737822233E-1   -6.909577293227839E-2
 5.992023928215354E7     9.942206282223770E-1   -7.882412611713525E-2   -1.315999742878600E-5   -1.979270803380330E-5   -1.289105676597499E-5    1.688637907624944E-5    9.946052329783333E-1   -8.198206042509815E-2
 6.989027916251247E7     9.929595748969251E-1   -9.181981175919980E-2    1.048444397574690E-5    1.332458267229321E-5    2.205283650765091E-7    4.027779666431216E-6    9.935041405871117E-1   -9.478227195682799E-2
 7.986031904287139E7     9.922053866326312E-1   -1.052396802056671E-1    6.191526771156627E-6    9.743097385617665E-7   -6.099266391757558E-6   -9.131153098094343E-6    9.923855027081596E-1   -1.079004277102094E-1
 8.983035892323031E7     9.913915886941348E-1   -1.187706504467073E-1   -9.303143325410421E-6    3.016511475438157E-6   -1.491874294284858E-5    4.083668758720125E-6    9.907260954817609E-1   -1.210892309872334E-1
 9.980039880358922E7     9.894301503673263E-1   -1.324128421975681E-1   -5.720578021122629E-7    5.767013019973002E-6    1.371909771826099E-6    5.915408363018267E-6    9.884578053910202E-1   -1.344356106977696E-1
 1.097704386839482E8     9.864798840716039E-1   -1.455759142053415E-1    9.838906535054546E-6   -1.318335590614798E-6   -6.270008990473501E-6   -5.231607241523849E-6    9.862420659872411E-1   -1.477803520356029E-1
 1.197404785643071E8     9.849092563499822E-1   -1.589245585304784E-1   -1.095201898942233E-5    5.248819689788786E-6    2.260676643368868E-5    5.633106313624339E-6    9.843868746202020E-1   -1.611732420321756E-1
 1.297105184446660E8     9.829744934688965E-1   -1.717584928083573E-1   -9.301911180921472E-6    5.374594322167428E-6   -1.390805531623233E-5   -2.972502493653394E-6    9.828689056179520E-1   -1.744298138208996E-1
 1.396805583250249E8     9.815750010047695E-1   -1.846775810713697E-1   -1.043769122864436E-6    1.313805301017965E-5   -4.940942751143944E-7   -1.066713734992966E-5    9.808773496203183E-1   -1.875805594623934E-1
 1.496505982053838E8     9.790360102799648E-1   -1.969871277395148E-1    5.149466627897620E-6    1.430694426583807E-5    7.411896247306095E-6   -2.763195073782419E-6    9.784213836705181E-1   -2.004846422316606E-1
 1.596206380857428E8     9.761515920503988E-1   -2.094269171281020E-1    9.155298052526669E-6    1.774470643935348E-5   -6.080445122677579E-7    3.436007045407090E-8    9.758015404449758E-1   -2.133163925798905E-1
 1.695906779661017E8     9.731329617831703E-1   -2.222991292308199E-1    6.831482406601355E-6   -4.757339392104509E-6    2.224917279086124E-6    2.872895016437370E-5    9.728956213944813E-1   -2.261617942752792E-1
 1.795607178464606E8     9.707428549538507E-1   -2.348219613453017E-1   -7.958621350016211E-6    6.522603732556648E-6   -1.588074180011711E-5    8.532235440563019E-6    9.702236481462375E-1   -2.380281459253848E-1
 1.895307577268195E8     9.676974622337245E-1   -2.470447277898133E-1    7.844897615620128E-6   -7.785421015648328E-6   -1.458924582078636E-5   -2.149222715443971E-5    9.666789261020454E-1   -2.504144714976646E-1
 1.995007976071784E8     9.638323324104314E-1   -2.595212721309096E-1   -6.462325699814295E-6    5.178006197727593E-6   -6.448865039965424E-6    2.443683635871138E-6    9.627654387751451E-1   -2.631510399550583E-1
 2.094708374875374E8     9.603757070303737E-1   -2.724157769973691E-1   -5.954808743324325E-6   -3.322660720977859E-6   -3.941516545878864E-6   -5.275782399219559E-6    9.588815124028689E-1   -2.761375927673508E-1
 2.194408773678963E8     9.573193035128782E-1   -2.851555761330445E-1   -3.158155438190150E-6   -3.147853325825539E-7    8.931448088124053E-6   -1.445262610172529E-5    9.550252427047566E-1   -2.890345427926673E-1
 2.294109172482552E8     9.536817538788773E-1   -2.974307814276356E-1   -3.518568474017820E-6   -7.343243935314929E-6   -2.373775149132066E-6   -1.178768975426269E-5    9.510828387495204E-1   -3.017316661968556E-1
 2.393809571286142E8     9.506287521667622E-1   -3.094354375596603E-1   -1.067051600999815E-5    4.599294243035792E-6   -1.437135540578398E-5   -2.382332369053518E-7    9.470082918546838E-1   -3.139961242390212E-1
 2.493509970089731E8     9.468538936666789E-1   -3.233448513370069E-1   -1.515212830249588E-5    1.107305871222275E-5    1.476524272019620E-6    8.049943885057235E-6    9.440301420120897E-1   -3.276944040669396E-1
 2.593210368893320E8     9.427570569003696E-1   -3.353249721231732E-1   -8.768191516331281E-7    6.018489578070650E-6   -1.391146692682767E-5   -3.583134240372422E-6    9.398389420554882E-1   -3.409018015384319E-1
 2.692910767696909E8     9.385850002918301E-1   -3.468214335826924E-1    1.176796832834551E-5   -6.097728469101843E-6   -2.851811950994360E-5   -6.145263118186405E-6    9.355503667204955E-1   -3.528685540510193E-1
 2.792611166500499E8     9.337900086544160E-1   -3.583811030438024E-1    1.998915306848072E-5   -1.318214170007899E-5   -1.523426232637742E-6    1.096138082925737E-5    9.311155111155407E-1   -3.646891517245202E-1
 2.892311565304088E8     9.289243003128231E-1   -3.704230196407587E-1   -7.854862824521241E-7    6.809875782405506E-6    4.673643121404922E-6   -1.594070069847645E-6    9.260987578888051E-1   -3.768558161559095E-1
 2.992011964107677E8     9.240718665321963E-1   -3.826703821274845E-1   -1.941947464748169E-5   -3.559977325749583E-6    2.253265139982449E-6    1.214148905645284E-5    9.209755838943919E-1   -3.885955041033897E-1
 3.091712362911266E8     9.187898292073400E-1   -3.949257925929080E-1    1.108987478522595E-5   -1.030975462307269E-5   -1.486958969482619E-5    1.090254438570094E-5    9.157987144095983E-1   -4.001955776130672E-1
 3.191412761714855E8     9.132938545762781E-1   -4.073292193870635E-1    2.237611593050804E-6   -8.659188078581415E-6    6.161362522803467E-6    4.488841417101825E-6    9.098326435275311E-1   -4.119516778067093E-1
 3.291113160518445E8     9.076537471236583E-1   -4.200893867343766E-1   -4.383557112123208E-6    6.115092219296201E-6   -8.929274326931477E-6    5.694100595345894E-6    9.034118842521864E-1   -4.244631284970407E-1
 3.390813559322034E8     9.019369775986603E-1   -4.327727250334019E-1   -6.202748824217530E-6   -1.195131642474309E-5   -9.886791007992895E-6   -6.696124750201302E-6    8.967367289598589E-1   -4.369076903495409E-1
 3.490513958125623E8     8.965205051701981E-1   -4.453174559481026E-1   -3.451364067204829E-6   -4.849294937304497E-6   -1.903972649972222E-6   -1.292259625648931E-5    8.905494986950599E-1   -4.493830252391908E-1
 3.590214356929212E8     8.913775786867161E-1   -4.578791026257984E-1   -9.525320022837943E-6   -9.805989808783369E-6   -1.159605605628154E-5   -7.255599610685043E-6    8.845825680128102E-1   -4.621361188194456E-1
 3.689914755732802E8     8.860193760810756E-1   -4.701119574177775E-1    1.388604637166072E-5   -4.497456991004348E-8   -4.368824857912998E-6    1.580518553241394E-7    8.791971506432488E-1   -4.747902220161343E-1
 3.789615154536391E8     8.798113344044715E-1   -4.813423042589320E-1    1.771199942288595E-6    2.644754308875464E-8   -1.209253052826950E-5    1.647195196114550E-5    8.739562479992814E-1   -4.868821790430629E-1
 3.889315553339980E8     8.741748602520835E-1   -4.920405931135892E-1   -1.932406238424579E-6   -5.493054051884232E-6    1.955910953626426E-6   -1.049443924919601E-5    8.679616562495427E-1   -4.988027165493794E-1
 3.989015952143569E8     8.673460269622374E-1   -5.027381641619028E-1   -2.182438116485552E-7   -8.385923014766090E-6   -1.307903593934366E-5   -7.679564885233115E-6    8.610701882940240E-1   -5.097279839742678E-1
 4.088716350947158E8     8.602598319724596E-1   -5.135674079571450E-1    1.138876261849856E-5    1.176603201329362E-5    1.532012833839382E-5   -1.617357523695846E-5    8.542418594561507E-1   -5.206766346928893E-1
 4.188416749750748E8     8.532737585794771E-1   -5.251213147254500E-1    6.419018881000847E-6   -1.066398734129894E-5   -1.682497312217826E-6    1.732070392911999E-6    8.476520968850030E-1   -5.315204203294541E-1
 4.288117148554337E8     8.459552446503061E-1   -5.367673869442301E-1   -7.822931978134283E-6    4.351651623327780E-6    6.193239005340576E-6   -7.004578471719305E-6    8.406326208305872E-1   -5.418605317885578E-1
 4.387817547357926E8     8.382034056651648E-1   -5.482290011125728E-1   -1.445204273700247E-5   -1.304231319773732E-6   -1.100441180787318E-5   -2.481003084548927E-6    8.327013501087298E-1   -5.523534228372857E-1
 4.487517946161516E8     8.305306374897735E-1   -5.599935966205247E-1   -9.578190846357037E-6    6.408497327865501E-6   -4.568692523617692E-7    9.430706528189465E-6    8.242685598757813E-1   -5.634869635820899E-1
 4.587218344965104E8     8.236693647564066E-1   -5.719693879347593E-1   -8.052776291209346E-6   -9.144085954249875E-6   -4.505255113004410E-6    1.298258167144526E-6    8.159936219794787E-1   -5.753078879979248E-1
 4.686918743768694E8     8.170666179736937E-1   -5.834068355117743E-1    6.428949101049759E-6    2.588247225672935E-6   -1.617125634621276E-5   -7.483433231574793E-6    8.078203451732334E-1   -5.868784505780982E-1
 4.786619142572283E8     8.098512720260511E-1   -5.942827242623479E-1   -1.153351937354054E-5   -2.069858148860373E-6    1.129518986482469E-7   -4.886703503879834E-6    7.994568270449143E-1   -5.980098113105945E-1
 4.886319541375872E8     8.022895313460525E-1   -6.046507263168512E-1    7.890633683856584E-6   -3.334338522839206E-6   -7.615332784221752E-6   -1.573703744021197E-5    7.906052836893959E-1   -6.089164626295014E-1
 4.986019940179462E8     7.940155847405387E-1   -6.153625622418391E-1    3.232549950601164E-6    8.740510668649617E-6   -1.580321670261626E-7    8.815974282269664E-6    7.823855159915580E-1   -6.197354695487886E-1
 5.085720338983051E8     7.856345151309164E-1   -6.245646645003773E-1    1.723066539470155E-6    2.264477049493160E-6    1.242278681263994E-5    4.653816771984026E-6    7.746679775149846E-1   -6.302437510109765E-1
 5.185420737786640E8     7.782195490347001E-1   -6.335394203146656E-1   -6.633637160735595E-6    1.821482019822251E-5   -1.887334016281835E-5    3.901147185592054E-6    7.670474627695628E-1   -6.401832434968759E-1
 5.285121136590229E8     7.699557300008937E-1   -6.430316966359618E-1    5.758388616923657E-6   -2.537837485432824E-6   -7.748711808684711E-6    1.441683782540171E-5    7.590728865298496E-1   -6.498173304920302E-1
 5.384821535393819E8     7.614237501333485E-1   -6.531276424387721E-1    3.552906930740689E-6   -6.084969838332229E-6    1.802767012467877E-5    1.502033117649813E-5    7.509436801953012E-1   -6.594272846321355E-1
 5.484521934197408E8     7.533433686050988E-1   -6.636943386920081E-1    2.055024848492895E-6    1.902234949744920E-7   -1.172841255799185E-5    1.164395417344977E-5    7.423151035871550E-1   -6.692328721659442E-1
 5.584222333000997E8     7.447352686411467E-1   -6.746394335068343E-1   -1.071781849460821E-6   -3.068977894918897E-6   -1.963483001171818E-5    8.298987124331740E-6    7.333265615855920E-1   -6.792263242174423E-1
 5.683922731804587E8     7.356240238532109E-1   -6.851856461924666E-1    7.683758261634726E-7    8.778797798754503E-6    1.160265027856529E-5   -1.377960226897680E-5    7.232201249718774E-1   -6.893767207853064E-1
 5.783623130608176E8     7.261963821173189E-1   -6.952036930716765E-1   -3.060522979323970E-6    1.153887258118753E-5   -1.750770695777962E-5    1.513654883747405E-6    7.126162069837781E-1   -6.990321143446572E-1
 5.883323529411764E8     7.170119262264413E-1   -7.051272895276056E-1    3.626610781480207E-6    4.052145785519737E-6    2.854601790850771E-6    5.003066878703966E-8    7.022364081915402E-1   -7.088268938161112E-1
 5.983023928215353E8     7.079435572402593E-1   -7.152545908407892E-1    4.064821299494415E-6   -2.043042832322366E-6   -1.592687277248719E-5    1.538707574329082E-5    6.918586677561058E-1   -7.183045978990287E-1
 6.082724327018943E8     6.983292502811903E-1   -7.249287344065459E-1    3.600117603770876E-6    9.853911764962642E-6   -6.054594377590171E-6   -2.007224153162626E-5    6.818042041924148E-1   -7.277824908619165E-1
 6.182424725822532E8     6.885239581924082E-1   -7.346626826256997E-1    9.092584677989929E-6   -2.198617471745349E-6    7.488736794396893E-6    1.081830878963064E-6    6.717303957920662E-1   -7.372548922956611E-1
 6.282125124626122E8     6.779847201029848E-1   -7.440510312655672E-1   -4.886886532605254E-6    5.214139520509277E-8    2.017570081060596E-6    7.685846124059326E-6    6.627592821180622E-1   -7.468205971198155E-1
 6.381825523429711E8     6.682910091906913E-1   -7.511207307093202E-1   -7.965016544449821E-7    9.071461099254302E-6   -5.264111741161546E-6    7.132983224600657E-6    6.537803733169320E-1   -7.557810551597549E-1
 6.481525922233300E8     6.594156504809584E-1   -7.597771432325522E-1   -2.553170912196642E-6    1.077381626802146E-5    2.587377169297332E-5   -3.506284329742892E-6    6.445666919029081E-1   -7.641108255342928E-1
 6.581226321036890E8     6.496312109441530E-1   -7.686072125709568E-1   -7.627857897747122E-6    9.904033379781503E-7   -1.123330557005088E-5   -2.595078476380760E-6    6.346136015975130E-1   -7.725152058747907E-1
 6.680926719840479E8     6.397038298674901E-1   -7.772511277170142E-1   -2.564711957954639E-6   -7.752306431690447E-6   -7.441892482740264E-6   -1.268780648162311E-5    6.238795683721159E-1   -7.805224314258360E-1
 6.780627118644068E8     6.298888710155788E-1   -7.854529533847476E-1    1.635903196380680E-6   -1.185400062666869E-5    3.001489656107609E-6    1.320474986993054E-5    6.129830355264245E-1   -7.884734545976299E-1
 6.880327517447658E8     6.196280359335087E-1   -7.937875247431405E-1    1.033360412517675E-5   -7.493921901673094E-6   -1.114107508866320E-6    7.330725518596885E-7    6.015490062649792E-1   -7.960777543333798E-1
 6.980027916251246E8     6.087388959166232E-1   -8.020187541564532E-1    8.261982256903211E-6    1.420995518639786E-6   -2.302575512788756E-6    1.073260646570274E-5    5.900017334664003E-1   -8.037038304248130E-1
 7.079728315054835E8     5.972082097066653E-1   -8.102281530528919E-1   -5.651817264636346E-6   -2.323966009314696E-6   -9.642187981185776E-6    3.746125922077134E-6    5.785022071635181E-1   -8.115949557407618E-1
 7.179428713858424E8     5.860270688944997E-1   -8.186976812656077E-1   -9.130426565698244E-6    3.447567243992158E-6   -2.044410387460701E-6    1.225624685580913E-5    5.672590060622842E-1   -8.203275656971413E-1
 7.279129112662014E8     5.751758704079025E-1   -8.273073450361890E-1   -1.226094981772520E-6   -5.364959806974421E-6    2.183922562587936E-6   -1.103091944373811E-6    5.560216676171126E-1   -8.289196518502175E-1
 7.378829511465603E8     5.638720803200988E-1   -8.360806305929144E-1   -7.673862642437313E-6   -5.646692735576918E-6    8.791195778186361E-6   -4.279471773916663E-6    5.446083240759423E-1   -8.372986970114307E-1
 7.478529910269192E8     5.518246560507376E-1   -8.445304292624400E-1    4.283258830489360E-6    5.052105719763885E-6    6.046439194706774E-6    7.521390005846302E-6    5.333790413353873E-1   -8.449987109500637E-1
 7.578230309072782E8     5.391272863293944E-1   -8.516020298488330E-1   -1.424751298310715E-5   -4.329050830291315E-6    5.375585359534924E-6   -6.484667258668504E-6    5.222931448198046E-1   -8.519464006321459E-1
 7.677930707876371E8     5.287507672921424E-1   -8.569510891446334E-1   -4.565661129086887E-6    7.981053480425458E-7   -7.281589563843958E-6   -6.980718908223534E-6    5.110008612962735E-1   -8.583828450935338E-1
 7.777631106679960E8     5.192428373365107E-1   -8.640171586383653E-1    7.550397742316645E-7   -1.056415184676563E-6    8.830464288987765E-6   -1.687767183189457E-5    4.994416299956626E-1   -8.649196887798452E-1
 7.877331505483550E8     5.089190913603963E-1   -8.709886970662315E-1    6.453909528441801E-6   -9.728796763359343E-6   -4.428835994574521E-6   -2.002894627522066E-5    4.876493291915243E-1   -8.715485373457151E-1
 7.977031904287138E8     4.975831161124002E-1   -8.772434804623007E-1   -1.931289487778637E-5   -5.417787081170997E-6    1.289696787953817E-5   -3.582554276124308E-6    4.749167236585818E-1   -8.779577277988595E-1
 8.076732303090727E8     4.857888880280414E-1   -8.830905145154591E-1   -7.403301059188449E-6   -3.112190144817842E-6   -4.159284598053604E-6   -4.423438311954304E-7    4.621132201392846E-1   -8.840702667523254E-1
 8.176432701894317E8     4.738863563068836E-1   -8.892671405452530E-1   -5.153159378811378E-6    7.928198380192442E-6   -2.332819361469301E-5    5.537752165457221E-6    4.492358533683908E-1   -8.904892280089527E-1
 8.276133100697906E8     4.615989781324911E-1   -8.956901698929777E-1    1.073448027825111E-6   -1.142203590091461E-5   -5.802480614866966E-6   -3.145454712971065E-6    4.365522824806010E-1   -8.970539224769140E-1
 8.375833499501495E8     4.488652809760764E-1   -9.021051117744313E-1    1.381618263231562E-5    2.885701651580827E-6    1.221500349671135E-5   -1.114788664886926E-5    4.243732219833536E-1   -9.036706743607651E-1
 8.475533898305085E8     4.361974356430474E-1   -9.085235566592712E-1   -2.618011134841619E-6    8.223638834796485E-6    5.722048953160961E-6    4.760874119484752E-6    4.125650248761912E-1   -9.098087127679871E-1
 8.575234297108674E8     4.233736353120946E-1   -9.147507692467544E-1   -1.428516517020732E-5    1.107970788089517E-6   -9.213429612672500E-6   -3.533513573410438E-6    4.008919290537294E-1   -9.152833255366452E-1
 8.674934695912263E8     4.105578062398553E-1   -9.214065498582594E-1    5.652860442465236E-6   -1.278239085785299E-5   -1.806524907309686E-6   -2.297570684507977E-6    3.887920987486835E-1   -9.200312360908819E-1
 8.774635094715853E8     3.974776856982237E-1   -9.281241330587828E-1   -2.545389716287463E-6    9.340427333865754E-7    1.075258467194589E-5   -6.749468754826324E-6    3.761334427329258E-1   -9.246299006309787E-1
 8.874335493519442E8     3.843975124669416E-1   -9.327361833346444E-1   -1.234534603606924E-5   -1.700733198591408E-6    7.684646279921358E-6    8.828458242465343E-6    3.630946716932321E-1   -9.290806671795488E-1
 8.974035892323031E8     3.730489849420524E-1   -9.363173943606387E-1    8.777782003096766E-6    1.428586975416922E-5   -5.234308209022677E-7   -3.003362248139612E-7    3.496127075958149E-1   -9.334780672479972E-1
