#  HZ   S   RI   R     50.00 
! Rohde & Schwarz Vector Network Analyzer 
! Rohde-Schwarz,ZNB20-2Port,1311601062102128,3.60
! Created: UTC 4/29/2024, 2:56:47 PM
! freq[Hz]                re:S11                  im:S11                  re:S21                  im:S21                  re:S12                  im:S12                  re:S22                  im:S22
 1.000000000000000E5     9.961174688465019E-1    3.828350799198595E-3   -7.065329374653839E-5    3.681619287083869E-5   -2.469385587372882E-7   -4.403840822140785E-6    1.010616892790727      -1.135256712886084E-2
 1.007003988035892E7     9.975098319222675E-1   -1.377546510460529E-2    1.548858052536914E-5    1.177933321494104E-5   -1.633239089257896E-5   -1.199357774580261E-6    9.959217945537119E-1   -1.449198771242064E-2
 2.004007976071785E7     9.997708537800808E-1   -2.708075946500263E-2    1.051799690943743E-5   -1.070766015478304E-5   -1.621948261784337E-5    1.029999922033116E-5    9.987947068572852E-1   -2.762904181674173E-2
 3.001011964107677E7     9.979567527108694E-1   -4.106109766685583E-2    6.367693272249014E-6    5.369484533686662E-6    6.469281113003186E-6   -2.763450768064013E-6    9.974787365891163E-1   -4.197497301667690E-2
 3.998015952143569E7     9.976267894022131E-1   -5.316955217652775E-2   -4.749725680172959E-6   -5.330593481794685E-6   -1.930090811900018E-5   -1.522934950325303E-5    9.975707735720584E-1   -5.671511165683028E-2
 4.995019940179461E7     9.960928212053346E-1   -6.601034794094189E-2    1.765242327198592E-6   -1.720008347152442E-5    9.620475328422181E-6   -1.718637813405407E-5    9.965576815990859E-1   -6.917415270723359E-2
 5.992023928215354E7     9.941322540254418E-1   -7.880322134663732E-2    1.232917890836440E-5    5.458723487590513E-6   -3.837995104565195E-6    3.458458104405119E-6    9.946354708520337E-1   -8.196160161235523E-2
 6.989027916251247E7     9.930485960900010E-1   -9.176082955230891E-2    1.846425081494639E-5    1.354134011904556E-5   -6.824481828920280E-6    3.031919875092457E-6    9.934917445518270E-1   -9.486592062102915E-2
 7.986031904287139E7     9.923611694447049E-1   -1.052084810507930E-1   -9.171390790511378E-7    6.534939755498556E-6   -6.035671403577084E-6    5.721568752113683E-6    9.923060428886965E-1   -1.079454567323118E-1
 8.983035892323031E7     9.913836198753960E-1   -1.188658460726578E-1    1.181502599148667E-6   -1.422299765780636E-5    1.812973531330615E-6    3.957727498465767E-6    9.908214077198058E-1   -1.210199484780115E-1
 9.980039880358922E7     9.893467626103364E-1   -1.323248139797235E-1   -9.338318539694502E-6    6.059050236527548E-6    4.847050804417406E-6    3.795416874602825E-6    9.885183210758554E-1   -1.343927546045231E-1
 1.097704386839482E8     9.863121285960863E-1   -1.455346158224064E-1    5.068176758882709E-7   -1.467089157215359E-5    2.038337049457528E-6    9.569844106409210E-6    9.860571121743981E-1   -1.477476036333137E-1
 1.197404785643071E8     9.847326328137882E-1   -1.590179423355660E-1    6.760927451049288E-6    1.459414513136337E-6   -6.794140720588638E-6    1.852607196242562E-5    9.843112189671305E-1   -1.611480532843591E-1
 1.297105184446660E8     9.829873643434092E-1   -1.718255635956509E-1    1.225073063364274E-5    9.090424035914921E-6    4.333390582868558E-6    8.967127953266655E-7    9.828279276545434E-1   -1.744242033684633E-1
 1.396805583250249E8     9.814937197301111E-1   -1.847000267710744E-1   -1.319251050641146E-6    5.712838140216209E-6    8.999478471436144E-6   -5.949373692891301E-6    9.808983605246477E-1   -1.875846025037621E-1
 1.496505982053838E8     9.789005821808480E-1   -1.970968053766350E-1   -6.410725896754456E-6    3.003031298266174E-6    8.562224918285802E-6    1.686273203240909E-6    9.784855559652134E-1   -2.004126043344413E-1
 1.596206380857428E8     9.761423007807744E-1   -2.096057099075231E-1   -7.779123695044006E-6    9.656150300482972E-6    3.688949919015197E-6    1.022346050419521E-5    9.757132804714573E-1   -2.133078524928292E-1
 1.695906779661017E8     9.731208107875837E-1   -2.223001179537633E-1    7.107060349037227E-6    1.012222417418268E-5   -6.323304088549216E-7   -7.037066755464306E-7    9.728409165127058E-1   -2.261050336920079E-1
 1.795607178464606E8     9.706484493843867E-1   -2.348304775167874E-1    4.965101431585941E-7    5.676690089540385E-6    8.635531924311338E-6    1.315732878225958E-5    9.702202804478557E-1   -2.380820327700116E-1
 1.895307577268195E8     9.677228232737937E-1   -2.470935588349711E-1    7.676862325944633E-6   -3.608163135101123E-6   -8.084969700862221E-6   -1.484198790318574E-6    9.666630405632181E-1   -2.504896461972204E-1
 1.995007976071784E8     9.637220646110071E-1   -2.595349313008607E-1    6.634606668506228E-9    6.806705904770056E-6   -1.489653607744102E-5   -3.030881638385591E-6    9.627427144942634E-1   -2.631490844644763E-1
 2.094708374875374E8     9.603092822066820E-1   -2.723114314684036E-1   -5.660510280344141E-6   -8.973915066623471E-6    7.843994650154216E-6   -1.987301547560366E-6    9.589222624386072E-1   -2.761164204684527E-1
 2.194408773678963E8     9.572482300182218E-1   -2.851371741061185E-1   -6.057837976953861E-6   -5.663239216313038E-6    1.158069581672949E-5    4.091794614223394E-6    9.551103261691459E-1   -2.890860141372874E-1
 2.294109172482552E8     9.536731979371812E-1   -2.974440963215893E-1    1.453454224193514E-6   -3.077755822537796E-7   -9.352367211593338E-6    9.457391349517279E-6    9.508910625860826E-1   -3.017092015757716E-1
 2.393809571286142E8     9.505276056930582E-1   -3.094229485416613E-1   -9.873109768799934E-7   -4.905667218603902E-6    5.490894888540093E-6   -5.184670754684582E-6    9.470085684043984E-1   -3.140118031907695E-1
 2.493509970089731E8     9.468239033915481E-1   -3.232866200206930E-1    2.469963750173565E-6    1.301400883886473E-5   -2.250120905447897E-5    2.657129734726726E-6    9.441452406941619E-1   -3.276415533683324E-1
 2.593210368893320E8     9.425897939526490E-1   -3.353472366147858E-1   -6.418622962717331E-6   -1.621854623861870E-5    2.765231547368255E-5    2.353134554675489E-6    9.398204000218801E-1   -3.408345390693946E-1
 2.692910767696909E8     9.385000579614622E-1   -3.467294571549204E-1   -7.038365234745182E-6   -2.164160539603524E-7    3.960368243987998E-6   -5.690802217038214E-6    9.355167433424740E-1   -3.528761354367287E-1
 2.792611166500499E8     9.338221739302206E-1   -3.583983692731406E-1    4.902306738471370E-6    9.239634753240215E-6   -4.006949030573618E-6   -4.813794375922676E-6    9.308546733311506E-1   -3.646969531471028E-1
 2.892311565304088E8     9.288831842671260E-1   -3.705590682830219E-1    2.611236182845702E-6   -7.652309729193013E-6    1.020459314282839E-5   -7.172999065827206E-6    9.261117528910627E-1   -3.768505732438940E-1
 2.992011964107677E8     9.240373825844223E-1   -3.826546187754257E-1   -1.305959284743127E-5    1.414687428236058E-5   -1.029092580503991E-5    2.494893629901313E-5    9.212448883606520E-1   -3.887389037042505E-1
 3.091712362911266E8     9.187395777012197E-1   -3.949046952014753E-1    2.988387572141709E-6    1.175578384150402E-5   -5.711650016370397E-6   -2.467085390087287E-6    9.157138582883312E-1   -4.001605977107210E-1
 3.191412761714855E8     9.133353730227822E-1   -4.073854076610670E-1   -2.041860830480403E-6   -3.552658458781912E-6   -2.139788265820141E-5    4.439525938485115E-6    9.097274915272446E-1   -4.119843179222622E-1
 3.291113160518445E8     9.075010087834482E-1   -4.200137905074852E-1    7.600190350977085E-6   -5.573192612486404E-6    1.560873819656849E-5   -1.495518581477702E-5    9.032857254449533E-1   -4.242997220396645E-1
 3.390813559322034E8     9.018402707167370E-1   -4.327267333876694E-1   -3.105134094676907E-7    4.227884108018893E-6   -9.312725589206360E-6   -3.176812197379030E-6    8.967006386867554E-1   -4.368521644785052E-1
 3.490513958125623E8     8.965652211739569E-1   -4.453016919204371E-1    4.558602751598260E-6   -1.168566695286723E-5    5.799573993969668E-6   -1.847476354867650E-6    8.905555233346963E-1   -4.494298933481218E-1
 3.590214356929212E8     8.913589551746582E-1   -4.578431497701461E-1   -1.782827866614731E-6    1.139013080348000E-6   -1.393710339106292E-5   -1.311730442479905E-5    8.845866460441049E-1   -4.621808183458123E-1
 3.689914755732802E8     8.859586204126166E-1   -4.700772643805426E-1   -1.057649865076122E-5   -1.289201405033737E-5   -6.880528203056234E-6    7.260901049348588E-6    8.789543636941146E-1   -4.747167990808194E-1
 3.789615154536391E8     8.797397055285880E-1   -4.812855186154956E-1   -4.749760675869231E-6   -4.809786671457248E-7   -1.968297027704065E-5    5.165084771981708E-6    8.737560303792214E-1   -4.866956488337256E-1
 3.889315553339980E8     8.741441307355144E-1   -4.919701104496717E-1    1.625051104679298E-5    1.114488347521949E-5    6.739485393797879E-7   -4.409736446318802E-6    8.679185650250555E-1   -4.988066814895732E-1
 3.989015952143569E8     8.674370207581371E-1   -5.027474319566416E-1   -3.063172209607596E-6   -7.443363165877806E-6   -5.152533973120985E-6    8.136633663522701E-6    8.611022036178498E-1   -5.097379838264007E-1
 4.088716350947158E8     8.602064352849202E-1   -5.135787267948773E-1   -7.249083190835987E-6   -7.721650945755345E-6    2.091458518011061E-5    7.115548822892321E-6    8.542364022858180E-1   -5.207457249349081E-1
 4.188416749750748E8     8.532530962371880E-1   -5.249922134507827E-1    1.162448553169509E-5    2.196891705638390E-7   -2.357945103726084E-5    3.242150990154902E-6    8.475435038484974E-1   -5.314389224015643E-1
 4.288117148554337E8     8.458563276770320E-1   -5.366779366175973E-1   -1.767176447989065E-5    3.284129077170635E-6   -2.813242379737272E-6    2.514007906650341E-6    8.405544699047964E-1   -5.419022391656754E-1
 4.387817547357926E8     8.382447896491950E-1   -5.481716573182885E-1   -1.737414974557457E-5    6.043662895271232E-6    9.560853561407852E-6    1.390761838853080E-7    8.326969538735107E-1   -5.523462182833141E-1
 4.487517946161516E8     8.305777119429607E-1   -5.601549282890756E-1    5.173850341806939E-6   -1.579350046175985E-5   -2.801099557391647E-6   -3.864520671450871E-6    8.241834138479910E-1   -5.634704715362062E-1
 4.587218344965104E8     8.235359855520279E-1   -5.719858417717381E-1    7.813680293933616E-6    4.536610941061598E-6    9.407824308752299E-6    7.510881632480942E-6    8.159847079688339E-1   -5.752438831070938E-1
 4.686918743768694E8     8.168921315423743E-1   -5.833687142890587E-1   -2.604996014904833E-5    5.167241694989314E-6    1.234214996374319E-5    9.434690285541011E-6    8.078188688289446E-1   -5.868080659801385E-1
 4.786619142572283E8     8.096741111863818E-1   -5.941296389479193E-1   -3.587191785217925E-6   -1.317149608898141E-5   -1.084198317439962E-5    9.052265064627547E-6    7.991986487698334E-1   -5.979958602673079E-1
 4.886319541375872E8     8.023269953231045E-1   -6.047160468402291E-1   -5.867193229603226E-7   -1.030898008123044E-5    1.060272857044019E-5   -5.986602744063168E-6    7.904300734247933E-1   -6.088656914028240E-1
 4.986019940179462E8     7.941596305429370E-1   -6.154236006035920E-1    2.403960162549851E-6   -1.323271061431756E-7   -1.150107221081812E-5    1.175189761555901E-5    7.824225300955665E-1   -6.197427776323622E-1
 5.085720338983051E8     7.857027202085201E-1   -6.245676555555992E-1    3.143189275951205E-6   -5.956599389982402E-6    8.886241009137346E-6   -5.135325774899006E-6    7.747492771937551E-1   -6.302678083410745E-1
 5.185420737786640E8     7.781902535746360E-1   -6.334930169502716E-1   -6.032878331641755E-6   -2.742170697408263E-6    1.690448136108984E-5   -1.156629312353233E-5    7.669461795710983E-1   -6.401341042851094E-1
 5.285121136590229E8     7.698870543779344E-1   -6.430287740728219E-1   -3.800104247171789E-6   -7.620993500922418E-6   -2.040690507866406E-6    1.136046145929465E-5    7.587949349028661E-1   -6.497470396002976E-1
 5.384821535393819E8     7.613632828887568E-1   -6.531433654842473E-1    5.558239177310800E-6    5.698211977281342E-6    7.936301132816638E-6    1.187598620577785E-5    7.507830410640505E-1   -6.593621254706158E-1
 5.484521934197408E8     7.532997764321203E-1   -6.637629455006765E-1   -3.659543464852953E-6   -8.462171767671284E-6   -1.019138872769264E-6   -1.428853121220205E-5    7.424704083476316E-1   -6.693319991266067E-1
 5.584222333000997E8     7.447558568095574E-1   -6.746456067055413E-1   -5.161995433611513E-6    6.630916099636836E-8   -2.966140581867081E-6    7.180360620210604E-6    7.333023699026141E-1   -6.792117500065868E-1
 5.683922731804587E8     7.355193888078853E-1   -6.851690822163854E-1   -5.406100005252233E-6   -3.649511217765903E-6    7.775815527818520E-6    2.430618066672843E-5    7.230007120124609E-1   -6.890734759081734E-1
 5.783623130608176E8     7.262563862870572E-1   -6.950582160100246E-1    5.356925891069668E-7    3.826994866658072E-6   -4.277462971623830E-6    1.354491166571861E-5    7.126120775338977E-1   -6.989599340317589E-1
 5.883323529411764E8     7.171309236853658E-1   -7.051218996270368E-1    2.466714944907659E-6    3.446718725440970E-6   -4.443373111281346E-6   -1.055620987108589E-5    7.022664880979643E-1   -7.087431555803773E-1
 5.983023928215353E8     7.079181009887816E-1   -7.153170334564406E-1   -2.262690315287746E-6   -8.504461109391635E-6   -1.745952150703793E-6    1.244459539340930E-5    6.919509575137706E-1   -7.184861337305315E-1
 6.082724327018943E8     6.983505505202287E-1   -7.249229547869758E-1   -3.510408076848476E-6   -5.912670581003818E-6    1.819990239525834E-5   -1.502765554362619E-5    6.816178361443196E-1   -7.278079973577133E-1
 6.182424725822532E8     6.884719079610924E-1   -7.345670444287933E-1    3.401210464546026E-8    9.950659099129761E-6   -1.896051504450476E-5   -5.656410299643158E-6    6.716215126210680E-1   -7.370880462782312E-1
 6.282125124626122E8     6.779320273177541E-1   -7.439183397768694E-1   -3.949362262240876E-6    2.425823717427961E-5    5.547788121536752E-6    9.925758440379101E-6    6.627740921256835E-1   -7.468978071190885E-1
 6.381825523429711E8     6.682758988153844E-1   -7.510792398886316E-1   -1.231033309984957E-5   -5.027581531351536E-6    1.637806089102185E-5    1.353819030754019E-5    6.537733104316565E-1   -7.557143665934571E-1
 6.481525922233300E8     6.594426332202855E-1   -7.596873025984855E-1    7.697642010296023E-6   -4.095123162618924E-6   -3.079168130396842E-6    1.039128156709375E-5    6.446243354736918E-1   -7.641414326228607E-1
 6.581226321036890E8     6.496013263616884E-1   -7.684254530458930E-1   -1.106063057148811E-5   -9.839866558908679E-6   -1.766617872858089E-5   -1.164727490366939E-5    6.345106394483673E-1   -7.723358000351110E-1
 6.680926719840479E8     6.396645833798807E-1   -7.771558749683946E-1    2.039216007512186E-5    4.685602910590080E-6   -1.731911354466011E-6   -4.148363969549192E-6    6.238450743581876E-1   -7.804229761591881E-1
 6.780627118644068E8     6.299061716519043E-1   -7.853261092637105E-1    3.546424051075134E-6    5.624955097213408E-6    1.937752008275566E-6    8.518900365890382E-6    6.129602631445356E-1   -7.883502488608851E-1
 6.880327517447658E8     6.196148743241104E-1   -7.937434546135133E-1   -1.143800294472936E-5    4.430060888250200E-6   -1.134608058639625E-5    3.639257174964430E-6    6.015827197699928E-1   -7.959452045395806E-1
 6.980027916251246E8     6.086135008004029E-1   -8.018604002269182E-1   -6.004761247933114E-6   -9.018711958128647E-6    9.812981592349106E-6    1.203031263438238E-6    5.900343111080139E-1   -8.037464776313213E-1
 7.079728315054835E8     5.972078102731331E-1   -8.100766111871345E-1    9.186446273086465E-6    3.102690612163860E-6   -5.919170979588080E-6   -6.895153920786447E-6    5.783965567880188E-1   -8.116039454350102E-1
 7.179428713858424E8     5.861058260683902E-1   -8.186575671023861E-1    7.738106984902865E-6   -7.389098019942698E-6    1.407089085374788E-5    1.035141251359747E-6    5.671955083772097E-1   -8.201384513792599E-1
 7.279129112662014E8     5.750864571866323E-1   -8.271106017230958E-1    8.063827058521604E-6    3.101645574909251E-6   -7.925185365505507E-6   -1.222705990111257E-5    5.559299037865637E-1   -8.289597047184061E-1
 7.378829511465603E8     5.638621128801984E-1   -8.359714301767776E-1   -6.691803764142782E-6    7.080749094602157E-6   -2.138135246323513E-6   -9.793027832427473E-6    5.446326504014336E-1   -8.373358580710465E-1
 7.478529910269192E8     5.518703415828371E-1   -8.445497570462928E-1   -2.082746140065849E-6    5.820021935824282E-6   -1.643608775194072E-6    4.395398255396008E-6    5.333128425598794E-1   -8.449540911926249E-1
 7.578230309072782E8     5.391650180235271E-1   -8.516117652390052E-1   -1.679669192751476E-6   -4.633141961327394E-6   -2.970265970521975E-5   -6.680066326525079E-7    5.222694655141887E-1   -8.518589564790662E-1
 7.677930707876371E8     5.286841834022703E-1   -8.569605209988382E-1    6.766191325030984E-6   -3.216730114836577E-6   -1.070264102157710E-5    2.356874462084973E-6    5.109933446374876E-1   -8.582204450941977E-1
 7.777631106679960E8     5.192273711686022E-1   -8.639438967959064E-1   -1.034260393638424E-5   -7.498707779485847E-6   -5.585367808678435E-6    5.935926889619778E-7    4.994932568431031E-1   -8.647879751598958E-1
 7.877331505483550E8     5.089564854165793E-1   -8.709710299412717E-1    1.877172590788183E-5   -7.240734651113753E-7    1.163320193836546E-6    9.128441255089809E-7    4.876650953261120E-1   -8.715506230358003E-1
 7.977031904287138E8     4.976418875696482E-1   -8.772491786300690E-1    1.165794857451299E-5    1.609614583706032E-5    1.530194402236037E-5    3.674190509957350E-6    4.748943421518294E-1   -8.779627549185423E-1
 8.076732303090727E8     4.859028140938324E-1   -8.830775415619974E-1    3.049027805156618E-7   -2.786001795288608E-6    9.750491523200572E-6   -5.159463173096123E-6    4.620303731473716E-1   -8.840095028989550E-1
 8.176432701894317E8     4.737857502698666E-1   -8.890005569547007E-1    1.594419926322823E-5   -2.886679621951024E-6    8.169193683601751E-7    2.060810994078379E-6    4.491467116643261E-1   -8.903013611552314E-1
 8.276133100697906E8     4.615625640041625E-1   -8.955202511370228E-1    7.823579437728030E-6   -1.300328734447786E-6    3.199532618926334E-6   -3.863577408881328E-7    4.365895041654623E-1   -8.972087867094559E-1
 8.375833499501495E8     4.489601739415534E-1   -9.020818521577876E-1    3.554170470661091E-6   -2.734166715913346E-6    1.340285641977810E-5    6.111997595589525E-6    4.243962677143469E-1   -9.038163918961513E-1
 8.475533898305085E8     4.360756582632933E-1   -9.083305876226540E-1    6.434781562143358E-6    3.758157798009984E-8   -3.026347736724477E-6    1.005908129123067E-6    4.125399535599563E-1   -9.099220471226508E-1
 8.575234297108674E8     4.233133197098080E-1   -9.146962598517271E-1    1.622382926161010E-8    2.176208963554569E-6   -7.701060554877586E-6   -1.862675945143006E-5    4.007564243841019E-1   -9.150884300965439E-1
 8.674934695912263E8     4.105182664336624E-1   -9.213395116046543E-1   -1.297176192138768E-5   -6.145791143850238E-6    2.889038435128129E-6   -9.724134158348844E-6    3.886676926875261E-1   -9.199124620205492E-1
 8.774635094715853E8     3.974200089410954E-1   -9.280438286763617E-1   -3.930749309286739E-6    8.608599421086392E-6   -8.003988259333954E-7   -3.986729717891257E-6    3.761367889992555E-1   -9.246476405026630E-1
 8.874335493519442E8     3.844295705313033E-1   -9.326650134129517E-1    3.655470880091725E-6    3.177402276657388E-6   -2.082207044660798E-6   -7.049412382470357E-6    3.630718679595851E-1   -9.291093857417113E-1
 8.974035892323031E8     3.730638116357651E-1   -9.362615753429218E-1    9.286659808757600E-7    2.589232590135683E-6    2.185530192097085E-6   -1.987856053327811E-6    3.495027370247387E-1   -9.333627587850241E-1
