#  HZ   S   RI   R     50.00 
! Rohde & Schwarz Vector Network Analyzer 
! Rohde-Schwarz,ZNB20-2Port,1311601062102128,3.60
! Created: UTC 4/29/2024, 2:56:37 PM
! freq[Hz]                re:S11                  im:S11                  re:S21                  im:S21                  re:S12                  im:S12                  re:S22                  im:S22
 1.000000000000000E5     9.962628877629425E-1    4.026745717592596E-3    2.515164393347594E-5    9.807604168720071E-6    5.999132902811985E-5   -3.049152710386734E-5    1.010731938448968      -1.147920546693386E-2
 1.007003988035892E7     9.976060601868963E-1   -1.387824433411704E-2    1.888840018104424E-5   -3.135296456613376E-6   -2.376608615152869E-6    5.867424491610576E-6    9.957635493311474E-1   -1.445536549044473E-2
 2.004007976071785E7     9.998712674872549E-1   -2.720412427097758E-2    2.138847692517605E-5    2.177679364053544E-6   -5.030068956509468E-6   -9.183835517996235E-6    9.985148114409541E-1   -2.768931208106373E-2
 3.001011964107677E7     9.978822583213165E-1   -4.099405743802882E-2    2.721357767650060E-5   -4.962851195370007E-6    2.511800936256478E-6   -2.727172731368678E-6    9.975159762417685E-1   -4.190504802695150E-2
 3.998015952143569E7     9.975877396365987E-1   -5.310639624376832E-2    8.535777720601745E-7   -7.948206337416216E-6   -2.331510234201369E-6   -1.182505228873197E-5    9.974505482774129E-1   -5.666330643903927E-2
 4.995019940179461E7     9.959212947495443E-1   -6.598069458348187E-2    8.491728940256518E-6   -9.822614428125547E-6   -4.737003311293134E-6    1.838257583661558E-5    9.965914231566790E-1   -6.918886970028530E-2
 5.992023928215354E7     9.940009216273166E-1   -7.879691794531833E-2    1.707088644175662E-5    2.808824715391420E-6   -9.814777895054337E-6   -9.280837878144376E-6    9.946558723695652E-1   -8.197246361574789E-2
 6.989027916251247E7     9.930015375408827E-1   -9.183119017618982E-2   -5.189324506147244E-7    3.774293119564837E-8   -8.072988604352590E-6   -1.507180831070117E-5    9.933689939970897E-1   -9.471096802560117E-2
 7.986031904287139E7     9.923854282382532E-1   -1.052442342057846E-1    5.413711143169273E-6   -1.399794051903286E-5    5.867623404352081E-8    2.220193735556611E-5    9.923220054406215E-1   -1.079082565403409E-1
 8.983035892323031E7     9.913873923961188E-1   -1.187194345436473E-1   -2.255746132808488E-6   -7.849081912347460E-6    6.472086979612355E-6   -9.520685784701477E-6    9.907400783118393E-1   -1.210473730765168E-1
 9.980039880358922E7     9.893364586277886E-1   -1.323351360456292E-1   -1.250240970818961E-6    1.520611856994242E-5   -3.729688684144588E-6    4.019727345627005E-6    9.886175863846076E-1   -1.344214677597059E-1
 1.097704386839482E8     9.864624432011239E-1   -1.454350584389119E-1    1.153416526492913E-5    5.507983944597034E-7    1.089361512291347E-5   -1.050168488519511E-6    9.860792249115208E-1   -1.477950534990800E-1
 1.197404785643071E8     9.848573180588659E-1   -1.590222801605902E-1   -2.677911849534774E-6   -1.574002857103865E-5    8.331479866840110E-6   -9.123509417705698E-6    9.841548935601230E-1   -1.611682948660260E-1
 1.297105184446660E8     9.830920934479123E-1   -1.717831257129206E-1    9.134231765017699E-6    1.108605591387958E-6    7.294886118390946E-6   -1.713079216917557E-5    9.828531943026521E-1   -1.743671029754675E-1
 1.396805583250249E8     9.816102319467955E-1   -1.846000755673013E-1    1.869948261056975E-6   -8.241525072447452E-6   -3.758265134753158E-7    1.871494996797976E-5    9.806224537575408E-1   -1.875030375315493E-1
 1.496505982053838E8     9.788870856634588E-1   -1.970357258036673E-1    1.233451938406610E-5   -2.061067157095950E-6    1.621522784835814E-5   -7.470541910232389E-6    9.784506158055483E-1   -2.003725407267608E-1
 1.596206380857428E8     9.760827096701631E-1   -2.094735798617630E-1    2.140020556383484E-6    9.949022315347889E-6   -2.001744647787809E-5    2.288447502947289E-6    9.757388398111938E-1   -2.132790366026154E-1
 1.695906779661017E8     9.731694257326714E-1   -2.222657363058278E-1    5.602785603463707E-6   -9.143270785904267E-6    3.695263224902511E-6    8.144690551253500E-6    9.726221811751027E-1   -2.260668677212519E-1
 1.795607178464606E8     9.706691595433576E-1   -2.347698660475807E-1   -1.065270583036320E-6   -1.240746778532956E-6    9.801370494486221E-7   -1.165245611918805E-5    9.700288007996248E-1   -2.379908251017809E-1
 1.895307577268195E8     9.675678182429253E-1   -2.470170968976917E-1    6.117772215358976E-6    4.915425318579565E-6   -6.212995330055176E-6    1.966916799898270E-5    9.667271424684591E-1   -2.505054029447344E-1
 1.995007976071784E8     9.637108745475809E-1   -2.594302890174993E-1   -2.074511064933433E-5   -4.609509776725670E-6   -5.956386599756029E-6    1.336745078554179E-5    9.626908812382130E-1   -2.631679520909190E-1
 2.094708374875374E8     9.603565661605293E-1   -2.723281531114021E-1   -1.198106882885882E-6   -6.299362267045619E-7   -1.335003938310851E-6   -3.148767883921241E-6    9.587860364919903E-1   -2.761061412328821E-1
 2.194408773678963E8     9.572771947312169E-1   -2.850339062517618E-1   -6.335997366809260E-6   -6.889268620896863E-6    8.863876867240557E-6   -8.093330000032438E-7    9.549911710033859E-1   -2.891223950411254E-1
 2.294109172482552E8     9.536438399229056E-1   -2.974258439470614E-1    1.632137169883453E-6    9.069736566212186E-6   -2.645627814055757E-6   -5.720077946029583E-6    9.509748929937900E-1   -3.017219820902978E-1
 2.393809571286142E8     9.505052797637253E-1   -3.093829144372887E-1    5.439954335357829E-6   -1.346410050157123E-5   -1.523858015280818E-5    1.271633900803289E-6    9.469034896570467E-1   -3.140095460813773E-1
 2.493509970089731E8     9.467859347067263E-1   -3.232481118192357E-1   -6.137859116860700E-6    5.111301848174610E-6   -3.977210625138269E-6   -1.905998092486404E-5    9.440164687833780E-1   -3.276381053121246E-1
 2.593210368893320E8     9.426074259324719E-1   -3.354239343934813E-1    8.515922319666156E-6    5.132853385388895E-6   -1.359351198843383E-5    4.934201654897678E-6    9.396883625928392E-1   -3.408274229779557E-1
 2.692910767696909E8     9.385804491780296E-1   -3.467246417795143E-1    3.952046571509418E-6   -5.613101106644640E-6    5.245316052561155E-6   -1.326578203220719E-5    9.353934625868497E-1   -3.528322482448261E-1
 2.792611166500499E8     9.337938654648530E-1   -3.583811011420603E-1   -1.023235451350841E-7   -8.007764924674818E-6    1.177280830062520E-6    9.773797123142781E-6    9.308798846401733E-1   -3.647071510533568E-1
 2.892311565304088E8     9.289213777242151E-1   -3.704806833553094E-1   -4.849513682123969E-6   -1.082818331722812E-5    6.663086955792700E-6    1.352455556979709E-5    9.260011111842876E-1   -3.768067616282235E-1
 2.992011964107677E8     9.240621188861112E-1   -3.826003152716622E-1    2.759160329884631E-6    3.869625760586507E-6   -4.074997352462653E-6   -5.529634372191173E-6    9.210320859285102E-1   -3.886683843987954E-1
 3.091712362911266E8     9.186986343011064E-1   -3.948199517402249E-1    1.136394374094886E-6   -2.035980080383329E-8    9.079089911215220E-6    3.426837495198107E-6    9.156185663039890E-1   -4.001453415182523E-1
 3.191412761714855E8     9.133043714242443E-1   -4.073069225867038E-1   -3.416180852209593E-6    4.671256525574705E-6    2.198083817941536E-5   -1.392136164000466E-5    9.097246222522777E-1   -4.119561259479339E-1
 3.291113160518445E8     9.076004027763783E-1   -4.199378115272810E-1    1.014941925736434E-5    1.858411196738316E-5   -2.043685598329805E-5   -1.131552496822279E-5    9.033072581963684E-1   -4.243892052267993E-1
 3.390813559322034E8     9.019069501502655E-1   -4.327237985250285E-1    6.184858162652555E-6    1.916077675865562E-6   -2.706650556306846E-6   -1.037288221302017E-5    8.966835665604683E-1   -4.368108729553513E-1
 3.490513958125623E8     8.966337017720387E-1   -4.452869237309908E-1   -7.819152839353176E-6    7.633183713833213E-6   -2.066373463206499E-6   -1.222631864815870E-5    8.902962990410996E-1   -4.494186106099518E-1
 3.590214356929212E8     8.913814095361052E-1   -4.578012980438277E-1   -1.461392559121277E-6   -9.760444154375088E-6    6.456594351430668E-6    7.178777960141875E-6    8.845225452265782E-1   -4.621318432731429E-1
 3.689914755732802E8     8.859603383360120E-1   -4.701192081595640E-1    2.744156166503332E-6    1.159233051516796E-6    1.507929406711846E-5    7.024209288098320E-6    8.790712806987995E-1   -4.747758241404514E-1
 3.789615154536391E8     8.797501983497896E-1   -4.812121700486804E-1   -6.803398226554113E-6   -4.911211110132664E-6    1.331127923266250E-6   -2.534377125353859E-6    8.737378821826705E-1   -4.868742201888847E-1
 3.889315553339980E8     8.740961437340535E-1   -4.919758933986620E-1    1.017457821045549E-5   -4.839377492426575E-6   -7.932063468749597E-6   -8.237794648379411E-6    8.678324504242653E-1   -4.986866322994055E-1
 3.989015952143569E8     8.673236327050986E-1   -5.026013507219772E-1    5.920404581065187E-6    5.522508296889533E-7    7.957304314807566E-6   -1.504277086492699E-5    8.609932409343959E-1   -5.097377628230714E-1
 4.088716350947158E8     8.601907927487570E-1   -5.135064443005677E-1    2.863605716173599E-6    1.164590494840707E-7   -8.282763145153654E-6   -9.861411669967307E-6    8.541701520435794E-1   -5.206450348294177E-1
 4.188416749750748E8     8.532859398908754E-1   -5.250378624587005E-1   -1.275825464620205E-6   -2.311373093450249E-6   -2.093082865748209E-5   -1.005139745583534E-5    8.475247718426948E-1   -5.315046118486966E-1
 4.288117148554337E8     8.460001195083169E-1   -5.367219244232910E-1   -7.033677218994949E-6    1.049730913090326E-5    4.943226657420496E-8    4.898097789508410E-6    8.404141959813335E-1   -5.418234531390406E-1
 4.387817547357926E8     8.381649848974809E-1   -5.480999122586010E-1    2.707776537740619E-6   -1.129401716214159E-5   -5.934529274358877E-6   -3.330952458305673E-6    8.325977266024362E-1   -5.522761721851571E-1
 4.487517946161516E8     8.304783656866100E-1   -5.600264111000205E-1    3.679010097233551E-6   -9.266661816142532E-6    9.399467048008225E-6   -6.646004882134953E-6    8.241298154861380E-1   -5.635298669655422E-1
 4.587218344965104E8     8.235928546188949E-1   -5.719613867449183E-1    9.936586878178910E-6    1.659506861257791E-6   -1.725495387154792E-6   -1.338119762433046E-5    8.159693259621269E-1   -5.752538490636887E-1
 4.686918743768694E8     8.170330952876597E-1   -5.834166617953427E-1   -2.143295908572394E-6   -9.136073426334786E-6   -9.531369893434473E-6   -3.622563248520017E-6    8.078076769108264E-1   -5.868104320805436E-1
 4.786619142572283E8     8.097929405512344E-1   -5.941533424310146E-1   -1.237990606807715E-5    6.611317455535759E-6    1.172745536175334E-5    3.920236771936341E-6    7.991910177822387E-1   -5.980882298101061E-1
 4.886319541375872E8     8.022358071764857E-1   -6.045744808655275E-1    1.395877459683174E-5    1.915649665864710E-5    6.218523582022697E-6   -2.849235788504151E-6    7.905106148233109E-1   -6.089881826212805E-1
 4.986019940179462E8     7.939663777950825E-1   -6.153334210078332E-1    4.416733221791183E-6   -3.677143062695305E-6    1.088186087715188E-5   -1.708199119984557E-6    7.824028195193730E-1   -6.197289902087105E-1
 5.085720338983051E8     7.856795926852468E-1   -6.244827008387925E-1   -2.503285028620275E-6   -6.309865224885578E-6    9.597243558772189E-7   -1.641843892579289E-5    7.745382242751282E-1   -6.302317841532309E-1
 5.185420737786640E8     7.782188513226278E-1   -6.335580835820072E-1    3.802450690760865E-6    1.474290282623030E-6   -3.736644002779407E-6   -1.223353546013981E-5    7.668785349711954E-1   -6.401084775329395E-1
 5.285121136590229E8     7.699411098868466E-1   -6.430828450254836E-1    4.014168459622488E-6    2.955728316218812E-6    8.709387598641699E-6   -7.894651794727380E-6    7.590141395024077E-1   -6.497387958424725E-1
 5.384821535393819E8     7.614395660545364E-1   -6.530839114608922E-1    3.461563793363270E-7    1.000690817601288E-6    1.070653613829115E-6    5.324599162475434E-6    7.509492844044905E-1   -6.593853366460382E-1
 5.484521934197408E8     7.532653656024183E-1   -6.636916784969907E-1   -1.225030018994019E-6   -1.890759753868285E-7    9.334610668212314E-6    2.689406611603265E-6    7.424020354642489E-1   -6.692557115443637E-1
 5.584222333000997E8     7.447690714685322E-1   -6.746007818365182E-1    5.225226862179426E-6    5.384397479252292E-6   -7.425148048249793E-6   -6.438306911866911E-6    7.331726990312191E-1   -6.790573931242818E-1
 5.683922731804587E8     7.355189789756259E-1   -6.849853663731247E-1    1.224414075279032E-5   -1.818386392144062E-6   -1.013205407444132E-5   -1.967418065828684E-5    7.231298693354764E-1   -6.891842424643108E-1
 5.783623130608176E8     7.263194387894244E-1   -6.950303821687518E-1    3.115602922523643E-6    4.391388544833119E-6    5.441496608011422E-6    6.044806249488219E-6    7.127326096237739E-1   -6.990570987556909E-1
 5.883323529411764E8     7.170383683710515E-1   -7.051041526870682E-1   -8.244778327382126E-6   -4.008799421713286E-6   -1.100900592881055E-5   -1.226398339485974E-5    7.021541132090142E-1   -7.087603042421526E-1
 5.983023928215353E8     7.078838347473715E-1   -7.151372296413731E-1    2.668296778817627E-6    3.443747627259144E-6    1.098806921729759E-5    1.449066660157068E-5    6.917154886002724E-1   -7.181504589435250E-1
 6.082724327018943E8     6.983083248104630E-1   -7.248720169051383E-1   -7.651187763969771E-7    8.319499274703321E-6   -1.568270841585070E-6   -1.969627452137839E-5    6.814950002346343E-1   -7.277106289483516E-1
 6.182424725822532E8     6.885032758743770E-1   -7.345543093497819E-1   -2.743310994666451E-6    9.661324986102771E-6   -3.546170305402137E-6    2.113120207281500E-6    6.717481181009111E-1   -7.373343201455520E-1
 6.282125124626122E8     6.780367490278925E-1   -7.439493731015423E-1   -3.029019683161091E-7    5.120011329391783E-6    5.241706374172228E-6   -1.182842890102384E-5    6.626813724770807E-1   -7.468300539079634E-1
 6.381825523429711E8     6.683446212745899E-1   -7.511447455857586E-1    7.225105783573901E-6   -4.294892976170100E-6    2.828898491772059E-6    1.509646580522712E-6    6.536060552983392E-1   -7.556340482831572E-1
 6.481525922233300E8     6.593625061551763E-1   -7.596487530591719E-1   -6.627274764818950E-6    2.370223270545300E-6   -2.275665430773567E-6    3.635223484926214E-7    6.444836744849328E-1   -7.640919454834827E-1
 6.581226321036890E8     6.495929692177536E-1   -7.684535199230806E-1   -2.876781226045529E-7    3.205349395292888E-6    3.277266832922087E-6    3.939022146604879E-6    6.345963798516168E-1   -7.725345354022256E-1
 6.680926719840479E8     6.397047326424140E-1   -7.771659411639233E-1    6.867694721235350E-6   -6.774524813433628E-6   -5.361660350676442E-6   -1.237793625440446E-5    6.239420572221701E-1   -7.805217014389310E-1
 6.780627118644068E8     6.298859001243610E-1   -7.853709018959367E-1    1.736217735695404E-7    3.081115760048180E-6   -2.680545066474721E-6    5.761972859415556E-7    6.127367671617217E-1   -7.882962577237063E-1
 6.880327517447658E8     6.196632210189220E-1   -7.938025950992741E-1    5.358911556324938E-6    7.666109546300520E-6    1.674254157632295E-5   -1.107565473204113E-5    6.013514010645609E-1   -7.958600336418212E-1
 6.980027916251246E8     6.086688997018096E-1   -8.018455554127277E-1    4.367879856864461E-6   -7.670996177684799E-7    3.340496077771642E-5    9.096824606662554E-6    5.899631362601278E-1   -8.037696211231109E-1
 7.079728315054835E8     5.972151029342856E-1   -8.100894836715065E-1   -5.098332389440443E-7   -5.039947865937832E-6    6.107545805182903E-6    2.551014918334016E-6    5.785957800120651E-1   -8.117274782725274E-1
 7.179428713858424E8     5.861104959044868E-1   -8.187135960098173E-1    3.734550268602961E-6    3.737270373517654E-7    1.180972909035957E-5    4.399223613342632E-7    5.671505074523091E-1   -8.201071678775086E-1
 7.279129112662014E8     5.752251579265961E-1   -8.272144284058111E-1   -3.726930822983800E-6   -7.297986919509940E-6    2.173054572142759E-5   -3.701592178661727E-6    5.557875275651615E-1   -8.288932429106413E-1
 7.378829511465603E8     5.637963465907317E-1   -8.359440237758459E-1   -5.067630270383274E-6   -5.381506529133988E-6    6.988256838038787E-6   -9.283031948874945E-6    5.445131018129047E-1   -8.371974296859719E-1
 7.478529910269192E8     5.518536468045375E-1   -8.444529018595364E-1    9.637139970649425E-8    1.970897097052231E-5   -1.298140944378505E-6    6.288718460559893E-7    5.333722898851047E-1   -8.449857086870342E-1
 7.578230309072782E8     5.392397084216483E-1   -8.516279986843642E-1    6.532136289698791E-6   -6.922155841198593E-6    2.104374229617473E-6   -3.142700170396595E-6    5.222102729484625E-1   -8.518372220571032E-1
 7.677930707876371E8     5.287787206980387E-1   -8.569847064554764E-1   -1.932916941677278E-5    1.723035399840879E-6   -1.846263798684680E-5    4.459272928868954E-6    5.109842970088423E-1   -8.583492758165824E-1
 7.777631106679960E8     5.191645895444481E-1   -8.639250636150300E-1    1.234837454584939E-6    3.176474538494931E-6   -1.523139183494539E-5   -2.735492027388926E-6    4.993929561804847E-1   -8.648142849782453E-1
 7.877331505483550E8     5.088459671149080E-1   -8.707561079859065E-1   -6.435776306918818E-6   -7.802977286351614E-10   1.473504080557118E-5   -3.066977732310644E-6    4.875704304656582E-1   -8.714149796304903E-1
 7.977031904287138E8     4.976949727168691E-1   -8.772411689728487E-1   -8.529798630017614E-6    7.687115937433547E-6    1.492149673935213E-6    9.614908116888714E-6    4.748304381371363E-1   -8.778976808943216E-1
 8.076732303090727E8     4.859145589886421E-1   -8.831849925266178E-1   -4.915891596240811E-6   -3.882755669870087E-6   -1.208718900363157E-5   -5.310672558206898E-6    4.619830233084952E-1   -8.840144473446965E-1
 8.176432701894317E8     4.738355849889017E-1   -8.891754911377096E-1    2.727453919282421E-6    3.471889569314480E-6    1.092568076916620E-5   -3.217863816013821E-6    4.491321280925833E-1   -8.902964400329049E-1
 8.276133100697906E8     4.615420121339804E-1   -8.956045529144085E-1   -1.676577079661076E-7    1.921472691527185E-5    6.863622095067313E-6    1.942101314704152E-6    4.366089174814028E-1   -8.972011220973453E-1
 8.375833499501495E8     4.489259931971358E-1   -9.020028961075574E-1    1.043656472641879E-6    7.652468473595387E-6   -1.281613576903520E-5    8.811261301444311E-6    4.244030551031256E-1   -9.037641979343695E-1
 8.475533898305085E8     4.362265013776525E-1   -9.085180038018390E-1    4.607641610693869E-6    1.387886210660204E-5   -7.713698224505459E-6   -6.708198494538846E-7    4.124916468075568E-1   -9.098445434015355E-1
 8.575234297108674E8     4.234297364387624E-1   -9.148123262764668E-1   -5.003432723788995E-6   -4.731146867736886E-6    4.387984621962960E-6    8.042775539256501E-6    4.007685631644262E-1   -9.151593279323091E-1
 8.674934695912263E8     4.105266605881952E-1   -9.214177882440546E-1    1.333307606685093E-5   -2.787335314812966E-7   -7.016511016923069E-6    8.018427901900772E-6    3.887726986107019E-1   -9.199133758430872E-1
 8.774635094715853E8     3.974499993860131E-1   -9.279831133694443E-1    5.561319046182614E-6    1.451323321693320E-5    8.305321949468717E-6    4.314417424865453E-7    3.761344995886114E-1   -9.246500310259483E-1
 8.874335493519442E8     3.842948192858543E-1   -9.325707358087690E-1   -9.075788274207133E-6   -6.206482074634140E-6    1.928337767328896E-6    1.111284212983444E-5    3.630561698173556E-1   -9.290793575937759E-1
 8.974035892323031E8     3.730190944710293E-1   -9.363088777602415E-1   -2.761952922747589E-6    1.021522876864668E-5   -3.817146075034155E-7    7.673947627723615E-6    3.495670139369660E-1   -9.334185267519498E-1
