#  HZ   S   RI   R     50.00 
! Rohde & Schwarz Vector Network Analyzer 
! Rohde-Schwarz,ZNB20-2Port,1311601062102128,3.60
! Created: UTC 4/29/2024, 2:56:50 PM
! freq[Hz]                re:S11                  im:S11                  re:S21                  im:S21                  re:S12                  im:S12                  re:S22                  im:S22
 1.000000000000000E5     9.963288849779715E-1    3.842056663266412E-3    1.259085575595607E-4    7.133282914969334E-5    4.442661646955763E-5    1.407477812778263E-5    1.010616612345584      -1.152102074869491E-2
 1.007003988035892E7     9.974417721926260E-1   -1.384874310976842E-2   -2.253467014038283E-5    4.675763364115583E-6    1.129237077462524E-5    1.473142322829222E-5    9.957419468344304E-1   -1.458853909246029E-2
 2.004007976071785E7     9.997490568325413E-1   -2.716464415997339E-2    6.950694108374511E-6    1.136629169588047E-5    2.177515031372567E-5    1.899878629571400E-5    9.989197263878900E-1   -2.775247408191167E-2
 3.001011964107677E7     9.979545070955257E-1   -4.106770625291791E-2   -9.513009750968516E-6    1.469552109522498E-5   -1.385675987436618E-5    1.379820730140091E-5    9.975135084004316E-1   -4.194192970213353E-2
 3.998015952143569E7     9.976661090843383E-1   -5.309580601358596E-2   -8.236886467996739E-6   -3.265111804721894E-6    2.318004225587102E-5   -1.529188683683255E-5    9.975028713943216E-1   -5.670628967356258E-2
 4.995019940179461E7     9.960342697638142E-1   -6.593300991994513E-2   -1.075903192198262E-5    8.687938133461717E-7   -1.061937488517828E-5    6.613240857777602E-7    9.965784158136006E-1   -6.909159100696281E-2
 5.992023928215354E7     9.940472160356597E-1   -7.881750234837553E-2    1.053087563976336E-5    1.916698472164059E-5   -1.997008150786889E-5   -6.752942114294072E-6    9.946869364198753E-1   -8.192587947548016E-2
 6.989027916251247E7     9.931986639725924E-1   -9.185791913302947E-2   -1.042845541354141E-5    7.070125265382012E-6   -6.712971779191535E-6   -4.647486537085998E-7    9.933803729560111E-1   -9.474388281168104E-2
 7.986031904287139E7     9.924521085229031E-1   -1.052246310769880E-1    4.324502514128348E-6    7.618507143796839E-6   -7.904598033929031E-6    2.344130225560993E-5    9.923645900055755E-1   -1.078339805356937E-1
 8.983035892323031E7     9.914673711221252E-1   -1.188062156950910E-1   -9.300224672201002E-6   -1.036708539666190E-5   -2.000809261707450E-5   -1.057854373910944E-5    9.908507045813232E-1   -1.210196880795250E-1
 9.980039880358922E7     9.893533360656235E-1   -1.323994943636755E-1    1.315661334810648E-5    8.943362292977523E-7    3.311214361143928E-6    1.225067748549331E-6    9.885703211299192E-1   -1.344552905598549E-1
 1.097704386839482E8     9.864825037911475E-1   -1.454624757099941E-1   -5.201018311156820E-6   -8.202023528389763E-7    1.519155276226594E-6   -1.402851940322086E-5    9.860405072281728E-1   -1.476601397658508E-1
 1.197404785643071E8     9.849179774003015E-1   -1.589407660824279E-1   -3.525662934689626E-6    1.545681338731983E-5    4.341352289313902E-6    1.143435739234862E-5    9.842323781164561E-1   -1.610220516418593E-1
 1.297105184446660E8     9.831174470715410E-1   -1.717169996190063E-1    5.773665720348575E-6    1.817550604987333E-5    1.078140092929011E-5   -1.780008172966627E-6    9.827300230403806E-1   -1.743677281963914E-1
 1.396805583250249E8     9.815904913798112E-1   -1.846165410003001E-1   -1.373543527423985E-5   -5.992423428226641E-6    1.674816059544058E-5    9.236121659257305E-7    9.810145366316325E-1   -1.874817677465027E-1
 1.496505982053838E8     9.789329122721925E-1   -1.971574468380716E-1    2.485158714627956E-6   -5.484991762480517E-6   -1.493970241779306E-6    1.439416671915434E-5    9.785519143174272E-1   -2.003057987186225E-1
 1.596206380857428E8     9.763258051489577E-1   -2.094753828164289E-1   -1.467475068863126E-6    1.016826744164773E-6    4.305616292796600E-6    1.026983106696703E-5    9.757352804609487E-1   -2.132886076018264E-1
 1.695906779661017E8     9.732525077401620E-1   -2.222923486214300E-1    3.894413916988825E-6   -8.367993632783156E-7    6.536170493922094E-6    8.326108185065908E-6    9.728630315732151E-1   -2.261069830776112E-1
 1.795607178464606E8     9.705604208744243E-1   -2.347582310113656E-1    6.711999147141465E-6    8.301385932804771E-6    9.547965851512288E-7    1.635324464637175E-5    9.701364404980416E-1   -2.379883731540373E-1
 1.895307577268195E8     9.677243081316834E-1   -2.470007836820317E-1   -8.455863447950732E-6   -1.901462185743290E-7   -1.322787828693349E-5    6.994934649704516E-6    9.667062996708466E-1   -2.504207047497340E-1
 1.995007976071784E8     9.638499404103018E-1   -2.594611006655795E-1    5.589531587061599E-6    6.485820626599408E-7   -1.781966053164690E-5   -8.565010171095972E-6    9.628935393832673E-1   -2.633244096674147E-1
 2.094708374875374E8     9.605196882720713E-1   -2.723437750640835E-1   -3.919271111143831E-6    4.097858689641278E-6   -1.416574686253082E-6    2.171480162878362E-5    9.588973474773086E-1   -2.762040596430975E-1
 2.194408773678963E8     9.572024409908614E-1   -2.850584656456707E-1   -4.908873711951640E-6   -1.259405840925577E-5    1.745804454398141E-6    8.363321106996217E-6    9.550603344874208E-1   -2.890548259156626E-1
 2.294109172482552E8     9.535935563847779E-1   -2.973076492547082E-1   -6.914448678244232E-6   -3.406727732324058E-6   -7.945888725114908E-6   -1.388414665093448E-5    9.510026826528178E-1   -3.017606681041415E-1
 2.393809571286142E8     9.505192550721976E-1   -3.093175741946031E-1   -7.363942465394252E-6   -6.573428290561266E-6   -9.740167227203903E-6   -9.164768566118380E-6    9.468963476250127E-1   -3.140530056773398E-1
 2.493509970089731E8     9.469856251178876E-1   -3.233044288159129E-1    7.942955270130916E-6    4.289124230688611E-6    6.874104096277135E-7    7.736157333615280E-6    9.439688114294885E-1   -3.275452246167391E-1
 2.593210368893320E8     9.427354683027516E-1   -3.353374881930693E-1   -8.814358339808732E-6   -2.624302335320738E-6   -1.233931785309561E-5   -2.376644364536413E-5    9.398136188063994E-1   -3.408428850032807E-1
 2.692910767696909E8     9.385295787416759E-1   -3.467209831463350E-1   -6.572329376516006E-6   -2.181494754325194E-6   -2.181722787040299E-6   -1.871965669799173E-5    9.354786532132725E-1   -3.528629352316371E-1
 2.792611166500499E8     9.338207876932004E-1   -3.583689847455284E-1   -5.611182252346597E-6   -1.195250372641080E-5   -5.259950759655547E-6   -1.904868860908789E-5    9.308955505199138E-1   -3.646761671090473E-1
 2.892311565304088E8     9.290024182998405E-1   -3.704982197959629E-1    1.739186482095522E-6   -2.095069259964108E-7    1.023500520731131E-5    6.989536957616468E-6    9.262043380864360E-1   -3.767924097939919E-1
 2.992011964107677E8     9.241612133053106E-1   -3.826585374086152E-1   -2.419038532889989E-5    5.009708694005928E-6    1.223136468865478E-5    3.212051747256543E-6    9.211582483732482E-1   -3.885413433551206E-1
 3.091712362911266E8     9.188079028190779E-1   -3.948762184134808E-1   -4.389846227760708E-6    7.059984224755574E-7   -1.402105389833360E-5   -9.382901804006844E-6    9.157267564524263E-1   -4.001293044130950E-1
 3.191412761714855E8     9.132501469118163E-1   -4.072758164283964E-1   -7.639460579722186E-6   -6.586943043008023E-6    1.608129509381469E-5   -2.407726793200869E-6    9.097573442501602E-1   -4.119663988199123E-1
 3.291113160518445E8     9.075453649304395E-1   -4.199168809726030E-1    6.274105885461114E-6   -1.658935545769749E-5    2.958647022906168E-6   -2.584132750706701E-5    9.034953459107794E-1   -4.244940458955062E-1
 3.390813559322034E8     9.019403392269825E-1   -4.327592376045014E-1    1.399216711170207E-5    1.546482355311512E-5   -1.467383959335125E-5   -1.180889992334203E-5    8.967443676791376E-1   -4.369674619541065E-1
 3.490513958125623E8     8.967808001157378E-1   -4.453657617958197E-1   -9.908290956062237E-7    2.313458517970420E-6    9.782169170793730E-7   -3.376741316265709E-6    8.905910053431089E-1   -4.493679157535415E-1
 3.590214356929212E8     8.913275590085249E-1   -4.577837442752896E-1    7.648417899621099E-6    1.014647437756725E-5   -1.928474099114867E-5   -2.347365787044646E-5    8.845048243705377E-1   -4.621129074545112E-1
 3.689914755732802E8     8.860270354554923E-1   -4.699862886639302E-1    5.482011570909795E-6   -1.654967355814940E-5   -1.038259427401270E-5   -4.526646856760258E-6    8.791573791187696E-1   -4.747642776362074E-1
 3.789615154536391E8     8.798281275611453E-1   -4.812705771964644E-1   -8.216744297044208E-6    1.104531871534617E-5    7.174756137828872E-6    4.020516249865212E-6    8.737562545522888E-1   -4.867049854331622E-1
 3.889315553339980E8     8.741457407000855E-1   -4.919627104728491E-1    1.630248887735371E-5   -2.518543068252883E-6   -1.890954043294865E-5    8.096549320646377E-6    8.679484999436380E-1   -4.987089755722238E-1
 3.989015952143569E8     8.675136113502672E-1   -5.026803915032082E-1   -7.797531649915862E-6   -4.932123441825118E-6    1.174478666122098E-6   -3.612717128792629E-6    8.610926945875870E-1   -5.096420332541415E-1
 4.088716350947158E8     8.602543317839397E-1   -5.134972765099284E-1   -6.982412334237548E-6    2.673270444398110E-6    1.077248933667969E-5   -9.090068312065674E-7    8.542931658352100E-1   -5.207004370572141E-1
 4.188416749750748E8     8.532565556921441E-1   -5.250253436312790E-1    6.970205826519995E-7    2.241894948811274E-6    1.630669763312616E-5    1.591101475429905E-6    8.475895848473468E-1   -5.314649518283191E-1
 4.288117148554337E8     8.460403668164332E-1   -5.367826267661424E-1   -2.979624362968760E-6    7.274169591289705E-6    8.187696052631891E-7    7.996604919586418E-6    8.405524810276835E-1   -5.418017254000919E-1
 4.387817547357926E8     8.382122377541353E-1   -5.482577020158595E-1   -3.094643344844433E-6   -1.254259066597060E-6   -8.863811001842701E-6   -8.568810611673542E-6    8.326032592918967E-1   -5.522385738786718E-1
 4.487517946161516E8     8.305182526400454E-1   -5.600521782907617E-1    3.655844386035962E-6    6.707870045155681E-6    1.162824428002331E-5    3.842438615793702E-6    8.241705313879515E-1   -5.634205766811233E-1
 4.587218344965104E8     8.235233305443356E-1   -5.719124505010114E-1    9.798818358849361E-6    6.384358063165588E-7    1.062028056808129E-5   -4.631065221912423E-6    8.161293536033760E-1   -5.753772711476961E-1
 4.686918743768694E8     8.169177448986813E-1   -5.833033342308123E-1    4.942879680477099E-6   -9.953371183529286E-6   -1.964125773198485E-6   -3.443984838067375E-6    8.078398676111305E-1   -5.867990231698866E-1
 4.786619142572283E8     8.098573203962710E-1   -5.941359767193134E-1    5.190185305711524E-6    1.298641323042691E-5    1.614828168998897E-5   -5.420529829394623E-6    7.991496513263631E-1   -5.980760896201062E-1
 4.886319541375872E8     8.023952439472453E-1   -6.046448995505408E-1   -5.680515969638353E-7    3.695414265732139E-6   -3.991044108771921E-6   -1.185754673239496E-6    7.904631299082036E-1   -6.088945659358382E-1
 4.986019940179462E8     7.940126259889059E-1   -6.152963861047720E-1    5.335262162032292E-6    9.216500695870261E-7    6.834646661911660E-6   -1.406593734931621E-5    7.824096841792610E-1   -6.198329386129003E-1
 5.085720338983051E8     7.855864680256770E-1   -6.244025211020365E-1    9.943914588320024E-7   -3.246064614644298E-6    7.313066952446001E-6   -1.123981666654308E-5    7.747031614863846E-1   -6.303949007307117E-1
 5.185420737786640E8     7.782529039498720E-1   -6.334593067476127E-1    1.443058531151522E-5    1.345837671009698E-5   -1.516937588671967E-5    1.452216835959140E-5    7.669216244373427E-1   -6.401009710900821E-1
 5.285121136590229E8     7.700431470924203E-1   -6.430482633712494E-1    5.189378212378858E-6    4.798515587479368E-6   -9.500641064145889E-6    8.087409663168037E-7    7.589414569122948E-1   -6.497015443484299E-1
 5.384821535393819E8     7.614842033736079E-1   -6.530143750773504E-1    4.729103541307781E-6    9.170182313745947E-6   -1.022144290169706E-5    2.611224657141757E-6    7.508847635183850E-1   -6.594404022940913E-1
 5.484521934197408E8     7.532953629833488E-1   -6.636971414989451E-1    8.286182101903604E-6   -5.963160583075766E-6    6.307076645209369E-6    8.511604658286674E-6    7.425273726509145E-1   -6.692237933936515E-1
 5.584222333000997E8     7.447736539526205E-1   -6.746296332216033E-1    1.504136215733084E-6   -1.132421001235161E-5    2.712262414891042E-6    7.481000953084442E-6    7.333484128084491E-1   -6.791778526002100E-1
 5.683922731804587E8     7.356351553097038E-1   -6.851161968100091E-1    2.642390282237276E-7   -1.498013648663998E-5    1.627905761549615E-5   -9.227944596584054E-6    7.231066834933991E-1   -6.891727250577278E-1
 5.783623130608176E8     7.264159113727898E-1   -6.951227704336086E-1    3.381534454538447E-6    4.869596900516691E-6   -8.447909773774630E-6    1.803300707733493E-5    7.126673804731534E-1   -6.990050261425144E-1
 5.883323529411764E8     7.171983920748202E-1   -7.051602914669191E-1   -8.531991844197512E-6   -4.191587318407661E-6   -1.037975716824147E-5   -1.214447542561788E-5    7.022462921749143E-1   -7.087060881670120E-1
 5.983023928215353E8     7.079042855995682E-1   -7.152367900956114E-1   -1.975376816414848E-5    1.021158319542195E-5    5.927631211146816E-6   -1.170155524061449E-5    6.920034083355373E-1   -7.183396902131296E-1
 6.082724327018943E8     6.984614663356282E-1   -7.249190260708058E-1   -5.711074637082651E-6   -1.653060104096203E-5   -7.608293366029662E-6   -5.493328279414337E-6    6.816983481561356E-1   -7.278380843378062E-1
 6.182424725822532E8     6.885789185725048E-1   -7.345589204303076E-1   -1.510485191904602E-5   -1.285106615037838E-6   -1.607605550799293E-5    6.271078369813783E-6    6.717749713020877E-1   -7.372601875371220E-1
 6.282125124626122E8     6.780669952655853E-1   -7.440179121064692E-1    6.508816440956761E-6   -8.780115871228703E-6   -5.710589156128463E-7    5.253256859426087E-6    6.627227042207310E-1   -7.468269262067777E-1
 6.381825523429711E8     6.683299990563033E-1   -7.510956761485410E-1   -6.690074679239264E-6    9.307889865407108E-7    1.318466417114050E-5   -4.762258696866074E-6    6.537594069204951E-1   -7.556136074070505E-1
 6.481525922233300E8     6.594080728730540E-1   -7.596340051354235E-1   -4.244255612941003E-7   -6.987180927947520E-7   -1.323479814101232E-7    1.427129674684009E-5    6.445783866860885E-1   -7.641973034730812E-1
 6.581226321036890E8     6.496640870797590E-1   -7.685470270292317E-1   -1.398553437661904E-5    4.547884882576159E-6    5.768509788777137E-6    8.970961767245506E-6    6.344886796174330E-1   -7.724563657597681E-1
 6.680926719840479E8     6.396693147914927E-1   -7.771969363329891E-1   -1.625215542381342E-7    4.043018889308801E-6   -7.959545712844366E-7   -2.079746116700589E-6    6.239015403206286E-1   -7.804932135004869E-1
 6.780627118644068E8     6.299774394525507E-1   -7.853837684498622E-1   -9.293191836070003E-6    1.221315942945435E-5   -7.578510019621006E-6   -2.403295052817207E-6    6.128525150826057E-1   -7.883209877966446E-1
 6.880327517447658E8     6.195920004746713E-1   -7.937303408222800E-1    1.770468985118453E-5    5.566934943236541E-6   -8.817412980395221E-6   -4.541539434168222E-6    6.015823240131627E-1   -7.959912754920584E-1
 6.980027916251246E8     6.085803743165930E-1   -8.017788343963995E-1    1.205766298645320E-5    8.262970653140892E-6    2.909447666944200E-6   -3.086783693001707E-6    5.900476584343396E-1   -8.037079483985770E-1
 7.079728315054835E8     5.973096195332516E-1   -8.102269657029292E-1    9.720146290855735E-6   -1.107640556542534E-5   -1.363946992260389E-5   -1.249807333957726E-5    5.784882728005714E-1   -8.114952022857457E-1
 7.179428713858424E8     5.861291637916245E-1   -8.187421943391556E-1    2.196010364901241E-6    1.092049088970477E-5    9.070931858186050E-6    1.879312609965905E-6    5.672180764550234E-1   -8.200987985673527E-1
 7.279129112662014E8     5.751919239213414E-1   -8.271158949028655E-1    9.818905059813732E-6    1.381201567683830E-5    1.208243508409766E-5   -4.325978602347205E-6    5.560189504788026E-1   -8.289664653612445E-1
 7.378829511465603E8     5.638766783656015E-1   -8.359065267585577E-1   -1.543473471007852E-5    2.694061633003749E-6   -1.052865661295675E-5   -1.898536659849298E-6    5.446291479914327E-1   -8.373382877940190E-1
 7.478529910269192E8     5.518766239400451E-1   -8.445259394192880E-1    8.639990340863300E-6   -4.693873056024789E-7   -8.111166998461445E-6    3.367346238361973E-6    5.333992046858002E-1   -8.449648965298189E-1
 7.578230309072782E8     5.392025242258771E-1   -8.516796533946488E-1    6.588525042910633E-6    3.354571916502709E-6   -1.102230770778401E-5   -2.043158152174652E-5    5.222990582383745E-1   -8.518406269065985E-1
 7.677930707876371E8     5.288410159794575E-1   -8.570652917125260E-1   -1.626679039203150E-6    3.010863784301845E-7   -8.290021052432596E-7   -2.561897275952557E-6    5.109920783813996E-1   -8.583226326873981E-1
 7.777631106679960E8     5.191611937701439E-1   -8.638855394656899E-1    1.264970364790258E-6   -1.935025230081001E-6   -9.562901859686341E-6    7.373250648210340E-6    4.995171145129540E-1   -8.647690448996442E-1
 7.877331505483550E8     5.088078263029938E-1   -8.707358854873835E-1    1.237438602273356E-5    8.760209078910942E-6   -1.633435680286369E-5   -1.041358376725674E-5    4.877383154148704E-1   -8.715488836974833E-1
 7.977031904287138E8     4.976676084828953E-1   -8.773104954553622E-1    8.144687399747229E-7   -4.941743569773840E-6    5.318215991630172E-6    2.976333599135326E-6    4.748710007488961E-1   -8.779646745578461E-1
 8.076732303090727E8     4.860149936530513E-1   -8.831927310497677E-1   -3.382971266730711E-7   -1.004853256107452E-5   -5.414915059170795E-6    2.402149956972819E-6    4.620112154286003E-1   -8.839761949786747E-1
 8.176432701894317E8     4.738966440741550E-1   -8.892880121671255E-1    1.343573859370088E-5   -7.542671679062732E-6    7.263758853443606E-6    4.013269844366883E-6    4.492692604681025E-1   -8.903413292908988E-1
 8.276133100697906E8     4.615426081940257E-1   -8.955169629952812E-1    5.431041446362505E-6   -1.109151185589612E-6   -9.173769851881010E-6    6.770110391868973E-6    4.365878765006075E-1   -8.970724777113914E-1
 8.375833499501495E8     4.489197348357562E-1   -9.019281159085851E-1    2.727023424060372E-6   -4.411968007921623E-7   -6.886767362010599E-7    4.516048634277211E-6    4.243224018556095E-1   -9.037112376676191E-1
 8.475533898305085E8     4.361284373534162E-1   -9.084208702006039E-1   -4.347229108268306E-6    6.758464414632521E-6    3.473725340668971E-6    1.316825915810502E-5    4.125350946780513E-1   -9.097335499367354E-1
 8.575234297108674E8     4.234791710400811E-1   -9.149151472659532E-1    4.785698430635770E-6   -1.048545179553293E-5    1.702876521993069E-5    1.037184645655030E-5    4.008315782613067E-1   -9.149987700272036E-1
 8.674934695912263E8     4.105831074520909E-1   -9.214886832299638E-1   -3.870041530380003E-6   -6.410761840539060E-6   -9.282112728809242E-6   -4.962604054514860E-7    3.887173718543098E-1   -9.199920915203743E-1
 8.774635094715853E8     3.974349088923677E-1   -9.279046684741290E-1    3.326697932855873E-7    1.623501801093085E-5    5.632497318167260E-6   -6.260631116810293E-6    3.761836100128966E-1   -9.246537346688848E-1
 8.874335493519442E8     3.842904687136213E-1   -9.325354809703060E-1   -4.540684780486857E-6    9.097655396425185E-6    7.903078752857207E-6    1.866117658840598E-6    3.629286489361959E-1   -9.290965942351566E-1
 8.974035892323031E8     3.731074011477174E-1   -9.363569223063198E-1   -1.621052919381631E-5    6.604889211642461E-6   -4.141292436716496E-6   -1.966914365265146E-7    3.495770424098887E-1   -9.334010025234802E-1
