#  HZ   S   RI   R     50.00 
! Rohde & Schwarz Vector Network Analyzer 
! Rohde-Schwarz,ZNB20-2Port,1311601062102128,3.60
! Created: UTC 4/29/2024, 2:57:42 PM
! freq[Hz]                re:S11                  im:S11                  re:S21                  im:S21                  re:S12                  im:S12                  re:S22                  im:S22
 1.000000000000000E5     9.961041473786012E-1    3.657394122006170E-3   -2.991311142029497E-5    3.218426243549974E-5   -4.639649357555323E-5   -9.405156904847506E-5    1.010549492486024      -1.135508990693816E-2
 1.007003988035892E7     9.975234866170678E-1   -1.379364439507065E-2    4.710832891103410E-6    7.672542649280356E-6   -2.058510412226144E-6    1.974824754837031E-5    9.957904450473605E-1   -1.447376002988147E-2
 2.004007976071785E7     9.997199429953217E-1   -2.714010995875140E-2   -1.579048081350767E-5    5.863355667448209E-6    5.669245133673002E-6   -2.676410492662202E-6    9.989030601395178E-1   -2.763581750541825E-2
 3.001011964107677E7     9.978323903730767E-1   -4.100995832782069E-2   -8.290947321084231E-6    1.807975501310256E-5    2.581364883124826E-5   -1.484715644165606E-5    9.976596707068862E-1   -4.207202070365924E-2
 3.998015952143569E7     9.975538675787223E-1   -5.311197391876846E-2   -1.463822123055233E-6   -1.819410932493963E-5    1.862616475352028E-5   -1.513278542229536E-5    9.978035799256130E-1   -5.671508311821092E-2
 4.995019940179461E7     9.961115657305217E-1   -6.596311301042999E-2   -7.753482612746816E-6    5.282687045905354E-6   -1.387612813761542E-5    2.005466028297857E-5    9.966287659641653E-1   -6.910105059421251E-2
 5.992023928215354E7     9.942366017945587E-1   -7.882524330971778E-2   -4.821038582076192E-6    9.672882711795846E-6   -2.060956790390043E-6   -1.089004639952317E-5    9.946565856691252E-1   -8.187738468394680E-2
 6.989027916251247E7     9.930242916475132E-1   -9.184539922492060E-2    8.213662455922945E-6   -1.011083602991865E-5    1.228517215752123E-5   -5.610629836621806E-6    9.934891048024583E-1   -9.476399764077259E-2
 7.986031904287139E7     9.923876322053657E-1   -1.052160706531159E-1   -1.248992860974647E-6   -3.380801605165388E-6    1.697806525267535E-5    3.796766109383174E-6    9.923429776285385E-1   -1.079034200480984E-1
 8.983035892323031E7     9.912997092816690E-1   -1.187621678175423E-1    5.052018655045032E-6   -2.863006338512967E-6   -1.305390317136112E-5    1.627855426425634E-6    9.909108516698403E-1   -1.210860479980957E-1
 9.980039880358922E7     9.893698443454008E-1   -1.323835120812202E-1   -1.565946249686370E-5    3.219224572310017E-6    3.534471397566723E-6    1.155276191393283E-5    9.887248501522790E-1   -1.344594449856996E-1
 1.097704386839482E8     9.865517346583622E-1   -1.454218066304559E-1    8.934289283632965E-6   -2.461097462448406E-6   -2.228424079636134E-5   -6.911651598459524E-6    9.860909933726594E-1   -1.478156890092855E-1
 1.197404785643071E8     9.848099044310114E-1   -1.589880555035998E-1   -1.020053304292697E-5    3.386660803943048E-6    2.089611303999885E-5   -1.839207646722688E-5    9.842998833714931E-1   -1.611032724623690E-1
 1.297105184446660E8     9.831652098507115E-1   -1.717503539950033E-1   -1.230539897954694E-5   -1.214524273317687E-5    1.059327044377901E-5   -4.446950821293714E-6    9.829168000262609E-1   -1.744360400723020E-1
 1.396805583250249E8     9.814698211492664E-1   -1.846592024091534E-1   -1.143234711205614E-5    1.078806291856199E-5    1.644443871918605E-5    5.711649773236161E-6    9.808247926741483E-1   -1.875638153654876E-1
 1.496505982053838E8     9.788473600842975E-1   -1.970441026269849E-1    1.249454621863503E-5   -9.902939713847305E-7   -2.198650405342667E-8   -5.338644471824233E-6    9.784914972285643E-1   -2.004519890521774E-1
 1.596206380857428E8     9.761193674782619E-1   -2.094299980189366E-1   -2.187892501962455E-7    2.630655405332001E-6    4.505696863286444E-6    5.937009229418008E-6    9.758246142895864E-1   -2.133366332845184E-1
 1.695906779661017E8     9.732340045386615E-1   -2.223683559986550E-1    1.488898091174328E-5    1.762282797808387E-6    8.548269442124443E-6    1.322205495673337E-5    9.729888193372543E-1   -2.261448762457034E-1
 1.795607178464606E8     9.705713520519802E-1   -2.347191730205611E-1    4.261759402139967E-6   -1.064768208250148E-5   -1.427780349505240E-6    9.398574002190160E-7    9.701238720718721E-1   -2.380100750111172E-1
 1.895307577268195E8     9.676097779393749E-1   -2.469878239909135E-1   -1.707500605318053E-6    1.299637923331933E-6   -2.891592214444443E-5   -6.045779349521197E-6    9.668862742452757E-1   -2.504993990831365E-1
 1.995007976071784E8     9.637797658033630E-1   -2.595789565564562E-1    3.016680799461360E-6   -5.092577076057478E-6   -1.630784521993710E-5   -4.415116373534269E-7    9.628613068920556E-1   -2.630633513914249E-1
 2.094708374875374E8     9.603862024237581E-1   -2.723733567038847E-1   -1.727295753965832E-5    2.030721883844273E-6    1.766953603213138E-6    2.198308711644533E-5    9.589773779335153E-1   -2.761720559308726E-1
 2.194408773678963E8     9.572635528926532E-1   -2.850956099410494E-1    2.034303844946005E-6    7.121343658204216E-6   -1.165417832947627E-6    7.632658734098750E-6    9.550327777906253E-1   -2.891522107398015E-1
 2.294109172482552E8     9.535397674005530E-1   -2.973072326594381E-1    7.541519465339334E-6    3.172702869726326E-6   -1.118412963867095E-5    5.347085130411004E-6    9.510242646420654E-1   -3.017236635230360E-1
 2.393809571286142E8     9.504992522196400E-1   -3.093993719303075E-1    4.624182252962462E-6   -9.726620734766427E-6   -8.151174750779972E-6   -5.362075012728964E-6    9.469757662071620E-1   -3.140242730690675E-1
 2.493509970089731E8     9.467650687974142E-1   -3.233074462326665E-1   -8.392197247470031E-6    5.334393558045420E-6   -1.524073390777369E-5   -1.604124256524054E-6    9.441469831068617E-1   -3.276606685744678E-1
 2.593210368893320E8     9.426981543450926E-1   -3.353354820472167E-1   -8.420433069097070E-6    3.470415220537784E-7   -1.590485400560518E-6   -2.224888995607216E-5    9.399389016001426E-1   -3.408309531610240E-1
 2.692910767696909E8     9.385117169949919E-1   -3.468544820378179E-1    3.163503923106587E-6    6.321405537232116E-6   -4.712938732550719E-6   -3.082200473659961E-6    9.356162782187396E-1   -3.528588866024635E-1
 2.792611166500499E8     9.337186503343715E-1   -3.583279707981953E-1   -7.035900018577124E-6   -4.785611845364113E-6   -2.757950858501115E-5    1.085471631416275E-7    9.309287111872026E-1   -3.645973276149591E-1
 2.892311565304088E8     9.289230268296850E-1   -3.704239171470443E-1    1.817070049020465E-5   -5.186866355638734E-6   -5.781677342006231E-6    1.739511512931001E-6    9.260945441321402E-1   -3.768100065821771E-1
 2.992011964107677E8     9.240011285249238E-1   -3.825777414073144E-1   -1.734825041241399E-6    1.998581347575521E-6    1.675142820743747E-5    5.584557909233592E-6    9.212529693281555E-1   -3.887424052676059E-1
 3.091712362911266E8     9.188029403312963E-1   -3.949072183318007E-1   -6.440944208514830E-6    1.351825150690268E-5    1.559436682866522E-5    4.248204761565394E-6    9.156976261540928E-1   -4.001520656097182E-1
 3.191412761714855E8     9.132972579841029E-1   -4.073075609500615E-1   -8.245259900214494E-6    1.603267564937150E-5    1.389219733352746E-6   -3.665453278668836E-6    9.097491087947438E-1   -4.119582962070891E-1
 3.291113160518445E8     9.075274076285359E-1   -4.199890775888614E-1    2.631367940856927E-6   -1.095490303564098E-5    4.295438602048830E-6   -1.972361702734523E-6    9.034109794475071E-1   -4.243679576684700E-1
 3.390813559322034E8     9.019593090371453E-1   -4.327150501102048E-1    6.105194561879070E-6   -2.910986530802189E-7   -1.957328355068287E-5   -7.534246713237237E-6    8.968944001749315E-1   -4.369488459968395E-1
 3.490513958125623E8     8.967909627721345E-1   -4.453473073864681E-1    1.236653726780655E-5    8.693207862064127E-6   -3.819061161998106E-6    6.328886799363150E-6    8.905970730074749E-1   -4.494466648428906E-1
 3.590214356929212E8     8.913371057844511E-1   -4.578359623574685E-1    4.769912823510096E-7   -3.094800594770503E-7    3.721212331082905E-6   -3.368756485168694E-6    8.844865405886039E-1   -4.621333226494315E-1
 3.689914755732802E8     8.858734637423352E-1   -4.699752687344764E-1    4.085143724949221E-6   -4.078965973466395E-6   -3.627326252467416E-6   -1.474912272178192E-5    8.790871309238458E-1   -4.747781440787391E-1
 3.789615154536391E8     8.797452737042243E-1   -4.812141314924164E-1   -1.298853225546486E-6   -4.144044314752599E-6    2.505186627211717E-5    1.211161593139817E-5    8.738900332266550E-1   -4.867885863454653E-1
 3.889315553339980E8     8.741473175563148E-1   -4.921027194554003E-1   -3.188971080399034E-6    2.498131746524669E-6   -2.583658901158929E-6    2.529444493871984E-6    8.679795728040105E-1   -4.987637200061318E-1
 3.989015952143569E8     8.673845413055284E-1   -5.026388088429159E-1    3.203368238156067E-6    5.134381837019497E-6   -1.043063712676663E-5    2.666092243673051E-5    8.611742935372891E-1   -5.097552175651380E-1
 4.088716350947158E8     8.601907577909188E-1   -5.135462599623453E-1   -6.816718481851661E-6   -8.818163066313483E-6    8.033567926095958E-6   -3.911558037687348E-6    8.542749176573657E-1   -5.206560614828204E-1
 4.188416749750748E8     8.531690200780609E-1   -5.250125658646887E-1   -9.132506662209171E-6    6.896120016871953E-6   -2.295847910823052E-5   -4.405251582957264E-7    8.475814661981259E-1   -5.314983904691464E-1
 4.288117148554337E8     8.460283878169875E-1   -5.368007499871489E-1   -8.606785323265778E-6    1.634379930505853E-6    5.464128994521406E-6    2.702887780903909E-6    8.406185138021688E-1   -5.419347240711612E-1
 4.387817547357926E8     8.383303612214130E-1   -5.482323716875140E-1    1.036452454820095E-5    7.553564092255306E-6   -1.144958655858922E-6    2.407611865818861E-6    8.325477096709837E-1   -5.522895524757825E-1
 4.487517946161516E8     8.304796386585647E-1   -5.600056308195891E-1   -1.072111248992224E-5   -1.084587187872075E-5    5.809296351283699E-6    7.280030646454170E-6    8.241110797307106E-1   -5.634348189780244E-1
 4.587218344965104E8     8.235773966098544E-1   -5.718933091282309E-1   -4.502762467548496E-6    7.506172626875799E-6   -5.128148432559057E-6    1.023688015930977E-5    8.160449007386582E-1   -5.752989804519493E-1
 4.686918743768694E8     8.170089505618179E-1   -5.833308131221483E-1   -2.135001776933788E-6   -5.976324016207577E-6    1.193271978964719E-5    3.365755347498008E-6    8.079594498131109E-1   -5.869576610240240E-1
 4.786619142572283E8     8.099441552423799E-1   -5.942128751051949E-1    1.043040928930847E-6   -7.711348829815840E-7    7.381735893806410E-6    8.659852350981512E-6    7.993351010552446E-1   -5.979950737624924E-1
 4.886319541375872E8     8.023032562922788E-1   -6.045851695913294E-1    1.478031136047302E-5   -7.788724662113477E-6   -9.950291492296996E-6    4.741077974921170E-6    7.904887946673808E-1   -6.088477944224989E-1
 4.986019940179462E8     7.939925969933629E-1   -6.153361033505967E-1    6.376479665124369E-6   -3.981780021758272E-6    5.064769267948513E-6    3.998639274193832E-6    7.822440129219683E-1   -6.197491491540812E-1
 5.085720338983051E8     7.856353909101615E-1   -6.245152045511710E-1   -1.693503205404272E-6    2.573168748998906E-7   -4.911176400686948E-6   -7.724817246840436E-6    7.747736243851442E-1   -6.303401053200471E-1
 5.185420737786640E8     7.782786924976108E-1   -6.335858037406873E-1   -1.148061159201501E-5   -1.693782785290804E-5    6.106028168351857E-6    2.196885477980444E-7    7.669774855134807E-1   -6.401170039011345E-1
 5.285121136590229E8     7.700610308014122E-1   -6.430686229123407E-1   -1.361553765389749E-5   -4.024345726647113E-6    1.089098538664493E-5   -2.582307116288603E-6    7.589491283846583E-1   -6.497301670583757E-1
 5.384821535393819E8     7.613938033292301E-1   -6.531205858214054E-1    1.319451786530207E-5    7.315552086679492E-6   -1.112542274773955E-6    2.868251548697890E-6    7.508240297418909E-1   -6.593413783588328E-1
 5.484521934197408E8     7.532946604337758E-1   -6.636825342215154E-1    3.358425342618494E-6   -2.747974646577216E-6    1.416480035721560E-5   -4.509248642846458E-6    7.425022472080381E-1   -6.692076930071272E-1
 5.584222333000997E8     7.447981321044687E-1   -6.745792526926115E-1   -2.013096101538352E-6   -2.378414619163057E-6   -3.021585241805856E-7    2.821333629736061E-5    7.333730785070656E-1   -6.793006014168497E-1
 5.683922731804587E8     7.356552596780290E-1   -6.851101942563739E-1    7.322614751541981E-6    1.532559398983928E-6   -6.445454916097015E-6    4.227849618897180E-6    7.231912428274986E-1   -6.891088050432961E-1
 5.783623130608176E8     7.262596411625440E-1   -6.950135910075559E-1   -4.235682267380957E-6    7.870837441333709E-6    4.196030693263744E-6    1.890150803847763E-5    7.126402546881464E-1   -6.990178874161384E-1
 5.883323529411764E8     7.170760683939099E-1   -7.051639962086702E-1   -1.802266199230529E-6   -5.893891634022244E-6    1.385705729942460E-5   -6.802313293332407E-6    7.023129515875517E-1   -7.086863076461214E-1
 5.983023928215353E8     7.077307812742772E-1   -7.151629436388555E-1    1.897507948419082E-6    4.681629949727170E-6   -1.374650923801761E-6   -2.231473667523719E-5    6.919021928225886E-1   -7.183486265138181E-1
 6.082724327018943E8     6.984494067355802E-1   -7.249159861363115E-1    2.016256480701831E-6   -2.064140584783957E-5   -6.311517831347000E-6   -9.452307394076602E-6    6.818482007367234E-1   -7.278915184995848E-1
 6.182424725822532E8     6.885255896175331E-1   -7.345257707663235E-1    1.076413337977183E-6    6.918199621532761E-6   -9.086950140747243E-6   -6.571811060572425E-6    6.717068627506784E-1   -7.372435099395379E-1
 6.282125124626122E8     6.779517991175146E-1   -7.438689816022571E-1    7.246549392894878E-7    9.809432416663459E-6    4.495074566761292E-6    1.339197871384127E-5    6.627005434328529E-1   -7.468339853134489E-1
 6.381825523429711E8     6.681844865349517E-1   -7.509844620417756E-1   -1.398511740633184E-6    4.648584342013453E-6   -1.842157455284032E-5   -2.810490730214519E-7    6.537401367477914E-1   -7.557101107491686E-1
 6.481525922233300E8     6.593053903461172E-1   -7.595402601237662E-1   -6.426725658608686E-7   -2.395255396348782E-6   -6.314525681235084E-6    2.579860128316736E-6    6.447020843397142E-1   -7.642768409630591E-1
 6.581226321036890E8     6.496450413996637E-1   -7.685689895224292E-1    2.438226011948659E-7   -5.194322375509640E-7    2.975392920543073E-6    1.160425766238124E-6    6.345889999481041E-1   -7.724779392036251E-1
 6.680926719840479E8     6.397193019874428E-1   -7.771851320448537E-1   -1.482001810105210E-5    5.842372875355555E-7    9.312198146554096E-6    5.828538114527855E-6    6.239648937677204E-1   -7.804617903517540E-1
 6.780627118644068E8     6.298680782122685E-1   -7.852715737209726E-1    5.657737836159548E-7    1.778736491525427E-6    3.083034709780885E-6   -5.228621818786888E-6    6.129510946860020E-1   -7.883185275210723E-1
 6.880327517447658E8     6.195674375709012E-1   -7.936513753327408E-1   -2.770851122243102E-6   -9.595609299782344E-6   -1.969895917637325E-6    8.555445023854629E-6    6.015867214698516E-1   -7.960075724572975E-1
 6.980027916251246E8     6.086634407868635E-1   -8.017955206932341E-1    1.085216130285643E-7   -2.392317226449700E-6    1.573619568722153E-5   -3.417152897503616E-6    5.900809363454962E-1   -8.036757942124098E-1
 7.079728315054835E8     5.972186459996641E-1   -8.101256219089076E-1    5.857763498193042E-6   -1.367232749804896E-5    1.929564689932869E-5    7.095757836131029E-8    5.784922564867006E-1   -8.116520084939565E-1
 7.179428713858424E8     5.860535441263351E-1   -8.187231690809998E-1   -2.127717250698615E-6   -6.512424186432367E-6    8.517621790401490E-6    7.487786830473743E-6    5.672064753158543E-1   -8.201390572004149E-1
 7.279129112662014E8     5.752021307405489E-1   -8.272770460675868E-1    7.421416116740270E-8   -5.501367578775001E-6   -2.379713606690423E-6   -1.563710015386427E-5    5.559742241168844E-1   -8.289171055191656E-1
 7.378829511465603E8     5.638588478706640E-1   -8.359146318127182E-1    1.261407948214794E-5    2.485605872669063E-6    2.769482737712332E-6   -9.808185554825242E-6    5.446223252699441E-1   -8.372276541920438E-1
 7.478529910269192E8     5.518435785489189E-1   -8.445273672725809E-1   -1.769283378649902E-6    1.007089963697377E-5   -1.234068623112041E-5   -1.542269912065226E-6    5.334726256678832E-1   -8.450229321282640E-1
 7.578230309072782E8     5.392088326907601E-1   -8.516089219257803E-1    8.603697846539314E-6    1.936138464419108E-7    6.569334262014151E-6   -2.170983543689422E-6    5.223459587623432E-1   -8.519453285614849E-1
 7.677930707876371E8     5.288564076951732E-1   -8.570149645570766E-1    1.321733914998083E-5   -1.335392123986974E-5   -3.076080482356960E-6    1.343606707194939E-5    5.110235852221313E-1   -8.583589193054481E-1
 7.777631106679960E8     5.191788661481430E-1   -8.639157086871112E-1   -8.123199747193318E-7   -4.080006962147561E-6    6.066295366112436E-6   -2.450351677730625E-6    4.994966153181570E-1   -8.648334562911782E-1
 7.877331505483550E8     5.088088950267515E-1   -8.708323950364618E-1   -5.809170887863859E-6   -6.832617616091768E-7   -1.354958097322799E-5   -3.926052666903272E-6    4.876455481244174E-1   -8.715580002326835E-1
 7.977031904287138E8     4.976643333670129E-1   -8.772632534612406E-1    5.379534328585818E-6    5.930098031487870E-6    1.301302857081998E-7    5.960304556847492E-6    4.748862587223910E-1   -8.780944747606834E-1
 8.076732303090727E8     4.859205454129210E-1   -8.830967561919325E-1    6.608272141422295E-6   -5.252481041912986E-6    4.772276439160155E-7   -7.284034607263635E-6    4.620517350107234E-1   -8.839885749119671E-1
 8.176432701894317E8     4.738746102607764E-1   -8.891421648673778E-1   -5.950149846823432E-6   -1.725664434385363E-6    1.811405478847391E-5   -9.220660421680627E-6    4.492889229805402E-1   -8.904121652307763E-1
 8.276133100697906E8     4.615666402392707E-1   -8.956197511166559E-1    4.286262889130964E-6   -1.770585301878201E-5    4.669310099834707E-6   -1.625498889107205E-5    4.365000020791306E-1   -8.970884713042091E-1
 8.375833499501495E8     4.489295095871445E-1   -9.019408093124731E-1    3.019928790504339E-7   -1.183577497208585E-5    7.842623474018814E-6    7.719975056932265E-7    4.244486859350691E-1   -9.037879895767525E-1
 8.475533898305085E8     4.362572931314213E-1   -9.083519850860672E-1    6.321151816718016E-6    1.248952572252007E-5   -8.154259496810916E-6   -2.739230964402646E-6    4.125400791624301E-1   -9.097973007599192E-1
 8.575234297108674E8     4.233998178131338E-1   -9.146992955876599E-1    1.679847623034768E-6   -1.232840608177317E-6   -8.321732194839096E-7   -1.582354444273291E-5    4.006660127446002E-1   -9.150946020843630E-1
 8.674934695912263E8     4.105531701647755E-1   -9.214366216950460E-1   -1.277530656512995E-6    4.920498340403353E-6    1.637810726946374E-5   -1.375668765811038E-5    3.887865031424767E-1   -9.199450330346964E-1
 8.774635094715853E8     3.975040814231685E-1   -9.280355044680648E-1   -1.038054700572666E-5   -3.516165226054005E-6   -2.234136889216484E-6   -6.474393663754803E-6    3.761139645477707E-1   -9.247059144445778E-1
 8.874335493519442E8     3.843814715378621E-1   -9.326284790628265E-1   -8.945156009584154E-6    9.165804256994100E-6   -3.983882236554149E-6   -1.800368413729463E-5    3.631111382135536E-1   -9.291765417294132E-1
 8.974035892323031E8     3.730851261832797E-1   -9.362484527810839E-1    3.310588596902005E-6   -1.642281010254380E-5    2.989652574771679E-6    8.278876812908811E-6    3.495361542798854E-1   -9.335044157162702E-1
