#  HZ   S   RI   R     50.00 
! Rohde & Schwarz Vector Network Analyzer 
! Rohde-Schwarz,ZNB20-2Port,1311601062102128,3.60
! Created: UTC 4/29/2024, 2:57:45 PM
! freq[Hz]                re:S11                  im:S11                  re:S21                  im:S21                  re:S12                  im:S12                  re:S22                  im:S22
 1.000000000000000E5     9.961515305114430E-1    3.783938693096187E-3    2.521842163639277E-4    2.262933168483055E-5   -7.702571063835555E-5   -8.931826509257387E-5    1.010503028889742      -1.141147154409993E-2
 1.007003988035892E7     9.975950742536515E-1   -1.386742464581761E-2    3.634067331061117E-6   -1.517596261498747E-5   -1.909287274485979E-5    6.917809762841922E-6    9.957845923936461E-1   -1.460160735596402E-2
 2.004007976071785E7     9.998869851076325E-1   -2.724023496064641E-2    2.526201320088261E-6   -1.327449866580458E-5    7.063658258853222E-7    8.413637908660606E-6    9.986688006440663E-1   -2.781402627038309E-2
 3.001011964107677E7     9.979293475483307E-1   -4.099249869652931E-2    1.161042905276867E-5   -3.820307646135064E-6    1.095685873801270E-5    1.834975055647577E-5    9.975234419178368E-1   -4.204897559337628E-2
 3.998015952143569E7     9.976817650294418E-1   -5.319159243582066E-2   -9.673236231889687E-6    3.482738799618483E-6   -2.758199910054247E-5   -7.991967287481346E-6    9.976265847018158E-1   -5.678818633571959E-2
 4.995019940179461E7     9.961677901537270E-1   -6.603284301071649E-2   -3.265493353871623E-6    3.702318098036322E-7    3.716387995610607E-6    1.812989048165117E-5    9.965195794761139E-1   -6.919222861714235E-2
 5.992023928215354E7     9.942126875285295E-1   -7.886714011341180E-2    1.229606591753502E-5   -1.933583396708135E-7   -5.051817524500200E-6   -2.210009134836425E-5    9.945341496627759E-1   -8.197764558826913E-2
 6.989027916251247E7     9.929309031471983E-1   -9.190355554078122E-2   -4.324595353820929E-6   -6.947316813494110E-6    1.768696460889450E-5   -1.500910234464072E-5    9.934859848829336E-1   -9.464707728707424E-2
 7.986031904287139E7     9.923612044720899E-1   -1.052694166373110E-1    1.443499003151025E-5   -1.001092994963195E-5   -2.607205750594972E-6   -1.591220612170964E-5    9.924165075177767E-1   -1.079391049088989E-1
 8.983035892323031E7     9.914402708331305E-1   -1.187909945011225E-1    6.317181966757709E-6    6.781051262616226E-6   -1.296077844693095E-5    1.494245170156613E-5    9.907395305102376E-1   -1.210837207302856E-1
 9.980039880358922E7     9.893545446721781E-1   -1.323581106513707E-1    2.056593842671383E-5   -2.038495865366283E-5   -3.860304072520995E-6   -3.854504485162971E-6    9.885499562038355E-1   -1.345306693159075E-1
 1.097704386839482E8     9.865991334872615E-1   -1.455168634361350E-1   -9.145137385341247E-6    1.072209042300815E-5    5.662534941644228E-6    8.856119257917519E-6    9.861091309293876E-1   -1.477721746024853E-1
 1.197404785643071E8     9.848329078293034E-1   -1.589126994418997E-1   -5.933794066778369E-6    4.348130415142987E-6    1.375667960230366E-5   -1.358202284700144E-5    9.842851961017892E-1   -1.611709818448452E-1
 1.297105184446660E8     9.829551384102935E-1   -1.716845300275437E-1   -8.521547171941959E-6    2.594924254288335E-6    3.930987183859217E-6    2.532728320847133E-6    9.828163025680363E-1   -1.744240338122422E-1
 1.396805583250249E8     9.815119946648065E-1   -1.846468270104341E-1   -8.555559619339523E-6   -5.863480268582133E-6    1.199544481114904E-5    1.372389492445813E-5    9.809447725155065E-1   -1.876105087975129E-1
 1.496505982053838E8     9.789902606853391E-1   -1.970910833873484E-1   -5.599311428840094E-6   -1.707739749203932E-5    1.283540417058571E-5   -1.460440108923204E-5    9.783912566313800E-1   -2.003813354801448E-1
 1.596206380857428E8     9.762578640467556E-1   -2.094576112087776E-1   -1.149062547106320E-5    2.440359797785543E-6   -1.021395285494375E-6   -2.095421662738537E-6    9.756555121304511E-1   -2.134040050365014E-1
 1.695906779661017E8     9.731154655036817E-1   -2.223398251145193E-1    4.573999226741862E-6   -1.087637011628284E-6    5.301416782162712E-6    1.989952910208952E-6    9.728304402085656E-1   -2.261570261790525E-1
 1.795607178464606E8     9.707397642937448E-1   -2.347578683543565E-1    6.575091922841140E-7   -3.125407952601322E-6   -1.190765854783519E-5    6.306204177771009E-6    9.702036030001953E-1   -2.379939264795151E-1
 1.895307577268195E8     9.677975651251773E-1   -2.470796006618728E-1    3.862840096804543E-7    2.135468761315208E-6    1.534435877796420E-5   -1.515423148611221E-6    9.667900776798275E-1   -2.505740209932633E-1
 1.995007976071784E8     9.639326372713996E-1   -2.594412716108948E-1    6.734333987042485E-6    1.474857621121434E-6    1.197151432465039E-5    1.217403697202148E-5    9.627108389626091E-1   -2.632867973677299E-1
 2.094708374875374E8     9.602973879740856E-1   -2.723167381432257E-1   -1.505345494787738E-5   -1.088920667119293E-5    1.295912451267573E-5   -7.610611235556702E-8    9.588762129120277E-1   -2.760774080048987E-1
 2.194408773678963E8     9.573729725639183E-1   -2.851315429629849E-1    5.362926222595732E-6   -1.001166318107978E-5    1.353910907399764E-6   -2.029864623888055E-5    9.551191159368618E-1   -2.890783852419788E-1
 2.294109172482552E8     9.537771351514606E-1   -2.975130685174720E-1    6.988599495030171E-6    1.095925593065603E-5   -1.450740701937833E-6   -8.438017489821838E-6    9.510657115819275E-1   -3.017972304915505E-1
 2.393809571286142E8     9.504667643354993E-1   -3.093731142806489E-1   -6.700725631617547E-6   -9.912850061517375E-6   -2.500113633151240E-6    2.244628662787133E-6    9.469746870824607E-1   -3.140665600927515E-1
 2.493509970089731E8     9.467795208545841E-1   -3.232663892753807E-1   -3.775072903270299E-6    2.342213870083557E-6    1.954290850386097E-5    6.154541582708662E-6    9.441599754873561E-1   -3.276614858696252E-1
 2.593210368893320E8     9.426673307038916E-1   -3.353536358140502E-1   -8.165787296395358E-6   -4.155361319259651E-6   -2.742252145439857E-6   -1.000048466356834E-5    9.398566968164392E-1   -3.408801553917271E-1
 2.692910767696909E8     9.385720653382327E-1   -3.467540578734590E-1   -5.814521443287231E-6   -3.790652449981741E-6   -2.399891122051207E-6   -1.034132208331060E-5    9.356307261305475E-1   -3.528745168956860E-1
 2.792611166500499E8     9.337692532476153E-1   -3.583973004683744E-1    6.792069152274434E-6    1.799827837754573E-6    4.665268520870744E-6    1.129029372158756E-5    9.309632814911384E-1   -3.646618386139358E-1
 2.892311565304088E8     9.289328685396382E-1   -3.704809044040710E-1   -7.378927258981586E-6    6.438334827458702E-6    1.055923020801263E-5   -1.294557520138413E-5    9.261864122307828E-1   -3.767959222031353E-1
 2.992011964107677E8     9.240704818544323E-1   -3.825986169887016E-1    2.657383981649634E-6   -4.467792936694334E-6   -3.391590258116290E-6   -1.406739675060926E-5    9.210692396383292E-1   -3.886542160659832E-1
 3.091712362911266E8     9.189524186256949E-1   -3.949264367151979E-1   -2.446294419898908E-6   -1.134219607409441E-5    1.422311278086443E-5   -2.466898380059586E-5    9.157161970187480E-1   -4.001592382330900E-1
 3.191412761714855E8     9.132965797545368E-1   -4.072895244679154E-1    2.994553897181709E-6   -6.637080865419494E-6    1.358819028319400E-5    4.021236433196214E-6    9.097006700816752E-1   -4.118656613733601E-1
 3.291113160518445E8     9.077370237053792E-1   -4.200446120328886E-1   -3.059204156163923E-6    8.018721596253106E-6   -9.696973771190425E-6   -1.738774070515093E-5    9.033754101111985E-1   -4.244241089328689E-1
 3.390813559322034E8     9.019108599262653E-1   -4.327853594356135E-1   -2.629840772470370E-7    2.567370831465208E-6    1.412119794898905E-6   -3.945857459103672E-6    8.967371289777979E-1   -4.370123957562208E-1
 3.490513958125623E8     8.966044255363163E-1   -4.452786436532020E-1   -8.806957399703934E-6   -7.924172643346277E-6    1.121801943470737E-5   -4.630526861503816E-6    8.905734744508700E-1   -4.495228084346571E-1
 3.590214356929212E8     8.913888285048900E-1   -4.577994929865195E-1    6.742217827110264E-6    9.966090260201444E-7    1.186434766490712E-5   -7.485989125079577E-6    8.845025778259703E-1   -4.621648237673228E-1
 3.689914755732802E8     8.859106818721081E-1   -4.700962469032183E-1    9.916332274697863E-6    2.333899347218163E-6    1.214705385592067E-5    2.259830138068034E-5    8.791007267475627E-1   -4.747484321311910E-1
 3.789615154536391E8     8.799085372167129E-1   -4.812770659328309E-1   -1.501489207819743E-6    4.838660227480409E-6   -6.809438931034286E-6    8.950332551491801E-6    8.738373218219205E-1   -4.867904131590498E-1
 3.889315553339980E8     8.741405673176297E-1   -4.920588302131466E-1   -3.661853496617030E-6   -9.241913107700283E-6   -8.305297775678273E-6    5.641612134154815E-6    8.679574703235937E-1   -4.987505663164503E-1
 3.989015952143569E8     8.674046274912968E-1   -5.027050204330430E-1    6.757608653386047E-6    7.915195809094280E-7    1.715655016904260E-5    1.269334991248989E-5    8.611050642667567E-1   -5.097120481987883E-1
 4.088716350947158E8     8.602210438739389E-1   -5.135663387883159E-1    6.965526451416819E-6    5.513595038659516E-6   -5.538342865828458E-6   -3.126793991835699E-6    8.543109264700636E-1   -5.207253461714307E-1
 4.188416749750748E8     8.533861819639867E-1   -5.251057976208112E-1    8.305122664099819E-7    1.330647168031562E-5    1.608142240010262E-7    7.551031550334100E-7    8.475955447563863E-1   -5.314509294537880E-1
 4.288117148554337E8     8.460139326259176E-1   -5.368143857901201E-1   -7.609672329226200E-6   -2.732770931265510E-6   -1.356729951222148E-5    7.565426305055891E-6    8.405137596044058E-1   -5.418658449985976E-1
 4.387817547357926E8     8.382275342780428E-1   -5.481715004162614E-1    5.502962888006853E-6   -9.243603923271476E-6    1.082581858019328E-5   -6.846684876736427E-6    8.327768103898694E-1   -5.524395415727994E-1
 4.487517946161516E8     8.305139374996018E-1   -5.600510928389462E-1    2.834175958665314E-6    5.949562644284438E-6    3.523528098806453E-6   -7.044672905895698E-6    8.242459847739476E-1   -5.634560053792618E-1
 4.587218344965104E8     8.236024903803154E-1   -5.720451834282476E-1   -2.526393302921663E-6   -2.893233139279936E-6    7.784448343857457E-6    9.110617702573242E-7    8.160276870182729E-1   -5.753253803121963E-1
 4.686918743768694E8     8.170014109504987E-1   -5.834368016987899E-1   -1.171526212539271E-6    1.016887579709049E-5    9.107306503749728E-6    1.573911104224512E-6    8.077354630689710E-1   -5.867718115932153E-1
 4.786619142572283E8     8.099861264286619E-1   -5.942001726650556E-1   -3.628004250844709E-6    1.690613784337066E-6    4.796365123981810E-6   -6.281652522990874E-6    7.993585442808961E-1   -5.981060657791231E-1
 4.886319541375872E8     8.023526547757359E-1   -6.047173466513960E-1   -8.647897729944724E-6    2.216535346643604E-5   -1.250494815367206E-5    1.129776970563196E-5    7.906576251164067E-1   -6.089539447675903E-1
 4.986019940179462E8     7.940166685315142E-1   -6.153381636849722E-1   -6.757854659366731E-6    3.697237830004694E-6   -1.527873412961890E-5   -4.896667588477261E-7    7.824458653863943E-1   -6.196788498786894E-1
 5.085720338983051E8     7.856542558014944E-1   -6.244729255953660E-1   -1.915649719314500E-6   -2.393230319513775E-6   -1.553189198066552E-5   -1.668091517043577E-6    7.745735244093154E-1   -6.302777981361092E-1
 5.185420737786640E8     7.782740084520353E-1   -6.336196165040155E-1   -9.658795888438944E-6   -1.044949335065319E-5    5.689228534301096E-6    1.407962727611609E-6    7.669589052532613E-1   -6.402245369075951E-1
 5.285121136590229E8     7.700428203950066E-1   -6.430101727150690E-1    7.096122558641425E-6    6.324505026468981E-6    3.940379979057616E-6   -5.427952108789924E-6    7.589913971604313E-1   -6.498464692542395E-1
 5.384821535393819E8     7.613699119428484E-1   -6.530496578837417E-1    8.087219142204074E-6   -5.433256098882644E-6    1.534002674243322E-5    7.336565316820090E-6    7.508810188875739E-1   -6.594972456153861E-1
 5.484521934197408E8     7.532843694737519E-1   -6.636514593620039E-1   -8.987320527394450E-6   -6.558029515682772E-6    1.566221116178339E-6    3.313792025164295E-6    7.423865381420908E-1   -6.692816832470727E-1
 5.584222333000997E8     7.447348756105647E-1   -6.746816614548247E-1    3.923184004741996E-6   -1.141191022507126E-5    1.829252785337606E-5    5.147845252348654E-6    7.332739346676943E-1   -6.792137079158810E-1
 5.683922731804587E8     7.356625801585132E-1   -6.851581072786220E-1   -5.322236842451835E-6    5.038434813501709E-6   -1.584344680211559E-5   -6.658977380759332E-6    7.231880042856912E-1   -6.892511369815502E-1
 5.783623130608176E8     7.262497546369331E-1   -6.950218809472557E-1    1.706075136866259E-6    2.697171839500894E-6   -8.993728282804540E-6   -7.812772791677568E-6    7.126868868145844E-1   -6.990849050684385E-1
 5.883323529411764E8     7.171217266070697E-1   -7.051221366250853E-1   -6.303483126898374E-6   -1.370825350167560E-6    2.621664226205418E-5   -3.034097998077015E-6    7.023076426812213E-1   -7.087719658083985E-1
 5.983023928215353E8     7.079554847196703E-1   -7.151678936567254E-1   -4.496198188816230E-9   -3.677856726466351E-6    8.267889121343864E-6    4.741197630106940E-6    6.918175792158354E-1   -7.182875348460558E-1
 6.082724327018943E8     6.985078787199588E-1   -7.250517519688234E-1   -8.166798271604708E-6   -7.710558294084376E-6    1.623363879917922E-5   -3.655486118034289E-6    6.816212223079546E-1   -7.277072071672369E-1
 6.182424725822532E8     6.885649218262182E-1   -7.346127952217338E-1   -1.451744062361360E-5   -2.214111515091689E-6   -2.013522643412030E-5    3.386792713499534E-6    6.717315204951468E-1   -7.373128960711730E-1
 6.282125124626122E8     6.778946653980572E-1   -7.438227768109728E-1    8.638648874385464E-6    1.169200819636130E-5    2.037192574156048E-6    7.325386436270555E-8    6.627862376695918E-1   -7.468929843064589E-1
 6.381825523429711E8     6.683719471617886E-1   -7.510399124527368E-1   -8.083678736663827E-6   -1.277382151533271E-5   -1.504903200262625E-5   -1.267145103743210E-5    6.537921818940936E-1   -7.556919003665392E-1
 6.481525922233300E8     6.594635459958954E-1   -7.595614833912633E-1    2.408839663603753E-6    6.227105417211368E-6   -1.279031151941092E-5    1.923814854761220E-5    6.444428804839565E-1   -7.640964807341789E-1
 6.581226321036890E8     6.496565241248305E-1   -7.685180944972503E-1    1.819583113997825E-5    3.529939294722314E-6    3.598635527942743E-6   -1.439590870669188E-5    6.345485904578766E-1   -7.725715541702330E-1
 6.680926719840479E8     6.397383651084552E-1   -7.771460909092273E-1   -7.417092282939463E-6    4.661037902644534E-6   -5.316322788092427E-6   -1.485438184049840E-5    6.239590126440089E-1   -7.805189681249539E-1
 6.780627118644068E8     6.299460816670374E-1   -7.853680480230034E-1    1.018619428928442E-5   -4.400866442652174E-6   -1.027316740681738E-5    7.266377093728210E-6    6.130303472431392E-1   -7.885048042021544E-1
 6.880327517447658E8     6.196116662131360E-1   -7.936147327581774E-1   -3.685701628310828E-7   -2.929934808327940E-6   -1.260369670561870E-6    4.926007396221563E-6    6.015334647678270E-1   -7.960476376483456E-1
 6.980027916251246E8     6.086744642979574E-1   -8.017609485716908E-1    1.077320177472611E-5   -1.108665779657343E-5    1.184891395528527E-5   -2.681785995558325E-5    5.899607034692864E-1   -8.035097631864168E-1
 7.079728315054835E8     5.972710560120997E-1   -8.100925259244438E-1    2.004550050365549E-5    4.009954072403578E-6    1.110751231206922E-5   -4.809697395504828E-6    5.785072933938997E-1   -8.115548129863542E-1
 7.179428713858424E8     5.861901105138636E-1   -8.186577033431072E-1    2.769368666050509E-6   -3.746639779121889E-6    5.883734708854008E-7   -2.325838194298306E-5    5.673854376545997E-1   -8.203497023445845E-1
 7.279129112662014E8     5.751725782490417E-1   -8.272212157236991E-1   -9.736145900411992E-6    3.804924090960880E-7    1.427504996723056E-5   -1.064008127112920E-5    5.559323070649406E-1   -8.290091672145933E-1
 7.378829511465603E8     5.639349978141702E-1   -8.359590325169617E-1   -3.536258455793794E-6    2.838874246460319E-6   -5.452630281303280E-6    9.747535344539134E-6    5.446232534613141E-1   -8.373182616078545E-1
 7.478529910269192E8     5.518563185151915E-1   -8.445056838328142E-1   -1.053607659122769E-5    3.526231387415304E-6    1.108026005977538E-5   -6.032243798968603E-7    5.334381288730770E-1   -8.450768997963903E-1
 7.578230309072782E8     5.391633211193402E-1   -8.515716735680409E-1   -1.655988676179380E-5    4.483057906920549E-6    9.692807729761407E-6   -3.901488602175641E-6    5.223738970312037E-1   -8.518700483619138E-1
 7.677930707876371E8     5.288509406794342E-1   -8.569833995330998E-1    6.853332482879911E-6    1.418775873864052E-6    3.252335464607237E-6    2.359526624418547E-6    5.109892333029493E-1   -8.582995008979143E-1
 7.777631106679960E8     5.192643531669139E-1   -8.639209836447572E-1   -5.150618729865182E-7   -1.242926286739310E-5   -3.012048060386736E-6    1.787643769997844E-6    4.994751520807421E-1   -8.649107341699728E-1
 7.877331505483550E8     5.089207833270949E-1   -8.709386456203602E-1    3.116294143662865E-6    1.130593120631523E-6    8.760159111734138E-6   -9.422490254366212E-8    4.877659200620530E-1   -8.716241324802705E-1
 7.977031904287138E8     4.977221977637440E-1   -8.773137792690554E-1    6.835460582899450E-6   -9.951853718832557E-7    8.068610687791524E-6    2.872081768592582E-6    4.749318860290985E-1   -8.778850996282491E-1
 8.076732303090727E8     4.859234248577730E-1   -8.830527226122159E-1   -6.830859514805879E-7   -1.005253156820020E-6    3.605462951834541E-6    1.372868401688306E-5    4.621809181717604E-1   -8.841562939109483E-1
 8.176432701894317E8     4.738816641391780E-1   -8.890211350890708E-1    1.848634749449415E-6    1.087412273319157E-5    5.285808800935771E-6    9.922355267428019E-7    4.491603511216148E-1   -8.904670864783610E-1
 8.276133100697906E8     4.616113556986048E-1   -8.955975625560356E-1    7.410266755173894E-6    9.132958010674962E-6   -2.580264086627781E-6    1.576512821546617E-5    4.366135628474279E-1   -8.971380247501992E-1
 8.375833499501495E8     4.489872124320598E-1   -9.019541304463683E-1    6.488726688245410E-6    4.437883286456698E-6    3.710221228617285E-6   -7.825630783196494E-6    4.243580786617682E-1   -9.037647889343670E-1
 8.475533898305085E8     4.362291107896518E-1   -9.085014061046693E-1   -5.906246623279500E-7   -2.849752668891071E-6   -6.693862132217301E-6    7.385700167405551E-6    4.125699561258176E-1   -9.098348378516190E-1
 8.575234297108674E8     4.232835563139732E-1   -9.147267214479403E-1    9.615498535439674E-6   -1.767340383875000E-6   -5.918926454339597E-6    2.124176180432050E-6    4.007711180560131E-1   -9.151700343724677E-1
 8.674934695912263E8     4.105938139745828E-1   -9.213284867970308E-1   -2.814087345262693E-6    1.915722155620127E-6    6.761960513125439E-6    1.828490557889158E-5    3.888208609373101E-1   -9.200380068834525E-1
 8.774635094715853E8     3.974765667014835E-1   -9.279980828386473E-1    1.385680455277346E-6    9.459342842668435E-7    1.340825059060420E-6   -8.084140782693179E-6    3.761993592367640E-1   -9.246927639711691E-1
 8.874335493519442E8     3.844354157331976E-1   -9.327161288470406E-1   -9.207103267028550E-6   -7.144319677040416E-6    6.773847448534316E-6    5.844875869118514E-6    3.629945856526691E-1   -9.290521886587640E-1
 8.974035892323031E8     3.731258852277214E-1   -9.363165961014925E-1    1.693679015041353E-5   -9.444220648283222E-6   -6.127216757922131E-6    1.451337658461917E-5    3.496565244343403E-1   -9.335256787036037E-1
