#  HZ   S   RI   R     50.00 
! Rohde & Schwarz Vector Network Analyzer 
! Rohde-Schwarz,ZNB20-2Port,1311601062102128,3.60
! Created: UTC 4/29/2024, 2:57:48 PM
! freq[Hz]                re:S11                  im:S11                  re:S21                  im:S21                  re:S12                  im:S12                  re:S22                  im:S22
 1.000000000000000E5     9.962144980874867E-1    3.823434939978334E-3    8.078716934065157E-5    1.114895260988969E-4    3.673669809797810E-6    4.144273104994230E-5    1.010472412198971      -1.147027255026108E-2
 1.007003988035892E7     9.976251043957556E-1   -1.387471979806556E-2   -9.223022432268628E-6   -1.617579263082130E-6   -8.564548253852666E-6    1.323070796650175E-5    9.961155635821981E-1   -1.457889218508594E-2
 2.004007976071785E7     9.997051017473046E-1   -2.722666929449800E-2   -3.355364487866100E-6    4.802640870019155E-6    2.356763293807095E-5   -7.277459100495669E-7    9.988741225628196E-1   -2.772182445700477E-2
 3.001011964107677E7     9.978481357332462E-1   -4.107329157598973E-2    5.951272142455567E-6    1.201697136058492E-5   -1.493114106245407E-5    3.741616557607544E-6    9.976776595383747E-1   -4.192890856560542E-2
 3.998015952143569E7     9.976443879200378E-1   -5.315557593816216E-2    6.098070239780484E-6   -1.923346741731760E-5   -1.641140748496185E-5   -8.446601445363484E-6    9.975901725375066E-1   -5.673584757251599E-2
 4.995019940179461E7     9.961467332140974E-1   -6.603970745048066E-2   -1.036215928696139E-6   -2.744332752670793E-6   -7.946326417251310E-6   -4.047850909627363E-6    9.964561599554130E-1   -6.912164736741711E-2
 5.992023928215354E7     9.942167773219619E-1   -7.884612788161105E-2   -3.501079040799475E-5   -3.512278788764634E-6   -1.573525164716747E-5   -1.225207572163634E-5    9.946237911998421E-1   -8.189218498990662E-2
 6.989027916251247E7     9.929774696039571E-1   -9.181198933176118E-2   -1.678711755693303E-5    1.301821090791499E-5   -4.184867571397940E-6    7.029614104214885E-6    9.934543752765128E-1   -9.473951969183636E-2
 7.986031904287139E7     9.923698289901406E-1   -1.052150984053592E-1   -5.235065133529614E-6    5.905590106280626E-6    3.138797564907532E-7    6.936308865656672E-6    9.924700140494574E-1   -1.078853812308605E-1
 8.983035892323031E7     9.913590770215218E-1   -1.187351682159280E-1    1.036250801102020E-6    3.515021061144364E-6    5.983465141129203E-6   -2.644741780662887E-8    9.907987521513144E-1   -1.210529301622198E-1
 9.980039880358922E7     9.892475288398767E-1   -1.324165037625102E-1   -4.400129812907868E-6   -6.249849737444411E-6    2.192442424832032E-6    5.317031220912531E-6    9.885096677893578E-1   -1.343073372510873E-1
 1.097704386839482E8     9.865929837482731E-1   -1.455453273456594E-1    7.284841510940114E-6    1.771362369073088E-6    7.713735279668771E-6    1.237241939860143E-5    9.861740670929764E-1   -1.478004778959858E-1
 1.197404785643071E8     9.849759106411857E-1   -1.589656151632485E-1    3.075780398596758E-6   -7.188058302650340E-6    1.079918672192423E-5   -3.225878051065162E-6    9.843643043509467E-1   -1.611487790174786E-1
 1.297105184446660E8     9.831122986323664E-1   -1.717525015588017E-1    1.530051295438542E-6    2.483153755922459E-6    6.918491627200076E-6   -5.201000159880373E-6    9.829127117885625E-1   -1.745128717887866E-1
 1.396805583250249E8     9.815794908018218E-1   -1.845936920702591E-1    6.054430167339504E-6   -1.364545053284838E-5    5.077507310767381E-6   -1.437499524789938E-5    9.808988437140641E-1   -1.875750483256861E-1
 1.496505982053838E8     9.789281478540528E-1   -1.970967599506744E-1   -1.373454774105751E-5   -1.158879662960453E-5    5.243130978420509E-6    1.552042849469132E-5    9.783312524467389E-1   -2.003666584303572E-1
 1.596206380857428E8     9.762945285079371E-1   -2.095019413481735E-1    7.427173027776182E-6   -5.202960673546791E-6   -5.970190366788614E-7    8.994003904922640E-6    9.757239771673344E-1   -2.131998379466107E-1
 1.695906779661017E8     9.732939206075447E-1   -2.223314970929086E-1    5.351207430022300E-6    1.196030881942685E-5   -1.747290003974155E-7   -7.464441876574835E-6    9.729347487870906E-1   -2.261569225048604E-1
 1.795607178464606E8     9.707239962801341E-1   -2.347830469255537E-1    9.928751806141351E-6   -1.237142412684685E-5   -6.517000818839847E-6   -8.529441845728883E-6    9.701378455258335E-1   -2.381052116948195E-1
 1.895307577268195E8     9.676735967960853E-1   -2.470406797310361E-1    1.819260661077136E-6    5.196500512007364E-6   -1.045068348150494E-5   -7.149661003084659E-7    9.666720774464848E-1   -2.504572547351850E-1
 1.995007976071784E8     9.639419959509632E-1   -2.596181945912628E-1    6.373982199704962E-6   -7.559915595293627E-6   -1.027875815097135E-5    6.126149370763692E-7    9.627363693756211E-1   -2.631442492444904E-1
 2.094708374875374E8     9.604241896955675E-1   -2.724058212186367E-1    1.445162430801031E-6    5.457726612884782E-7    2.037201609533026E-5    5.075989650915765E-7    9.590589320359462E-1   -2.762596643894293E-1
 2.194408773678963E8     9.573097362250278E-1   -2.851449874685683E-1    1.630287715552024E-5    5.284878572063787E-6    1.026554511374767E-6    7.486044389317346E-7    9.551979864908638E-1   -2.890601536634342E-1
 2.294109172482552E8     9.536730800840267E-1   -2.973568450168798E-1   -1.281549474421947E-6   -3.462571995246411E-7   -1.002105142443905E-5    8.904864907040744E-6    9.508324737573869E-1   -3.017506595657236E-1
 2.393809571286142E8     9.506266045981621E-1   -3.093615953359189E-1   -2.976962756485641E-6   -1.317736201003952E-6   -8.440363715149249E-7    1.110105489342096E-5    9.470671128424886E-1   -3.140740469367706E-1
 2.493509970089731E8     9.469534031930008E-1   -3.233263942863652E-1    6.222832268821573E-6    1.921886774054069E-6   -8.638623701471938E-6   -1.110131908257562E-5    9.440654078856150E-1   -3.276907351776635E-1
 2.593210368893320E8     9.427460526464855E-1   -3.353005739849271E-1   -1.117707181624168E-5   -5.621107628705348E-6   -1.172549278905660E-5   -2.350241511471378E-5    9.398507776679719E-1   -3.408857052556352E-1
 2.692910767696909E8     9.385891724149213E-1   -3.468009767420211E-1    8.426959912875617E-6   -5.962281662197570E-7    2.935448469681417E-6    2.313568235443791E-5    9.355128180434781E-1   -3.528362151485958E-1
 2.792611166500499E8     9.338698462951498E-1   -3.583877585957012E-1   -7.493939417877650E-6   -1.464914879375458E-6    6.042673363168686E-6    1.161459376973263E-5    9.309832402570388E-1   -3.646566831567464E-1
 2.892311565304088E8     9.289819467667830E-1   -3.704986379349555E-1    2.177568994237286E-6   -1.502113804576994E-5    1.938746170152112E-5    1.546256010462553E-6    9.261342988308838E-1   -3.768716912487540E-1
 2.992011964107677E8     9.241075312432101E-1   -3.826460377520703E-1    1.187256574716029E-5    9.349525640901028E-6    9.025460821389583E-6   -1.002375209101280E-6    9.211331469505811E-1   -3.886661771362999E-1
 3.091712362911266E8     9.189808677461101E-1   -3.949729551278833E-1    7.604079550067192E-7    2.713827807387206E-6    1.854740013133826E-6    5.874264786553290E-7    9.156910081822792E-1   -4.002533631280822E-1
 3.191412761714855E8     9.133499979088348E-1   -4.073654775133649E-1    4.102335553492465E-6   -5.724420630359728E-6    4.695605981699112E-6   -5.271153001216403E-6    9.097177038515134E-1   -4.119555555522970E-1
 3.291113160518445E8     9.075554702751865E-1   -4.199510577525214E-1   -6.988661557595144E-6    4.781701562193773E-6   -2.343338743795434E-6    8.947931682572709E-6    9.033818269805826E-1   -4.243535348745979E-1
 3.390813559322034E8     9.018215641445010E-1   -4.326867382033516E-1    2.458707526743154E-6    6.259592999123536E-6    9.632704183511588E-6   -2.239139716618777E-5    8.967698537465589E-1   -4.369198239200343E-1
 3.490513958125623E8     8.967464996950388E-1   -4.453302201765277E-1    9.465829705451865E-7   -3.324843640572826E-6    1.376442127620289E-5   -4.872090957026588E-6    8.905704423265126E-1   -4.494578715606297E-1
 3.590214356929212E8     8.914837899644689E-1   -4.578768039596774E-1   -2.875820048563768E-6   -3.189251680457583E-6    1.032643694478685E-5    6.152899249558101E-6    8.845284744872602E-1   -4.620793736816713E-1
 3.689914755732802E8     8.860099393509675E-1   -4.700100330970902E-1    4.203030164133598E-6    7.882118368493669E-6   -1.402754617202694E-5    9.385482332757329E-7    8.790676862484460E-1   -4.746691484485691E-1
 3.789615154536391E8     8.799163744445782E-1   -4.812702185928494E-1    1.375760050287433E-5    2.452990055356552E-6   -1.046767322504747E-6    2.092584464490485E-6    8.737877322111904E-1   -4.868015513730553E-1
 3.889315553339980E8     8.740683581513368E-1   -4.919303353856593E-1   -6.487767959351957E-6    2.939381340545084E-6   -5.808178957237781E-6   -1.690955790926253E-5    8.680191967563340E-1   -4.987829560312442E-1
 3.989015952143569E8     8.674410269691535E-1   -5.027071909629682E-1   -1.301064845428708E-5    4.605799500422525E-6   -1.060873674745084E-5    7.968129287402935E-7    8.612015803360238E-1   -5.097295708417870E-1
 4.088716350947158E8     8.603012982937333E-1   -5.135587834436182E-1    2.641857974117458E-6    7.162897201403887E-9   -5.235430695427555E-6    5.838456496951244E-6    8.542368842734860E-1   -5.206673895950606E-1
 4.188416749750748E8     8.532698803346156E-1   -5.250618346861616E-1    3.858638238904802E-6    2.562581330896559E-6    5.398528759279492E-6   -1.088938314361314E-5    8.475409862133607E-1   -5.314718555177960E-1
 4.288117148554337E8     8.459226858372774E-1   -5.367653409406158E-1    3.629803238464289E-6    8.986834791013121E-7    1.005455960024526E-5    1.926208459999090E-7    8.405867601517160E-1   -5.418835311384188E-1
 4.387817547357926E8     8.382341290591813E-1   -5.481786797629380E-1    5.866889284956907E-6   -1.311078858258187E-6    1.178505312245543E-5   -3.368323661131952E-6    8.326270653172615E-1   -5.523082191728329E-1
 4.487517946161516E8     8.305796791092853E-1   -5.600673666958372E-1   -4.979442543347900E-6   -2.733872213492789E-6   -6.446373397057180E-7    3.049371614392806E-7    8.241882608947304E-1   -5.634842765175256E-1
 4.587218344965104E8     8.237110723165399E-1   -5.720113931787616E-1   -4.908859685474048E-6   -1.256314792776059E-5   -4.461298539843231E-6   -1.511412512062110E-5    8.159760106275438E-1   -5.752695094534689E-1
 4.686918743768694E8     8.169900251537090E-1   -5.834249650171098E-1   -5.913733356802621E-6   -1.158166911286596E-6   -8.650645520327648E-6   -1.024737493825237E-5    8.079042903955790E-1   -5.868628035157942E-1
 4.786619142572283E8     8.097711104229955E-1   -5.941181582767556E-1   -2.167973845612005E-6    2.170085149879660E-6    8.259900084022133E-6   -6.751911066835640E-6    7.992780410455351E-1   -5.981025900082833E-1
 4.886319541375872E8     8.023239604420902E-1   -6.046924090193040E-1    8.230033007348254E-6   -4.198037567031397E-6    9.531899544630632E-7   -8.968810026336975E-7    7.904311225575321E-1   -6.088475325686569E-1
 4.986019940179462E8     7.941198238052319E-1   -6.153577509082004E-1    7.918131563262828E-6    6.635466753774895E-6   -1.842735615845229E-5    5.858594367452847E-6    7.822646201771480E-1   -6.197807784289587E-1
 5.085720338983051E8     7.856341517407036E-1   -6.244637867674231E-1    4.636987409195951E-7   -1.417186441919166E-6   -1.938273583782175E-6    2.886748716012267E-5    7.746878171769924E-1   -6.303079986474137E-1
 5.185420737786640E8     7.783127624061117E-1   -6.334760548306567E-1   -1.741225266118253E-6   -3.229320783430958E-7   -3.185060223133581E-6    3.802484809073913E-6    7.668724756651363E-1   -6.401819637040039E-1
 5.285121136590229E8     7.699870287684454E-1   -6.430419736408515E-1    1.634155113103552E-5    7.682685942831688E-6    5.736280161825472E-6    1.315095437095937E-5    7.589277838134380E-1   -6.497705937593733E-1
 5.384821535393819E8     7.613829577176908E-1   -6.531271664167541E-1   -1.880305813733592E-5   -3.358169519135827E-6    1.465594846838822E-5    1.422895981226013E-5    7.509234752853474E-1   -6.594241163460108E-1
 5.484521934197408E8     7.533516304087869E-1   -6.637650160005416E-1   -1.269755946771971E-6    1.312677706926759E-5   -1.272478202025058E-5    1.533945868561038E-5    7.423419374372618E-1   -6.692351716830162E-1
 5.584222333000997E8     7.448156904905144E-1   -6.746392157977158E-1    3.713395818022177E-7   -6.799056109828138E-6    4.569791560656914E-6    1.081076768276983E-6    7.332572708148644E-1   -6.791821183145159E-1
 5.683922731804587E8     7.356271311411594E-1   -6.850449621316741E-1    1.390208209615881E-6    2.647575999659272E-7    1.963043690639449E-5    3.086999840155160E-6    7.230713015693200E-1   -6.891577859466671E-1
 5.783623130608176E8     7.263186760216837E-1   -6.951546128700590E-1    4.727303663980242E-6   -2.638374086114935E-6   -1.782840959337411E-6   -4.681229266254808E-6    7.125881300572725E-1   -6.989743138933171E-1
 5.883323529411764E8     7.172093279514450E-1   -7.050893623770940E-1    5.890003391964706E-6    1.186320118405239E-5   -5.507077635514672E-6    2.681710971806237E-6    7.022771807900545E-1   -7.087758638488648E-1
 5.983023928215353E8     7.080579520228607E-1   -7.152433577391878E-1    1.339851971254547E-5    2.802172952108620E-6   -1.699640652560229E-5   -2.064137124839975E-5    6.919309744989647E-1   -7.183907446569684E-1
 6.082724327018943E8     6.985267453493704E-1   -7.250240228121365E-1   -9.254701947062203E-6   -3.160843395434670E-6    6.874527536074311E-6    5.904879373639939E-6    6.816631332420187E-1   -7.277590246315010E-1
 6.182424725822532E8     6.885371103341378E-1   -7.345900392043938E-1    5.841082025902396E-6    1.556381087786103E-5   -7.458706263185062E-6    7.295236218733175E-6    6.717159513862941E-1   -7.371908405645725E-1
 6.282125124626122E8     6.780184594162527E-1   -7.440044439542994E-1   -2.037280912272902E-6    4.024967550617190E-6   -8.250345160868874E-6    8.460514351857926E-6    6.627284112847307E-1   -7.468509325929839E-1
 6.381825523429711E8     6.683502297556695E-1   -7.511386832142231E-1   -2.204824938588934E-6   -3.962725234173621E-6    4.524720948230357E-6    2.050359602183743E-5    6.537332521621343E-1   -7.556813262091452E-1
 6.481525922233300E8     6.593543170591627E-1   -7.595759682724940E-1    8.020509579652418E-7   -9.823633706299454E-6   -1.227308731933891E-5   -2.412571960791467E-6    6.445974135033234E-1   -7.641664460184450E-1
 6.581226321036890E8     6.495836669161621E-1   -7.684799269108477E-1   -1.668469126448699E-6   -3.006616035785433E-6   -1.720600761235625E-6   -7.299755370957556E-6    6.343795279386748E-1   -7.723936450683337E-1
 6.680926719840479E8     6.397414008692376E-1   -7.771843871088783E-1   -3.388482559258294E-6   -2.306534742446652E-7    1.480344974425863E-5   -4.900146168367928E-6    6.238434948319209E-1   -7.804527139325775E-1
 6.780627118644068E8     6.299672163085481E-1   -7.855027264700938E-1    5.418475136728140E-6    2.988613870626947E-6   -3.042604736584919E-6    4.504759368918405E-6    6.128676424580495E-1   -7.884445976479955E-1
 6.880327517447658E8     6.195864264026548E-1   -7.936945850058745E-1   -9.410254171552784E-6   -6.549840771142818E-6    5.927118714663423E-6   -2.759229825370363E-5    6.015586145112994E-1   -7.960432835377698E-1
 6.980027916251246E8     6.086190853692709E-1   -8.017348883103192E-1   -1.057970484224893E-5   -4.085972833279759E-6   -7.554164775332105E-6   -3.552367228966532E-6    5.899410935247624E-1   -8.036073741872609E-1
 7.079728315054835E8     5.972151189300918E-1   -8.101367913073855E-1    4.198176931002654E-6   -1.402942889897667E-6   -1.823694550149804E-5   -4.652836274378777E-6    5.785046709028425E-1   -8.116731765636580E-1
 7.179428713858424E8     5.862192149480223E-1   -8.188360787994964E-1    7.828361515798226E-6    5.570140281354840E-6    8.141960638084188E-6    9.671362498376469E-6    5.672366797016500E-1   -8.201602031658485E-1
 7.279129112662014E8     5.751872644610448E-1   -8.272655652999552E-1    8.477344125348995E-6   -4.487718623174755E-6   -9.325369078423874E-6    7.464524332974125E-6    5.558338073959921E-1   -8.289075092748678E-1
 7.378829511465603E8     5.639038881670908E-1   -8.359412465287154E-1   -3.784583825289135E-6    6.504077076435521E-7   -4.265749840142508E-6   -2.103980738739947E-5    5.446173451404672E-1   -8.373757948511593E-1
 7.478529910269192E8     5.516968761955020E-1   -8.443127966957947E-1   -1.813525887793848E-6    4.323825039444414E-6   -1.228049314518675E-5   -2.802502102616322E-6    5.334576336519316E-1   -8.451022045447900E-1
 7.578230309072782E8     5.392056148270947E-1   -8.516056759277982E-1   -6.805418840801613E-6   -3.997732886112362E-6    9.622268094970584E-6   -6.216200461715505E-6    5.222060297653438E-1   -8.518290923800564E-1
 7.677930707876371E8     5.288403715984792E-1   -8.571105232758819E-1   -5.050008322924819E-6   -5.231985487900945E-6    2.620548899470239E-6   -1.844032607498560E-6    5.110009283341949E-1   -8.583815207840877E-1
 7.777631106679960E8     5.192675156766683E-1   -8.640312066468392E-1   -4.560866132216166E-6   -5.180717682022176E-6    4.778047747492840E-6   -1.469382249574514E-5    4.994499511463552E-1   -8.648630268322270E-1
 7.877331505483550E8     5.088915606871854E-1   -8.708504926837195E-1   -5.264000747776680E-6   -3.536150095028043E-6    1.528682281809037E-6    1.058800870156464E-5    4.876596892422000E-1   -8.715406157003451E-1
 7.977031904287138E8     4.975398306355980E-1   -8.771648450749752E-1    4.557435089398561E-6    9.517394409291082E-6   -7.065049906407436E-6   -1.841207239498703E-6    4.749319732565038E-1   -8.780559258252002E-1
 8.076732303090727E8     4.859022989808212E-1   -8.830265669015197E-1    9.606157864797197E-6   -4.643187925700472E-6   -4.776739486337980E-6   -3.870458023534504E-6    4.619555555594638E-1   -8.839574251371526E-1
 8.176432701894317E8     4.739851417672882E-1   -8.891705153171090E-1   -5.266445493041432E-7   -5.438376081625716E-6    7.172481955920665E-6   -1.417723946234526E-5    4.491371971569116E-1   -8.903884829661447E-1
 8.276133100697906E8     4.615875393873661E-1   -8.956295707403987E-1    5.816219557333158E-6    6.868029861401857E-6    7.318436045873775E-6    3.545452018196150E-6    4.365411078315211E-1   -8.970341423454264E-1
 8.375833499501495E8     4.489883884754822E-1   -9.018585913481915E-1    6.420525775254865E-6    2.307935503207344E-6    4.199638403543509E-6   -3.042473102555260E-6    4.244592118628648E-1   -9.038829932690943E-1
 8.475533898305085E8     4.361702083256464E-1   -9.083953786231974E-1    4.542426904760144E-6    5.852744366926765E-6   -1.913957132846431E-7   -6.648361322286233E-6    4.125331549931678E-1   -9.098322367141823E-1
 8.575234297108674E8     4.234285016335677E-1   -9.146965965435021E-1    8.080636520537069E-6    2.691663972185495E-6   -1.942649441079945E-6   -1.327581260106213E-5    4.008092340723388E-1   -9.151494266636160E-1
 8.674934695912263E8     4.105723600872772E-1   -9.213713465221982E-1   -3.491847505457482E-6   -6.849146828327106E-6   -1.176636949551991E-5   -1.648380150616832E-5    3.887081665735551E-1   -9.199021073297772E-1
 8.774635094715853E8     3.975126652996387E-1   -9.280183594121005E-1   -9.364860170844438E-6    9.355764352102360E-8    3.687945614406558E-6    1.616090256767089E-5    3.761846568270333E-1   -9.247456248485975E-1
 8.874335493519442E8     3.844829807148585E-1   -9.326739183386179E-1   -2.537917997964792E-6    2.921172282713124E-6    5.872673618529349E-7   -6.401680837347177E-8    3.631563152248806E-1   -9.291055041077475E-1
 8.974035892323031E8     3.730354803564539E-1   -9.361948773031793E-1   -1.591347503138405E-5    1.547131925391191E-5    1.834937886705161E-5    6.561477770058287E-6    3.495142283743437E-1   -9.334770550232215E-1
