#  HZ   S   RI   R     50.00 
! Rohde & Schwarz Vector Network Analyzer 
! Rohde-Schwarz,ZNB20-2Port,1311601062102128,3.60
! Created: UTC 4/29/2024, 2:57:51 PM
! freq[Hz]                re:S11                  im:S11                  re:S21                  im:S21                  re:S12                  im:S12                  re:S22                  im:S22
 1.000000000000000E5     9.960817359894413E-1    3.864064878850203E-3    1.076517380761314E-4    5.506765355681902E-5   -2.411004598397436E-5    8.419466787888016E-5    1.010546591830407      -1.141275705245417E-2
 1.007003988035892E7     9.976405480870104E-1   -1.377679741495531E-2   -2.021443835068083E-6   -8.791330680793887E-6    1.808777971856224E-6   -1.181802435112168E-5    9.957351459922859E-1   -1.463241750113031E-2
 2.004007976071785E7     9.999014431780685E-1   -2.721556747156316E-2   -1.056225007822975E-5    6.315748804077016E-6   -1.481895873116550E-5   -4.746397771691366E-6    9.986503657390585E-1   -2.773869522088894E-2
 3.001011964107677E7     9.979027307396143E-1   -4.102653454551639E-2    5.249946959528401E-7   -7.483049647649449E-6    3.046314876684709E-6   -1.285677698935316E-5    9.976183528718767E-1   -4.195125394336329E-2
 3.998015952143569E7     9.976811281147996E-1   -5.310239794502354E-2   -3.661473185877956E-6   -2.751976414571977E-6   -5.065629002181249E-6    9.370796518968485E-6    9.977681247638389E-1   -5.670131912828571E-2
 4.995019940179461E7     9.960895192300100E-1   -6.594031304514149E-2    3.149802130111469E-6    9.615812699298797E-7    8.381123298279244E-6    5.545916036005333E-6    9.964186242579448E-1   -6.908079396119411E-2
 5.992023928215354E7     9.942884116679249E-1   -7.873573960565954E-2   -1.973196099180978E-6   -3.288266628079879E-6    3.504694324839022E-7   -2.229107853362193E-6    9.946246533395489E-1   -8.184254672104183E-2
 6.989027916251247E7     9.929864016171214E-1   -9.183522484224256E-2   -3.507321513655308E-6    3.698912668343219E-6   -3.375250559661797E-6    1.530897058779379E-5    9.933783212634461E-1   -9.469651205705737E-2
 7.986031904287139E7     9.923957750237513E-1   -1.052288923318989E-1    1.329788090836550E-5   -1.118857652137967E-5    1.778163374281644E-5    1.126478358181090E-6    9.922986583221658E-1   -1.079684589967710E-1
 8.983035892323031E7     9.914222078155772E-1   -1.187622782483815E-1   -6.599784833143441E-6    1.597587734503017E-5    4.159874782462416E-6   -8.282461615271296E-6    9.908828435526198E-1   -1.210893644397054E-1
 9.980039880358922E7     9.894352526409695E-1   -1.323428094189548E-1   -5.717549138163408E-6   -1.618206564292013E-5   -6.947754523443672E-6   -1.237941940980885E-5    9.886287304613502E-1   -1.344784332061388E-1
 1.097704386839482E8     9.865943727820947E-1   -1.455455458732043E-1    9.846137141633440E-6   -4.851442507926635E-7   -7.792512673088114E-6    1.215887408649927E-5    9.861514103927427E-1   -1.479131511435253E-1
 1.197404785643071E8     9.847876872642020E-1   -1.590336949887477E-1    5.847365771544345E-6    1.020202760540987E-5   -2.539225731791203E-5    4.128443572416239E-6    9.843379979948741E-1   -1.611829314111054E-1
 1.297105184446660E8     9.829880326297109E-1   -1.717466090925136E-1   -3.906420199058336E-7    4.816792175846966E-6   -1.338373095135490E-5   -1.347492508483762E-6    9.829257265762358E-1   -1.744681466805264E-1
 1.396805583250249E8     9.815585853624584E-1   -1.846912740545625E-1    8.863929373996481E-7   -2.966741044781975E-6   -3.284024418907684E-6    1.134662218614726E-5    9.808503786456931E-1   -1.874653379200150E-1
 1.496505982053838E8     9.790170889883190E-1   -1.970842583035456E-1   -1.410876617272755E-5    9.259057096778873E-8    1.615451829715014E-5   -7.568483186037594E-6    9.784573059441748E-1   -2.004181645400154E-1
 1.596206380857428E8     9.761815612850078E-1   -2.094368475075848E-1   -8.656974869288417E-6   -1.223829908950923E-5   -1.060213124748658E-5   -1.064666045046886E-5    9.758244825935137E-1   -2.133307573564218E-1
 1.695906779661017E8     9.732153886051669E-1   -2.223409714532625E-1    1.961740703028253E-6   -8.504879402546067E-6   -1.412752224670763E-5   -1.017916755161326E-8    9.728887444701685E-1   -2.261118498880826E-1
 1.795607178464606E8     9.707698127267617E-1   -2.347974698615794E-1    2.251901809843147E-5    1.024979219974285E-5   -2.909535060805562E-6   -3.184556367561322E-6    9.701150309028220E-1   -2.379910248405032E-1
 1.895307577268195E8     9.676104743396293E-1   -2.469805068000983E-1    1.766706440470260E-6   -1.641467299434395E-6    6.138553459120603E-7    6.063432562989387E-6    9.667421656072954E-1   -2.505234993282279E-1
 1.995007976071784E8     9.638203205050948E-1   -2.594762253433107E-1    1.360044358069492E-5    3.370990527613904E-6    5.035583509300261E-6   -1.397205647866079E-6    9.628592103009421E-1   -2.631698690567894E-1
 2.094708374875374E8     9.604967046203329E-1   -2.723994789407350E-1    9.096155261275854E-6    1.058586814619466E-5    7.888936595334896E-6   -5.518800961326651E-6    9.589609228368641E-1   -2.760302890106034E-1
 2.194408773678963E8     9.572579964668569E-1   -2.851236957568875E-1    9.969338640319834E-6   -8.146642729717677E-6    1.908380251863291E-5   -4.412466553991506E-6    9.550998968363420E-1   -2.891136870847333E-1
 2.294109172482552E8     9.536465826675370E-1   -2.974604708956997E-1    8.140131810041220E-7    5.855000488126116E-7    9.700274023192746E-6    2.158671633045568E-5    9.509909444854826E-1   -3.017216262879225E-1
 2.393809571286142E8     9.505824269653823E-1   -3.093929647140019E-1   -5.505263960543312E-7   -3.111042923322113E-6    4.511145340773566E-6    1.145993349264823E-5    9.469608335982823E-1   -3.139785688607287E-1
 2.493509970089731E8     9.468266939465433E-1   -3.232867632646441E-1    1.379071838058168E-6   -6.405385632329607E-6    5.421034535504485E-6    2.835418440184396E-6    9.439256743424160E-1   -3.275510937351288E-1
 2.593210368893320E8     9.426777854756921E-1   -3.353006632569829E-1    5.872503275202857E-6   -1.315216468417039E-5    2.488280211170406E-6    7.205089123353785E-6    9.397248334119076E-1   -3.407939916057322E-1
 2.692910767696909E8     9.385353267491884E-1   -3.467652200689131E-1   -2.411756691247444E-6    1.008408654966017E-5   -2.240851472270717E-6    1.942387844537313E-5    9.355867872847657E-1   -3.528545136543347E-1
 2.792611166500499E8     9.337642298595155E-1   -3.584190940443117E-1    6.008860791722553E-6   -3.856843650925436E-6    8.012143685674494E-6   -1.170217806667648E-6    9.309716390609382E-1   -3.646533432163137E-1
 2.892311565304088E8     9.288866846456194E-1   -3.704201268313870E-1    8.194002078927750E-6    1.271215702762181E-5    9.418514857915091E-6   -9.912823609077752E-6    9.260348728196646E-1   -3.768073670159913E-1
 2.992011964107677E8     9.241211121360731E-1   -3.826055532570489E-1   -5.059643775641455E-6   -1.126202927665649E-5   -6.256180243145558E-6    1.008864400656877E-5    9.211299787938358E-1   -3.885352145159380E-1
 3.091712362911266E8     9.188434091767083E-1   -3.948475817014414E-1   -5.524002041331110E-6   -2.317526658108253E-6   -4.449905477380864E-6    1.011674875941580E-5    9.158497993395124E-1   -4.002121144089296E-1
 3.191412761714855E8     9.133285533902734E-1   -4.073485781476390E-1   -9.110146306225264E-6   -5.652754434853658E-6    3.256903903485305E-6   -1.888933864555733E-6    9.098344227836794E-1   -4.120203027227862E-1
 3.291113160518445E8     9.076350873482337E-1   -4.200391667450530E-1    1.464531589005308E-6    8.516144949511740E-7    8.222183549480882E-6    4.200066256398001E-6    9.034269862485474E-1   -4.242925689912557E-1
 3.390813559322034E8     9.019052743552746E-1   -4.327441779918274E-1   -1.057077095859543E-5   -6.563542001831678E-6   -1.305160193669747E-6   -6.861833622979183E-6    8.968507849572599E-1   -4.369226831730697E-1
 3.490513958125623E8     8.966815992999621E-1   -4.453082021071922E-1    2.822573706419574E-6   -1.895183606956660E-5    6.712843928238023E-6   -5.393715763505893E-6    8.904938711640975E-1   -4.493551083783787E-1
 3.590214356929212E8     8.913628782317565E-1   -4.578049469495564E-1   -8.509138697851687E-6   -4.598343668482732E-6   -1.407064655898230E-6   -1.015959975296192E-5    8.846732411302708E-1   -4.621916133960665E-1
 3.689914755732802E8     8.859543053347410E-1   -4.700704851136717E-1   -1.319650766876733E-5    6.046018028549014E-6    6.237357072121504E-6   -5.881406711389167E-6    8.791758586983835E-1   -4.747632870221185E-1
 3.789615154536391E8     8.798481622883162E-1   -4.812739638050115E-1   -1.118144257036383E-5    1.413214864702647E-6    1.182047595877660E-6    1.407069087243540E-5    8.739211670326245E-1   -4.868451297069183E-1
 3.889315553339980E8     8.741452206260300E-1   -4.919979348964889E-1   -1.587869071306098E-5    1.119399572040499E-7   -1.741492791990528E-5    1.908375596720059E-5    8.678925919625040E-1   -4.987075133677162E-1
 3.989015952143569E8     8.673999918164753E-1   -5.026892395296144E-1    1.026679953823849E-5    9.920482186324233E-6   -1.244967777493688E-5   -5.100036497721510E-6    8.610690888553152E-1   -5.097959135011779E-1
 4.088716350947158E8     8.603290542188378E-1   -5.135218899018944E-1   -3.786107565203778E-6   -1.565110957909824E-6    2.064768438590977E-5    6.893210894379254E-6    8.543077798452168E-1   -5.207406311417945E-1
 4.188416749750748E8     8.532966001075107E-1   -5.251278453395957E-1    2.683935692982550E-6   -1.007087888513336E-5    1.549246305333436E-5    3.554300541424445E-6    8.476628383777678E-1   -5.315081291414938E-1
 4.288117148554337E8     8.461096179197670E-1   -5.367507687632562E-1    8.282221987656003E-6    7.242128375873025E-6   -1.251025509503260E-5   -6.286425307691295E-6    8.406005961743697E-1   -5.417863306647657E-1
 4.387817547357926E8     8.382508691079985E-1   -5.481436188654989E-1   -4.816755535209057E-7   -2.586311742327508E-6   -1.371540930555629E-5    2.722907756428273E-5    8.325985281753443E-1   -5.522637249684207E-1
 4.487517946161516E8     8.305346853050086E-1   -5.600405241859867E-1   -4.077181378789757E-6   -2.217555117423864E-5    1.570555010488794E-7   -5.202082190509165E-7    8.242395291057237E-1   -5.635190856113471E-1
 4.587218344965104E8     8.237013096329046E-1   -5.720016415070822E-1    7.643392296463390E-6   -1.468546325859946E-5   -1.656367768836394E-7   -1.118321268792041E-5    8.160568177167785E-1   -5.753523474762647E-1
 4.686918743768694E8     8.169940831774590E-1   -5.833610355639035E-1    9.416529758694546E-6    3.552045589276274E-6   -5.056482834377349E-6    1.361332466300409E-5    8.078482914129947E-1   -5.867866999368325E-1
 4.786619142572283E8     8.097784696883844E-1   -5.941636408476315E-1    4.201641025846367E-6    8.875541130874971E-6   -5.988159436973983E-6   -1.081435138933009E-5    7.991866017125459E-1   -5.980487109069632E-1
 4.886319541375872E8     8.023275051691461E-1   -6.046607460866185E-1   -1.474448159374062E-5   -7.869900863424730E-7   -9.169095798218230E-6    1.881415152196849E-6    7.905615344552621E-1   -6.089831306180141E-1
 4.986019940179462E8     7.941582316601005E-1   -6.154625707710601E-1   -1.636756632383153E-6   -9.465727303424990E-6   -5.471359508932956E-6   -3.934803940779717E-6    7.823955558187592E-1   -6.197338485195785E-1
 5.085720338983051E8     7.856850980607136E-1   -6.244589280763719E-1    9.081921208701613E-6    9.803189693805310E-6    3.284804151743455E-6    1.549055030666664E-5    7.746647102211623E-1   -6.303327431278339E-1
 5.185420737786640E8     7.782420240168875E-1   -6.334830561667563E-1   -1.726932687911835E-6    1.153466480444416E-5   -9.624055537977632E-7    1.237266713645257E-5    7.670163131285811E-1   -6.401036486265345E-1
 5.285121136590229E8     7.700763411651571E-1   -6.431561915935903E-1    1.335699996241212E-5   -6.696610579116392E-6    1.518355085964514E-6    3.784404336794796E-6    7.589943612845805E-1   -6.497767970004861E-1
 5.384821535393819E8     7.614570907248804E-1   -6.531569752728185E-1    5.205337664996431E-6   -1.691326644327759E-5    4.731472756188050E-6   -3.605029968684692E-6    7.508263404771103E-1   -6.594731980793299E-1
 5.484521934197408E8     7.533099840886265E-1   -6.637170479505922E-1   -1.343021133975811E-5   -3.993533279089977E-6    2.017703402420301E-5   -9.286886024657094E-7    7.424579822705157E-1   -6.693131412692556E-1
 5.584222333000997E8     7.447278456493144E-1   -6.746642066305342E-1    1.165188971343208E-5    5.677655091898537E-6   -5.507993878654461E-6   -1.869292910280836E-5    7.333723141534277E-1   -6.792491576629223E-1
 5.683922731804587E8     7.355704617777591E-1   -6.850304255004819E-1    1.104657806858669E-5    3.893594708465569E-6    3.073296307692600E-6    3.448135564486674E-6    7.231710732897533E-1   -6.891837525284265E-1
 5.783623130608176E8     7.264120554811065E-1   -6.951057027390509E-1    1.001172961662611E-6    1.176658473878436E-5    1.030462973896294E-5   -8.608765117933596E-6    7.126406897666212E-1   -6.989504724078980E-1
 5.883323529411764E8     7.170843583534179E-1   -7.051431007050620E-1   -8.396010967482951E-6    1.190182786542366E-5    1.673246716050541E-5   -7.097664821792781E-6    7.022994564668456E-1   -7.087552263082608E-1
 5.983023928215353E8     7.080773712391684E-1   -7.152562878580020E-1    2.091747800345021E-5    1.187959313486288E-5    3.187203445614406E-7   -6.729666066509068E-6    6.919756040781060E-1   -7.183678469021738E-1
 6.082724327018943E8     6.983671921371379E-1   -7.249579795581019E-1    8.703784281541425E-6   -4.131000215321530E-6   -4.782106019273203E-6    1.054339429885991E-5    6.817035220076298E-1   -7.277340360823934E-1
 6.182424725822532E8     6.885967493493153E-1   -7.345944327963742E-1   -1.489281411581508E-5   -2.877184807247714E-6    5.768131991800762E-6   -5.327041837032037E-6    6.717099707942288E-1   -7.372728361630808E-1
 6.282125124626122E8     6.780764827412435E-1   -7.440096563982976E-1   -2.066511724366594E-6    1.351926482602436E-5   -1.038655434242323E-5    9.751596106904349E-6    6.627208519734661E-1   -7.468957274004557E-1
 6.381825523429711E8     6.684509168091362E-1   -7.511884657643316E-1    9.364595028440540E-6   -4.473157736644871E-6   -7.312422683496184E-6    6.048551469716665E-6    6.537451358733281E-1   -7.557523923579326E-1
 6.481525922233300E8     6.594333892316812E-1   -7.597637931027255E-1    3.942669960386298E-6   -1.784292923948737E-6   -1.549836566254719E-5    1.642786501751827E-6    6.446501338754889E-1   -7.641020097173611E-1
 6.581226321036890E8     6.497354036717233E-1   -7.686143623922923E-1   -7.744279056675702E-6    7.837253938546244E-7    2.680763497809103E-8   -1.623213399905297E-5    6.344734433793717E-1   -7.724452500092005E-1
 6.680926719840479E8     6.396753246354342E-1   -7.772532223903643E-1    6.765773531817742E-8   -8.724526135826062E-6   -1.996449124453345E-5    8.332803840298975E-6    6.239782095693550E-1   -7.805920805319743E-1
 6.780627118644068E8     6.299672629634622E-1   -7.855147338347358E-1   -9.164996720769480E-9   -1.709520100225684E-5   -1.907704066434921E-6   -1.304003200155649E-5    6.129273275973860E-1   -7.884317682913817E-1
 6.880327517447658E8     6.196559502779141E-1   -7.938228627566866E-1   -9.015326418032858E-6    1.523977103875013E-5    1.995270989721803E-5    3.174865898258562E-6    6.015485588487840E-1   -7.960294032882985E-1
 6.980027916251246E8     6.086875651305347E-1   -8.018893600261381E-1    2.362861098911678E-6    6.118284690427588E-6    2.483608080020977E-6    4.602215778863934E-6    5.900034092523436E-1   -8.037107588609240E-1
 7.079728315054835E8     5.972709994156790E-1   -8.102139212345084E-1   -6.219634739424432E-6   -7.592876615549201E-6   -1.060690964091066E-5    7.990397354364107E-6    5.784370060790285E-1   -8.114945434615635E-1
 7.179428713858424E8     5.861170109442555E-1   -8.187078909990015E-1   -4.173410737077523E-6   -2.965115368993821E-6    2.604347704356407E-6    9.832333228786890E-6    5.672934250552402E-1   -8.203341333669131E-1
 7.279129112662014E8     5.751910790186487E-1   -8.272889805249103E-1   -1.117802473443806E-5   -3.657341049965350E-6    6.155763564756826E-7   -8.943812098767569E-6    5.560559994033707E-1   -8.290124241308903E-1
 7.378829511465603E8     5.639301578764678E-1   -8.360123272685072E-1    3.718979833599822E-7    2.966075021534713E-6   -1.646590628984655E-5   -1.450371743283839E-5    5.446760031213446E-1   -8.372976062361547E-1
 7.478529910269192E8     5.518277946055485E-1   -8.446131885124277E-1   -5.432909858004408E-6   -1.746891233011805E-6   -4.309895328888131E-6    9.207682798154121E-6    5.335027542937765E-1   -8.449906993267366E-1
 7.578230309072782E8     5.392584222862250E-1   -8.516372955430225E-1    2.625451794782700E-6   -7.225538465124739E-7   -1.560102026193012E-5   -3.953158127035615E-7    5.222599898616271E-1   -8.518432768812191E-1
 7.677930707876371E8     5.287262920500755E-1   -8.570838085240562E-1   -7.477583051794668E-6    1.159991745800349E-5    1.073284111363151E-5    1.653222441188854E-6    5.110125357643315E-1   -8.583457216978506E-1
 7.777631106679960E8     5.193215940533860E-1   -8.640808265126687E-1    5.266105897512579E-6   -6.027397351986712E-6   -9.240797198971969E-7    1.402828123538368E-5    4.995683230281709E-1   -8.649599205611969E-1
 7.877331505483550E8     5.088433208325565E-1   -8.709724913429040E-1   -1.013558450863792E-5   -6.994426980029723E-6   -5.320534802630365E-8   -1.053412273535707E-5    4.876597651778551E-1   -8.715944667882178E-1
 7.977031904287138E8     4.976673950641977E-1   -8.774156686435535E-1    1.880465580872153E-6    1.160759130847569E-6    1.040232678351310E-5    2.844001756797895E-6    4.749188387077355E-1   -8.779510135829274E-1
 8.076732303090727E8     4.859497304373580E-1   -8.833372516538422E-1   -1.421146295861571E-6   -1.152166215525718E-5   -1.308969309626904E-5    4.907692931994168E-6    4.621043630287635E-1   -8.840288125370013E-1
 8.176432701894317E8     4.739090882262313E-1   -8.893153573330794E-1    1.574275489140438E-6   -2.792586404188776E-6    2.200380274309469E-6    1.434036216685654E-5    4.491702431852932E-1   -8.904574654316620E-1
 8.276133100697906E8     4.615601247960097E-1   -8.957372198026956E-1    8.516754486928401E-6   -8.151761813523284E-6   -3.823142388681739E-6    1.679492819550035E-5    4.366233902456742E-1   -8.971305368957876E-1
 8.375833499501495E8     4.488898399118383E-1   -9.020081168866761E-1   -9.302528492903728E-6   -3.986061332475748E-6   -1.351547630404062E-5    1.485811433599243E-6    4.243805580835852E-1   -9.038762622891503E-1
 8.475533898305085E8     4.361424153272910E-1   -9.085142279562034E-1   -5.661873618691257E-6   -4.991995675796825E-6    1.894575399486943E-6   -5.965776468336248E-6    4.125875493838815E-1   -9.098534637561920E-1
 8.575234297108674E8     4.234436730758071E-1   -9.149103732397253E-1    2.843499423050281E-6    3.801474086475012E-6   -2.854765822621018E-6   -9.252397015931893E-6    4.007862209547720E-1   -9.151828365961648E-1
 8.674934695912263E8     4.106492443301258E-1   -9.216525332712493E-1   -1.542000501769964E-5    6.422576683934849E-6   -3.691365511475196E-6    6.250690996262233E-6    3.887632446232780E-1   -9.200481508050519E-1
 8.774635094715853E8     3.974382225896805E-1   -9.280892860051149E-1    3.515831436275051E-6   -6.558011292002349E-6   -6.661110791449217E-6    1.109602120626514E-5    3.762239070647311E-1   -9.247503009540294E-1
 8.874335493519442E8     3.843356805507688E-1   -9.326476291740339E-1    6.425212175381489E-6    6.695408858086351E-6   -1.159807023335009E-5   -5.016862110081798E-6    3.630486897730834E-1   -9.290809310600446E-1
 8.974035892323031E8     3.730730832495021E-1   -9.363891289185980E-1   -1.793973147685926E-5    3.273233584484677E-6   -5.640787729333298E-6    9.331978483693915E-6    3.495306150147149E-1   -9.334123800728230E-1
