#  HZ   S   RI   R     50.00 
! Rohde & Schwarz Vector Network Analyzer 
! Rohde-Schwarz,ZNB20-2Port,1311601062102128,3.60
! Created: UTC 4/29/2024, 2:57:56 PM
! freq[Hz]                re:S11                  im:S11                  re:S21                  im:S21                  re:S12                  im:S12                  re:S22                  im:S22
 1.000000000000000E5     9.961222503953550E-1    3.751881946259714E-3   -2.556817321898689E-5   -1.376379595066932E-4    4.964453637503485E-5    4.805365216023195E-5    1.010541986760417      -1.142791243884951E-2
 1.007003988035892E7     9.977326878542672E-1   -1.388949858277352E-2   -9.754258981236084E-6   -4.693500568172871E-6    1.290754921532444E-5    1.038823158817540E-5    9.958755672339373E-1   -1.459280444741502E-2
 2.004007976071785E7     1.000009701766523      -2.721656899121774E-2   -3.716743893213004E-8    2.620727990552758E-6    2.772243756866258E-6    2.987506401021296E-5    9.988953503575017E-1   -2.762924380357791E-2
 3.001011964107677E7     9.979389564389735E-1   -4.098438319207804E-2    1.022785589476188E-5    9.334725368188096E-6    9.205765671375961E-6   -6.569502761274450E-7    9.974824631883927E-1   -4.203401079384526E-2
 3.998015952143569E7     9.976102930667364E-1   -5.316105455700632E-2    1.688345146526275E-5   -1.093499192145419E-5   -1.153409092510547E-5    5.602321959737957E-6    9.975064899787084E-1   -5.682997928686349E-2
 4.995019940179461E7     9.959976167210475E-1   -6.595211329833427E-2    9.321091328200981E-6   -6.895677822944881E-6    2.000893676550810E-5   -9.570026871167895E-6    9.964524405765879E-1   -6.918174613976029E-2
 5.992023928215354E7     9.941860258554157E-1   -7.894456574027836E-2   -1.686304047279604E-5    1.636061904378407E-5   -4.367380608109673E-6    1.296368129411829E-5    9.946632544876507E-1   -8.199078343216704E-2
 6.989027916251247E7     9.929648587885523E-1   -9.196046124217679E-2    6.102726911516571E-6   -7.694219077692903E-6   -1.197695478553149E-5   -1.498859263432412E-5    9.934099180882132E-1   -9.483831975836220E-2
 7.986031904287139E7     9.923421625405942E-1   -1.052542267151357E-1   -3.357760778582459E-6   -4.474677885103346E-6   -1.828692878664618E-5    4.612246454009552E-6    9.922906017127628E-1   -1.079249595346184E-1
 8.983035892323031E7     9.914150657040999E-1   -1.188215162268416E-1   -1.553062450873613E-5   -1.116138360106189E-5   -9.882640531444878E-6   -2.539321633798540E-6    9.906776439536681E-1   -1.210818782597646E-1
 9.980039880358922E7     9.894302927476399E-1   -1.323843689256354E-1    5.662435341967217E-6   -1.158012827033222E-5    1.277378664320606E-5   -3.328314174512154E-6    9.885682118991702E-1   -1.343651519787912E-1
 1.097704386839482E8     9.865092802778634E-1   -1.455923452997548E-1    5.305318772630939E-6   -9.836992229835787E-6   -1.039055874605744E-6   -1.519542671837375E-5    9.860568232395841E-1   -1.476926014355458E-1
 1.197404785643071E8     9.846976395491358E-1   -1.589433949838681E-1   -2.832534977283389E-6    3.590600941395063E-6    2.713066432120028E-5    4.189917695321001E-6    9.843080999732137E-1   -1.611901546149256E-1
 1.297105184446660E8     9.830285977646943E-1   -1.717867317546347E-1   -1.666147522712662E-6    1.154147939212914E-5    1.130520421678222E-5    1.474922029293886E-5    9.828994642912480E-1   -1.744662615436313E-1
 1.396805583250249E8     9.814463615140844E-1   -1.846365851672147E-1    1.010989502202303E-5    5.928136937060524E-6    9.245248865517094E-6    6.076561709368591E-7    9.807642233220263E-1   -1.874978437486816E-1
 1.496505982053838E8     9.789317111530719E-1   -1.970702412396638E-1   -2.262408190493043E-6    7.254880145195688E-6   -8.577246982129516E-6    1.939986225549483E-5    9.783690614218041E-1   -2.004207819428531E-1
 1.596206380857428E8     9.761532508028883E-1   -2.095178911511575E-1   -8.734290849082558E-6   -6.497737433692413E-6    6.637508521006792E-6    4.206409000886757E-6    9.756955782779179E-1   -2.133703394600228E-1
 1.695906779661017E8     9.730463058764001E-1   -2.222678369124961E-1   -3.694601413491051E-6    2.964962779573917E-6    4.091883171314619E-6    9.413652295446112E-6    9.728315426397321E-1   -2.261298520522555E-1
 1.795607178464606E8     9.706983648284232E-1   -2.347824713540835E-1   -2.703965186925197E-6   -2.491473983871000E-5    4.131346327887650E-6    5.004631100469656E-6    9.701378592598494E-1   -2.380897133698512E-1
 1.895307577268195E8     9.677419496382925E-1   -2.470495743763547E-1   -1.753525159113153E-5    1.382514279046283E-5   -9.428881123351934E-7   -1.806658739619337E-5    9.667146370075990E-1   -2.505582906195365E-1
 1.995007976071784E8     9.637171760662271E-1   -2.594714777416511E-1   -1.495138087003032E-5    7.450582887840368E-7   -1.946023390251890E-5   -2.044119523184517E-5    9.628618802183612E-1   -2.632264753216095E-1
 2.094708374875374E8     9.602419191087553E-1   -2.723461529408474E-1   -9.728121691723227E-6    8.850999534474387E-6   -1.453058476472716E-5   -8.481074226223116E-6    9.588716841845154E-1   -2.762160289868042E-1
 2.194408773678963E8     9.572315015079335E-1   -2.851469719743226E-1    7.634852490837477E-6    7.509778512168043E-6   -1.111018556931650E-5    5.038297128910481E-6    9.550457061486072E-1   -2.891436603220275E-1
 2.294109172482552E8     9.536571073021022E-1   -2.974570870798313E-1    4.280991173658302E-6    1.171413727901208E-6   -1.587674169345646E-5    4.815565262243855E-6    9.508979339655614E-1   -3.017667827890614E-1
 2.393809571286142E8     9.506196743508925E-1   -3.094189647266131E-1    2.288466680226154E-7   -1.864526931830693E-5   -3.926844433853571E-6    1.086610594808220E-5    9.470791752174352E-1   -3.139687109679016E-1
 2.493509970089731E8     9.467719717429659E-1   -3.233037701065073E-1   -4.947020621847113E-6   -2.204856114930330E-7   -1.689188078694450E-5    7.051175743422515E-6    9.440120944087961E-1   -3.276752426595046E-1
 2.593210368893320E8     9.425398632476409E-1   -3.353186734763644E-1   -2.372378696101468E-7    4.758659684062772E-6   -7.177328479585810E-6    1.030948539228470E-5    9.398151321853981E-1   -3.408736098210299E-1
 2.692910767696909E8     9.383541265466394E-1   -3.467742808932517E-1    8.937447601863022E-6   -5.160443264995012E-7   -1.245650695826467E-5   -1.525927284820066E-5    9.354270657756990E-1   -3.528477970693382E-1
 2.792611166500499E8     9.338627671117848E-1   -3.584449648744713E-1   -3.282544539694846E-7   -5.793357170620922E-6   -1.475971221200189E-5   -9.914692823851883E-6    9.309320288614008E-1   -3.646605443539028E-1
 2.892311565304088E8     9.288463161786443E-1   -3.704539296318408E-1   -1.091105177388699E-5    1.934675934111974E-5   -8.824832028955553E-6    9.704055064451229E-6    9.261046437665996E-1   -3.769166331762721E-1
 2.992011964107677E8     9.240162311698746E-1   -3.826291602997058E-1   -2.000756562594202E-6   -1.028649771392299E-5    4.467457929776809E-6    1.896263720457626E-5    9.212028954031285E-1   -3.886179401952526E-1
 3.091712362911266E8     9.188598802133656E-1   -3.949263574669901E-1    1.589613188322100E-5    1.898804867013597E-6    1.247737651122184E-5    5.992601901389146E-6    9.156731317792053E-1   -4.002450545495923E-1
 3.191412761714855E8     9.132271049435314E-1   -4.073249761889050E-1   -7.318531769505854E-6   -1.022286188647375E-5    1.901299165549282E-5   -1.488846378859796E-6    9.098253706965409E-1   -4.120210656691582E-1
 3.291113160518445E8     9.075904368978726E-1   -4.199978537766810E-1    5.344021582109577E-7    8.478192782651516E-6    7.269866854546266E-6   -8.408077816332853E-8    9.034804284752301E-1   -4.244442039040731E-1
 3.390813559322034E8     9.019328874163546E-1   -4.327436064510733E-1   -2.919735844498610E-6    5.774267647346275E-7    6.879082461098311E-6   -7.090261755846739E-6    8.967419769184638E-1   -4.368751932349121E-1
 3.490513958125623E8     8.965927613182041E-1   -4.452661288349558E-1    4.403043948201729E-6   -1.555354786582106E-5    4.877218874814611E-6   -5.396413533868343E-6    8.903773840099483E-1   -4.494059813414386E-1
 3.590214356929212E8     8.913154739952723E-1   -4.577839613965869E-1    7.069028360122126E-8   -2.369929386106459E-6    8.706564910636730E-6   -6.058803199063221E-7    8.846510907154731E-1   -4.621886225154115E-1
 3.689914755732802E8     8.858930989613363E-1   -4.700431510480824E-1   -5.386066922455511E-7    2.253534302097966E-6    1.105968045765998E-5   -3.563107307550327E-6    8.791477023052597E-1   -4.747614352349275E-1
 3.789615154536391E8     8.797380939020493E-1   -4.812658328854936E-1   -7.775688978921098E-6   -1.356421897750966E-6   -1.500350154702041E-5    8.932931250790563E-7    8.737822444120871E-1   -4.868266912206879E-1
 3.889315553339980E8     8.740312951368706E-1   -4.919164415375062E-1    6.828306911166121E-6   -1.809841627557806E-7    1.220827547897798E-5   -4.249201238523950E-6    8.679514930345573E-1   -4.988243169402445E-1
 3.989015952143569E8     8.673075308664554E-1   -5.026557305036655E-1    1.230821372461593E-6   -1.019575086673401E-5    2.164892122511171E-6   -6.261288919362276E-6    8.611056917326981E-1   -5.098184766148706E-1
 4.088716350947158E8     8.601701755828202E-1   -5.135442929717077E-1    1.151780329418757E-5    5.114743607889353E-7    9.166273937432362E-6   -7.353341639157577E-6    8.541647465924256E-1   -5.206667919686966E-1
 4.188416749750748E8     8.533727328048017E-1   -5.251095683605560E-1   -1.873747900378432E-6    9.735614055758409E-6    1.177622753759366E-5    2.729371595718355E-6    8.476304429200409E-1   -5.315157070315585E-1
 4.288117148554337E8     8.459852414924576E-1   -5.367345476584772E-1   -4.578406610943000E-6    7.498544711014781E-7   -1.636808565344270E-6    2.032330503937310E-5    8.405585858578676E-1   -5.418357172546229E-1
 4.387817547357926E8     8.381236376111325E-1   -5.480922668120877E-1    1.081463453726577E-5   -2.160405529534863E-6    8.423772208848146E-6    1.405186036461538E-5    8.325521821086360E-1   -5.523019610515195E-1
 4.487517946161516E8     8.304898052988920E-1   -5.599974749925946E-1    7.190746925312834E-6   -9.103100821062625E-6   -1.164618050556603E-6    5.348007091314784E-6    8.241226378286788E-1   -5.634716485210745E-1
 4.587218344965104E8     8.236318606273757E-1   -5.720227987457076E-1   -2.298189769416745E-6    4.154047637095261E-6   -1.160496355565695E-5    9.360226148064612E-6    8.160307180062332E-1   -5.753744890791468E-1
 4.686918743768694E8     8.170819164950852E-1   -5.834174074781023E-1    1.565309184592316E-5    4.462807529660344E-7   -4.091646103156230E-6   -4.970238057690256E-6    8.077331404152900E-1   -5.868658268412061E-1
 4.786619142572283E8     8.097271125826144E-1   -5.941570061393102E-1    2.243359176359598E-6    2.467037830906627E-6    8.748964899833781E-6   -1.673314734811658E-6    7.993271305950880E-1   -5.981483373320270E-1
 4.886319541375872E8     8.021657853362498E-1   -6.045444180036791E-1   -1.127355557809382E-5    9.603406032276912E-6   -7.258059348259487E-6   -7.072138681722537E-6    7.904323343024303E-1   -6.088724408288292E-1
 4.986019940179462E8     7.940397991145447E-1   -6.153771897681101E-1   -1.627212982353303E-5   -2.430093839454591E-6   -4.218958919154508E-6   -7.293139378108373E-6    7.822612271365046E-1   -6.197331190535061E-1
 5.085720338983051E8     7.857334112543811E-1   -6.245769115162864E-1    8.647054868383731E-7   -5.313172483647749E-6   -1.176262546702840E-5   -3.703821802601552E-6    7.746072326767236E-1   -6.303828874598943E-1
 5.185420737786640E8     7.782061602115445E-1   -6.335399256359495E-1    8.867555566647599E-6    2.291844212494213E-6   -8.824490660688221E-6   -9.934987277927897E-6    7.669777342025482E-1   -6.401450278471499E-1
 5.285121136590229E8     7.699798109719659E-1   -6.430799863850521E-1    5.247181351162827E-7    2.715536532469889E-6   -1.450386018326621E-5   -1.115053370163252E-6    7.589087308532796E-1   -6.497957058841136E-1
 5.384821535393819E8     7.614821098473198E-1   -6.531294735003125E-1   -4.427675724998016E-7    2.054833247007232E-5   -7.892547760372083E-6   -7.790765873076169E-6    7.508743158877722E-1   -6.593858342834766E-1
 5.484521934197408E8     7.533501281429759E-1   -6.637121568670853E-1    7.757225722753462E-7    1.294320893203034E-5    5.780598633454826E-6   -7.244927254068716E-6    7.424198148167580E-1   -6.692019442743917E-1
 5.584222333000997E8     7.447495645945429E-1   -6.746822228429249E-1    4.284712162224915E-6   -4.466831167061031E-7    9.337701440865899E-6   -1.605208992567971E-7    7.332496627805497E-1   -6.792334937120834E-1
 5.683922731804587E8     7.355443007191602E-1   -6.850622807949800E-1    3.087250129431235E-6   -1.027427614445904E-5    2.093899336091761E-6    3.107448290803866E-6    7.231997448317156E-1   -6.892070228280145E-1
 5.783623130608176E8     7.261932193699713E-1   -6.950227561761690E-1    4.859181450776737E-6    2.857767474819395E-7    1.553563531420474E-5    4.219502575138341E-6    7.126027717848999E-1   -6.989520996930091E-1
 5.883323529411764E8     7.171622567745486E-1   -7.051694306060354E-1    3.847042817204814E-6   -1.517299099052901E-6    4.892349951698071E-6    6.841767540641412E-6    7.022370144140775E-1   -7.087403432549434E-1
 5.983023928215353E8     7.079245487239301E-1   -7.152338352510715E-1    2.891814759537206E-7    5.856835915084072E-6   -1.863112969298634E-5   -7.640965830453295E-6    6.918222187727729E-1   -7.182935947384590E-1
 6.082724327018943E8     6.983943411043624E-1   -7.249674601880514E-1    5.921880032182888E-7    6.890285353930336E-6    1.001580030246694E-6   -1.056692093328417E-5    6.817236168799182E-1   -7.277985615195479E-1
 6.182424725822532E8     6.884730823357789E-1   -7.346096255995063E-1   -7.261353644445090E-6   -3.023565374055981E-6   -1.733278158413556E-6    6.034631352620947E-7    6.717363462021227E-1   -7.373057613791476E-1
 6.282125124626122E8     6.779803401276607E-1   -7.439510345662577E-1   -3.465558731448426E-6   -1.203409520283009E-5   -4.194977070790026E-6   -1.021921152926357E-5    6.627084676713624E-1   -7.467986261968580E-1
 6.381825523429711E8     6.684303416002721E-1   -7.512306375715211E-1   -1.605535781143322E-6   -4.989774602771083E-6   -4.176015912745469E-6    1.182556478080964E-5    6.537484287862066E-1   -7.556760211274670E-1
 6.481525922233300E8     6.594661927076936E-1   -7.597298889569686E-1   -4.653315747914498E-6    1.789121465416759E-5    2.153897706771903E-6   -4.013457323377359E-6    6.445781555939800E-1   -7.641231431079868E-1
 6.581226321036890E8     6.496352315014818E-1   -7.685949973806768E-1   -6.047579378757417E-6   -4.175895616401840E-6   -1.366556141384638E-6   -4.897426274600732E-7    6.345521323294198E-1   -7.725147566378685E-1
 6.680926719840479E8     6.397098126438813E-1   -7.772281658467022E-1    2.548219992419624E-6    8.987266845045389E-6    6.556549288865776E-6    1.957424722023128E-6    6.238202356066261E-1   -7.804802451925217E-1
 6.780627118644068E8     6.298995618281555E-1   -7.853195157386832E-1   -1.712715442180992E-6    3.484526029051916E-6   -6.073210458533118E-6   -8.600606833288215E-6    6.129594775951267E-1   -7.884491334809397E-1
 6.880327517447658E8     6.196711108260361E-1   -7.937610560554555E-1    8.901740943038270E-6    6.666154785564063E-6    1.737151567056584E-5   -8.853467655260362E-6    6.015374749285657E-1   -7.960419209179622E-1
 6.980027916251246E8     6.087153000891324E-1   -8.018131006278196E-1   -7.440330398395832E-7    1.096674770181983E-5   -7.416488193956977E-6    1.163387594476646E-5    5.899923723644965E-1   -8.036645650744078E-1
 7.079728315054835E8     5.972640591965039E-1   -8.101245854328690E-1    1.196607766221060E-5    3.555815803946838E-6    1.509987472436384E-7    9.118136084945187E-7    5.785532485526282E-1   -8.116349120650860E-1
 7.179428713858424E8     5.860829870960859E-1   -8.187033788757477E-1   -3.866533834240469E-6   -5.483353256495853E-6    1.111327448981703E-6    1.484314178431089E-5    5.672252173765608E-1   -8.202511201028131E-1
 7.279129112662014E8     5.751029093141770E-1   -8.272096196682052E-1   -1.854478758316861E-6    9.801499720377078E-6   -3.525504968608377E-6    3.597364856192212E-6    5.559594589239661E-1   -8.290114910876527E-1
 7.378829511465603E8     5.639615143151948E-1   -8.360759284434220E-1    2.478841365106725E-7    2.064869915582265E-6    1.246825288977588E-5   -1.346524985598302E-5    5.444760540042120E-1   -8.373403255857369E-1
 7.478529910269192E8     5.518535574121664E-1   -8.445238243834088E-1   -4.673801294694209E-6   -7.481137728934268E-6    1.584215783553136E-5    3.348426019752871E-6    5.333738645263169E-1   -8.449484201633833E-1
 7.578230309072782E8     5.392575961465450E-1   -8.515352950126953E-1    1.302137842782251E-5   -1.521012905992024E-7   -2.218008353252311E-6   -5.502682030881519E-6    5.222852109044716E-1   -8.518119815904514E-1
 7.677930707876371E8     5.287886653767092E-1   -8.569996133836816E-1   -1.733406638193103E-5    1.199035636692211E-6   -5.947924788429626E-6    5.619959136029198E-6    5.110111909638378E-1   -8.584399891606409E-1
 7.777631106679960E8     5.191647442070559E-1   -8.639622809660535E-1    3.953794781567982E-6    3.990195061798053E-6    5.380622992935383E-6   -5.772347444528263E-6    4.996019688856667E-1   -8.648801033173266E-1
 7.877331505483550E8     5.088867666764328E-1   -8.708962455339493E-1   -5.443787603551953E-6   -2.142723858302954E-5   -1.921212624947846E-5   -2.984674485742271E-6    4.876033111527747E-1   -8.714557484188286E-1
 7.977031904287138E8     4.976876930499743E-1   -8.773308914227225E-1    5.414467675158173E-6    7.439471131444870E-6   -1.179657463323971E-5   -2.663180271714083E-6    4.748292510500551E-1   -8.779178329332505E-1
 8.076732303090727E8     4.858669243690288E-1   -8.830966861245928E-1    1.499304782810331E-6   -5.142320002321753E-6    1.003358930862040E-5    7.842355971459465E-6    4.620554709750725E-1   -8.840158208996282E-1
 8.176432701894317E8     4.738531605413828E-1   -8.890641710659537E-1   -5.416692964885056E-6    3.576155533428499E-6   -5.544210428308146E-6   -3.639818056949699E-6    4.492120656783984E-1   -8.904529807115924E-1
 8.276133100697906E8     4.616321432062294E-1   -8.956615938990352E-1    4.164224993196934E-6    1.370564708609608E-6    2.360003173972793E-7    1.733898948688111E-5    4.365748315588588E-1   -8.971379812016275E-1
 8.375833499501495E8     4.489951167796041E-1   -9.020683782660531E-1   -1.300718342096028E-5   -2.917676412596145E-6   -8.595818510761637E-6    1.734647866992651E-7    4.243007924080635E-1   -9.037394109676243E-1
 8.475533898305085E8     4.361516841281078E-1   -9.084079226637546E-1    5.843898836657684E-6    3.479283935506426E-6   -9.455771702497067E-6   -1.277154592022879E-5    4.125017812079314E-1   -9.097603687635590E-1
 8.575234297108674E8     4.233825342919661E-1   -9.146887746469382E-1    8.540186158855433E-7   -9.777366385474826E-8    1.452512300133658E-5    4.760144829786395E-6    4.007613380227629E-1   -9.151582620232668E-1
 8.674934695912263E8     4.106006106517259E-1   -9.213325531296402E-1    5.127122639014462E-6    6.840829690498486E-7    1.037170322042765E-5    4.264397736859286E-6    3.887947110928216E-1   -9.200796331575416E-1
 8.774635094715853E8     3.974976718354527E-1   -9.281071090356868E-1    8.941757808801628E-6    2.888683021214122E-6   -2.659088448137188E-6    5.542008577357384E-6    3.761147452724796E-1   -9.246928136455450E-1
 8.874335493519442E8     3.844277194190850E-1   -9.327888001343883E-1   -5.841382955166601E-6    1.673698359372918E-6    3.288907756656701E-8    6.904645054117225E-6    3.630225653124481E-1   -9.290858618448067E-1
 8.974035892323031E8     3.730251394033782E-1   -9.362214473115533E-1    2.561335681891266E-6    8.909689978415820E-6   -6.706404800873395E-7    7.684629358088730E-6    3.495487869144049E-1   -9.333508027730600E-1
