#  HZ   S   RI   R     50.00 
! Rohde & Schwarz Vector Network Analyzer 
! Rohde-Schwarz,ZNB20-2Port,1311601062102128,3.60
! Created: UTC 4/29/2024, 2:58:03 PM
! freq[Hz]                re:S11                  im:S11                  re:S21                  im:S21                  re:S12                  im:S12                  re:S22                  im:S22
 1.000000000000000E5     9.957585096440362E-1    3.680061823452935E-3   -1.364911113569088E-5    1.081662874977339E-4   -4.004982143444081E-5    3.184248206715919E-5    1.010406885006477      -1.147856080235724E-2
 1.007003988035892E7     9.983943143357351E-1   -1.397937231638618E-2    6.838136616446375E-6   -1.671505913979853E-6   -1.010003397504670E-5    2.667779742700041E-6    9.957334027115907E-1   -1.453872808904863E-2
 2.004007976071785E7     9.999338537109238E-1   -2.724008686752865E-2   -1.403263730136332E-5    1.228969551577693E-6   -8.006814619923150E-7    3.286890959538226E-5    9.988071004286697E-1   -2.760670817490626E-2
 3.001011964107677E7     9.981943722293257E-1   -4.105420909029942E-2   -1.347623713558368E-5    5.456048342895825E-6   -5.156406990684467E-6    7.555741742002695E-6    9.975240550416342E-1   -4.207684197852378E-2
 3.998015952143569E7     9.974881259128626E-1   -5.306852809606898E-2   -2.326668314598608E-5   -1.004279202623001E-5   -5.264200063803864E-6   -3.651152353253349E-6    9.975499754531439E-1   -5.666504156823777E-2
 4.995019940179461E7     9.956783938452132E-1   -6.591646333676186E-2    6.959219113090059E-6    1.327854906587815E-5   -4.357932418548359E-6    3.198293401935113E-6    9.965282669066806E-1   -6.913729110916940E-2
 5.992023928215354E7     9.937154497281075E-1   -7.882064631122340E-2    3.040474337247907E-6   -1.647553065676688E-5    7.295811603014426E-7    7.194427166542993E-7    9.948080246866413E-1   -8.191105862687539E-2
 6.989027916251247E7     9.930893389136922E-1   -9.183341907230977E-2   -5.095498948079196E-6   -1.552543646121370E-6   -8.730022552758797E-6    3.339494340776606E-7    9.934151573921186E-1   -9.480271406851107E-2
 7.986031904287139E7     9.928244994555915E-1   -1.052467177080130E-1    9.267157369119503E-6    3.049333540603134E-6   -9.325802683524567E-6   -5.240793104787459E-6    9.922716961127136E-1   -1.078896145668922E-1
 8.983035892323031E7     9.916139981276647E-1   -1.187852481124203E-1   -8.508169576748843E-6   -2.310735470026431E-5    1.128495896664955E-6   -4.069643934560344E-6    9.908025546115068E-1   -1.210745291179141E-1
 9.980039880358922E7     9.890058655106112E-1   -1.322458779831660E-1    1.702874905483543E-6   -7.076138348401380E-6    4.225556859289967E-6   -1.904460415996771E-5    9.887279043004542E-1   -1.344888292558837E-1
 1.097704386839482E8     9.861216846010822E-1   -1.454397691580837E-1    2.196217520083765E-6    9.545154265269493E-6   -1.801826223171964E-5   -8.109410720001937E-6    9.862261916604850E-1   -1.477524233962847E-1
 1.197404785643071E8     9.846957505242435E-1   -1.588831936322257E-1    2.600770397528968E-6    5.108729765057257E-6   -1.269062388656971E-5   -2.010715628805739E-5    9.842645865706406E-1   -1.610823959096755E-1
 1.297105184446660E8     9.829201595502249E-1   -1.717690502869255E-1    5.659322453656217E-7   -1.002270468024292E-5    4.444490022005968E-6    1.945395068159189E-6    9.827980149734945E-1   -1.744489102466365E-1
 1.396805583250249E8     9.817228885069511E-1   -1.846392805105826E-1   -8.057312257969750E-6   -3.062432999059561E-6    1.388921433490384E-6   -8.848140986245355E-6    9.809286436276781E-1   -1.875784838691372E-1
 1.496505982053838E8     9.786813872202063E-1   -1.970462772212135E-1    1.587168845893790E-5   -1.133094552472665E-6    4.886363980497052E-7    4.665452010248679E-6    9.784741455348634E-1   -2.004256046807721E-1
 1.596206380857428E8     9.759637155170507E-1   -2.094535126574961E-1    4.084439500910083E-6    8.245272458847335E-6    3.949141557250429E-6   -7.627895642899741E-6    9.758014771180246E-1   -2.132719970118997E-1
 1.695906779661017E8     9.731957078389750E-1   -2.222734240649859E-1   -1.305769124776393E-5    1.046876800776504E-5    8.401235202928922E-6    1.170073285431688E-5    9.728161400219774E-1   -2.261208082924801E-1
 1.795607178464606E8     9.707427467146630E-1   -2.348148922077531E-1   -6.244889192147390E-6   -1.176101978322590E-5    1.520962814840912E-5    3.086571524101616E-6    9.702621303595133E-1   -2.380800205408354E-1
 1.895307577268195E8     9.674990838879132E-1   -2.469689536816707E-1   -2.793172033627545E-6   -1.127346297701815E-6    6.153701982457825E-6   -1.237200144559647E-5    9.668176108832197E-1   -2.505425689136305E-1
 1.995007976071784E8     9.636228975535437E-1   -2.593996427198806E-1    2.264640822696460E-6   -3.423570776079766E-6   -6.229866676143746E-6   -4.124803652497945E-6    9.628168414408176E-1   -2.632004852812512E-1
 2.094708374875374E8     9.604869059884058E-1   -2.723582051208644E-1    6.812206225719852E-6    1.356366609051979E-5    5.895101116224497E-6   -5.232529071218444E-6    9.587779871229595E-1   -2.761644324741304E-1
 2.194408773678963E8     9.573198379127341E-1   -2.851351885142100E-1    1.478284928481764E-5    1.309343630823399E-8   -1.323414048679324E-5   -1.548788209881561E-6    9.552594829427832E-1   -2.892296713418602E-1
 2.294109172482552E8     9.534210112189906E-1   -2.973876171433037E-1    1.273139908578411E-5    6.678406865955239E-8   -2.370204705799434E-6   -1.639079369551321E-5    9.509972450258692E-1   -3.018510454386413E-1
 2.393809571286142E8     9.503902201147471E-1   -3.093201956467008E-1   -3.409732800638967E-6    5.914907143033081E-6   -3.509154468289955E-6   -1.677637338839736E-5    9.469382101666567E-1   -3.140541212171640E-1
 2.493509970089731E8     9.468951443996830E-1   -3.233067159934290E-1    1.086796268783405E-5    7.351505155784485E-6   -1.931948668455521E-6    4.945452631233461E-6    9.442126512730871E-1   -3.276320622466258E-1
 2.593210368893320E8     9.428124061706062E-1   -3.353304678464297E-1   -3.600840649082907E-6    8.116831678964107E-6    7.187488763070604E-6    6.241142833040246E-6    9.398359463852052E-1   -3.409165675352194E-1
 2.692910767696909E8     9.383129810057611E-1   -3.467403039196241E-1    2.121152941233629E-6   -3.669823600509509E-6    9.621588992106111E-6    1.956393092779888E-6    9.356553497734560E-1   -3.529267371604008E-1
 2.792611166500499E8     9.336987432692081E-1   -3.583391861347021E-1   -4.720886721573354E-6    2.715456148564612E-6    4.062958615776816E-6   -1.860245438738962E-5    9.309267877631238E-1   -3.646747911638502E-1
 2.892311565304088E8     9.290052000681884E-1   -3.704625805713387E-1    7.413250390418432E-6   -2.502740918921304E-6    1.154231096020730E-5    8.953458856079552E-6    9.260435795987708E-1   -3.768278298857273E-1
 2.992011964107677E8     9.241294936383878E-1   -3.824884558020143E-1    6.765917534508174E-6    1.933036711826392E-6   -3.186700902897607E-7    5.234661786585833E-6    9.211324112956194E-1   -3.887062266259106E-1
 3.091712362911266E8     9.188250749901128E-1   -3.949168353381071E-1    1.572952481861199E-5   -9.610572615742105E-7    1.926891232106072E-6   -1.148602352244549E-5    9.157450141393723E-1   -4.002856026771690E-1
 3.191412761714855E8     9.131805450829398E-1   -4.072099501098820E-1    1.266755834840890E-5    7.926576227448389E-6    3.760757762621748E-6   -9.116239390834549E-6    9.098233497927132E-1   -4.119940665426031E-1
 3.291113160518445E8     9.074906439428378E-1   -4.198762213544407E-1   -2.736073470503503E-6    9.270511011876118E-8   -1.812516438990866E-5    1.580725710156584E-5    9.034027367912503E-1   -4.243462580575941E-1
 3.390813559322034E8     9.019436310386778E-1   -4.327606804117777E-1    1.359660613699692E-6    9.228452175934449E-7    3.098797570688009E-6    5.672892269031820E-6    8.967328051997889E-1   -4.368867155953225E-1
 3.490513958125623E8     8.967330083573793E-1   -4.453129434110197E-1    9.566303326797998E-6   -5.030258891402664E-6    9.082344861234908E-6   -4.440626946972759E-6    8.904385640610136E-1   -4.494086324309705E-1
 3.590214356929212E8     8.912719723899901E-1   -4.577968476737043E-1    3.496198097725892E-6    1.688392991196084E-6    2.077140407339133E-5    4.193101928125264E-6    8.845322019297376E-1   -4.621394568195979E-1
 3.689914755732802E8     8.859090148919607E-1   -4.700169744967291E-1    1.132946723751139E-6   -1.154638115039555E-5    1.154340564472833E-5    7.162858160573314E-6    8.790904042188852E-1   -4.747108756022696E-1
 3.789615154536391E8     8.798502238579753E-1   -4.812505031217986E-1   -1.186161974899074E-5   -5.257045845382246E-6    9.796006484283087E-7   -1.160966331691470E-6    8.738951720456630E-1   -4.868338569775756E-1
 3.889315553339980E8     8.741473737407304E-1   -4.920248260151552E-1    7.242191890061638E-6    4.781277531375835E-6    1.138056368762785E-6    1.330120016359902E-5    8.678684314546696E-1   -4.988009411650156E-1
 3.989015952143569E8     8.673450752914661E-1   -5.026953823486139E-1   -1.469635718300264E-6    6.108554996609520E-6   -3.398153621025941E-6   -4.830242983402850E-7    8.610988239241611E-1   -5.097856592685315E-1
 4.088716350947158E8     8.600903928142298E-1   -5.136433481457647E-1   -6.725047225871408E-6    7.680563534256678E-7   -1.606157821751094E-5   -7.830907818994933E-6    8.542675980378778E-1   -5.207231604330576E-1
 4.188416749750748E8     8.533035663803931E-1   -5.250504514194099E-1    5.609989366436036E-6    2.940741352815548E-6   -1.310256852712438E-6    9.063592164594897E-6    8.476455082762596E-1   -5.315604667830663E-1
 4.288117148554337E8     8.459853727464186E-1   -5.368291263843730E-1    1.074441420468461E-6   -9.858742307663531E-6    4.362491605499232E-6    1.255146203309404E-5    8.406443672530520E-1   -5.418897844206857E-1
 4.387817547357926E8     8.381278747075097E-1   -5.481368724069406E-1    3.505684456879629E-7    3.751767782714665E-6   -6.669792260381671E-6    8.493563430278451E-6    8.325848998032555E-1   -5.522366799024534E-1
 4.487517946161516E8     8.304172973721550E-1   -5.599751484849719E-1   -6.374144750986046E-6   -1.664107274308627E-5    3.428619564142582E-6   -1.006570562313889E-5    8.242481786533306E-1   -5.634825771028984E-1
 4.587218344965104E8     8.234737025104519E-1   -5.719677002862713E-1   -2.288361928464281E-6   -1.141407514588523E-5   -5.178477717176084E-6    1.905836968250441E-5    8.161375862704064E-1   -5.753901848862598E-1
 4.686918743768694E8     8.170581781942663E-1   -5.834117304192509E-1   -1.685412644098336E-5   -6.711134097818576E-6   -1.178976086478016E-5   -2.400020875467165E-5    8.079492073938691E-1   -5.868403042779791E-1
 4.786619142572283E8     8.099194454815576E-1   -5.941800906543130E-1   -6.623333367575577E-7   -4.668707759436444E-6    9.141905252434865E-6   -3.740983755285688E-6    7.992853917071311E-1   -5.980241776150984E-1
 4.886319541375872E8     8.022203173957079E-1   -6.046022177410186E-1    9.684785695340920E-8    3.633725619866178E-6    1.677009296673324E-5    8.448783633438432E-6    7.904493383433930E-1   -6.088873347008368E-1
 4.986019940179462E8     7.938387609276110E-1   -6.152340609353025E-1    1.006742446740667E-5    1.338786377005330E-5    7.866760708633823E-8    1.714521036337056E-6    7.822279789504671E-1   -6.197585111543140E-1
 5.085720338983051E8     7.854994243261325E-1   -6.244310627446241E-1   -5.697334147438301E-6   -4.807996429744715E-6    6.732591230961717E-6   -2.335787751312746E-6    7.747410739407244E-1   -6.303850078699426E-1
 5.185420737786640E8     7.781728229081124E-1   -6.333953656021056E-1   -2.068726214921579E-6   -6.873552789275171E-6   -8.494559277758376E-6    7.953104510178740E-6    7.669917426442170E-1   -6.400705605945133E-1
 5.285121136590229E8     7.699633232200810E-1   -6.430040347383966E-1    6.498601371507715E-6   -2.063483403652872E-6    3.021573398102383E-6    2.357250534645433E-5    7.589590903469301E-1   -6.497314861980182E-1
 5.384821535393819E8     7.613351497506362E-1   -6.530705396266624E-1   -6.306100629930846E-6    7.599573261879430E-6    9.256989743714961E-6    3.522939295888685E-7    7.509159229442437E-1   -6.594361141882018E-1
 5.484521934197408E8     7.532868695606603E-1   -6.636296602850787E-1   -1.072041248055963E-5    8.967728572674799E-6    2.891135203716927E-6   -1.827521591039943E-6    7.424294260478060E-1   -6.692659019725152E-1
 5.584222333000997E8     7.447226888089896E-1   -6.746658809977115E-1   -9.073284976174072E-6   -6.841207474553836E-7   -2.621507111077617E-6    6.304857973501499E-6    7.333829884132268E-1   -6.793112583940386E-1
 5.683922731804587E8     7.356046860517222E-1   -6.851507115253865E-1    1.147781758638730E-5    2.437209049707543E-6   -1.298481760937431E-5   -7.390538045532319E-6    7.231750161025998E-1   -6.892886756601126E-1
 5.783623130608176E8     7.262676581271246E-1   -6.950396311631616E-1   -4.692920001130819E-6    1.922625300347767E-5    1.816605329531828E-5    4.427688420852936E-6    7.125612113156012E-1   -6.988972748871630E-1
 5.883323529411764E8     7.170790449407851E-1   -7.049700989980179E-1   -3.671661504195962E-6   -1.814531635742773E-6    2.427388155507959E-6    2.212347022450839E-6    7.022023806593487E-1   -7.086976178173843E-1
 5.983023928215353E8     7.078782077867556E-1   -7.150874152727734E-1   -7.362867607727094E-6   -2.351586203539512E-6    4.440763060228236E-5   -1.860886059923082E-5    6.919147803713949E-1   -7.182808053294962E-1
 6.082724327018943E8     6.983893008830375E-1   -7.249057031380717E-1    5.859982289655850E-6   -1.726597524656966E-6   -2.260439922206273E-5   -5.566343671236575E-6    6.817589827482485E-1   -7.279274544005476E-1
 6.182424725822532E8     6.885606367001499E-1   -7.344829722598696E-1   -4.712636133444219E-6   -6.217621463488830E-6   -1.475882265255405E-5   -1.944615272132643E-5    6.717516622361693E-1   -7.372402359871111E-1
 6.282125124626122E8     6.779872262965140E-1   -7.439126702483664E-1    7.524720331815146E-6   -8.181467313099148E-6   -1.733107885335559E-5   -1.176004307505225E-5    6.627619299424214E-1   -7.468025246463672E-1
 6.381825523429711E8     6.682334348639500E-1   -7.510241983052056E-1   -6.209846459156066E-6   -9.421069646286781E-6    8.801344810518857E-7   -1.839322656898000E-5    6.536743765024373E-1   -7.556271935795166E-1
 6.481525922233300E8     6.593997155725170E-1   -7.596417706033012E-1    1.500863748869440E-6    1.102064307603541E-6    1.493747605877562E-5   -1.170359984455225E-5    6.445423568043914E-1   -7.640851886672074E-1
 6.581226321036890E8     6.497080994408333E-1   -7.685295319305339E-1   -1.116594814344521E-5    1.953315022317175E-6   -4.837345883670343E-6   -8.480584827964543E-6    6.345271390653141E-1   -7.724938366929882E-1
 6.680926719840479E8     6.397538560466696E-1   -7.772144126337649E-1    1.041295151982099E-5    5.614792903663892E-6    4.459855030342716E-6   -5.609218394610312E-6    6.239409435425467E-1   -7.805406809073018E-1
 6.780627118644068E8     6.298616919041498E-1   -7.853506115682716E-1    5.532889146764199E-7    5.516173801227907E-6   -4.503252737204568E-6    1.938673827304847E-6    6.128922011738410E-1   -7.884788833063984E-1
 6.880327517447658E8     6.194849350222837E-1   -7.936548659866123E-1    2.774349019168000E-6    6.114137464770195E-6   -2.521945375812391E-6    1.008268711108873E-5    6.015917441483503E-1   -7.959538132884505E-1
 6.980027916251246E8     6.086826367894861E-1   -8.018403749078202E-1    1.173917172021578E-5   -1.573517633526935E-6    9.374967507230506E-6    3.561675295914323E-6    5.898487055117174E-1   -8.036549230977629E-1
 7.079728315054835E8     5.973423355937707E-1   -8.102408722661554E-1   -8.181932482828122E-6   -9.290086195580949E-6   -7.346611058400091E-6    9.825510007760014E-6    5.785325750946384E-1   -8.116533371002226E-1
 7.179428713858424E8     5.860733209808845E-1   -8.186636171949889E-1   -2.593369487074489E-6   -1.312537811559261E-7    6.403777724294901E-7   -5.998827494722367E-6    5.672201662592555E-1   -8.203570286548947E-1
 7.279129112662014E8     5.751063575965574E-1   -8.271795044434166E-1    6.707823095207133E-6   -8.306722953433706E-7    1.517938017487400E-5   -1.468441705757447E-5    5.559504362315748E-1   -8.289772203668374E-1
 7.378829511465603E8     5.638351908301636E-1   -8.359858265403790E-1   -1.197068901707695E-5   -2.052515093306148E-5    2.145198319746454E-5    4.326857996872573E-7    5.446229867427457E-1   -8.373151829510892E-1
 7.478529910269192E8     5.517891902659209E-1   -8.444965232170317E-1   -1.085507682589185E-5    7.461792912066837E-7   -1.057938387049289E-6    1.004818656926152E-6    5.333975350637584E-1   -8.449738745477311E-1
 7.578230309072782E8     5.392456888017176E-1   -8.515176779605624E-1    1.074925489839061E-5    1.181890346688466E-5    3.319578198826398E-6    8.867645809193853E-7    5.222873642171064E-1   -8.519910805842456E-1
 7.677930707876371E8     5.288168952829604E-1   -8.570935964992494E-1   -1.649589150656636E-5   -1.655784175283078E-5    2.742006639223193E-6    9.423255911355908E-6    5.108861281835541E-1   -8.583156055303490E-1
 7.777631106679960E8     5.191301464968888E-1   -8.638317743915566E-1   -1.441938579716178E-5   -1.924073125715277E-5   -7.558380565491351E-6    1.006464011863865E-5    4.994421044069222E-1   -8.648802775764999E-1
 7.877331505483550E8     5.087655849891777E-1   -8.708076812643258E-1   -2.689455877355466E-6    5.750929216543637E-6    1.100880028476850E-5    3.883406696612915E-6    4.876945778905839E-1   -8.716164507026395E-1
 7.977031904287138E8     4.976158921256392E-1   -8.771400743055547E-1   -1.618299122174911E-5   -1.099481985184916E-5   -5.957028065112818E-6   -9.493819943023113E-6    4.749018564564296E-1   -8.779319189676993E-1
 8.076732303090727E8     4.859452081034240E-1   -8.831301980084830E-1   -5.079276314865162E-6   -2.499316906691281E-6    2.231914825945865E-6   -8.960042279896725E-6    4.619784856228856E-1   -8.841444544549608E-1
 8.176432701894317E8     4.739017245708712E-1   -8.891437771370060E-1    1.057131869567414E-5    1.519997247112848E-5   -1.518539138233133E-5   -8.701490752392737E-6    4.491794071776113E-1   -8.903787351782949E-1
 8.276133100697906E8     4.615339136416520E-1   -8.954686541419432E-1   -1.267317859594091E-6    2.230367483277264E-7   -3.607706534306756E-6    6.573831668632824E-7    4.365726079244626E-1   -8.971402350350811E-1
 8.375833499501495E8     4.489344187727375E-1   -9.020248808493474E-1   -8.340600969038495E-6   -5.285509194943322E-6   -1.264942634373859E-5    1.304113089380657E-5    4.244208803492399E-1   -9.038018920276332E-1
 8.475533898305085E8     4.361150136959547E-1   -9.084505660844616E-1    1.233305469803030E-6    9.196794617207503E-6    9.370526394407066E-6   -8.134422723948663E-6    4.125699939768481E-1   -9.098276206920358E-1
 8.575234297108674E8     4.233401019787755E-1   -9.146436597934305E-1    1.457561783583930E-5   -9.799751756767314E-6    1.467291686168037E-5    2.474372360412552E-6    4.007157887599830E-1   -9.150694268382794E-1
 8.674934695912263E8     4.104600232650163E-1   -9.213511882691043E-1    8.636833310276081E-8   -7.340699144833799E-7    3.903018327204880E-6    3.579851849358803E-6    3.887049123789105E-1   -9.199720734185198E-1
 8.774635094715853E8     3.974566718150245E-1   -9.279599186626543E-1    1.903306428892416E-5    2.357591611528555E-6    4.765966736338030E-6    1.372582459286265E-5    3.760985164426457E-1   -9.246774769685021E-1
 8.874335493519442E8     3.844191355765005E-1   -9.326855057734446E-1    5.750281414652327E-6   -8.431031707513767E-6    7.415158171110884E-6    1.642501195663517E-6    3.630376664515609E-1   -9.291130612375718E-1
 8.974035892323031E8     3.731245984519972E-1   -9.363075397866542E-1   -6.683364781627096E-6    5.236447812632018E-6    7.113083365161062E-6   -3.047185948148417E-6    3.495828057412083E-1   -9.334716649539384E-1
