#  HZ   S   RI   R     50.00 
! Rohde & Schwarz Vector Network Analyzer 
! Rohde-Schwarz,ZNB20-2Port,1311601062102128,3.60
! Created: UTC 4/29/2024, 2:58:06 PM
! freq[Hz]                re:S11                  im:S11                  re:S21                  im:S21                  re:S12                  im:S12                  re:S22                  im:S22
 1.000000000000000E5     9.962916081532956E-1    3.720259760695592E-3    1.198178060233223E-4   -4.030606993151502E-5   -1.388838960198361E-4    7.009666435976173E-7    1.010664652870243      -1.161998497041746E-2
 1.007003988035892E7     9.975779360139239E-1   -1.383431434838307E-2   -1.950009973750336E-5    1.319382518064366E-6    4.085316063020690E-6   -1.831504280931944E-5    9.957683312835873E-1   -1.457441107310862E-2
 2.004007976071785E7     9.996303787845633E-1   -2.718370821658771E-2   -1.183175345548942E-5   -3.243893631666912E-6    6.311148135079054E-6    1.485068371281521E-5    9.985229439652384E-1   -2.762912523435938E-2
 3.001011964107677E7     9.977568011289388E-1   -4.112838900506090E-2    1.332315228194603E-6   -1.708708343050820E-5   -1.391234087135451E-5    1.520840939596441E-5    9.975709759840599E-1   -4.194994875300719E-2
 3.998015952143569E7     9.976461815560889E-1   -5.309216537095323E-2    1.342098719524076E-6   -3.401678180686887E-8    2.709913158686618E-6    2.153452421698341E-5    9.976004952862080E-1   -5.663416716135836E-2
 4.995019940179461E7     9.961439291169429E-1   -6.599678047076826E-2   -7.230786131240662E-6    2.421760008980464E-5    5.455122376422788E-6   -9.259041517324566E-6    9.964796261628265E-1   -6.904025604817694E-2
 5.992023928215354E7     9.943095219871881E-1   -7.889866914109624E-2   -1.536771794212068E-6   -9.901402782421613E-7    7.689816766021655E-6    2.105537327688071E-6    9.945651352000159E-1   -8.191529311354677E-2
 6.989027916251247E7     9.930493169282555E-1   -9.187412136143634E-2   -1.408393796670938E-5    8.342943019865262E-6    2.141272347091511E-6   -1.396645919079128E-5    9.932998729611199E-1   -9.480248220111868E-2
 7.986031904287139E7     9.923283867399892E-1   -1.052480287147675E-1    2.191156679124050E-6    9.704398267700412E-7   -7.526431883154017E-6   -4.541775178024473E-6    9.923002723377953E-1   -1.079118879301481E-1
 8.983035892323031E7     9.913230459557469E-1   -1.187144736881297E-1   -1.584161368029742E-5    5.223158719548102E-7    4.754406600557662E-6   -1.136653915586170E-5    9.907875870209164E-1   -1.211008118243576E-1
 9.980039880358922E7     9.894453409597774E-1   -1.324210906551411E-1    8.239531602564025E-6    4.478552075567192E-6   -1.118349158151554E-6    1.468991109790873E-6    9.885246050856650E-1   -1.344140990083383E-1
 1.097704386839482E8     9.865272699211608E-1   -1.456003190501474E-1    1.851773989409730E-6   -9.212892502303730E-6    1.941942014981933E-6    1.705834815082122E-5    9.859970783439389E-1   -1.477542665017694E-1
 1.197404785643071E8     9.848489322827030E-1   -1.589381054473185E-1   -2.976617793565549E-6    5.089325659356236E-6   -6.747931947424530E-6   -6.489088406234925E-6    9.841847138522936E-1   -1.611147718088967E-1
 1.297105184446660E8     9.829780675934890E-1   -1.717745810203458E-1    1.453024649485190E-5   -1.275624081915951E-6   -5.172122876038206E-6    4.364046704804012E-7    9.828513398366032E-1   -1.744432961279939E-1
 1.396805583250249E8     9.813909918815360E-1   -1.847101029885297E-1   -9.041674916714190E-6    6.239158249832383E-6   -9.456589591975555E-6    5.958921280366341E-6    9.808658812905640E-1   -1.875054052634536E-1
 1.496505982053838E8     9.788955730025474E-1   -1.971100273698341E-1    3.591247458361831E-6    1.711694440510629E-6    1.254069571279768E-5   -3.755722173063373E-6    9.785509026198848E-1   -2.004174886919200E-1
 1.596206380857428E8     9.761164535564543E-1   -2.094712501492672E-1    1.490441501509460E-5   -6.504458079783075E-6   -1.780341674143265E-6    1.177837516356249E-5    9.757467049791209E-1   -2.131987871091491E-1
 1.695906779661017E8     9.731519539028248E-1   -2.222716283776114E-1    7.286339683398637E-6    1.984163722858836E-5    5.347802614151744E-6   -1.558632890406270E-5    9.728827051213080E-1   -2.261817951653213E-1
 1.795607178464606E8     9.705836618918638E-1   -2.347899314344216E-1   -6.074759738775480E-6    4.150874029118594E-6   -1.792837390780744E-5   -1.590181907647290E-6    9.701639770595607E-1   -2.380834450494354E-1
 1.895307577268195E8     9.676120081304649E-1   -2.470233571396404E-1    3.530417211655652E-6   -6.260584027331015E-6   -5.121821911781014E-6    1.038478223032551E-5    9.668170195492218E-1   -2.505917341470781E-1
 1.995007976071784E8     9.638602941499498E-1   -2.594971791275619E-1    1.326200248956610E-5   -1.015055624920530E-5   -4.844945754150365E-6   -6.130473008194383E-6    9.627002902863991E-1   -2.632246883919713E-1
 2.094708374875374E8     9.603503631188239E-1   -2.723432536344745E-1   -5.003327435388967E-6    1.024434367956197E-6   -1.057700535092526E-6    1.085003045027702E-5    9.589109697720340E-1   -2.761914017334585E-1
 2.194408773678963E8     9.570508471789293E-1   -2.850676375535227E-1    1.975521134884800E-6    4.404045135357873E-6   -9.122966114557612E-6    1.225987622926180E-5    9.549777699298752E-1   -2.891558706475393E-1
 2.294109172482552E8     9.535471113254401E-1   -2.973792175614056E-1   -8.071995050274722E-6    1.860171700534379E-5    3.734919644384744E-6   -2.431569335331998E-6    9.509094300018485E-1   -3.017526241780528E-1
 2.393809571286142E8     9.505597217918987E-1   -3.094898365161523E-1   -7.686819046447966E-7    2.032846697125765E-5   -1.337241406949389E-5   -7.792600834775349E-6    9.470290040117493E-1   -3.139731136162958E-1
 2.493509970089731E8     9.469366833603748E-1   -3.232627558239311E-1   -1.862910434689201E-6   -5.855735882197126E-6    1.077637319583010E-5   -2.361852947903374E-6    9.441008943409769E-1   -3.277012696120892E-1
 2.593210368893320E8     9.425368117081233E-1   -3.353052039449012E-1    6.393023934669626E-6   -1.855636695633604E-5    7.932996188873008E-6   -2.595158723210403E-6    9.398182758229795E-1   -3.408427540731939E-1
 2.692910767696909E8     9.383055357137872E-1   -3.468624875643422E-1   -6.044887162194655E-7   -2.022319378395389E-6    1.375649806700184E-6   -7.421491758254760E-6    9.354867657197199E-1   -3.529390992938310E-1
 2.792611166500499E8     9.338014757334248E-1   -3.584100017641901E-1    1.941180443157401E-5    2.232992897126415E-6   -1.427133291887221E-5    1.883128062194142E-6    9.310030881884183E-1   -3.647278828333909E-1
 2.892311565304088E8     9.289397600747152E-1   -3.704739456616434E-1   -1.033376938006590E-5   -1.616235355671098E-6    4.737307900628115E-6    5.213842818631223E-6    9.262033462339097E-1   -3.768276263209481E-1
 2.992011964107677E8     9.238743295170011E-1   -3.825842321484704E-1    9.545066616384754E-6   -3.308405102907359E-7   -1.476470014360712E-5    1.222821362457528E-5    9.211759395732052E-1   -3.886143715508883E-1
 3.091712362911266E8     9.186847518573825E-1   -3.948136091732432E-1    1.211829740437397E-5    1.435507325396125E-6   -1.762742436120170E-5    1.807236571465928E-5    9.155669548208306E-1   -4.001379537003925E-1
 3.191412761714855E8     9.132966077036050E-1   -4.073479813844110E-1    8.220095765152199E-6    1.834239226500511E-5    9.023425374063410E-7   -5.340812308131370E-6    9.097275719442184E-1   -4.118940184165384E-1
 3.291113160518445E8     9.076241177282283E-1   -4.200435817312348E-1   -9.499646775174587E-6   -1.903728485717885E-5    1.779653158915133E-5   -1.701608381834334E-6    9.034465989696258E-1   -4.244662449569660E-1
 3.390813559322034E8     9.018481712446996E-1   -4.327782402198691E-1    8.063213598847925E-6   -2.960870335814701E-6   -6.405044446733979E-6   -4.499328944548408E-6    8.968032439935210E-1   -4.368362701098774E-1
 3.490513958125623E8     8.965372593465825E-1   -4.453002549134236E-1    2.024545001963307E-6    7.808105390665237E-6    2.883299858396804E-6   -3.058600336527147E-6    8.904240553328414E-1   -4.494175463092119E-1
 3.590214356929212E8     8.912023010355072E-1   -4.578580402531607E-1   -4.768322157818805E-6    3.009744195939731E-6   -1.101728684505564E-5    2.849290625256685E-7    8.845256848665665E-1   -4.620607163246807E-1
 3.689914755732802E8     8.860157924132548E-1   -4.700684528272627E-1    4.659187500889901E-6   -5.522561700404009E-6    1.150923987826179E-5    4.322372269662933E-6    8.791172994190939E-1   -4.746881190101802E-1
 3.789615154536391E8     8.797970235327285E-1   -4.812926516543385E-1    3.507836244603469E-6   -9.729493911896970E-7   -9.182771624496443E-6   -8.083803280889486E-7    8.739610727802785E-1   -4.867991987839008E-1
 3.889315553339980E8     8.740997470628379E-1   -4.919988476229460E-1    2.865095686689720E-6    2.775164646112046E-7    7.756112907697530E-6    5.263893456678897E-6    8.678845644734593E-1   -4.987931108290777E-1
 3.989015952143569E8     8.673631364095082E-1   -5.027194841240643E-1    4.321620572948828E-6    1.474715085822795E-5    1.219558177141403E-5   -1.392325755539727E-5    8.609677354355060E-1   -5.098649434200417E-1
 4.088716350947158E8     8.602321201345875E-1   -5.135299170893560E-1    2.538593200929406E-6   -1.092257735325275E-5   -9.769267713311988E-6    1.911795063043517E-5    8.542908726465486E-1   -5.207851294878928E-1
 4.188416749750748E8     8.533362408819287E-1   -5.251305604806534E-1    8.370180521553802E-6    9.071330811476609E-6   -1.113481763245707E-5   -1.315675619572491E-5    8.476322487522093E-1   -5.315541318240529E-1
 4.288117148554337E8     8.460680169473278E-1   -5.368231450815929E-1    2.757138199134859E-6   -6.930863890541739E-6    3.650311686795614E-6   -1.050365655570117E-5    8.405298357950572E-1   -5.418170345099413E-1
 4.387817547357926E8     8.381544689102697E-1   -5.481535636523811E-1   -1.230700796406068E-5   -1.396868034301878E-5    5.920768019683583E-6    4.815620747462372E-8    8.325948452192732E-1   -5.523687108451356E-1
 4.487517946161516E8     8.304111988665841E-1   -5.600280219546825E-1   -9.068821160041876E-8   -2.369922747488076E-6   -2.178637622980581E-6   -1.984213077403577E-5    8.242112955453261E-1   -5.635571994346511E-1
 4.587218344965104E8     8.236147450489615E-1   -5.720467546634849E-1    1.125366996408920E-5    7.523007195290707E-6   -1.627314615391170E-5    2.776471787712547E-6    8.160627934270998E-1   -5.752604640234263E-1
 4.686918743768694E8     8.170401014075900E-1   -5.834512970716599E-1    6.590480268551827E-6    4.770828515988048E-6   -1.356404971616189E-5   -9.946351918785829E-6    8.077625469761356E-1   -5.867874559426122E-1
 4.786619142572283E8     8.098806944054663E-1   -5.942494390474642E-1    1.959064667605256E-5    1.787851947303471E-5   -4.298570069231124E-6   -1.278187612697321E-5    7.992335023508640E-1   -5.979693971887519E-1
 4.886319541375872E8     8.022956966103538E-1   -6.047028282308702E-1   -1.154773798613543E-6   -1.197986087452109E-6    4.153272645115714E-6   -8.762368782786823E-6    7.905476809397649E-1   -6.088659576691587E-1
 4.986019940179462E8     7.939887058303798E-1   -6.153012954869760E-1    1.489947124617383E-5   -5.943530778406139E-6    1.622619191806452E-5    1.500605393641256E-5    7.823325298247077E-1   -6.197806210205344E-1
 5.085720338983051E8     7.855420007495527E-1   -6.244758317354318E-1   -7.751112585910081E-6    1.742974476083964E-5    2.866243887249986E-6    5.365895738880154E-6    7.745942001737032E-1   -6.302973509146031E-1
 5.185420737786640E8     7.782205287715238E-1   -6.335434515157332E-1    2.570667024420431E-6   -2.785272059589713E-5   -9.963311483394119E-6   -7.916633641333707E-6    7.668520969221511E-1   -6.401257654006984E-1
 5.285121136590229E8     7.700684298910814E-1   -6.430579220642247E-1   -8.102223348639379E-6    5.023487446722190E-6   -1.155049175355134E-5    1.384034227008514E-5    7.589066568873686E-1   -6.496962807430008E-1
 5.384821535393819E8     7.614234422968383E-1   -6.531289336784837E-1    2.003003387633799E-6    6.966338423879175E-6   -4.289892919289658E-6   -6.223856737237779E-6    7.508786182730905E-1   -6.594179129739656E-1
 5.484521934197408E8     7.532461999725333E-1   -6.636151003440020E-1   -7.494693829619666E-6    8.195228679406837E-6    8.517931316246780E-6   -8.276067882245532E-6    7.424975270049367E-1   -6.692952808017179E-1
 5.584222333000997E8     7.447258475944346E-1   -6.745666893258904E-1    1.283838823129913E-5    3.731552261703760E-6   -2.622865495456169E-6    1.146235009978532E-5    7.332518486308012E-1   -6.791727789444024E-1
 5.683922731804587E8     7.356510584062504E-1   -6.851125430140234E-1   -3.760501439779823E-6    5.218815792202984E-6    2.808643192371314E-6    9.371309034918009E-6    7.231293558897781E-1   -6.891690313651836E-1
 5.783623130608176E8     7.263842387987230E-1   -6.950844175600508E-1    1.825883245545323E-6   -6.801898029141138E-6   -1.684635280589665E-6    6.553494184924643E-7    7.126761934727762E-1   -6.989451820792670E-1
 5.883323529411764E8     7.171504377618145E-1   -7.051245557356343E-1   -1.739013671715180E-6   -2.715530353763175E-6    1.850018805156190E-5    1.726877461320505E-5    7.022707054128398E-1   -7.087971217841581E-1
 5.983023928215353E8     7.078465712936172E-1   -7.151046105539219E-1   -9.873861482030942E-7   -3.996107317156431E-6   -4.489140783188910E-6    5.160948011868249E-6    6.918539520066556E-1   -7.183568151230663E-1
 6.082724327018943E8     6.984571259067796E-1   -7.248216209696272E-1    9.703358144804744E-6   -9.856734039841841E-6   -1.356439419144382E-5   -2.427723985805948E-5    6.815277270471655E-1   -7.277401326474741E-1
 6.182424725822532E8     6.886234039506953E-1   -7.345802345158676E-1   -1.963007981094595E-8   -1.286723651646170E-5    9.444220793921506E-6   -9.337584732099954E-6    6.716284875382751E-1   -7.370796013503846E-1
 6.282125124626122E8     6.781140054460471E-1   -7.440410585854018E-1    2.012433583457449E-6    1.618708456351229E-5   -1.603617724662796E-5   -1.154992350628068E-5    6.627939769564507E-1   -7.468337002044707E-1
 6.381825523429711E8     6.683856198519235E-1   -7.511785515016365E-1    5.104013443692922E-6    1.350526773033363E-5    1.222454775496050E-5    1.341654555517161E-5    6.538351350475115E-1   -7.557780078362603E-1
 6.481525922233300E8     6.593525279972062E-1   -7.596705312008344E-1   -1.912046046244851E-6    2.984367648238839E-6    3.125941893271333E-7    1.230408211660112E-5    6.444964824482524E-1   -7.640875996148890E-1
 6.581226321036890E8     6.496964171319537E-1   -7.685744925744284E-1   -6.980647423479956E-6   -3.392748501584461E-6   -6.961547118060112E-6    2.138920905593422E-5    6.344326257944027E-1   -7.723316617183364E-1
 6.680926719840479E8     6.397969198155766E-1   -7.772086939434725E-1   -5.689103340289070E-6    1.239088937348451E-5    6.163982853955383E-6    2.518883421679683E-6    6.238579293145977E-1   -7.804566509412296E-1
 6.780627118644068E8     6.300116975139425E-1   -7.855256121377240E-1   -2.258106123660790E-6   -2.706782037361980E-6    8.674661506897726E-6    1.178876688983032E-5    6.130332132600860E-1   -7.884545492838411E-1
 6.880327517447658E8     6.195333480437777E-1   -7.937132579441258E-1    3.781290118829388E-6    4.069177631513679E-6    1.477897626796100E-6    7.483735547837274E-6    6.016218514053888E-1   -7.961568279513177E-1
 6.980027916251246E8     6.086453547491940E-1   -8.018568304882506E-1   -4.779138508453728E-6    2.105623838508915E-5    1.411232771243756E-5    1.948521665787671E-6    5.899291314724826E-1   -8.036362261734808E-1
 7.079728315054835E8     5.972531083777632E-1   -8.103006296947652E-1    1.829685783015281E-6    1.203972695519736E-5   -1.112594912243330E-5    3.159264407634794E-5    5.784261235042352E-1   -8.115788590493853E-1
 7.179428713858424E8     5.861740387184758E-1   -8.187803101192105E-1    1.105452854140659E-5    7.475915637682722E-6    5.234789832766638E-6    2.198794856118904E-6    5.672594760226440E-1   -8.201169113114087E-1
 7.279129112662014E8     5.752072500742659E-1   -8.273020071928896E-1   -6.979965153967217E-6    3.230799530386812E-6    6.340091594015474E-6    2.014818060331715E-5    5.560631302165273E-1   -8.289994625881595E-1
 7.378829511465603E8     5.638701614540478E-1   -8.360095789620225E-1    9.940771842923246E-7    1.075662036784596E-5   -1.228491952599525E-5   -1.080365242866850E-5    5.445725668295819E-1   -8.372500120524328E-1
 7.478529910269192E8     5.518457853324101E-1   -8.444984050593174E-1   -2.717969598864223E-6   -6.050487359120393E-6   -4.154468019497717E-6   -8.021338680454326E-6    5.332939765128945E-1   -8.449683736044633E-1
 7.578230309072782E8     5.392215922731801E-1   -8.516531069687173E-1   -8.347793055379992E-6   -1.076568841741443E-5   -2.733411886557576E-6   -4.884918415026942E-6    5.223188424413205E-1   -8.519149388085744E-1
 7.677930707876371E8     5.288686931229044E-1   -8.570864568747539E-1   -4.111023187861330E-6   -1.198079933046579E-5    1.812684973291301E-5    1.593271623011875E-5    5.110346348204964E-1   -8.585076986208565E-1
 7.777631106679960E8     5.192372479879735E-1   -8.640170014996630E-1   -1.757119798149235E-6    1.009323004415921E-5   -3.440349409835648E-6    2.061756021534408E-5    4.995087671625031E-1   -8.648491157025460E-1
 7.877331505483550E8     5.088425514720127E-1   -8.709008499613862E-1   -6.326176495472585E-6    1.144095447314485E-6   -3.601296277936899E-6   -8.013631555684602E-6    4.875942172807826E-1   -8.714620291198159E-1
 7.977031904287138E8     4.976016367235763E-1   -8.773412476485654E-1   -3.328535212891474E-7    1.256535791246200E-5   -2.345687205638131E-8    4.066394631099334E-6    4.749050964368781E-1   -8.779352159063977E-1
 8.076732303090727E8     4.859085324402652E-1   -8.831840782051296E-1    5.351117196069622E-6   -1.925397914286883E-6   -8.559407446986985E-6    3.064021170818695E-7    4.620719862438057E-1   -8.840305453412818E-1
 8.176432701894317E8     4.738795882256659E-1   -8.892649654449416E-1    7.643271690950973E-6    2.078052957042039E-6    4.278905734949738E-6   -4.285705295459816E-6    4.492836461624340E-1   -8.904959755304861E-1
 8.276133100697906E8     4.616707682083721E-1   -8.955543464980936E-1    1.176855499681029E-5    5.813409179630057E-6   -9.255827143808289E-6    7.793928301435031E-6    4.366505856486707E-1   -8.971233969679177E-1
 8.375833499501495E8     4.489021691943796E-1   -9.020164392041965E-1   -3.621104206276686E-6   -1.390991470223315E-5    4.728415022631023E-6   -1.479260156236832E-5    4.243705347626471E-1   -9.037368511257838E-1
 8.475533898305085E8     4.361391508363952E-1   -9.085471137822284E-1    1.302652840582791E-6   -3.553126460133311E-6    7.728484458113968E-7    6.378975313448498E-6    4.125401463479157E-1   -9.097991901345871E-1
 8.575234297108674E8     4.233588041033479E-1   -9.148925770289454E-1    9.959010472044851E-6   -1.021208969259817E-5    1.190957944958032E-5   -6.014656979419863E-6    4.008385772055790E-1   -9.150576693667213E-1
 8.674934695912263E8     4.105640814138765E-1   -9.214088784352863E-1    2.660211137507390E-7    3.058212060686189E-6   -1.469101147157510E-5    1.453613067327626E-5    3.886767205372407E-1   -9.199624459842073E-1
 8.774635094715853E8     3.974484794165253E-1   -9.281361485734577E-1    3.797850665624605E-6   -1.338249982107638E-5    1.129072722130140E-5   -4.023274735686745E-6    3.761829808503539E-1   -9.246734356565506E-1
 8.874335493519442E8     3.843564675472460E-1   -9.327089738770020E-1    4.999845214900530E-6   -6.159624557600849E-6    1.010350945332349E-5    5.482234777646362E-6    3.631415394055570E-1   -9.291391627610489E-1
 8.974035892323031E8     3.731029520155035E-1   -9.362901232218623E-1   -6.650821329131344E-6    4.439212740413470E-6    1.716309113204455E-5   -2.619184189503197E-6    3.496153306165217E-1   -9.333860021938425E-1
