#  HZ   S   RI   R     50.00 
! Rohde & Schwarz Vector Network Analyzer 
! Rohde-Schwarz,ZNB20-2Port,1311601062102128,3.60
! Created: UTC 4/29/2024, 2:58:57 PM
! freq[Hz]                re:S11                  im:S11                  re:S21                  im:S21                  re:S12                  im:S12                  re:S22                  im:S22
 1.000000000000000E5     9.963906442460750E-1    3.797765372213390E-3   -4.923761340213543E-6   -1.945703487737033E-4   -1.458929349125971E-4   -7.638748940825340E-5    1.010468887643814      -1.155407071243424E-2
 1.007003988035892E7     9.976032763762376E-1   -1.381171121397661E-2    6.778898381127401E-8    7.933037921356190E-6    2.735797999267085E-7    8.476191569440324E-6    9.958503730305815E-1   -1.448484949263170E-2
 2.004007976071785E7     9.998823763679244E-1   -2.702810271266751E-2    2.686393025042122E-6   -1.871383160907753E-6   -1.178389897090417E-5   -3.120001686673796E-6    9.988194458777792E-1   -2.764050166269559E-2
 3.001011964107677E7     9.981004011820731E-1   -4.118138529341387E-2   -7.714947011161185E-6    5.872795569701770E-6   -5.819810601076887E-6    9.214225430918690E-6    9.976355807968860E-1   -4.204004893946057E-2
 3.998015952143569E7     9.974950606391481E-1   -5.318655940676143E-2   -5.747878700779653E-6   -7.236556382824229E-6    5.592399095605732E-6    4.924996865776249E-6    9.976721046517405E-1   -5.672187821644235E-2
 4.995019940179461E7     9.958416605376808E-1   -6.598368178370219E-2    3.635605685165216E-6    7.749838595811451E-6    1.213053461452482E-5   -2.266169139483529E-6    9.963959215415874E-1   -6.911793043254043E-2
 5.992023928215354E7     9.941509683181522E-1   -7.893071067092000E-2    1.170354395739124E-5    6.641620066647386E-7   -7.789221476230245E-6   -7.041764938231821E-6    9.946153339053379E-1   -8.178934918366160E-2
 6.989027916251247E7     9.930208516874670E-1   -9.194860758956551E-2    1.171741360945068E-5   -1.622398614948334E-5   -7.919937190495775E-6    1.404695815892794E-5    9.933888999299206E-1   -9.472902946710238E-2
 7.986031904287139E7     9.924146113594056E-1   -1.051997364467026E-1    2.165618307162928E-6   -1.198659332458357E-6   -3.235154595260331E-6   -1.809375847919658E-6    9.923308480764315E-1   -1.079329684455868E-1
 8.983035892323031E7     9.913042538652200E-1   -1.187591719361216E-1   -1.121055693981206E-5    2.035194710967260E-5   -4.948476271913029E-6   -1.217505298846744E-5    9.908394131971310E-1   -1.210997167730721E-1
 9.980039880358922E7     9.892685514859064E-1   -1.322895824946980E-1    1.220908498433616E-5    7.489250224593904E-6    1.102547274416139E-5   -1.093304812532047E-5    9.885595259914375E-1   -1.344728263875720E-1
 1.097704386839482E8     9.865217359336801E-1   -1.456451886406301E-1    1.366124730126953E-6    8.087031972125076E-7    1.485934064146677E-5   -9.214632360203867E-6    9.860984083409807E-1   -1.478023949891308E-1
 1.197404785643071E8     9.848630529527602E-1   -1.589357222849662E-1   -1.669830659602409E-5   -1.287381987327285E-6   -2.765080027062071E-6    7.207558013950047E-6    9.843517946208086E-1   -1.611983847017935E-1
 1.297105184446660E8     9.830157157453570E-1   -1.717250454184359E-1   -4.820907778508410E-6    8.034982489519072E-6   -1.019478979827396E-5   -9.172734462760560E-6    9.828678008808417E-1   -1.744368645347279E-1
 1.396805583250249E8     9.815144081494339E-1   -1.846710336189867E-1   -9.004089023195722E-6    1.106251187930194E-7   -6.044629935765190E-6   -1.282191197536786E-5    9.808953526996441E-1   -1.875739261985299E-1
 1.496505982053838E8     9.789098957992102E-1   -1.971267785422552E-1   -1.543124319133392E-5    2.165957413759354E-6   -1.290920331841070E-5   -6.374774633771476E-6    9.784387138227132E-1   -2.004140568582198E-1
 1.596206380857428E8     9.760307590172304E-1   -2.094527517665055E-1   -1.205541947928474E-5   -8.198061703386521E-6   -2.393121076964476E-5    1.004054651389261E-5    9.757506166703803E-1   -2.132940043941843E-1
 1.695906779661017E8     9.732087816477772E-1   -2.223484317484852E-1   -1.515996872779948E-5   -9.809542076181277E-6    1.088840049782538E-5   -2.102722992696481E-5    9.728595048813887E-1   -2.260671050547077E-1
 1.795607178464606E8     9.706163059188738E-1   -2.347960458536999E-1    4.586283252040693E-6    6.264998803585990E-6   -1.364911972027478E-5    1.287447017516153E-5    9.702904645745208E-1   -2.380890384625516E-1
 1.895307577268195E8     9.675492258946508E-1   -2.469976604456673E-1    2.781958969057491E-6    9.606176134383553E-6   -1.525256053779127E-5   -3.959722501945270E-7    9.667747935707823E-1   -2.506321813720344E-1
 1.995007976071784E8     9.636982450154049E-1   -2.594968448884027E-1   -1.542114561226463E-5   -8.017958105916911E-8    1.639063278560222E-5    7.689211071583558E-6    9.626861660536120E-1   -2.631064109925492E-1
 2.094708374875374E8     9.604178786940062E-1   -2.723392399837319E-1    8.316991148904872E-6   -9.359522239565389E-6    1.408052816020540E-5   -1.348498222757553E-6    9.588485154209474E-1   -2.761098765659765E-1
 2.194408773678963E8     9.572099276654099E-1   -2.851190271395543E-1   -1.743010019452222E-5    9.325874065609263E-6   -1.599692029302893E-5   -1.207994457369295E-5    9.551492751063695E-1   -2.891310166683363E-1
 2.294109172482552E8     9.536671318039051E-1   -2.973810056212646E-1    2.915711882751892E-6   -1.047849853562941E-5    9.917007668849934E-6    6.894629133901753E-7    9.508670867402124E-1   -3.017671953206044E-1
 2.393809571286142E8     9.504927318763106E-1   -3.093663775670137E-1    1.483028214062206E-5    8.047149543458811E-6   -7.583524619169925E-6   -1.567837476135351E-5    9.469347377203076E-1   -3.139329780594136E-1
 2.493509970089731E8     9.467509697367893E-1   -3.231939489171858E-1   -2.030529118580027E-6   -8.205253316258547E-6    3.499033908449035E-6   -1.135199365405279E-5    9.440498044587390E-1   -3.276127844030093E-1
 2.593210368893320E8     9.427140849470177E-1   -3.353721787629971E-1   -4.790147633110894E-6    1.247116169055826E-6   -9.200578222563043E-6   -5.328420922187361E-6    9.397439477186957E-1   -3.408616348954996E-1
 2.692910767696909E8     9.385142984153086E-1   -3.467777059101205E-1    1.497880543821485E-5   -3.016215850096678E-7    1.386078239051781E-5   -1.326172982963392E-5    9.354624890118476E-1   -3.528526368004676E-1
 2.792611166500499E8     9.336885722082153E-1   -3.584064305710465E-1    8.449424713702761E-6   -1.839479505675935E-5    2.182007607553017E-6    2.684587008144468E-5    9.308573211964836E-1   -3.646447259337865E-1
 2.892311565304088E8     9.287899761112327E-1   -3.704459589963293E-1    3.288864450044244E-6   -6.764399179011380E-6   -9.596959907564091E-6   -4.150589023722197E-6    9.262767787741778E-1   -3.769145111938186E-1
 2.992011964107677E8     9.241267041915373E-1   -3.826144876725990E-1    2.096770757088508E-5    9.157418439144513E-6   -3.878770507800165E-5    9.454314125920169E-6    9.212044040501151E-1   -3.886332619865689E-1
 3.091712362911266E8     9.188284420664926E-1   -3.948899971440307E-1    5.163480212894806E-6   -7.292552678868696E-6    7.089936890223158E-6    1.027511080584108E-5    9.156921256128595E-1   -4.001396130965308E-1
 3.191412761714855E8     9.131784333893089E-1   -4.072992708252795E-1   -5.538981473168559E-6    1.261963635552536E-6   -3.304868916169874E-6    4.003631929813270E-6    9.096582597450377E-1   -4.118995676087060E-1
 3.291113160518445E8     9.075249113299698E-1   -4.200406611631801E-1    8.459834302084002E-6    5.277429860981519E-6    9.837748379403804E-6    2.171326277441193E-5    9.033407981307430E-1   -4.243392736313394E-1
 3.390813559322034E8     9.019993560391473E-1   -4.327102795478733E-1   -4.206216170786489E-6   -4.893879169088668E-6    4.057162947185353E-6   -1.053800266006605E-5    8.969085952634814E-1   -4.369552915783837E-1
 3.490513958125623E8     8.966482774512217E-1   -4.453136416832956E-1    3.118843641178471E-6    6.176920755642712E-6    8.442180151691431E-6   -1.559329620758075E-5    8.904313188889307E-1   -4.493990396971681E-1
 3.590214356929212E8     8.912009887280670E-1   -4.578011016055740E-1    4.199385997108935E-6    1.258574681614777E-6   -1.122061063711522E-6   -9.033210835350229E-6    8.844735827123738E-1   -4.621052248996620E-1
 3.689914755732802E8     8.858723089131586E-1   -4.700065445379561E-1   -2.512595623390700E-6   -7.323306051101274E-6   -1.415937685496683E-5   -5.643388718639277E-7    8.791104793560316E-1   -4.747804739860376E-1
 3.789615154536391E8     8.797139380943633E-1   -4.812336853811071E-1   -9.522034757796198E-6    3.853258092138482E-6   -4.991604352258813E-6    1.102126427584175E-6    8.738956927836572E-1   -4.867417271792410E-1
 3.889315553339980E8     8.740449926483526E-1   -4.919446317472415E-1   -3.576455025425270E-7   -1.607827708318901E-5   -2.107713156427902E-6   -7.174500521185924E-6    8.680359023418642E-1   -4.988241320656789E-1
 3.989015952143569E8     8.673151316301617E-1   -5.026387653508941E-1   -1.366034401086932E-5    1.117656006193073E-5    9.594099099178230E-6    2.014843428651989E-5    8.611199976574185E-1   -5.097064187885832E-1
 4.088716350947158E8     8.601370323482308E-1   -5.135383222711899E-1   -7.603593251703239E-6    8.855117364993914E-6   -5.939546769966765E-6    8.529853444809979E-7    8.541889322529439E-1   -5.206383523165237E-1
 4.188416749750748E8     8.532722511084148E-1   -5.250927769983557E-1   -7.524265910171575E-6   -2.891002888337987E-6    4.264147780396028E-6    1.130176585729653E-5    8.476615566860576E-1   -5.315242526162115E-1
 4.288117148554337E8     8.460251785431500E-1   -5.367939705200107E-1   -7.661483808439696E-6   -1.052773826970830E-5   -1.105619166382167E-5    5.207362195272466E-6    8.406041089247823E-1   -5.419042177453943E-1
 4.387817547357926E8     8.381341323654546E-1   -5.481493141914465E-1    4.384022715809007E-7   -8.534744722010624E-6   -5.096189143568591E-6    4.109870535100011E-8    8.325792569740949E-1   -5.522543213459342E-1
 4.487517946161516E8     8.303934454402853E-1   -5.600020136106509E-1    2.725384894336051E-6   -2.994332743568664E-6    1.253022339476154E-5   -3.027956034420368E-6    8.241627933514887E-1   -5.634433450132328E-1
 4.587218344965104E8     8.235820121599837E-1   -5.719981238475282E-1    1.042891348629137E-5    4.339532592350700E-6    3.522599991972546E-6   -2.266444231199956E-6    8.159979147750703E-1   -5.752724488167069E-1
 4.686918743768694E8     8.170512393753858E-1   -5.834443474926866E-1   -7.333563159032281E-6    2.763587980040828E-6   -4.990612265419179E-6   -1.863348454254290E-5    8.078219748011516E-1   -5.868749201525799E-1
 4.786619142572283E8     8.097889209159255E-1   -5.941460284532507E-1   -6.451440180988749E-6    3.185417073550098E-6   -2.620258105296861E-6    7.517398346941170E-6    7.992523562749193E-1   -5.980290788954209E-1
 4.886319541375872E8     8.021879058896135E-1   -6.046491475267931E-1    3.422436181750621E-6   -4.702853783818361E-6   -2.013737956029000E-5   -1.368902791272591E-5    7.905079886895315E-1   -6.088222714924256E-1
 4.986019940179462E8     7.939408020530645E-1   -6.153223668241384E-1   -5.121881639189550E-6   -6.193391970729500E-6   -2.522031756255583E-5   -1.700765666265073E-5    7.823409067600234E-1   -6.198662904576181E-1
 5.085720338983051E8     7.855082625890114E-1   -6.244853716177905E-1   -9.257322543503112E-7   -5.531389142994424E-6   -3.752075416054716E-5    1.058910987651125E-5    7.746885572690665E-1   -6.303184487849139E-1
 5.185420737786640E8     7.782023427107047E-1   -6.335668218825726E-1   -1.665150573588233E-5   -4.258805985967341E-6   -2.389999875465262E-7   -5.245273795262551E-6    7.669292323019178E-1   -6.400787812520021E-1
 5.285121136590229E8     7.699062375795084E-1   -6.430531899794999E-1    5.371580684957368E-6    2.479051008526428E-7   -8.944128445635658E-7    1.017294007909311E-5    7.589753618175260E-1   -6.497241499480427E-1
 5.384821535393819E8     7.613665245117259E-1   -6.531209220680567E-1   -4.232880824760138E-6    9.709246781362262E-7    2.967387685977891E-6    1.690550761682335E-5    7.509358487915739E-1   -6.594428386284870E-1
 5.484521934197408E8     7.532839897540080E-1   -6.637685280245604E-1   -1.177528964109105E-5   -4.885547180420566E-6    2.270803122230748E-5    5.512040159125659E-6    7.424110870862924E-1   -6.692923373335319E-1
 5.584222333000997E8     7.447444395792054E-1   -6.746779024759333E-1    1.622470111606235E-6   -2.970345570574434E-6   -6.017580834131487E-6   -2.226596521630257E-5    7.333735959795352E-1   -6.793361042716065E-1
 5.683922731804587E8     7.355147229611813E-1   -6.850909025326967E-1    5.748967949581254E-6    1.228212457879585E-6   -5.630078645737142E-6    1.254175224246365E-5    7.230517502635169E-1   -6.891204515881073E-1
 5.783623130608176E8     7.261800692559738E-1   -6.950832102293135E-1   -1.069231972758361E-5   -7.096006409940106E-6   -1.131112041710588E-5    1.184376247721921E-5    7.126318238264367E-1   -6.989709342414848E-1
 5.883323529411764E8     7.170612010391736E-1   -7.050719334956251E-1    8.337312601496036E-6   -4.135577744417242E-6    6.915652742507742E-6   -8.238581262534105E-6    7.021747327138390E-1   -7.086751963585735E-1
 5.983023928215353E8     7.078912437217677E-1   -7.152155472954792E-1    9.129140351329315E-6   -2.992905356361984E-6   -2.496777912022498E-5   -1.112208345346357E-5    6.918959437214942E-1   -7.183931374792688E-1
 6.082724327018943E8     6.982815116251452E-1   -7.249131553933337E-1   -9.917250052163757E-6   -5.720579667565813E-6    1.483533452430045E-5   -4.913957500301193E-6    6.817202640318616E-1   -7.277795838347760E-1
 6.182424725822532E8     6.885479079046500E-1   -7.346112933192550E-1    2.182651717135451E-6    2.839197587164009E-6    1.127012824475835E-5    6.032065282615095E-6    6.717433991756580E-1   -7.372028475304618E-1
 6.282125124626122E8     6.779672781924007E-1   -7.439808632355805E-1   -4.918809562084397E-6    1.050562826652373E-5   -6.687292024103880E-6    6.682673476429900E-6    6.626908068547493E-1   -7.468357014579409E-1
 6.381825523429711E8     6.683453728380385E-1   -7.511324207872861E-1    4.013873557196190E-6   -5.285889270810206E-6   -9.621782385683053E-6   -4.817354973191138E-6    6.536733082473434E-1   -7.557790980400756E-1
 6.481525922233300E8     6.594338487848264E-1   -7.596519188627378E-1   -2.298905718756234E-8    4.841528624324379E-6   -1.178681027884914E-5   -8.040153135229623E-6    6.446041895892214E-1   -7.641402565813250E-1
 6.581226321036890E8     6.496556690243801E-1   -7.685598975084621E-1   -1.308327113906016E-5    9.074314500145739E-6   -2.418550509664536E-5   -7.873232708341262E-6    6.345329492131738E-1   -7.725324204837842E-1
 6.680926719840479E8     6.396724044585810E-1   -7.771920005038312E-1   -6.630967097785174E-7    3.093561705408439E-6    1.905600732989658E-6    1.201527453794132E-5    6.238981758057264E-1   -7.803791224799885E-1
 6.780627118644068E8     6.298964729558594E-1   -7.853199026887079E-1   -1.119526501134985E-5   -2.965592182699197E-6   -5.860422972527587E-6    1.533825923087006E-6    6.128394194169634E-1   -7.882998546880132E-1
 6.880327517447658E8     6.195059167256528E-1   -7.936275590212784E-1    1.002157564131260E-6   -1.844847852478620E-5    4.292476407790833E-6   -6.223165554171638E-6    6.015721534865057E-1   -7.961006169707868E-1
 6.980027916251246E8     6.086558471033968E-1   -8.018800217407823E-1   -6.342068805051885E-6    5.481157125774512E-6    1.086060102880898E-5    9.235099496763930E-6    5.900382973151217E-1   -8.037677908075771E-1
 7.079728315054835E8     5.972448402433821E-1   -8.101776683358993E-1    7.910950858293255E-6    1.527674532573259E-5   -1.035550315751607E-6   -3.641410869062861E-6    5.784083089865283E-1   -8.114528978089477E-1
 7.179428713858424E8     5.860159894585458E-1   -8.186703295567699E-1    1.208850918040263E-5   -1.133398893524074E-5    1.090331368473134E-5   -2.835868484877953E-6    5.672639114702043E-1   -8.201140752434091E-1
 7.279129112662014E8     5.750306588173036E-1   -8.272304911575363E-1    1.019761228108566E-5   -1.890791586795228E-5   -1.090693262352403E-6   -6.789797442717415E-7    5.559954714285266E-1   -8.290449584266503E-1
 7.378829511465603E8     5.638224144791795E-1   -8.360484978838318E-1   -5.575436216989716E-6    7.037150176068982E-6   -1.066802803492266E-5    2.351359219093740E-5    5.446761761123120E-1   -8.373075825710171E-1
 7.478529910269192E8     5.517650424302775E-1   -8.445019679205440E-1    8.638531155766898E-6   -1.279502808096014E-5    1.312105496770859E-6    7.303671463565928E-7    5.334014654946649E-1   -8.449633443455452E-1
 7.578230309072782E8     5.390880910929834E-1   -8.515863792394508E-1   -1.260648220296763E-6   -1.174957054703327E-5    9.621956393094679E-6    9.213907527751592E-6    5.221913433979392E-1   -8.518388599771997E-1
 7.677930707876371E8     5.287506811587183E-1   -8.570164170872019E-1    5.189695959411261E-6   -9.903453291998948E-6   -1.636339823326840E-5   -4.845381621988893E-6    5.110344545850553E-1   -8.583412452370150E-1
 7.777631106679960E8     5.192447127046227E-1   -8.639413098627386E-1   -9.689334859352801E-6    3.935457257867972E-6    7.638453969868872E-6    5.068095802129894E-6    4.994789206993430E-1   -8.648734912360797E-1
 7.877331505483550E8     5.087707788223125E-1   -8.708944377642976E-1   -3.386256241796229E-6   -1.453301083966022E-5    1.900357181211832E-6    2.114426976626212E-6    4.876191982900872E-1   -8.715163481894298E-1
 7.977031904287138E8     4.975517108795181E-1   -8.771789225367163E-1    1.066572117934859E-5    3.844588324734440E-6    1.505368693376249E-6   -9.760144855028042E-9    4.749220864475081E-1   -8.778835947251794E-1
 8.076732303090727E8     4.858292773987694E-1   -8.831280121088052E-1   -3.593632850969286E-6    6.499020263530281E-6    8.974637581088451E-6    7.757485201475142E-6    4.620053563013290E-1   -8.839802343153684E-1
 8.176432701894317E8     4.738214770703406E-1   -8.891908875132810E-1   -4.219465054806624E-6    1.783652012294761E-6    3.726282182201071E-6   -9.512338648319235E-7    4.491782939629113E-1   -8.903444126104262E-1
 8.276133100697906E8     4.614800841221270E-1   -8.956378294603342E-1    3.925021202012292E-6   -3.431569166573954E-6   -4.119473748783660E-6   -1.346789022852199E-5    4.365662904475437E-1   -8.970340234160887E-1
 8.375833499501495E8     4.489540376551354E-1   -9.020485277008843E-1   -4.361861191662612E-6   -3.282820797236499E-6   -2.263223018803964E-6   -5.339108259729633E-6    4.244312103684319E-1   -9.038767631217691E-1
 8.475533898305085E8     4.361591814762421E-1   -9.083648429161890E-1    1.043944966170986E-5    1.429506146563598E-6   -1.347483086824614E-6    3.954562477417642E-6    4.125160909148437E-1   -9.098522366120551E-1
 8.575234297108674E8     4.233325485377009E-1   -9.146875965751670E-1    2.261530393649670E-6    4.726161523521930E-6    5.411379985872419E-6   -6.421876564736081E-6    4.007590043123936E-1   -9.151114014515275E-1
 8.674934695912263E8     4.105143239894571E-1   -9.215135829255640E-1   -1.189926652669872E-5   -5.192071360658596E-6    1.317631776159148E-5    1.517136261720799E-6    3.887758243271361E-1   -9.199411912884615E-1
 8.774635094715853E8     3.975016033228136E-1   -9.280625046963697E-1    1.131881256329005E-5   -6.310255627026886E-6    2.179113943627678E-6    4.945840475673366E-6    3.761391887754803E-1   -9.246309625793006E-1
 8.874335493519442E8     3.843871253047526E-1   -9.326614667980671E-1   -4.251309262577373E-6   -7.938062337647482E-6   -4.544111414057735E-6    4.480502148324231E-6    3.630108088323536E-1   -9.291513391721840E-1
 8.974035892323031E8     3.730436239590915E-1   -9.362720922356367E-1    3.060268158001439E-6    5.540285000579552E-6    1.446733233755369E-6   -1.191767123143231E-6    3.495002311068956E-1   -9.333979338362194E-1
