#  HZ   S   RI   R     50.00 
! Rohde & Schwarz Vector Network Analyzer 
! Rohde-Schwarz,ZNB20-2Port,1311601062102128,3.60
! Created: UTC 4/29/2024, 2:59:01 PM
! freq[Hz]                re:S11                  im:S11                  re:S21                  im:S21                  re:S12                  im:S12                  re:S22                  im:S22
 1.000000000000000E5     9.961994434379992E-1    3.991315654458088E-3   -1.802620687667314E-4    1.519478655208634E-4    1.277765145375133E-5    1.797358277292864E-4    1.010536467675003      -1.136611129521388E-2
 1.007003988035892E7     9.975275628449245E-1   -1.381393191313017E-2   -7.744254462560973E-6   -2.845714363516939E-6    3.142814301197743E-6    1.601142383319778E-5    9.959943892884573E-1   -1.443521056161295E-2
 2.004007976071785E7     9.997617008787708E-1   -2.717235338599300E-2    1.763198970272804E-6   -2.455467558965019E-5    1.500057501907374E-5    8.676004854479284E-6    9.990046994359629E-1   -2.775457004626412E-2
 3.001011964107677E7     9.979404255031901E-1   -4.095777007368416E-2    4.614632840046060E-6   -6.904690551911636E-6   -7.624099408136565E-6   -1.103389523963618E-5    9.974952316267492E-1   -4.206482940710598E-2
 3.998015952143569E7     9.975729195925362E-1   -5.315443932994843E-2   -1.371751228011635E-5    1.796336632603123E-5    1.499884061514538E-6    9.147317752977156E-6    9.976479879569781E-1   -5.668416913990593E-2
 4.995019940179461E7     9.959691689427460E-1   -6.609612728596126E-2   -2.375089410780612E-6   -9.878987848232801E-6    1.117531663679003E-5    1.203825425091070E-5    9.964807978541926E-1   -6.914403270847296E-2
 5.992023928215354E7     9.942322330462093E-1   -7.877291557676840E-2    1.214227037727401E-5   -2.410490033190092E-6   -5.211326931443827E-6    1.075827577597541E-5    9.946513430157127E-1   -8.183596307208925E-2
 6.989027916251247E7     9.930616816222787E-1   -9.184433265479215E-2    1.918202412870804E-6   -1.859186791239334E-6    2.501464795409803E-6    1.526533488141368E-5    9.933878082803596E-1   -9.466026346042695E-2
 7.986031904287139E7     9.923489486717546E-1   -1.052101218809952E-1    2.619402706917793E-6   -4.323626083130232E-6    1.376459811850404E-5    1.683903471933384E-6    9.923647074129979E-1   -1.079171375735835E-1
 8.983035892323031E7     9.913086095004883E-1   -1.187870305638861E-1   -1.044938733164960E-5   -1.347451102306552E-5   -3.725812204222080E-6    2.693102797648328E-6    9.909005469139575E-1   -1.210724191721445E-1
 9.980039880358922E7     9.893484504910288E-1   -1.323511117963130E-1    1.652662066717051E-5   -2.256940421747565E-6   -5.815641244256970E-6   -9.700150448364103E-6    9.884723159044834E-1   -1.344224735971814E-1
 1.097704386839482E8     9.865323940386009E-1   -1.455970165681786E-1   -8.920747393525903E-7    3.862187196582718E-6    1.023848056152978E-6    5.086506390788517E-6    9.860171408092788E-1   -1.475987347646219E-1
 1.197404785643071E8     9.848178679036248E-1   -1.589687499389618E-1    8.793797334597998E-6    1.591468292240276E-5   -8.341737911946745E-6    8.503175973481058E-6    9.842276591356103E-1   -1.611317046334704E-1
 1.297105184446660E8     9.830598408653616E-1   -1.717582867813703E-1    9.490631714317882E-6   -9.380615576005686E-6    4.107175248755767E-6    1.219908536999020E-5    9.827535037929123E-1   -1.744787277683069E-1
 1.396805583250249E8     9.815195410775738E-1   -1.846426199122461E-1   -2.179426099908233E-6    9.472698773598673E-6    1.157408095365036E-5    5.038456002060739E-6    9.808001795902891E-1   -1.875294898209349E-1
 1.496505982053838E8     9.789871282803224E-1   -1.970813807766421E-1   -3.181301063457464E-6    6.368216395482709E-6   -1.111840862389835E-5   -1.549260773586874E-5    9.783808612141055E-1   -2.003707780742985E-1
 1.596206380857428E8     9.762287768690101E-1   -2.094940523698179E-1   -4.402232600174495E-6    1.146394889336260E-6    1.283389511415708E-5    1.074476232907432E-5    9.758096316134174E-1   -2.133210354263305E-1
 1.695906779661017E8     9.731705593770260E-1   -2.222588232475918E-1    5.294376144766569E-6    7.880886984158362E-6   -5.050885902477398E-6    1.229236368049670E-5    9.728485646484885E-1   -2.261154180194794E-1
 1.795607178464606E8     9.706806678330699E-1   -2.347521121136366E-1    4.340102129646264E-6   -1.161267949031841E-6    8.255853643419670E-7    1.372388255393654E-5    9.700954663955486E-1   -2.380049919867278E-1
 1.895307577268195E8     9.677035118762430E-1   -2.469778968776146E-1    1.082091008170537E-5   -3.780612754419385E-6   -2.042466972448852E-6   -1.235933900194628E-5    9.667077629229338E-1   -2.504951585294476E-1
 1.995007976071784E8     9.638452542063101E-1   -2.595005252851002E-1   -4.560739277356086E-6   -1.852065220861137E-5    1.009743119564352E-5    5.321972518909514E-6    9.628322664303197E-1   -2.631678379080890E-1
 2.094708374875374E8     9.603915492455274E-1   -2.723327270099187E-1    4.187350301462283E-6   -9.141154940410726E-6   -2.772462528474149E-6    2.515024103148457E-5    9.588797144276576E-1   -2.762007639872281E-1
 2.194408773678963E8     9.572465180686062E-1   -2.850602851199098E-1   -1.235804694312642E-5   -8.271662623717351E-6   -5.852186902314874E-6   -1.476130687405908E-6    9.550473946109390E-1   -2.890610686318100E-1
 2.294109172482552E8     9.536306561820950E-1   -2.973046269911455E-1   -1.212913271161321E-6   -5.219828890716773E-7   -7.892374205052299E-6    2.835266026837267E-6    9.509837490023306E-1   -3.017676569038212E-1
 2.393809571286142E8     9.505638677524132E-1   -3.093133604264342E-1    8.210877367847668E-6   -1.327786545008695E-6    3.109537604705423E-5    1.947113311527113E-6    9.469764458391111E-1   -3.140107438669720E-1
 2.493509970089731E8     9.469959874326950E-1   -3.233359150703619E-1    1.698827321886916E-5    1.243250767451444E-5   -2.753394189272017E-7   -1.296277446955564E-5    9.441653013122328E-1   -3.276616414925988E-1
 2.593210368893320E8     9.427281413399622E-1   -3.353834039675734E-1    1.000248842897185E-5   -4.734157912771505E-6    4.991735987188692E-6    4.670150917361932E-6    9.397622745299177E-1   -3.408972398112484E-1
 2.692910767696909E8     9.384631981858137E-1   -3.467826239178598E-1    8.057970606218380E-6    3.481598892996454E-6    9.700313547472690E-6    7.505094058492624E-6    9.355528240485697E-1   -3.528047900561357E-1
 2.792611166500499E8     9.338742470056304E-1   -3.584380426778911E-1   -4.423149110280029E-6   -1.038537187518190E-5   -2.287369250806221E-6   -2.271450453542394E-5    9.309183947137809E-1   -3.647166458779003E-1
 2.892311565304088E8     9.289506273788956E-1   -3.704628232888366E-1   -9.818966691785051E-6   -5.859738473077854E-7   -3.704000121210920E-6    2.797151619146978E-6    9.261386690210744E-1   -3.768114040331538E-1
 2.992011964107677E8     9.240625659980408E-1   -3.825799155660671E-1   -1.944007689620633E-5   -6.733317853496831E-7   -1.069950753817863E-5   -1.276825949767241E-5    9.210825331901463E-1   -3.886240372717434E-1
 3.091712362911266E8     9.188250864659051E-1   -3.949022882053500E-1   -5.195133475547075E-6    1.159069964504185E-5   -1.365223425103448E-6    5.653331186204200E-6    9.156446328206723E-1   -4.001926310853887E-1
 3.191412761714855E8     9.132746884211550E-1   -4.072645713651494E-1   -7.830034708137380E-7   -1.288444899886502E-5    1.984879973578204E-5   -4.745260375461649E-6    9.097550346818313E-1   -4.119850064888957E-1
 3.291113160518445E8     9.075018873060675E-1   -4.199181163624802E-1    3.382511500675815E-6   -6.979788898757041E-6   -8.846596761705555E-6   -2.183673318714736E-5    9.034347705428106E-1   -4.243308234077565E-1
 3.390813559322034E8     9.018947946760909E-1   -4.327121489093185E-1   -2.733636763289659E-6    2.689106886791640E-6    1.072057154709526E-5   -3.214210089675036E-6    8.967851791205580E-1   -4.368773625318032E-1
 3.490513958125623E8     8.966617073633527E-1   -4.452390324502974E-1    1.102836224314875E-6   -1.632974026878085E-5    1.736443995845566E-5   -1.508365572417959E-5    8.905270703780369E-1   -4.493972090993363E-1
 3.590214356929212E8     8.912748866381381E-1   -4.578147635066312E-1    3.839665749354377E-6    2.704837613432481E-6    1.686032068985953E-5    5.395735955429966E-6    8.845460618565967E-1   -4.621255418716976E-1
 3.689914755732802E8     8.859015445627615E-1   -4.700562855434258E-1   -7.897992238361674E-6    6.212501740290800E-6    4.004180075044633E-6   -1.745965810578716E-6    8.790624689863881E-1   -4.747428151761948E-1
 3.789615154536391E8     8.797834947525969E-1   -4.812494979467499E-1    4.891536767810156E-6   -1.138602926321191E-5   -7.709883254799798E-7    3.544047912974049E-7    8.738560709958385E-1   -4.867700101481452E-1
 3.889315553339980E8     8.741709442008572E-1   -4.919883043721047E-1    9.690381662047911E-7   -4.109640493216436E-6   -6.838239430697519E-6   -9.090104450025636E-6    8.679915813398509E-1   -4.987357175370078E-1
 3.989015952143569E8     8.674114457265398E-1   -5.027227447542604E-1   -6.056717668852540E-6    2.166070632116009E-6    5.424451470906206E-6    9.913653604134335E-6    8.610987747746608E-1   -5.097260614918211E-1
 4.088716350947158E8     8.601236003989283E-1   -5.134812494274239E-1   -6.600613873780954E-6   -7.973484271943233E-7    1.669433110498393E-5   -1.342832334874386E-5    8.542398664512666E-1   -5.206545188056333E-1
 4.188416749750748E8     8.532798206749335E-1   -5.251089473701648E-1    2.925011375758476E-6    7.643110436352496E-6   -1.093312127228440E-5    8.707384734588951E-6    8.475956758822756E-1   -5.314821611090143E-1
 4.288117148554337E8     8.460470056673813E-1   -5.368165113375407E-1   -3.416280757144593E-6   -2.428573711397854E-6   -3.036437199083077E-6   -5.582092124165543E-6    8.405666038323208E-1   -5.419267607298763E-1
 4.387817547357926E8     8.382428814937479E-1   -5.481815109837214E-1   -4.013660152662461E-6   -5.207276710497853E-6    2.913786911646053E-6    6.560960489269181E-6    8.326356314783711E-1   -5.523515087467841E-1
 4.487517946161516E8     8.304867542636436E-1   -5.599766815375331E-1   -1.779291144902519E-6    3.033254711970446E-6    9.506899691865540E-6    8.736947327449750E-6    8.241824547065437E-1   -5.634828650694372E-1
 4.587218344965104E8     8.235180505243518E-1   -5.719489161573548E-1    1.187875127894724E-6   -4.458938256145872E-7    1.845409427104255E-6    5.988821817343976E-6    8.159840115385396E-1   -5.752819819718796E-1
 4.686918743768694E8     8.171031856691771E-1   -5.834338276946528E-1   -1.535231347795569E-6    3.165616392113801E-6    2.355327875271444E-5    6.678438065064371E-6    8.078475430024931E-1   -5.868348939811322E-1
 4.786619142572283E8     8.099694796599987E-1   -5.941835217736912E-1    5.489660763051054E-7   -4.789621590872407E-6    8.827572538834504E-6    5.229558662937968E-6    7.993126135828288E-1   -5.980917901482221E-1
 4.886319541375872E8     8.023524918231537E-1   -6.047570405622930E-1    1.647653762586087E-5    4.887298715664027E-6   -2.797359670526167E-6   -1.289773847304236E-6    7.904396686190659E-1   -6.088757072619816E-1
 4.986019940179462E8     7.939533475295354E-1   -6.153162770807369E-1    3.045097928834926E-6    3.937438781780101E-6   -7.574148272762708E-6   -1.976743666285388E-5    7.823697885602056E-1   -6.197535533282520E-1
 5.085720338983051E8     7.855272124610857E-1   -6.243836029762962E-1    3.387781406899039E-7    9.584967340880125E-7    1.555090449344982E-5   -7.236934927333967E-6    7.746751556209196E-1   -6.303113550556011E-1
 5.185420737786640E8     7.781458137785275E-1   -6.335886035274296E-1    1.065123367933736E-5   -1.116272970077185E-5   -1.162473543833676E-5    9.996821158351744E-7    7.670493750718935E-1   -6.402088831990589E-1
 5.285121136590229E8     7.700143945014718E-1   -6.431431224999500E-1    6.320255720487597E-6    9.755172763299386E-6   -9.059253317269356E-6    8.348503498577081E-6    7.589061630867382E-1   -6.496804645983166E-1
 5.384821535393819E8     7.613611919628998E-1   -6.530734660057208E-1    4.616325680717047E-6   -8.726486865777170E-6   -2.568317652973781E-6   -1.637841318381858E-5    7.508012680268132E-1   -6.593673989022659E-1
 5.484521934197408E8     7.533372919321663E-1   -6.637592280129891E-1    9.795373436909359E-7    6.456561109302712E-6    8.397583427277243E-7    1.307885271025363E-5    7.424234786835078E-1   -6.692816780323695E-1
 5.584222333000997E8     7.447281016972149E-1   -6.746956284088592E-1    1.388268634831971E-5   -9.934582122991203E-7    2.143149220345651E-6   -7.787455836668981E-6    7.332632123222079E-1   -6.792710684805805E-1
 5.683922731804587E8     7.356318213554947E-1   -6.851239567390851E-1    7.655363797830165E-6   -8.300172042527008E-6   -2.443821696248209E-6   -1.585764231536187E-5    7.230520223330742E-1   -6.891808214591080E-1
 5.783623130608176E8     7.262650669483506E-1   -6.950774361019906E-1    8.349409702680769E-6   -4.877585977640076E-6    3.779075168377428E-6   -1.773465104558136E-5    7.125650422203189E-1   -6.989737472079465E-1
 5.883323529411764E8     7.171394441417628E-1   -7.052196051460984E-1   -5.204417753283546E-6   -4.751437882602389E-6   -8.133000148088493E-6   -3.386892064017875E-6    7.022152241677647E-1   -7.086590777146530E-1
 5.983023928215353E8     7.078778960025568E-1   -7.152259371755774E-1    4.145160727670312E-6   -1.291470768097628E-5    6.590685189583537E-6    6.112630752702956E-6    6.918365164673648E-1   -7.183589229134673E-1
 6.082724327018943E8     6.983933759794885E-1   -7.248682523517102E-1    8.407265449301469E-6   -6.580763393572104E-6   -1.846287209004116E-6   -1.274174619682042E-5    6.815873131682006E-1   -7.277110245668597E-1
 6.182424725822532E8     6.886419047081719E-1   -7.346144922609159E-1    1.670418777530345E-5    2.363495394610906E-5   -1.074688341513838E-5    8.934639676495666E-6    6.717623849389389E-1   -7.373374095583171E-1
 6.282125124626122E8     6.780593310496474E-1   -7.440454351898326E-1    9.348502426949931E-7    7.088664477388030E-6    4.425177959057889E-6    7.457502810573974E-6    6.626833787809651E-1   -7.467963399394489E-1
 6.381825523429711E8     6.683166588398060E-1   -7.511552044864857E-1   -9.404384930651695E-6    2.400306903559050E-6    8.406954052001672E-6    4.518373792893414E-6    6.537997124753573E-1   -7.556947633695490E-1
 6.481525922233300E8     6.593991231479240E-1   -7.596432648724015E-1    1.573646157731359E-6    6.043479853421180E-6   -1.236447942477655E-5    1.450986074867326E-5    6.445835979712777E-1   -7.641475587975524E-1
 6.581226321036890E8     6.495975616275432E-1   -7.685527339450290E-1   -1.689909931999149E-5    5.088842123480467E-6   -1.038112118276004E-6   -1.597465076988518E-5    6.345336026503505E-1   -7.724771468332621E-1
 6.680926719840479E8     6.396975720241350E-1   -7.772062822665007E-1   -8.256491718909324E-6   -1.196653623605067E-7   -9.777035084828744E-6    1.735196215923403E-5    6.239517303294382E-1   -7.805451853932278E-1
 6.780627118644068E8     6.299287255252810E-1   -7.853687783957910E-1    7.804274116828252E-7   -1.070644426977039E-5   -1.442816191526418E-5   -3.963066706956793E-6    6.129493255121745E-1   -7.883818154173167E-1
 6.880327517447658E8     6.195449548266262E-1   -7.937529420171364E-1   -6.473483427933427E-6   -7.211133345413690E-6    7.741230776163881E-6    1.116679453654628E-5    6.014804602903894E-1   -7.958125456411707E-1
 6.980027916251246E8     6.086400814395149E-1   -8.018590677209372E-1    1.292104033844876E-5   -7.968912622511720E-6   -2.989211844909729E-6    1.651340433208513E-6    5.900066047716418E-1   -8.036757804103344E-1
 7.079728315054835E8     5.971874711504954E-1   -8.100914042316109E-1    6.755613333953748E-6   -4.337070418367649E-6   -2.376231385437138E-7   -1.680358421951064E-5    5.784509256807712E-1   -8.116162185567690E-1
 7.179428713858424E8     5.860829870089236E-1   -8.186351896283675E-1   -5.523235675016424E-7   -4.140974912950678E-6   -9.801607407057102E-6    1.564503203599165E-6    5.671678337075555E-1   -8.202217118963276E-1
 7.279129112662014E8     5.751941875241289E-1   -8.272806583296497E-1    6.043163749794583E-6    5.486508559771291E-6    1.622842103785425E-5   -1.072450936842648E-5    5.558392618600830E-1   -8.288527117307278E-1
 7.378829511465603E8     5.638594375919957E-1   -8.359878132437000E-1   -5.460278079986446E-6    1.860138133033886E-5   -4.569909917165270E-6    4.184396492237310E-7    5.445484623874354E-1   -8.372742873535367E-1
 7.478529910269192E8     5.517621593530363E-1   -8.444538008804775E-1    4.479516963624455E-6    1.339749811335183E-5    7.782017634556825E-6    8.805144527391660E-6    5.334151745852913E-1   -8.449235010298075E-1
 7.578230309072782E8     5.390920324491409E-1   -8.515704265664843E-1    5.498981227454815E-6   -1.437468893706707E-5    1.923660090947222E-6    1.130812942785018E-6    5.222548548041783E-1   -8.519824193378943E-1
 7.677930707876371E8     5.287728646365598E-1   -8.569744890387170E-1    4.599687135550335E-6   -1.392679274854731E-5   -2.073104006384188E-5    6.051487231359433E-6    5.111096949190829E-1   -8.583782824434781E-1
 7.777631106679960E8     5.191538558317809E-1   -8.639316521625917E-1    6.949211834626880E-6   -1.117460201581680E-6    1.430697876294732E-5    3.499685091806883E-7    4.994582694858002E-1   -8.648996709206822E-1
 7.877331505483550E8     5.088597629252249E-1   -8.709035824312396E-1    2.892504881179787E-6   -2.054847486008319E-5   -2.010113423260010E-6    4.057815931744034E-6    4.876105696270575E-1   -8.714989733744772E-1
 7.977031904287138E8     4.976381794136376E-1   -8.772481075210157E-1    2.946700400273584E-6    1.505202498517879E-5    1.024310693382622E-5    7.328342008061450E-6    4.748571352311894E-1   -8.779957352419147E-1
 8.076732303090727E8     4.858297048171585E-1   -8.830855758767314E-1    1.031787659063029E-6    3.817590619868673E-6    6.355248178297058E-6    1.626666319447236E-5    4.621117104341487E-1   -8.841159332034882E-1
 8.176432701894317E8     4.738547177271724E-1   -8.891987103860327E-1    1.407490088995223E-6   -1.350179625471320E-6    6.382317448548009E-6    6.818307915101681E-7    4.491420256178779E-1   -8.904566340220003E-1
 8.276133100697906E8     4.615651496488393E-1   -8.955744978001609E-1    7.943919362958841E-6   -1.637952888882421E-6    2.164466965160883E-6   -8.081741501690208E-6    4.365372685191879E-1   -8.970218276953090E-1
 8.375833499501495E8     4.489002709709928E-1   -9.020220122809447E-1   -4.960499040242402E-6    9.544389739886237E-6   -3.041663325125694E-6    8.328410011665645E-7    4.243660966062939E-1   -9.037275199553004E-1
 8.475533898305085E8     4.361396963657291E-1   -9.083507195111350E-1   -1.559014372696215E-5    9.829176042398312E-6    4.273094070017530E-6    2.773798999793185E-6    4.126338542293523E-1   -9.098815952819936E-1
 8.575234297108674E8     4.233628238005786E-1   -9.146985275857811E-1    7.547955726622402E-6    1.432382663442345E-5   -2.106490996829348E-6    6.070044646955505E-6    4.008180733208391E-1   -9.151370706431383E-1
 8.674934695912263E8     4.104744437341326E-1   -9.214272813106424E-1   -4.203315836213510E-6    9.229246127769128E-8   -4.056921464942817E-6   -3.268941426471890E-6    3.887084840214466E-1   -9.200843067799021E-1
 8.774635094715853E8     3.974128883727106E-1   -9.280451462632406E-1    6.228608196914196E-6   -6.006109834334209E-6    9.931912354268696E-6   -1.370725592110930E-5    3.760593097111931E-1   -9.245665723603542E-1
 8.874335493519442E8     3.843456353899427E-1   -9.325987345927143E-1   -8.011299161962635E-6    6.362749140007195E-6   -6.002441085490302E-6    1.413726099258740E-6    3.630393732190381E-1   -9.290088197393455E-1
 8.974035892323031E8     3.730005277554070E-1   -9.362459285845353E-1    1.203919830923161E-6    3.422898601842323E-6   -3.278532573615351E-6   -9.845465208754717E-6    3.495229377811334E-1   -9.334442982221480E-1
