#  HZ   S   RI   R     50.00 
! Rohde & Schwarz Vector Network Analyzer 
! Rohde-Schwarz,ZNB20-2Port,1311601062102128,3.60
! Created: UTC 4/29/2024, 2:58:47 PM
! freq[Hz]                re:S11                  im:S11                  re:S21                  im:S21                  re:S12                  im:S12                  re:S22                  im:S22
 1.000000000000000E5     9.962422004352456E-1    3.674514237797794E-3    6.191942597490771E-5   -3.213841160550605E-5    6.508658537378053E-5    1.171486086378282E-4    1.010477189690439      -1.122605891730532E-2
 1.007003988035892E7     9.974619732563821E-1   -1.379794429682387E-2    1.053229065236181E-5    2.197164674899192E-6   -1.180664222252872E-5    2.202069565965901E-5    9.956803156627473E-1   -1.443378073565232E-2
 2.004007976071785E7     9.997482168195753E-1   -2.698977265980381E-2   -3.644914485419417E-6    1.952127005413523E-5    5.115879534786712E-6    4.157868747486410E-6    9.988213608788855E-1   -2.760324826643287E-2
 3.001011964107677E7     9.978542258326811E-1   -4.091441798577414E-2   -5.359336931714101E-7    7.646882747629041E-7   -1.017306677441424E-5    9.013424808451360E-6    9.974319133020930E-1   -4.193148517988726E-2
 3.998015952143569E7     9.976272428184366E-1   -5.305295927537843E-2    7.122152163871713E-6    7.533768926001357E-6   -4.670927337606571E-6   -1.585800073587647E-5    9.975666711370270E-1   -5.665637360004868E-2
 4.995019940179461E7     9.960347646536062E-1   -6.599698908950850E-2    3.423851515044402E-6    1.048857253422461E-5   -8.736181742386529E-6    6.228253030153910E-7    9.966572166187672E-1   -6.906252200059959E-2
 5.992023928215354E7     9.941928818508980E-1   -7.877873227359709E-2    1.980166623466748E-5   -2.198163226957135E-5   -2.034514480160475E-6    1.582952694775036E-5    9.945873618640548E-1   -8.199709171927215E-2
 6.989027916251247E7     9.930207784059042E-1   -9.181200421948044E-2   -9.401248818224760E-7    9.419411097222774E-6    4.743186076714154E-6   -2.914931593994412E-6    9.935289933546546E-1   -9.472372829945316E-2
 7.986031904287139E7     9.922912246297153E-1   -1.051685611609979E-1    1.945248171355402E-5   -1.246767336204070E-5    9.938567134208285E-7    1.594397556895745E-5    9.923171463926812E-1   -1.079092573844591E-1
 8.983035892323031E7     9.913582577346509E-1   -1.188145084483266E-1    1.256752178725876E-6   -2.301951009679087E-6    9.531118311507092E-6    1.365886437984478E-5    9.908291826362079E-1   -1.211315809838033E-1
 9.980039880358922E7     9.893146512059001E-1   -1.323702698686770E-1   -7.993909113399256E-6   -7.756648992223801E-6   -3.270960059167994E-6   -1.408901628936398E-5    9.884712792333573E-1   -1.344949125889078E-1
 1.097704386839482E8     9.865441593892672E-1   -1.454781960374630E-1   -8.984923137294297E-6    4.581467342793455E-6   -1.494277253479153E-5   -1.667867939320372E-6    9.862817930129794E-1   -1.477153798791975E-1
 1.197404785643071E8     9.847250957477508E-1   -1.589600767448542E-1    6.573170574593916E-6    7.902332887513551E-7    5.772363764575064E-6    6.301078498662880E-6    9.844514121808920E-1   -1.612411929742061E-1
 1.297105184446660E8     9.828789329408808E-1   -1.717690516512034E-1   -1.927875193866780E-5   -2.596218221990948E-6   -1.058984799865035E-5    2.288690664268696E-6    9.829091387592815E-1   -1.745473381052068E-1
 1.396805583250249E8     9.813771567346150E-1   -1.846477605637410E-1    1.301678782963671E-5    1.396762285072394E-6    8.667513914373375E-6    2.767575823969306E-6    9.808724532155770E-1   -1.876082326278903E-1
 1.496505982053838E8     9.788924674412612E-1   -1.971127077160448E-1   -1.145376176547313E-5   -6.272526436054491E-6    4.020355519994366E-6   -2.323479095768614E-6    9.785231165716658E-1   -2.003567305617912E-1
 1.596206380857428E8     9.761983546281936E-1   -2.096179471319394E-1   -6.014453043926015E-6    2.113887434999916E-5   -9.081567526392987E-6   -2.647026652859934E-6    9.756703423389280E-1   -2.132991322106927E-1
 1.695906779661017E8     9.730072073691336E-1   -2.223657911161037E-1    6.661081768827617E-6   -7.517990995316260E-6   -9.642630117442308E-8    1.341257255708281E-6    9.727134387518039E-1   -2.261166461102299E-1
 1.795607178464606E8     9.705939207347319E-1   -2.348715843455628E-1   -4.530647853337757E-6   -1.241170776306073E-5    2.075563869799475E-5    1.767940946126044E-5    9.701568030715555E-1   -2.380729159497248E-1
 1.895307577268195E8     9.676900804172043E-1   -2.471369861470851E-1   -1.050837603270592E-5   -2.254219718250641E-5    1.252028758273639E-6   -8.170817472833589E-6    9.668081928445676E-1   -2.505772453023935E-1
 1.995007976071784E8     9.638280625950978E-1   -2.595169854673931E-1   -2.540768915534370E-6    4.627589503799746E-6   -1.775886737663792E-5    3.238393768188167E-6    9.629090655800049E-1   -2.631204052569227E-1
 2.094708374875374E8     9.602456431165058E-1   -2.723519737444782E-1    3.534245413811627E-6    8.908149446163754E-6    1.120622353720308E-5   -2.639006757919154E-6    9.586855738530258E-1   -2.760991665863712E-1
 2.194408773678963E8     9.571291825938685E-1   -2.851626900705753E-1    1.926582301292110E-5    4.762453073864774E-6    1.514614590064744E-5   -1.270163683138991E-5    9.550572161501909E-1   -2.891487474752359E-1
 2.294109172482552E8     9.535170997459860E-1   -2.974465823575781E-1    1.125799185007163E-5    4.492433870820532E-6    2.234991883942581E-5   -2.160687445684649E-6    9.510567814427313E-1   -3.018152152399579E-1
 2.393809571286142E8     9.505072567337192E-1   -3.093497458384307E-1    3.544546034845150E-6   -8.310624278118053E-6   -4.081683899526699E-6   -3.598814749000844E-6    9.471167398271384E-1   -3.139636347514337E-1
 2.493509970089731E8     9.468127719121364E-1   -3.233299538210951E-1   -1.520560658104503E-5    8.276375518197343E-6    9.890274853688249E-7    4.431804944997813E-6    9.442044040712547E-1   -3.276486292608229E-1
 2.593210368893320E8     9.425789083073208E-1   -3.353679740342205E-1    5.622480223551945E-7    3.645054679636032E-6   -1.649840602308684E-5   -8.640515329533951E-6    9.397820342263064E-1   -3.408073761931679E-1
 2.692910767696909E8     9.384004492551598E-1   -3.467974504121212E-1   -8.812382314603759E-6   -2.766921229027841E-6    6.093748704539937E-6    1.583065479609292E-6    9.355657029905877E-1   -3.528850418693355E-1
 2.792611166500499E8     9.337623006316216E-1   -3.584450725073507E-1   -1.853510145912569E-6    9.693988411591376E-6    1.375285930490952E-5   -5.054312803156554E-6    9.310435889143855E-1   -3.647655314320582E-1
 2.892311565304088E8     9.289521205028486E-1   -3.705022125222957E-1   -7.098653857239685E-6   -7.698890510238971E-6   -2.457796378641000E-6   -6.128927682816688E-6    9.261448074812393E-1   -3.768229419425626E-1
 2.992011964107677E8     9.240486237513437E-1   -3.825964037838382E-1    1.265913738461300E-5    2.617742762089407E-6    9.630359410806144E-6    2.453987565817481E-6    9.212579934892664E-1   -3.887669572566252E-1
 3.091712362911266E8     9.186937459317452E-1   -3.949297912452717E-1    2.073496412960789E-6    5.124571166819176E-6    2.459264775334022E-6   -1.404959164739660E-5    9.157303743564040E-1   -4.001931601965743E-1
 3.191412761714855E8     9.131894848484112E-1   -4.072841589883700E-1   -9.513677457073785E-6    1.873776716059912E-6   -5.553104454407865E-6    3.200384302315783E-6    9.097451143392034E-1   -4.119663627839665E-1
 3.291113160518445E8     9.075746779206598E-1   -4.200139011948347E-1   -6.897022363589896E-6   -6.664011620878232E-6    1.126605589527575E-5   -1.889326893030116E-6    9.033772221620495E-1   -4.243578907412952E-1
 3.390813559322034E8     9.018311241561107E-1   -4.326917620136516E-1   -6.547628326211640E-6    1.391651384418808E-5    1.721750026730992E-5    1.725611370518940E-5    8.967716437198433E-1   -4.369027968485714E-1
 3.490513958125623E8     8.965750740723105E-1   -4.452744793416331E-1   -1.549396231539368E-5   -1.041750481897102E-5   -1.894520954487523E-6   -5.909908007346962E-6    8.904561064951980E-1   -4.494325578225185E-1
 3.590214356929212E8     8.912771747163755E-1   -4.578400682415708E-1   -1.574316916540016E-5   -9.492394689203100E-6   -1.248675033374027E-6   -7.736773821252213E-6    8.844695692155854E-1   -4.620660920845804E-1
 3.689914755732802E8     8.859241831018956E-1   -4.700527798438329E-1    9.032818283327417E-6   -3.296096441838848E-6    1.200926996297615E-5   -7.119619154380528E-6    8.791385162956624E-1   -4.747470734115931E-1
 3.789615154536391E8     8.797783175292690E-1   -4.813447714023138E-1    4.035685097381264E-8    9.870056071426623E-6   -7.093910921373119E-6    4.527720326907648E-6    8.737504336083793E-1   -4.867828288790365E-1
 3.889315553339980E8     8.740594096862537E-1   -4.919229138685873E-1    5.333610324935399E-6    9.171757194294681E-6    1.554837593796035E-5    1.278235091430776E-6    8.678814303675518E-1   -4.986833708859058E-1
 3.989015952143569E8     8.673114602847019E-1   -5.026835272962829E-1    1.737841125145256E-5    9.823058160085757E-6    5.178837392319976E-6   -8.370693036853120E-6    8.610939405973196E-1   -5.098071103817300E-1
 4.088716350947158E8     8.602236249444642E-1   -5.136065333513667E-1    7.604908042892057E-6    9.554174575410135E-6    9.521162596873353E-6    3.863287132633748E-6    8.542371967569801E-1   -5.206874196731245E-1
 4.188416749750748E8     8.532409533837052E-1   -5.250899156703531E-1    1.521904005361362E-5    1.221442883501998E-6    1.589334334613047E-5   -6.146600042892368E-6    8.475366965880428E-1   -5.315282285766624E-1
 4.288117148554337E8     8.458925550485210E-1   -5.367502329189605E-1   -3.240282010388392E-6   -1.170008800768431E-5   -1.874157715389777E-5   -1.010311535288428E-5    8.405751821582684E-1   -5.419004113901712E-1
 4.387817547357926E8     8.381031368624083E-1   -5.481133444935590E-1    2.388801994421756E-6   -8.514665635974840E-6    3.119304343800939E-6    5.284952200533812E-6    8.325686166857444E-1   -5.523406873233699E-1
 4.487517946161516E8     8.305536217944006E-1   -5.600478621521418E-1    1.230769595897901E-5    2.557454911123476E-6   -4.997007633281963E-6   -6.286364117850399E-6    8.241557818188402E-1   -5.635517469498669E-1
 4.587218344965104E8     8.235997479589328E-1   -5.719718371241549E-1   -3.053639921662445E-6    1.075665720633222E-5    3.760568268057661E-6    1.525788202019865E-6    8.160056324571227E-1   -5.752535334933579E-1
 4.686918743768694E8     8.168369322983539E-1   -5.834033802574087E-1    3.326257885841801E-6   -4.798680245801247E-6    4.955155988485084E-6   -5.615265008396983E-6    8.078391739449042E-1   -5.868637663458781E-1
 4.786619142572283E8     8.096822991746029E-1   -5.940805740535988E-1    1.479036272446930E-5   -7.861025292540097E-6   -3.284102669985775E-6    1.668519484637793E-5    7.993500218448149E-1   -5.981085560541740E-1
 4.886319541375872E8     8.022402752464055E-1   -6.046638507503682E-1   -9.544425895784030E-6   -9.673492362394701E-7   -1.441298049740157E-5    2.173174053265453E-6    7.904480001572411E-1   -6.088609796774906E-1
 4.986019940179462E8     7.939873605560003E-1   -6.153468721876684E-1   -1.228475300716301E-5    1.165419206428064E-5    1.873857503918575E-5   -1.092185648937655E-6    7.823526378100419E-1   -6.197652628391368E-1
 5.085720338983051E8     7.855920886331010E-1   -6.244736172545725E-1   -1.116536123239410E-6   -4.353858134337744E-6   -8.483734606981631E-6    8.836672534222406E-6    7.746638321368309E-1   -6.302179120392877E-1
 5.185420737786640E8     7.781309694583393E-1   -6.334264841655737E-1   -1.445290850903550E-6    3.048220925166876E-6    2.429494989234185E-6    5.351400120745308E-6    7.669227483041564E-1   -6.401412298466125E-1
 5.285121136590229E8     7.698961971220641E-1   -6.429982654354193E-1    1.443920769763438E-5   -7.426530606039270E-6    1.055485127673832E-5    3.710152243343373E-6    7.589339169359705E-1   -6.497482427468987E-1
 5.384821535393819E8     7.614602103565442E-1   -6.531612760456165E-1    3.486633660123522E-6    7.778102194735934E-6   -7.578247663212226E-6    2.782631819047105E-6    7.508655520755404E-1   -6.593755766917563E-1
 5.484521934197408E8     7.533050378847416E-1   -6.637937635833889E-1   -7.968626127051339E-6   -8.557813032557297E-6   -1.035428593447718E-5    1.111958921511897E-5    7.424027708918818E-1   -6.692172055552488E-1
 5.584222333000997E8     7.445883356554447E-1   -6.744890191189792E-1    2.117288910278922E-6   -8.910360304030112E-6   -3.808133073187445E-6   -1.678654915738391E-5    7.333298106601509E-1   -6.791867273802253E-1
 5.683922731804587E8     7.353839178581913E-1   -6.850102176696130E-1    9.631526012258675E-7    5.878488245775677E-6    2.753965466751985E-5    1.505482207932239E-5    7.230932885681183E-1   -6.892696916468115E-1
 5.783623130608176E8     7.261752523351676E-1   -6.950213228983667E-1   -9.651686596591913E-6   -4.171870596750334E-6   -8.685240213610734E-6    1.923376163697485E-5    7.126700891507375E-1   -6.989528372659783E-1
 5.883323529411764E8     7.170826426627718E-1   -7.051260930897942E-1   -9.221915058491262E-6   -6.305298933951486E-8   -7.700812755264858E-7   -1.071358822868983E-5    7.021442038260896E-1   -7.086394128380349E-1
 5.983023928215353E8     7.077868262095777E-1   -7.151428302750685E-1    1.601015407963973E-5   -5.520400518722070E-6   -2.959582313589881E-5   -5.318804559746272E-6    6.919057350711125E-1   -7.183281050933398E-1
 6.082724327018943E8     6.982041856798044E-1   -7.248134275933250E-1    1.732771075111221E-5   -4.357917197883793E-6   -7.812223276466325E-6   -2.239853740869655E-6    6.817580815173239E-1   -7.279845054111431E-1
 6.182424725822532E8     6.885164900123790E-1   -7.346803745757705E-1    5.014161992682513E-6   -2.425667803420663E-6   -3.296050962251019E-6    3.530256170026438E-6    6.717652398493340E-1   -7.373318830844726E-1
 6.282125124626122E8     6.780927553174616E-1   -7.440486335446135E-1   -1.393557530841588E-7   -2.986871583297766E-6   -1.671409173744006E-5   -1.018947663602847E-5    6.626361248259579E-1   -7.467843435873899E-1
 6.381825523429711E8     6.683005752728383E-1   -7.511305153314203E-1   -1.591683764333876E-5   -7.270374058877433E-6    8.556988845136732E-6   -1.224654991341123E-5    6.537344388837665E-1   -7.556350195102467E-1
 6.481525922233300E8     6.593513041752110E-1   -7.596408889236159E-1    8.440451487118530E-6   -8.515539018172651E-6   -4.180051292388824E-6    1.517238280730653E-6    6.445192933153338E-1   -7.640849643414461E-1
 6.581226321036890E8     6.496176569515308E-1   -7.685222484974481E-1   -9.203900483552502E-6   -6.414868768604710E-6   -4.761495753451310E-6   -1.657239563281424E-5    6.345651965222543E-1   -7.724967950365452E-1
 6.680926719840479E8     6.396346063674689E-1   -7.772431049982336E-1   -4.057775125286652E-6   -2.164729829063188E-6    2.386747960562702E-5    1.406919562916062E-5    6.239363020980488E-1   -7.805189169201442E-1
 6.780627118644068E8     6.299924403695319E-1   -7.855172190393750E-1   -2.501501759766663E-6   -1.951137180584800E-6    2.093305874365118E-6   -1.029733875985199E-6    6.128884298903747E-1   -7.883639833389275E-1
 6.880327517447658E8     6.196038903245543E-1   -7.937395975070021E-1    8.347694989207400E-6   -2.392369902938685E-6    1.290337736183872E-5    1.377086885824869E-5    6.015492450365034E-1   -7.959652217877703E-1
 6.980027916251246E8     6.086430091305797E-1   -8.018187420457540E-1    1.471053495773153E-5   -1.560759523498342E-5   -1.785881119572921E-5   -9.903814617978421E-6    5.901048437899017E-1   -8.036801513911442E-1
 7.079728315054835E8     5.971382810130953E-1   -8.100770833007228E-1   -1.237057323291537E-6   -2.314819392484678E-6    8.308479934552252E-6   -3.083054089858916E-6    5.784536106548120E-1   -8.116266579135915E-1
 7.179428713858424E8     5.861705427552208E-1   -8.188273952291376E-1   -9.784057711764834E-6    6.663687129543904E-7    5.096359948785254E-6    1.462979992657781E-5    5.672047872870621E-1   -8.201506130561704E-1
 7.279129112662014E8     5.752041218464670E-1   -8.273462963602375E-1   -1.018116177969631E-6    8.723228342790059E-6    5.673854583451072E-6   -3.946490064822853E-6    5.560488325723230E-1   -8.289807526613020E-1
 7.378829511465603E8     5.638579687283019E-1   -8.359353318956975E-1   -2.797290109657092E-7   -3.454076957244222E-6   -7.744632958281126E-6    4.347673114030379E-6    5.445293935837122E-1   -8.372451735982145E-1
 7.478529910269192E8     5.518020972010483E-1   -8.443261393226089E-1    2.152765711276782E-6   -5.028468223524506E-7    5.245838080020742E-6    6.061253202896222E-6    5.333452320975091E-1   -8.448840433766469E-1
 7.578230309072782E8     5.392509652826157E-1   -8.515556242424782E-1    1.485553436485520E-6    5.350077107223233E-6    7.822458163180066E-6   -9.150747458490653E-7    5.222998647097619E-1   -8.519029835465388E-1
 7.677930707876371E8     5.288957695631242E-1   -8.571137949101691E-1   -6.213880602037365E-6    6.078384485593459E-6    1.052779303124622E-5   -2.476972692934963E-6    5.110786329400202E-1   -8.584614610656397E-1
 7.777631106679960E8     5.192604255024547E-1   -8.639970362140140E-1   -6.272606413963145E-6   -1.557192412818327E-6   -1.669799894724256E-6    9.970290861631786E-7    4.993681914296073E-1   -8.647802562453438E-1
 7.877331505483550E8     5.088204271788435E-1   -8.708618041955790E-1    4.639267558919849E-7    1.622641859544320E-5    4.284329990068603E-6   -1.607707088511496E-6    4.876009565741870E-1   -8.714068989226116E-1
 7.977031904287138E8     4.975673717152108E-1   -8.771760268749322E-1   -3.492622417749053E-6    1.001492700448494E-5   -8.450253105017009E-6   -5.301746504332170E-6    4.749103027557093E-1   -8.779789692515991E-1
 8.076732303090727E8     4.858258954909790E-1   -8.831105999796268E-1   -4.794391067561486E-6   -1.327337968228610E-5    5.740944680969806E-6    1.449446161651313E-6    4.620811418120518E-1   -8.841199514679842E-1
 8.176432701894317E8     4.738863324928401E-1   -8.892459003772087E-1   -5.252374772247147E-6    7.018723783190320E-6    5.714614954679774E-6    1.296395426822763E-5    4.492229316810406E-1   -8.903810493968188E-1
 8.276133100697906E8     4.615582723281451E-1   -8.956839352341144E-1    2.156151036067573E-6    5.151232977607262E-6    5.980691739273602E-7    1.389385652453816E-5    4.365014241687354E-1   -8.970130851801000E-1
 8.375833499501495E8     4.489023760108916E-1   -9.019797305783588E-1    5.933979690843356E-6   -3.454350486984206E-6    4.118838953714496E-6    5.113489482415255E-6    4.243331044499004E-1   -9.037222778851628E-1
 8.475533898305085E8     4.360567323142281E-1   -9.083734918830264E-1   -1.681671758017031E-5    1.979827749087665E-6    8.448470697973619E-7    1.942930584837294E-6    4.125875697000747E-1   -9.099483976393554E-1
 8.575234297108674E8     4.233001126603411E-1   -9.147811739803602E-1   -2.538567559850329E-6   -5.191750318478583E-6    1.683843038385098E-5   -7.639480029837185E-6    4.007840754395348E-1   -9.151748194568360E-1
 8.674934695912263E8     4.105204886158627E-1   -9.213873605931148E-1    3.697750427640510E-6    1.291587644751588E-5   -8.699077812479803E-6    1.075778983900372E-6    3.886820674043300E-1   -9.199865611204807E-1
 8.774635094715853E8     3.974128898609832E-1   -9.280871263617236E-1   -5.423295981902959E-6   -1.117730112235123E-5   -1.933110408903059E-5    1.341718243720743E-6    3.760654844056013E-1   -9.245792717622839E-1
 8.874335493519442E8     3.843950041096818E-1   -9.326697394419106E-1   -4.174796254091026E-6    2.206154790010883E-5    6.945177798089792E-7   -3.913638576756359E-6    3.630315762732592E-1   -9.291376251718403E-1
 8.974035892323031E8     3.730515255563800E-1   -9.363453707719374E-1   -5.859142662613818E-7    1.186210774658809E-6   -1.200187057773899E-5   -2.293993402821164E-6    3.496263572304431E-1   -9.335889405671191E-1
