#  HZ   S   RI   R     50.00 
! Rohde & Schwarz Vector Network Analyzer 
! Rohde-Schwarz,ZNB20-2Port,1311601062102128,3.60
! Created: UTC 4/29/2024, 2:58:44 PM
! freq[Hz]                re:S11                  im:S11                  re:S21                  im:S21                  re:S12                  im:S12                  re:S22                  im:S22
 1.000000000000000E5     9.956486234237104E-1    3.974083475911416E-3    5.100944487157896E-5   -1.803612130340893E-4   -3.539882845049203E-7   -4.012072706534801E-5    1.010730771858513      -1.152089837418230E-2
 1.007003988035892E7     9.984846892915509E-1   -1.389733267220803E-2   -2.757935723794525E-6    1.420138830507042E-5   -1.464885041600002E-5    2.974985313881150E-5    9.958783416014831E-1   -1.449012688768610E-2
 2.004007976071785E7     1.000051840757431      -2.717393978448924E-2    3.036015598560659E-5   -8.386437548876321E-6   -5.022866728431024E-7   -2.512287683564508E-6    9.986975260068466E-1   -2.758131282296764E-2
 3.001011964107677E7     9.983396122439350E-1   -4.098791969568216E-2   -1.438166754098182E-5    1.335603552564049E-6    1.090161097098937E-6    4.231899060748972E-6    9.974385584711732E-1   -4.185635379211337E-2
 3.998015952143569E7     9.976326906437348E-1   -5.319212815212850E-2    1.388352021176046E-5    1.762971972375038E-7   -9.926197073918495E-6    2.160642481052516E-6    9.975784912088503E-1   -5.670910829870675E-2
 4.995019940179461E7     9.956638109898280E-1   -6.598510876958898E-2    2.850000651667185E-5    3.602189195694739E-7   -6.106851116430032E-7   -1.103936566289051E-5    9.965070837971157E-1   -6.908909779911092E-2
 5.992023928215354E7     9.938059618547095E-1   -7.886951894419826E-2    8.729703043542146E-6    1.271793120904712E-5    1.253036598655267E-5   -7.124890835117284E-6    9.946558728793727E-1   -8.187935731927354E-2
 6.989027916251247E7     9.931528723121439E-1   -9.189771729349565E-2    8.339025499175509E-6    2.507246856129792E-6   -3.622750730264758E-6   -1.093364823706483E-5    9.935051204788090E-1   -9.475723431890357E-2
 7.986031904287139E7     9.928538750387036E-1   -1.052962565169182E-1   -3.578377087327227E-7    4.425977115853354E-6    8.324187389380534E-6    1.758430011485922E-7    9.922865230083373E-1   -1.079617331590677E-1
 8.983035892323031E7     9.916740868941375E-1   -1.188394170346971E-1    1.864453419468046E-5   -1.602176646826799E-6   -5.079131513129638E-6   -5.049483645089035E-6    9.908171240983429E-1   -1.210470778359280E-1
 9.980039880358922E7     9.891047405726341E-1   -1.323269438224316E-1    1.090342371470149E-5   -3.406526435869388E-6    9.656625313305607E-6   -1.554119493137664E-5    9.885234217787288E-1   -1.344999003419133E-1
 1.097704386839482E8     9.861110226763861E-1   -1.454426140443625E-1    6.624409188014948E-7   -9.128375391845079E-6   -1.856955116571611E-6   -7.654139620560142E-6    9.860213056505477E-1   -1.478329592653053E-1
 1.197404785643071E8     9.848453421972013E-1   -1.589648135353878E-1    8.954621371360923E-6   -3.485134302706256E-6    1.156968903140782E-5   -2.824822796035606E-5    9.843223821257049E-1   -1.611465890968570E-1
 1.297105184446660E8     9.831281139916216E-1   -1.718640693534232E-1    2.333229355440916E-6   -1.549843740181129E-5    3.172464218106091E-7   -2.386053106537321E-6    9.828447314823020E-1   -1.744192369628883E-1
 1.396805583250249E8     9.816934040507899E-1   -1.847335817962156E-1    3.291866557302618E-6   -9.700539130281029E-6   -6.902148016497394E-6   -8.193624543325841E-6    9.808496467407315E-1   -1.875300256308588E-1
 1.496505982053838E8     9.788330268863794E-1   -1.970769111714913E-1    1.867052411601004E-5   -3.124088593256547E-6    2.720836315329570E-6    5.343391634271245E-6    9.784532758025403E-1   -2.003668600269830E-1
 1.596206380857428E8     9.760264086823568E-1   -2.094531738071449E-1   -4.687302154448693E-6    1.396894057429417E-5   -7.330137523633355E-6    1.445661285202719E-5    9.757702074936943E-1   -2.133858686804782E-1
 1.695906779661017E8     9.731975701794419E-1   -2.223232178799670E-1    1.097669454195433E-5    8.211745387589613E-6   -8.811722058716448E-6   -3.620379712797284E-6    9.728213403934295E-1   -2.260983333363343E-1
 1.795607178464606E8     9.708060257360808E-1   -2.348439917191778E-1   -5.403378859914261E-6   -9.130699172005574E-6    2.986049594465040E-6    3.038559016773402E-6    9.701554947482525E-1   -2.380663609295993E-1
 1.895307577268195E8     9.676474989104953E-1   -2.469664760265579E-1   -5.073273936863717E-6    2.078810906573964E-6   -3.418929930789270E-6    3.973038931726874E-6    9.667897295790997E-1   -2.503931147681132E-1
 1.995007976071784E8     9.637630909358768E-1   -2.594979160791844E-1    2.870030328243145E-7   -9.208182201136378E-6   -6.985897250557615E-6   -9.672092959468680E-6    9.626759822628370E-1   -2.631232568596031E-1
 2.094708374875374E8     9.604770781962286E-1   -2.724604466345159E-1    4.276969097621068E-6   -5.426437641870370E-6   -3.634131845735696E-6    5.133881713951696E-6    9.589057277269782E-1   -2.761666958498852E-1
 2.194408773678963E8     9.571787379223017E-1   -2.851488447397016E-1   -1.494346947283675E-5    4.190603709745482E-6    1.384373379005056E-6   -1.268998526424486E-5    9.551928429040770E-1   -2.891891632223156E-1
 2.294109172482552E8     9.536916503622781E-1   -2.974495819395803E-1   -9.196917486955116E-7    5.561016641134079E-6    3.920484510187768E-6   -2.506149442347064E-6    9.508333743591996E-1   -3.017642017760600E-1
 2.393809571286142E8     9.505887557023446E-1   -3.095117836480696E-1    1.148957749090785E-5   -2.347901915778714E-6   -1.971108564294429E-5   -1.207381834489049E-5    9.470103300352325E-1   -3.140698982518089E-1
 2.493509970089731E8     9.468760898930237E-1   -3.233786461011033E-1    4.749056909228783E-6   -2.048217319019988E-7   -1.293933815872929E-6    1.324741069010787E-5    9.440986507204411E-1   -3.276315002156808E-1
 2.593210368893320E8     9.425823827782167E-1   -3.353677667400966E-1   -1.356964124015186E-6    2.463543387309384E-6   -1.807064793612818E-6    1.685218532840167E-5    9.397651351994990E-1   -3.408243104776716E-1
 2.692910767696909E8     9.385274248113298E-1   -3.467860854636411E-1    1.383934762483458E-5   -8.709526096078549E-6    1.236901960305580E-5   -9.175656264314360E-6    9.354959977682973E-1   -3.528505982015073E-1
 2.792611166500499E8     9.339303799685590E-1   -3.584794202127632E-1   -1.500189157607535E-5    5.673931427022591E-6    2.861669502999212E-5   -1.342033089288029E-6    9.309369398510460E-1   -3.646264540703793E-1
 2.892311565304088E8     9.289745693313293E-1   -3.704478283261865E-1    6.215108687687398E-6    7.992907788930912E-6    2.108628832540061E-6   -9.285123324387767E-6    9.262083675166233E-1   -3.769343059277733E-1
 2.992011964107677E8     9.240885462505737E-1   -3.827108900959542E-1   -4.836482133710444E-6   -1.306781385139254E-5   -1.601494950627958E-6   -1.050861565655735E-5    9.211638381971041E-1   -3.886603704199857E-1
 3.091712362911266E8     9.188242687060567E-1   -3.948756387176964E-1    1.044700983775661E-5    8.277134700488997E-6   -1.061495954559481E-5    1.526059714979072E-5    9.156985878510115E-1   -4.001600587975275E-1
 3.191412761714855E8     9.132353123525186E-1   -4.073545738084758E-1   -4.331501833662973E-7   -4.459302938448979E-6   -9.502896314934411E-6    6.979217573836610E-6    9.097336067299000E-1   -4.119155240063739E-1
 3.291113160518445E8     9.076141047181467E-1   -4.200970991660142E-1    9.567838328003533E-6    1.507641635415411E-5   -4.165235897117611E-6    2.464795012865404E-5    9.034291247546177E-1   -4.244364153197642E-1
 3.390813559322034E8     9.019314676539167E-1   -4.328045068232598E-1    1.059709647339623E-5   -6.239717648338341E-6    2.312030135481546E-6    2.444266425118834E-5    8.967678258870558E-1   -4.369020442872218E-1
 3.490513958125623E8     8.965705713500360E-1   -4.452886107530841E-1    1.090008713310272E-6   -1.982972186480102E-6   -1.439596413517300E-5   -1.382821344581582E-5    8.905465480367738E-1   -4.492917161042540E-1
 3.590214356929212E8     8.913524307883222E-1   -4.578268974066576E-1   -9.950931679017690E-6   -1.303455336784727E-6   -3.953576385037431E-7   -8.785643664649022E-6    8.846270521277402E-1   -4.621542539356171E-1
 3.689914755732802E8     8.859412985918979E-1   -4.700559029761862E-1    6.904095401209266E-6    7.668456906955113E-6    2.479919821703273E-6    5.573832749002520E-6    8.790518938845083E-1   -4.746691109263396E-1
 3.789615154536391E8     8.797771981387598E-1   -4.812731655345655E-1   -5.285978362604597E-6   -9.416072182402272E-6    1.281931872617930E-5   -6.646301224061611E-6    8.738693967253763E-1   -4.867773040039632E-1
 3.889315553339980E8     8.741814982215595E-1   -4.920504170402102E-1    1.156811408378320E-5    9.581440834862939E-6   -7.599747610254909E-7   -1.427954095910693E-6    8.679970634519302E-1   -4.987502221372295E-1
 3.989015952143569E8     8.673532504082540E-1   -5.027136231687025E-1    3.895585246703590E-6   -9.292690699673607E-6   -2.215738124411979E-6   -1.926079853179783E-5    8.611009596008476E-1   -5.097377545062545E-1
 4.088716350947158E8     8.602157868790525E-1   -5.136091872962236E-1   -6.598367658219050E-6    2.380369641787040E-6   -6.124779966673091E-6   -5.800232698893197E-6    8.542306724754136E-1   -5.206524575172190E-1
 4.188416749750748E8     8.533054281249633E-1   -5.251541902374310E-1   -5.862349907562841E-6    1.561963770010665E-5   -7.454848662481109E-6   -4.600025931369622E-6    8.475629655438689E-1   -5.315176994509503E-1
 4.288117148554337E8     8.460153933698090E-1   -5.367209138907294E-1    6.469432124227015E-7   -5.855393105872337E-6    3.837883612977977E-7   -7.620146068941420E-6    8.405483988251696E-1   -5.418646536687095E-1
 4.387817547357926E8     8.381500431627504E-1   -5.482055357867988E-1   -8.509067263201937E-6    6.501785771276828E-6   -1.470982256879813E-5    1.343355265084903E-5    8.325255014225643E-1   -5.522691652999037E-1
 4.487517946161516E8     8.305244401239966E-1   -5.600664845519963E-1    6.127130424756418E-8   -4.012707225652283E-6    5.460020625704988E-7    1.506333093219793E-5    8.241900785636394E-1   -5.634989667412253E-1
 4.587218344965104E8     8.236639009702567E-1   -5.720147051645240E-1    2.699675560220941E-6   -9.794967337902020E-8    7.137187656864076E-6    4.816668142891410E-7    8.161217108623410E-1   -5.753390963796856E-1
 4.686918743768694E8     8.169703835519223E-1   -5.834050320505041E-1    2.936599909324891E-7   -4.909847112164600E-6   -5.931647600874429E-6    8.675195307350858E-6    8.079279301353963E-1   -5.867884552154878E-1
 4.786619142572283E8     8.098237663261842E-1   -5.942187668975862E-1    5.966659709741220E-6    1.138071720740834E-5    2.479747605755574E-8   -2.556080893861959E-6    7.992324226658344E-1   -5.980213853565712E-1
 4.886319541375872E8     8.023163448934536E-1   -6.046828475085138E-1    5.610641151012407E-6   -7.830190226051243E-6   -7.908362862143161E-6    8.454389287011827E-6    7.905685323070470E-1   -6.089370849486385E-1
 4.986019940179462E8     7.939808613198014E-1   -6.153694593736657E-1   -3.011651731602993E-6   -1.201098065109979E-5    7.858303820237286E-7   -3.366283437435213E-6    7.822529113863749E-1   -6.197464782684916E-1
 5.085720338983051E8     7.856010822880549E-1   -6.245032455033200E-1   -1.973346467700822E-6    8.849976736321236E-7   -9.237464527904798E-6   -1.526372380328431E-5    7.746861774372892E-1   -6.303447719720937E-1
 5.185420737786640E8     7.783116376240004E-1   -6.335897887159060E-1    1.322724579242410E-6    3.309545617111972E-6   -1.969555135716888E-6   -9.274260995880789E-6    7.669994408089399E-1   -6.402117811756238E-1
 5.285121136590229E8     7.699242009420026E-1   -6.430656180816119E-1   -3.303967105477143E-6   -1.365233203517197E-6   -2.160058688110679E-5    2.558283026171568E-6    7.589594173062246E-1   -6.496777259619846E-1
 5.384821535393819E8     7.613845206276945E-1   -6.530711393281183E-1    8.059541076213055E-6    7.827582965781435E-6    1.605290322690723E-5    2.385132988495547E-5    7.508540471526319E-1   -6.592881661232367E-1
 5.484521934197408E8     7.532665504027887E-1   -6.636867245554261E-1    2.881267381193075E-6   -9.247971735033326E-6   -6.898483762309252E-6   -4.017103893849752E-6    7.424362987356531E-1   -6.692821244706905E-1
 5.584222333000997E8     7.447393633457486E-1   -6.746822085048105E-1   -1.290905408207358E-5    4.603095526704819E-6    3.521205664201681E-6    7.046792253127178E-6    7.333235560808627E-1   -6.792263344454650E-1
 5.683922731804587E8     7.355814840957967E-1   -6.851019601406267E-1    1.898672225258313E-7    7.188622884548921E-6   -3.894112033167796E-6   -4.228877535141255E-8    7.231434252301249E-1   -6.891082441156665E-1
 5.783623130608176E8     7.261821816482360E-1   -6.949523932350934E-1    1.195149573916076E-5    1.763968717076797E-6    7.224029147856634E-6    8.452030016965828E-7    7.127196381538315E-1   -6.989620911608533E-1
 5.883323529411764E8     7.170111817877750E-1   -7.050382022271418E-1    1.411826285920262E-5   -1.592557976856421E-6   -5.064792926442432E-6   -4.089291724041151E-6    7.021400404117903E-1   -7.087112491352768E-1
 5.983023928215353E8     7.078545956547418E-1   -7.151948008334487E-1   -6.442950613334126E-6   -7.842930813350185E-7    2.059750910105075E-5   -1.145198717407242E-5    6.919495714352899E-1   -7.184149528717911E-1
 6.082724327018943E8     6.984406494137121E-1   -7.250244418869399E-1   -4.194543945461643E-6    9.457660764525445E-6   -1.049718359266446E-5    1.977730688417496E-5    6.816297509973962E-1   -7.277319413477271E-1
 6.182424725822532E8     6.885191809977216E-1   -7.344968058288264E-1    4.221384177358690E-6    2.910083044112014E-6    5.753361464206143E-6    1.185355660058478E-5    6.716611561538550E-1   -7.371918388605401E-1
 6.282125124626122E8     6.779432922464148E-1   -7.438858935088180E-1   -8.832046206933548E-7   -9.786744012747583E-6   -1.555856946093393E-5    7.664760036372176E-6    6.625815542565771E-1   -7.468081417140382E-1
 6.381825523429711E8     6.683380997475192E-1   -7.510828576649913E-1   -3.274981396271603E-6   -1.043948577839335E-5    4.608898338654732E-6   -7.811086212532573E-6    6.537420647550211E-1   -7.557409576141167E-1
 6.481525922233300E8     6.593514577170769E-1   -7.596923869735500E-1    2.203510072818996E-6    1.518902348448747E-6   -1.660838118360506E-5    1.548969075738949E-5    6.446557028949405E-1   -7.642173625996256E-1
 6.581226321036890E8     6.496748061728929E-1   -7.685604274669969E-1   -1.128105832355058E-5   -1.557199874840556E-5    1.040689069646993E-5   -4.726260048087964E-6    6.345059322384913E-1   -7.724697151739115E-1
 6.680926719840479E8     6.396235553354852E-1   -7.771717619394870E-1    2.038076286629330E-6    9.743710285446676E-6   -1.360971538362853E-5   -1.122471330914021E-5    6.239619762455999E-1   -7.803523362066579E-1
 6.780627118644068E8     6.298471177959998E-1   -7.853659751658142E-1   -1.476361973284834E-5    2.184610134758665E-5   -1.487962888832067E-5    3.204671633396484E-6    6.128572142232621E-1   -7.882922837433650E-1
 6.880327517447658E8     6.194530281030269E-1   -7.936243128857736E-1    8.701324923108320E-6   -2.780861446487954E-6   -3.429521867823009E-6    3.037912178035786E-6    6.016074379507422E-1   -7.960666716927440E-1
 6.980027916251246E8     6.084958494529981E-1   -8.018134916858596E-1   -3.935129637339587E-6    4.259512676499542E-6   -2.207401484853173E-7    6.784730981627878E-8    5.899664432082660E-1   -8.037046434871032E-1
 7.079728315054835E8     5.972225314799888E-1   -8.102071647534520E-1    5.576400396321273E-6   -1.109598317547309E-6   -5.610751174400381E-6   -2.704919640199742E-7    5.784154084731917E-1   -8.115791068987552E-1
 7.179428713858424E8     5.860407385562977E-1   -8.187072679866774E-1   -3.705104875391561E-7   -1.640994746548916E-5   -4.963397116191305E-6    2.829509095914208E-6    5.672946919938330E-1   -8.201276847480357E-1
 7.279129112662014E8     5.750891666064137E-1   -8.271117895094425E-1    2.609986202271293E-6    1.929831092848824E-5    1.800025865002331E-5    2.252688089377890E-6    5.559465111514834E-1   -8.289583682972137E-1
 7.378829511465603E8     5.637800308484187E-1   -8.359350255030059E-1   -6.415677936389883E-6    2.677271726248405E-6    5.161307403626834E-6   -1.385322306708201E-6    5.445963945158041E-1   -8.373276123736199E-1
 7.478529910269192E8     5.517764428188316E-1   -8.445189655111910E-1   -2.810230815287574E-6    6.492075494863516E-6   -4.600365427078711E-6   -1.241483875713817E-5    5.334661977739157E-1   -8.449761758552774E-1
 7.578230309072782E8     5.391979538077450E-1   -8.516398623700282E-1   -5.821649766288713E-6   -5.099764536447404E-6   -1.651397250333877E-6    3.514353206297115E-6    5.224206592213423E-1   -8.518702773325729E-1
 7.677930707876371E8     5.286980537642684E-1   -8.569150180343034E-1   -3.482343802220049E-6    1.782161691458355E-6    2.659032478199808E-6   -2.779734359130783E-6    5.110403355047697E-1   -8.583345945863389E-1
 7.777631106679960E8     5.191503723814354E-1   -8.639004815987233E-1   -9.261545004583613E-6   -4.738661745206294E-6    6.539633060715009E-6    2.295848926216667E-5    4.994956105536641E-1   -8.647410921436556E-1
 7.877331505483550E8     5.088711898738081E-1   -8.708175068203663E-1    3.408900981333791E-7    6.975755926955422E-6    2.325046075022253E-7   -1.988042952617052E-6    4.876185813461388E-1   -8.714112535807128E-1
 7.977031904287138E8     4.976293268087073E-1   -8.772004451663437E-1    1.783798173426081E-5   -3.422602511615669E-7    4.682825905613081E-6   -1.303081718537946E-5    4.748842746500014E-1   -8.778857303274467E-1
 8.076732303090727E8     4.857636792280234E-1   -8.831161499897336E-1    3.926437867935357E-6   -7.200448856802802E-6   -2.057298667268237E-5    1.321556986772785E-6    4.620674337955100E-1   -8.839910940077751E-1
 8.176432701894317E8     4.738455242409583E-1   -8.889901463441787E-1    8.371364590279681E-6    5.583921250314776E-6    4.545658925539876E-6   -9.005448418374014E-7    4.492028046139868E-1   -8.903376398676254E-1
 8.276133100697906E8     4.615306543450884E-1   -8.955787322301689E-1    2.918506764696057E-6    8.799665669548637E-6    5.658223683655176E-6    3.730595418308489E-7    4.365036885775028E-1   -8.970346889684409E-1
 8.375833499501495E8     4.489048858635669E-1   -9.020989756680859E-1    3.428851131137184E-7   -4.618476811216691E-6   -7.336571432413205E-7    9.674211700609218E-7    4.244165923460951E-1   -9.037621301795336E-1
 8.475533898305085E8     4.361663946185466E-1   -9.083551920716096E-1    5.879439803367613E-6    3.715506492698656E-6   -3.952584844137047E-6    8.477714431371659E-7    4.125955394206166E-1   -9.097314369109525E-1
 8.575234297108674E8     4.233854367395315E-1   -9.147878542414374E-1   -6.144760370736971E-6   -1.029733911784041E-5   -4.923551636154786E-6   -1.602677735293229E-6    4.007538043896327E-1   -9.151929975178880E-1
 8.674934695912263E8     4.105365592431572E-1   -9.214843294349727E-1   -1.164628308027959E-5    2.306853565024676E-6    9.235100976693619E-6    7.021038704167308E-6    3.887961437598203E-1   -9.199098254895449E-1
 8.774635094715853E8     3.974308750031372E-1   -9.280979135228432E-1   -4.896592657491815E-6    6.524320080588834E-7    6.617972968422910E-6   -8.985449387204359E-7    3.760731540976707E-1   -9.245980286810375E-1
 8.874335493519442E8     3.843254075494833E-1   -9.325816563342975E-1    3.406970549050360E-6   -8.217410574623532E-6   -8.871427977212031E-7    1.074741178713385E-5    3.631190896384949E-1   -9.291433217786159E-1
 8.974035892323031E8     3.730114245894524E-1   -9.362935809468543E-1    3.594760713561568E-6   -1.011435464152706E-7   -2.760123010634834E-6   -9.996415179145432E-7    3.495577111258389E-1   -9.334185777167071E-1
