#  HZ   S   RI   R     50.00 
! Rohde & Schwarz Vector Network Analyzer 
! Rohde-Schwarz,ZNB20-2Port,1311601062102128,3.60
! Created: UTC 4/29/2024, 2:58:50 PM
! freq[Hz]                re:S11                  im:S11                  re:S21                  im:S21                  re:S12                  im:S12                  re:S22                  im:S22
 1.000000000000000E5     9.958028543520986E-1    3.651432381663083E-3    1.131535117908392E-5    1.054859809976589E-4    2.636223539874033E-6   -5.119868868675025E-5    1.010562198590362      -1.140353328438025E-2
 1.007003988035892E7     9.983061320616319E-1   -1.396706776555248E-2    1.796766320841764E-5   -1.293673944686775E-5    1.373056949849340E-5   -2.131234849670138E-5    9.956848041399089E-1   -1.446348370703854E-2
 2.004007976071785E7     9.997329846691587E-1   -2.715489683021387E-2    3.078143389342230E-5    2.016818404310064E-6   -6.154509998875940E-6   -1.906937661072489E-5    9.988086182409666E-1   -2.766870120629020E-2
 3.001011964107677E7     9.981880176524481E-1   -4.098962157213332E-2    1.091448958258732E-5    1.563328136620247E-6    2.862705520038602E-6   -3.761671712636673E-6    9.974946011547541E-1   -4.193677251869609E-2
 3.998015952143569E7     9.974825999379219E-1   -5.304021643064631E-2    7.625731143644182E-6    1.431442531596949E-5   -7.243601508873689E-6    7.757915060032816E-6    9.977050198693335E-1   -5.671152391296293E-2
 4.995019940179461E7     9.957065651990203E-1   -6.592565271164585E-2   -9.245895343644879E-6   -1.180868152503952E-7   -5.776996465613149E-6    1.088790711807143E-6    9.966222378413830E-1   -6.908187965275769E-2
 5.992023928215354E7     9.939325829384767E-1   -7.884535655530693E-2    8.300919556130995E-6   -1.479310459407707E-5   -1.786767831416905E-5    3.569168067454464E-6    9.946151775558292E-1   -8.204058941998822E-2
 6.989027916251247E7     9.933319969454543E-1   -9.176797788374740E-2    1.394434406043807E-5    9.929754134596512E-6   -1.127983078579808E-5   -1.830485724915618E-6    9.934507357966372E-1   -9.475338561401266E-2
 7.986031904287139E7     9.928425990772957E-1   -1.052847525317754E-1    6.618081565990509E-6   -8.224754592817315E-6   -2.609978554071083E-5   -1.777047665634177E-6    9.923957050879710E-1   -1.079849507667380E-1
 8.983035892323031E7     9.916038304185061E-1   -1.187630061026124E-1    3.360932152140022E-6    7.706942321666241E-6   -5.678309665439544E-6   -3.016547190921016E-6    9.908953829711175E-1   -1.211685899692749E-1
 9.980039880358922E7     9.890704753911120E-1   -1.322771741398209E-1   -9.743699870161994E-6    1.177806697227601E-5   -1.590402697121119E-5    5.889423198257889E-6    9.885078221448796E-1   -1.344630822737155E-1
 1.097704386839482E8     9.862381841916831E-1   -1.454172477367429E-1    1.511161945609620E-6   -1.119720979084069E-5   -4.383784207376797E-6   -1.016518135561480E-5    9.859420575499858E-1   -1.477405119923729E-1
 1.197404785643071E8     9.848994897774301E-1   -1.589403293567149E-1    1.068408025547349E-6    8.073511153655834E-6    4.774827929026718E-6    5.142659600735768E-6    9.842365595295068E-1   -1.611901488043079E-1
 1.297105184446660E8     9.830497561750704E-1   -1.718017392747622E-1    2.323845460418776E-6    7.464500739159149E-6    4.209039627552646E-6   -6.591101038931078E-6    9.827121764528329E-1   -1.744361686471033E-1
 1.396805583250249E8     9.816914713818838E-1   -1.846461794912128E-1    1.492198640548819E-6   -9.365378546376338E-7   -3.010566339355188E-6   -3.731526987362320E-6    9.809094573260804E-1   -1.874674976169899E-1
 1.496505982053838E8     9.788235455238282E-1   -1.970233501006035E-1    8.963310348018211E-6    7.260731742795568E-6    1.571051330846581E-6   -8.303037890393009E-6    9.785338528459706E-1   -2.004117015742118E-1
 1.596206380857428E8     9.760651172557270E-1   -2.094339299912800E-1   -1.187438283763087E-5    3.964002848345169E-6   -1.547122363759872E-5   -6.643473678686592E-7    9.757111297962288E-1   -2.133065172505656E-1
 1.695906779661017E8     9.732050821532693E-1   -2.222876520352017E-1   -3.930495029711877E-6    6.123432468612414E-6   -8.575206673110551E-6   -3.147998689299522E-6    9.727071142871523E-1   -2.261664997570320E-1
 1.795607178464606E8     9.708230853856135E-1   -2.348196808074639E-1    6.316308752623147E-6    5.205400881135718E-6   -5.872481740640477E-6    6.798780584062029E-6    9.702504120621490E-1   -2.380236458238663E-1
 1.895307577268195E8     9.676342535238107E-1   -2.470234987123693E-1    7.181506707343992E-6    6.010801444589758E-6    1.209326452687150E-5   -1.231711797501751E-5    9.667907318411392E-1   -2.505788742293173E-1
 1.995007976071784E8     9.636745548232226E-1   -2.594615624431975E-1   -2.730159074777807E-6   -5.444447708615760E-6   -3.360500945250400E-6   -7.920055945493882E-6    9.626231660494006E-1   -2.631758967404808E-1
 2.094708374875374E8     9.604336058154339E-1   -2.723604746186362E-1    1.106120332342912E-5    9.381603743163968E-7   -1.172107991807890E-6   -2.043686041435341E-6    9.587700453889564E-1   -2.761921644591253E-1
 2.194408773678963E8     9.573756489229716E-1   -2.851555592978586E-1   -1.750771817346528E-6   -8.455202958062453E-6    1.150198064558597E-5   -3.009438667003424E-6    9.550920630269683E-1   -2.890970426740438E-1
 2.294109172482552E8     9.536526127491293E-1   -2.974305334824907E-1    1.114325991636466E-6   -3.162748116250223E-6   -1.712833963440143E-5    2.710250844154800E-6    9.510310945757645E-1   -3.018760679690493E-1
 2.393809571286142E8     9.504281475852112E-1   -3.093477428969141E-1    1.007502907727272E-6   -1.258664896160399E-6   -1.232142047210524E-5    1.338629895214881E-5    9.472285905239569E-1   -3.140562994384564E-1
 2.493509970089731E8     9.468914759284568E-1   -3.233298117924593E-1   -1.089495457654045E-5   -4.240764649182913E-6   -3.531014210454806E-6    2.549720469901221E-5    9.440193241832441E-1   -3.276906670035642E-1
 2.593210368893320E8     9.427618184867836E-1   -3.353479317137342E-1    3.272202281283744E-6   -1.089073620317740E-6   -1.432892665450776E-5    1.068389970806411E-6    9.397707257461982E-1   -3.408630555985100E-1
 2.692910767696909E8     9.385179245354155E-1   -3.468018362492127E-1   -1.490376038373456E-5    7.505062248864636E-6    9.560881462768944E-6   -9.125705684046331E-6    9.356184022930403E-1   -3.529930628616276E-1
 2.792611166500499E8     9.336965547456935E-1   -3.584027376554915E-1   -1.025106272360114E-6   -7.787130663613804E-6    5.565096784267959E-6    1.074766009794983E-6    9.309508934875879E-1   -3.646186266099007E-1
 2.892311565304088E8     9.288744816137207E-1   -3.704549662703069E-1   -1.797001151721841E-6   -4.336646475463831E-7    1.793644748623870E-6   -1.237571212183605E-5    9.260982317072332E-1   -3.768344628348199E-1
 2.992011964107677E8     9.241680268596070E-1   -3.826768125407712E-1    4.448140266269038E-7   -2.912356900699444E-6   -3.698505971815389E-6   -2.420405106749036E-5    9.210761567384985E-1   -3.886521666057406E-1
 3.091712362911266E8     9.188231546593544E-1   -3.948901428900077E-1   -1.863466425235001E-6    1.322561810996126E-5   -6.901761983615399E-6    2.713697177306411E-6    9.158205367108423E-1   -4.002593492985748E-1
 3.191412761714855E8     9.132896153415068E-1   -4.072937596478090E-1   -2.640281754510612E-6    4.930360719896591E-6    3.173257875393988E-6    1.133641354297230E-5    9.098324881333374E-1   -4.120137191498978E-1
 3.291113160518445E8     9.075723473755166E-1   -4.199840517241513E-1   -8.347682478715482E-6   -6.152598115045114E-6   -9.125972901840674E-6   -7.331600848357022E-6    9.033522186950962E-1   -4.243023850686506E-1
 3.390813559322034E8     9.020181440210809E-1   -4.328478384498911E-1    5.146897911415473E-6   -6.035044828072566E-6   -1.887797047021695E-5   -1.447963365535369E-6    8.967193329938798E-1   -4.369529856215958E-1
 3.490513958125623E8     8.967073175581021E-1   -4.453339220016359E-1   -5.832676009797834E-6    8.709059836328483E-6   -6.641597686182299E-7   -3.594326395240140E-6    8.904646690182749E-1   -4.494251394076553E-1
 3.590214356929212E8     8.912939857096366E-1   -4.577368009297164E-1    8.837688215841365E-6    5.395666028847906E-6    5.540551335788779E-6   -5.203970994941218E-6    8.845660677783326E-1   -4.622283475349849E-1
 3.689914755732802E8     8.859534307047998E-1   -4.700089471596640E-1   -5.478167672526719E-6    9.705139408907300E-6    2.019034177278918E-5   -6.771451366022327E-6    8.791020339974628E-1   -4.747960350855271E-1
 3.789615154536391E8     8.798261243972929E-1   -4.812337306051246E-1    6.384044276518077E-6   -1.529636384515800E-6   -9.636188661143584E-6   -8.977336689464258E-6    8.737757599180288E-1   -4.867950421864419E-1
 3.889315553339980E8     8.741775836321869E-1   -4.920383829849668E-1   -9.394044059524252E-6   -1.892227447612837E-6   -4.623887415958430E-6    1.239891295650980E-6    8.679405865130864E-1   -4.987951471996873E-1
 3.989015952143569E8     8.674889355106429E-1   -5.027487427460665E-1   -1.085927584788443E-7    6.168130855204839E-6    4.414658286728395E-6    1.257055960447339E-6    8.612221116541435E-1   -5.098487323763653E-1
 4.088716350947158E8     8.601361113067220E-1   -5.135422166667991E-1    5.722794774170501E-6    4.710575165164048E-6   -4.739342338920177E-6    9.121397320949631E-6    8.542378619722438E-1   -5.206903159116623E-1
 4.188416749750748E8     8.532472115663616E-1   -5.251439131178667E-1   -6.721452546466060E-6   -6.704902457854504E-6    1.435212659174104E-6   -1.280791036314622E-5    8.475382601345192E-1   -5.315604906183294E-1
 4.288117148554337E8     8.459944433085843E-1   -5.368239681500565E-1    2.900500423959994E-6   -1.475525418901361E-6   -8.859572740069527E-7    1.841041324757085E-6    8.405884672468626E-1   -5.418253841462398E-1
 4.387817547357926E8     8.381955560311780E-1   -5.481359957823818E-1   -5.922403419244641E-6    1.204346219371786E-5   -1.776384166905526E-5    9.140373877301056E-6    8.326752608376935E-1   -5.523743907260089E-1
 4.487517946161516E8     8.304269960277663E-1   -5.600031323494875E-1    9.173857050322296E-7   -4.154305225309092E-6   -4.973123265035912E-6   -8.835416901390113E-6    8.242629628511264E-1   -5.635974943239144E-1
 4.587218344965104E8     8.236031822321567E-1   -5.719560070329497E-1   -8.385062043247401E-6   -7.491093022602277E-6    1.642306064385672E-5   -1.022657447890679E-7    8.160029327329388E-1   -5.752595773464380E-1
 4.686918743768694E8     8.170392802251430E-1   -5.834260254549073E-1   -6.401566831208615E-6   -5.242103697986187E-6   -1.242066314399419E-5    2.292788603083490E-6    8.077948814966052E-1   -5.868299557545689E-1
 4.786619142572283E8     8.099644802225876E-1   -5.942277533912924E-1    9.687927166593125E-6    7.061387773721610E-6    1.061823811143998E-5   -1.228090131605490E-5    7.992936204499854E-1   -5.981291229428540E-1
 4.886319541375872E8     8.023297965639199E-1   -6.046679826781346E-1   -1.247117980380998E-5   -4.098128383130941E-6   -9.506973932564999E-6    1.145914534484768E-5    7.906329321281459E-1   -6.089831721722121E-1
 4.986019940179462E8     7.939898192781406E-1   -6.153128789983426E-1    1.827039299487580E-5    2.613373939040744E-6    3.096703992733877E-6   -2.418477813250763E-6    7.824040539086674E-1   -6.198034105152681E-1
 5.085720338983051E8     7.856472982746054E-1   -6.245061512785164E-1    2.056239837968968E-6   -3.673953302400854E-6   -6.559667557700684E-6    7.203767947073435E-6    7.746501025165652E-1   -6.303575779026797E-1
 5.185420737786640E8     7.782950217081361E-1   -6.335826393917254E-1   -6.874956523712528E-6   -9.010464616548358E-6    4.720628832206758E-6   -1.313401570260705E-5    7.668420744656459E-1   -6.402199020073591E-1
 5.285121136590229E8     7.700309051292116E-1   -6.431137209253428E-1   -1.233210635747111E-6    1.203083774091083E-5   -2.525504966355581E-5   -2.734700851419452E-5    7.589707468265214E-1   -6.498623897259804E-1
 5.384821535393819E8     7.613890336468825E-1   -6.530661947007551E-1    5.832544960916634E-6    1.176552665348709E-5    6.148317440827844E-6    6.231638034247933E-6    7.508667149816702E-1   -6.594086309963819E-1
 5.484521934197408E8     7.532366263752526E-1   -6.636294926457816E-1   -1.115593250450167E-5    4.279189156964074E-6   -7.162405723881994E-6   -1.298681811336169E-5    7.424094504992930E-1   -6.692183721034006E-1
 5.584222333000997E8     7.447647625954819E-1   -6.746540889587693E-1   -4.506586279546705E-6    2.970962256511125E-6   -1.530379657593436E-5    9.969402282340646E-6    7.333170746494175E-1   -6.791962167243774E-1
 5.683922731804587E8     7.356138699723331E-1   -6.852023668038547E-1    5.196969380758004E-6    1.961322323692125E-6    1.201076399496447E-5    2.651567620159898E-6    7.230732562435886E-1   -6.892402639958085E-1
 5.783623130608176E8     7.263213182707137E-1   -6.950425100149398E-1   -4.177458078931281E-6    1.690861671856773E-7   -1.132616037669364E-5   -1.166315724187333E-5    7.126417968949001E-1   -6.989658964675446E-1
 5.883323529411764E8     7.169973569045486E-1   -7.051338843322023E-1   -6.796464983217995E-6    1.465036524146118E-7    3.150280235296242E-6   -2.365252731635622E-6    7.021968521510427E-1   -7.086578211449986E-1
 5.983023928215353E8     7.078893369819412E-1   -7.152362400187969E-1    9.987477377267097E-6   -2.513442809935169E-6   -1.302127773057788E-5   -2.378040448997373E-5    6.919475084822558E-1   -7.184131702437134E-1
 6.082724327018943E8     6.984694264022779E-1   -7.250271256990186E-1   -4.111832323000481E-6   -1.454988883687952E-6    3.435889803011645E-6   -1.187819740092410E-6    6.815930151333270E-1   -7.278819762234832E-1
 6.182424725822532E8     6.885526246924332E-1   -7.346423833855150E-1    1.051913024130575E-5    4.249662777834332E-6   -2.527414787447857E-6    3.880957012255829E-6    6.717107276768718E-1   -7.372531430998047E-1
 6.282125124626122E8     6.780285855909107E-1   -7.439762053648491E-1    2.067976362642473E-6    1.773949192501895E-5   -9.688602335480707E-6   -9.198298022774504E-6    6.626773451844442E-1   -7.468203096139563E-1
 6.381825523429711E8     6.683333974385478E-1   -7.510770711913665E-1    1.117998055906085E-5   -5.805612580070579E-6    1.410710567335651E-5   -2.138328100451409E-5    6.537681938278236E-1   -7.557543347406361E-1
 6.481525922233300E8     6.592923004450829E-1   -7.596553414118430E-1   -4.745710174720623E-6   -1.431781940113786E-6   -1.496947391413862E-6    3.358129653584028E-6    6.445580574501025E-1   -7.641066990607255E-1
 6.581226321036890E8     6.496672942574633E-1   -7.685647870485423E-1   -1.055321099839601E-6    1.785907065095862E-6   -3.209324326777237E-6   -2.236006362499283E-6    6.345317265085972E-1   -7.724062377748553E-1
 6.680926719840479E8     6.397268248477986E-1   -7.772948369602958E-1   -8.031203111391815E-7   -7.384607584289892E-6   -1.236188976694408E-5   -9.759220238211978E-7    6.237641274793800E-1   -7.803963523945233E-1
 6.780627118644068E8     6.299718835440633E-1   -7.854318749937188E-1    1.685600208205505E-5   -4.754446113656694E-6    2.421908701332449E-5    2.118017003124276E-6    6.128861861527264E-1   -7.883845435582677E-1
 6.880327517447658E8     6.196236094854632E-1   -7.937085739763534E-1    1.088938456962037E-6    4.697028420443092E-6    3.016210998622794E-6    2.511881306656969E-5    6.016463277944175E-1   -7.961219747456877E-1
 6.980027916251246E8     6.086848909029178E-1   -8.019280842276009E-1    1.027311251719468E-5    9.703977785510458E-6    1.316969166482602E-5    2.396226537345064E-6    5.899923625430692E-1   -8.035227980437055E-1
 7.079728315054835E8     5.973222106446631E-1   -8.102411127557673E-1    3.215295323164912E-7    1.060237116704860E-5    9.976022565616379E-6   -5.518661221233386E-6    5.784135943930742E-1   -8.114678441807062E-1
 7.179428713858424E8     5.861330789640736E-1   -8.187168272089620E-1   -9.196822943596170E-6    2.450818325447322E-6    8.703044010846972E-6   -4.725335136789068E-6    5.672284939884131E-1   -8.201846702578927E-1
 7.279129112662014E8     5.751433922836315E-1   -8.272987948221232E-1   -2.894971471493089E-6   -3.956192524729392E-6    2.802953967063853E-6    1.667027736968198E-6    5.560166391809975E-1   -8.291060008488139E-1
 7.378829511465603E8     5.638784342303603E-1   -8.360348462896422E-1   -5.788275537687663E-6    5.794233751328983E-6    9.304283239746623E-6    8.571838957079814E-6    5.445881333412441E-1   -8.373074481022017E-1
 7.478529910269192E8     5.518884539530673E-1   -8.445049940711261E-1    4.761284562422810E-6   -1.255937415851458E-5   -1.850054031611405E-5    7.744959570697200E-6    5.333762707756488E-1   -8.448827187676281E-1
 7.578230309072782E8     5.392171566846000E-1   -8.517156728432396E-1   -7.378292836088271E-7   -3.792211996512467E-6    2.312270951303746E-5    1.326681396023991E-6    5.221896245116727E-1   -8.518290925923738E-1
 7.677930707876371E8     5.287902350081926E-1   -8.570567917611228E-1    1.430994552710803E-6   -3.881813301314877E-6    1.632143698531885E-6   -2.187202404877878E-7    5.110480421223224E-1   -8.585020955305405E-1
 7.777631106679960E8     5.191850632930832E-1   -8.640029821684249E-1    1.580396097917906E-5   -9.099412291229908E-7    8.337085101258322E-7   -1.847628286872065E-5    4.995553626500115E-1   -8.650451188959141E-1
 7.877331505483550E8     5.088901638089426E-1   -8.709279867642091E-1   -5.802009155859819E-6    9.802417140901992E-6    1.468792408374715E-5    9.360011848195424E-6    4.876949069427961E-1   -8.715428986962869E-1
 7.977031904287138E8     4.977293201458732E-1   -8.772840746774677E-1    9.633928674218998E-6    3.617380659405903E-7   -6.278957812755129E-6   -1.112743633231933E-5    4.748440094993934E-1   -8.778266428973219E-1
 8.076732303090727E8     4.858859482302659E-1   -8.831951996257504E-1   -2.109398897721485E-6   -4.028706066906641E-6   -5.523508605393107E-6   -8.634685213058935E-6    4.620706810711415E-1   -8.840978186265095E-1
 8.176432701894317E8     4.738027499258061E-1   -8.891697080303065E-1   -8.191649339962542E-7    1.144036200935664E-6   -9.539468690627446E-6   -5.191837698157173E-6    4.492402614934760E-1   -8.903961580567683E-1
 8.276133100697906E8     4.616173359363299E-1   -8.957131916766740E-1    6.796908579558776E-6   -6.497514837494656E-6   -4.624427381946367E-6    1.363594778865003E-6    4.366580828112767E-1   -8.971248834779763E-1
 8.375833499501495E8     4.490075608530918E-1   -9.021136585210163E-1    1.557403913418809E-5    3.288024881652611E-6   -7.319370890997028E-6    8.986890263639291E-6    4.243684631000626E-1   -9.038309575640097E-1
 8.475533898305085E8     4.361718324889645E-1   -9.083756322608068E-1   -3.031784367466536E-6   -7.496659366643014E-6   -3.350565967686508E-6   -1.382141048771872E-6    4.125650364600473E-1   -9.096745427376007E-1
 8.575234297108674E8     4.233565439233811E-1   -9.147333398106282E-1   -2.267511570309344E-6    1.155898067413061E-5    2.451212891093281E-6    1.300749225652785E-6    4.008827152724572E-1   -9.152095817170680E-1
 8.674934695912263E8     4.105910002665633E-1   -9.215229195354085E-1    3.242419300661841E-6    1.754722252831459E-6   -3.439618740667029E-6   -9.304374105492801E-6    3.887111217110061E-1   -9.200095788112839E-1
 8.774635094715853E8     3.974603190146848E-1   -9.281160234072469E-1   -1.613475021535691E-6    7.790663825696760E-7   -3.098464247063215E-6    1.949899009026973E-5    3.761491869737942E-1   -9.247185359850890E-1
 8.874335493519442E8     3.843994341261933E-1   -9.327376343365272E-1    1.943576085831768E-6   -5.298078431508782E-7    1.801731408743265E-6    3.195133309439317E-7    3.630811329030925E-1   -9.290614185422651E-1
 8.974035892323031E8     3.730042812257786E-1   -9.364328499443859E-1   -1.068509419680409E-5    8.239494448691021E-6   -5.619953232297048E-7   -8.124885505094955E-6    3.494605480627989E-1   -9.334164091125771E-1
