#  HZ   S   RI   R     50.00 
! Rohde & Schwarz Vector Network Analyzer 
! Rohde-Schwarz,ZNB20-2Port,1311601062102128,3.60
! Created: UTC 4/29/2024, 2:59:56 PM
! freq[Hz]                re:S11                  im:S11                  re:S21                  im:S21                  re:S12                  im:S12                  re:S22                  im:S22
 1.000000000000000E5     9.960917413703155E-1    3.764355135449035E-3   -5.268713736194559E-5    3.017137832037514E-5    2.445634416754560E-4   -2.333534269860372E-6    1.010413804295334      -1.144755404379259E-2
 1.007003988035892E7     9.974499288321199E-1   -1.380480866888776E-2   -1.149068428898305E-5    9.426764858873899E-6    3.293633275831623E-6   -2.992149280417679E-6    9.956523302684618E-1   -1.445444914699843E-2
 2.004007976071785E7     9.997780961749910E-1   -2.701081014592200E-2   -1.566352411429683E-5   -1.538865528541755E-5    1.252532288727703E-5    5.496508289372382E-6    9.987214951281499E-1   -2.767204039160429E-2
 3.001011964107677E7     9.978844606130280E-1   -4.111014803398742E-2    1.122833660904792E-5   -5.727220015867840E-6    7.631252960430957E-6    2.302195482441405E-6    9.975548725753361E-1   -4.202995467512965E-2
 3.998015952143569E7     9.976513873125795E-1   -5.316091207929431E-2    1.826080115272398E-5    4.019760191680421E-6    3.952079283547179E-6    6.960687371569508E-6    9.976547843385604E-1   -5.676980464355855E-2
 4.995019940179461E7     9.960840825787279E-1   -6.597591010875689E-2    9.346939412667967E-6   -1.552742114794923E-5   -1.114454228698724E-5    1.566171934205572E-5    9.964238146593727E-1   -6.917575692394760E-2
 5.992023928215354E7     9.942011087652318E-1   -7.884568125334777E-2   -4.792652361923391E-7   -5.857796218750145E-6   -2.736062727619275E-6    1.151857247261594E-6    9.945283307172643E-1   -8.198382822363386E-2
 6.989027916251247E7     9.930436563237637E-1   -9.177993561301848E-2   -5.472431952299610E-6   -3.037745388901739E-6   -1.736314406956084E-5   -3.507478013637616E-6    9.932103910532906E-1   -9.468779056839520E-2
 7.986031904287139E7     9.925061515566564E-1   -1.052242461906247E-1    4.000203343422016E-6   -6.134290582329698E-6    7.990270552336825E-6    1.034847734448068E-5    9.924011455059821E-1   -1.079213015589997E-1
 8.983035892323031E7     9.914948470971087E-1   -1.188120248355441E-1   -2.927541689511688E-6    2.192045125395048E-6    2.576767906979312E-6    5.283830426809728E-7    9.908169429339756E-1   -1.211067318233630E-1
 9.980039880358922E7     9.894333297578400E-1   -1.323101195962920E-1   -2.751702615429236E-6    6.688169021584871E-6   -9.982166719964088E-6    1.373566746373526E-5    9.885587113745152E-1   -1.345139121656272E-1
 1.097704386839482E8     9.864600218721580E-1   -1.454997436494200E-1   -5.960996095093141E-6    5.949755669752881E-6    8.682307645037572E-6   -1.306637112152345E-7    9.860281153841185E-1   -1.477595623799453E-1
 1.197404785643071E8     9.847292656848935E-1   -1.589338612951221E-1    2.274562277484135E-6   -9.731910833574957E-6   -2.386871554203164E-5    7.023003389772920E-7    9.842616165917448E-1   -1.610448565135175E-1
 1.297105184446660E8     9.830009010201790E-1   -1.718346043533060E-1   -1.110820693359687E-5    1.541753252367409E-5    2.979808710934944E-6   -6.959995693040841E-6    9.827325691279307E-1   -1.744122952957631E-1
 1.396805583250249E8     9.814775921896841E-1   -1.846142167581623E-1    3.691248945891677E-6   -8.461587082952894E-6    4.333978087400952E-6   -1.029788937496669E-5    9.808548445848465E-1   -1.875763126647184E-1
 1.496505982053838E8     9.789371383057089E-1   -1.970683715905880E-1   -3.614793451508152E-8    1.098415277554104E-5   -2.924578237318234E-6   -1.015013039129107E-6    9.785217043938669E-1   -2.004121697322968E-1
 1.596206380857428E8     9.761397330905557E-1   -2.094175580850790E-1    2.803290070733958E-6    4.747915057317419E-6    1.581865177905680E-6   -3.028159798940518E-6    9.755606565785853E-1   -2.132926757548601E-1
 1.695906779661017E8     9.731809437854786E-1   -2.222770148176344E-1   -1.352761197881893E-5   -2.885449414762462E-6   -9.470417325251034E-7    5.122145757007718E-6    9.728014858458786E-1   -2.262285588482699E-1
 1.795607178464606E8     9.707099579664918E-1   -2.346991648578197E-1    5.098641803752824E-6   -8.236823242369798E-8   -2.610835587715665E-6   -7.153763054100583E-6    9.701122264871016E-1   -2.380591716220692E-1
 1.895307577268195E8     9.676737733469593E-1   -2.470100085727909E-1   -4.492876697431379E-6    1.229884705544280E-5   -7.735452218675632E-6   -3.429852375367506E-6    9.666700526138828E-1   -2.504663482350779E-1
 1.995007976071784E8     9.637966428151766E-1   -2.594592259935208E-1    4.097700320504207E-6   -4.074585356944299E-6    7.107073323625743E-6   -7.610460640202320E-6    9.626918203905316E-1   -2.631593892636138E-1
 2.094708374875374E8     9.604054696845016E-1   -2.722677809864537E-1   -2.337148263291376E-6   -3.089419486259725E-6   -2.717205715483417E-6   -1.084591587126290E-5    9.588444207300247E-1   -2.761518394181842E-1
 2.194408773678963E8     9.572694983966563E-1   -2.850803810030895E-1   -8.086737807841959E-6   -4.397754811437161E-6   -3.486304601330034E-6    2.819879133530442E-6    9.551117506014660E-1   -2.890861214549055E-1
 2.294109172482552E8     9.535065324926760E-1   -2.973797750122310E-1    1.671755541206959E-6    2.388639996547750E-6    9.338559699090046E-6    1.665608529695108E-6    9.509773214371713E-1   -3.018487835075789E-1
 2.393809571286142E8     9.505427056119833E-1   -3.093665893460312E-1    1.274500425541752E-5    3.500743580768939E-6   -2.489775083606631E-6    4.657233799025033E-6    9.468546395197016E-1   -3.139527566719026E-1
 2.493509970089731E8     9.468668379437614E-1   -3.232784961992732E-1   -4.176972265814192E-6   -2.058803700927210E-6    1.326770999992341E-6    4.165970748865197E-6    9.440141941679454E-1   -3.276300761498290E-1
 2.593210368893320E8     9.427399281413256E-1   -3.353137317784437E-1   -3.174820477925884E-6   -1.449493629957825E-5   -1.216540473066652E-5   -5.725741391221672E-6    9.398461309268439E-1   -3.408955433171594E-1
 2.692910767696909E8     9.385216032734591E-1   -3.468224743402925E-1   -6.771564232007595E-6    1.991328997416184E-6   -9.454911634760455E-6    2.142996021663824E-5    9.354754958871169E-1   -3.528446401396670E-1
 2.792611166500499E8     9.337204773880233E-1   -3.583975861782733E-1   -3.180670336170892E-6   -1.428726634609113E-5   -7.475035458412145E-6   -5.187294081088438E-6    9.308569847693359E-1   -3.647003478749926E-1
 2.892311565304088E8     9.288424982709078E-1   -3.703584984945952E-1    1.881662581215023E-5   -9.218516781740285E-6    1.720813291859967E-5    6.638589262879458E-6    9.260149392167246E-1   -3.768085521225538E-1
 2.992011964107677E8     9.240416597904857E-1   -3.825074614146967E-1    6.073768604911348E-6   -4.243307366145824E-6   -3.077207521294944E-6    6.688305786941030E-6    9.210827665630719E-1   -3.886504463238433E-1
 3.091712362911266E8     9.188710206555412E-1   -3.948351271622675E-1   -4.511520615016766E-6    1.023716429787890E-5    5.109135102869272E-6   -2.282409277117121E-6    9.157173624211484E-1   -4.001782436771414E-1
 3.191412761714855E8     9.132760430171564E-1   -4.073334158253135E-1    7.318703033853062E-6   -5.742561644087274E-6    4.688357015596439E-6    1.066549420564749E-5    9.096840452517999E-1   -4.119261660109091E-1
 3.291113160518445E8     9.075510952002994E-1   -4.199829011891793E-1   -5.620030221855234E-6   -2.453266129852028E-6   -1.880133173397576E-6    1.156610991982440E-5    9.033860243828430E-1   -4.244210079061246E-1
 3.390813559322034E8     9.019225337147624E-1   -4.327538909119728E-1   -1.424881333045895E-5    2.672042336806160E-6   -5.944525920930464E-6   -7.877650468283938E-6    8.967225421256548E-1   -4.369184549351685E-1
 3.490513958125623E8     8.967594450857939E-1   -4.453374061159597E-1    2.899527009948187E-6    5.263298932818695E-6   -7.321175919428269E-7    9.000415717195606E-6    8.904460266434735E-1   -4.493731658401549E-1
 3.590214356929212E8     8.912782086224336E-1   -4.578223797704177E-1    2.373292452949791E-6    3.147321324863047E-6    1.041101943428646E-5    5.435452053677323E-6    8.845117564426948E-1   -4.621525354024879E-1
 3.689914755732802E8     8.859088636533694E-1   -4.700336727312192E-1    7.567508711086286E-7    2.025686877458595E-6    9.141097925785945E-6    1.076251559202705E-5    8.789581750732336E-1   -4.747463472651335E-1
 3.789615154536391E8     8.797932069873677E-1   -4.812864993265797E-1   -6.827390198524011E-6   -2.224302665602125E-6    4.063784251347951E-6    5.245675839451148E-6    8.737505268479313E-1   -4.867356965361161E-1
 3.889315553339980E8     8.741150496832892E-1   -4.920260417532324E-1    2.039075917500847E-6   -9.412583206415065E-6   -1.703200334629768E-6    6.196705514850416E-6    8.679305263251816E-1   -4.988575080514593E-1
 3.989015952143569E8     8.674094339148746E-1   -5.027192176005030E-1   -6.925176136823425E-6    7.974828008333041E-6   -3.844711210456559E-7   -2.316975525475364E-6    8.610054815214503E-1   -5.097120800774653E-1
 4.088716350947158E8     8.600661698814315E-1   -5.135471674259667E-1    1.314510487115385E-5   -9.241842661413468E-6    7.964670461908521E-6    1.138554929225116E-5    8.541745391475478E-1   -5.206507232080012E-1
 4.188416749750748E8     8.532647494602831E-1   -5.250592278491995E-1   -3.296973553999199E-6    1.087728332446653E-5   -6.957503003636947E-6   -1.637212123420215E-7    8.476889605953449E-1   -5.314312175865665E-1
 4.288117148554337E8     8.459609896183978E-1   -5.367762030199880E-1   -1.178406201512781E-5   -1.101305200907905E-5   -1.115168152233245E-6    8.964866057469156E-6    8.405394886613525E-1   -5.417938521957775E-1
 4.387817547357926E8     8.382416116395258E-1   -5.482046525748804E-1    2.133222757802897E-6    4.071285048354449E-6    3.881827439033132E-6    2.033152588626455E-6    8.326036877339201E-1   -5.523111884494459E-1
 4.487517946161516E8     8.305517711445253E-1   -5.600180280012778E-1   -1.372640715014482E-6   -8.574129993372792E-6    8.154444147542246E-6    9.533021142093838E-6    8.241845433669828E-1   -5.635148957251086E-1
 4.587218344965104E8     8.235346733529085E-1   -5.719242532939024E-1    5.867213783719170E-6   -4.563027365660692E-8    1.278944696803578E-6    5.945203417680856E-6    8.159596711887459E-1   -5.752225600136466E-1
 4.686918743768694E8     8.169849185209840E-1   -5.833295149452555E-1   -9.057987794901298E-7   -8.545750847911168E-6    4.509694326873789E-6    2.271473695901996E-5    8.076911175467996E-1   -5.867321935070398E-1
 4.786619142572283E8     8.099574370295411E-1   -5.942052691485099E-1    3.971583549108694E-6   -3.065584814647096E-6   -4.904608522247510E-6    9.322295549184074E-6    7.992695805476541E-1   -5.980729978867854E-1
 4.886319541375872E8     8.022847924011723E-1   -6.046659698662747E-1   -6.235861312900544E-6    1.141587017134061E-5    1.588686465369024E-5    9.579393422441121E-6    7.905119230567967E-1   -6.089668768342670E-1
 4.986019940179462E8     7.940013701790649E-1   -6.152636108040255E-1    4.873399673393860E-6    8.240833470612313E-6    4.459018631344015E-6    7.680097368359985E-6    7.822900440844305E-1   -6.197611332396459E-1
 5.085720338983051E8     7.855680509486409E-1   -6.244952093743108E-1    5.169273638841414E-6   -6.542717371485743E-6    2.036151279845163E-7    2.503904386127207E-5    7.744848929022674E-1   -6.302780319014768E-1
 5.185420737786640E8     7.782510761032202E-1   -6.335075908567894E-1    3.433302621608161E-6   -8.149652336423119E-7   -1.587596462406202E-5    4.251000566336482E-6    7.669418089743070E-1   -6.401618008844857E-1
 5.285121136590229E8     7.699724311663474E-1   -6.430404342256588E-1   -1.771586149533910E-6   -7.574439084958381E-6   -3.409418553085677E-6    8.778375825378447E-7    7.589211539248182E-1   -6.497690821684140E-1
 5.384821535393819E8     7.613667935954089E-1   -6.531096901031698E-1    1.046260328133521E-6    1.311030069257873E-5    7.693359141049440E-6    3.856118269072368E-6    7.507548829405098E-1   -6.593513030712227E-1
 5.484521934197408E8     7.532602135957717E-1   -6.637045985105684E-1    9.417661235982583E-7   -6.690150027033130E-7   -5.658109091535108E-6   -4.465240753430477E-6    7.423830099445337E-1   -6.691596196789538E-1
 5.584222333000997E8     7.447509603737141E-1   -6.746524769098484E-1    1.204957862420110E-6    3.766593554144636E-6   -1.148250117034544E-6    5.743325774148879E-6    7.332950796852991E-1   -6.792127131411031E-1
 5.683922731804587E8     7.356755395188278E-1   -6.851671483534512E-1    4.834930035898462E-6   -1.048238366726401E-5   -9.103720058167072E-6    1.734513534536991E-5    7.230627821059176E-1   -6.891558589706434E-1
 5.783623130608176E8     7.262592767233421E-1   -6.950213510030235E-1    1.007683459564779E-6   -5.048704341423852E-6   -5.069507722882729E-6   -7.846005711765214E-6    7.126178258855914E-1   -6.989402022745591E-1
 5.883323529411764E8     7.170747134235798E-1   -7.050328461729405E-1    7.821102398949873E-6    8.369901461815782E-7    1.874509615095420E-5    1.447142130967292E-5    7.020564683874938E-1   -7.087336435380813E-1
 5.983023928215353E8     7.078293568296322E-1   -7.151590798326081E-1    3.602162635690175E-7   -1.860577952145959E-5   -6.738564646505516E-6   -2.758979544589859E-5    6.918710731006280E-1   -7.182780484235656E-1
 6.082724327018943E8     6.984489862706240E-1   -7.249523196990046E-1    1.958582075930651E-6    4.049818129535788E-6    2.597578707964338E-5    1.678462917135958E-6    6.816146696980906E-1   -7.276476941520034E-1
 6.182424725822532E8     6.887190690788066E-1   -7.346356236599679E-1   -1.092761267048101E-5    3.515974628895418E-6    4.502592402501374E-6    6.098054477853720E-6    6.716272872786533E-1   -7.372304670461376E-1
 6.282125124626122E8     6.780738362621451E-1   -7.439352799080289E-1    1.664087785260151E-6    1.337825420627475E-6    6.844598787897164E-6   -1.009191427462876E-5    6.626645619912578E-1   -7.468268203356545E-1
 6.381825523429711E8     6.683723359048780E-1   -7.510292768728845E-1   -5.739684307477996E-6   -3.161734266857754E-6    4.048282384298676E-6    1.312883129495831E-6    6.537576514147778E-1   -7.556518134614914E-1
 6.481525922233300E8     6.593751973260251E-1   -7.596335578773389E-1    1.642965164634107E-5   -4.399192436351503E-6   -1.668824256028345E-5    3.195746804532761E-7    6.445431454574500E-1   -7.640933146166107E-1
 6.581226321036890E8     6.496742631184289E-1   -7.686636081402183E-1   -3.767966002628927E-6   -4.421841900246569E-6    5.716318072055635E-6   -4.274354055447126E-6    6.344782114047336E-1   -7.724487785636202E-1
 6.680926719840479E8     6.397095699811403E-1   -7.772778010779058E-1   -9.139596353675968E-6   -1.038799391191563E-5   -1.158155126010103E-5   -1.073991063516382E-5    6.238624607100915E-1   -7.802680421785808E-1
 6.780627118644068E8     6.299251943281536E-1   -7.854312285613808E-1   -1.897527176146353E-6   -4.694485588544427E-6   -8.733219530824299E-6    9.792835129745899E-6    6.128790610430843E-1   -7.883456766999650E-1
 6.880327517447658E8     6.195451600446112E-1   -7.935896067502624E-1    1.332772329922729E-6    6.566356795367963E-6   -8.687340828602432E-6   -5.665410650544212E-6    6.015295242624965E-1   -7.959403097168727E-1
 6.980027916251246E8     6.086170838500974E-1   -8.018830290231687E-1   -1.187263143839823E-5   -1.386416546655117E-5   -5.431904740713758E-6    1.300356197340683E-5    5.899989440679625E-1   -8.037187984511630E-1
 7.079728315054835E8     5.973548594565182E-1   -8.102923030087746E-1   -8.476257987642495E-6    1.342663480150501E-6    8.144735623520330E-6    6.322762432771410E-6    5.784325592534409E-1   -8.115185307059350E-1
 7.179428713858424E8     5.861327881430589E-1   -8.186934949427119E-1    4.409147487880015E-7   -7.344016201015774E-6   -1.023256084552603E-5    1.141689342984247E-5    5.671721310632155E-1   -8.201794453542014E-1
 7.279129112662014E8     5.752067676536591E-1   -8.270985643629551E-1    1.319395479522417E-5   -4.885997628106273E-6   -7.201164302687113E-6   -1.237720571320825E-5    5.559945538755715E-1   -8.288762648495855E-1
 7.378829511465603E8     5.638191799839681E-1   -8.359490820044637E-1   -1.241789930851168E-6    2.871139676526009E-6    1.106843422254988E-6    9.477449945435020E-6    5.445954436706498E-1   -8.372983793202157E-1
 7.478529910269192E8     5.519241500110683E-1   -8.444740675314900E-1    6.723710448730033E-6    1.584221793129684E-5   -4.543174636546738E-6    1.058839839507198E-6    5.334373246355316E-1   -8.450133844676964E-1
 7.578230309072782E8     5.392694142974855E-1   -8.516485003061128E-1    1.080594484798887E-6    1.595285781203526E-5   -6.844398835975412E-6    1.068800111235408E-5    5.222061578137365E-1   -8.519173840047001E-1
 7.677930707876371E8     5.288672980638860E-1   -8.569965687229104E-1    1.041908525905017E-5    5.159950173452105E-6    8.462136325334459E-6    1.597029759171371E-5    5.109369500695413E-1   -8.582826754150856E-1
 7.777631106679960E8     5.191836891192507E-1   -8.638049591079929E-1    5.517440964411943E-6   -4.998486485015721E-6    1.327678862521217E-6   -8.138015108269003E-6    4.994483291982831E-1   -8.648120419917946E-1
 7.877331505483550E8     5.089018686111606E-1   -8.707822370896129E-1    7.828499975660450E-6   -2.115440518180267E-6   -6.520319746975939E-6   -5.438589183899318E-6    4.877277910182943E-1   -8.715391578991154E-1
 7.977031904287138E8     4.977543262938684E-1   -8.772899910560029E-1   -3.447851497503692E-6    1.407474306449000E-6   -4.898354161197673E-7   -7.096026725319214E-6    4.749600205871262E-1   -8.778644208711304E-1
 8.076732303090727E8     4.859209681646585E-1   -8.830822478664533E-1   -5.115045752168284E-6    4.252790196141681E-6    1.111135933565298E-5    1.960564990320241E-5    4.620868490242696E-1   -8.840092497841440E-1
 8.176432701894317E8     4.739366910459941E-1   -8.891750513998922E-1   -4.979557965123341E-6    5.193056449000413E-7   -7.801251067504698E-6   -7.002268039302404E-6    4.492475254888061E-1   -8.903529465194481E-1
 8.276133100697906E8     4.615525653141483E-1   -8.955704037222167E-1   -2.034648178659660E-6   -1.005713667554112E-5   -7.728245714473903E-6    3.691684416437584E-6    4.365865022197005E-1   -8.970214783676338E-1
 8.375833499501495E8     4.490048778257268E-1   -9.020352310013148E-1    1.649658607243733E-6   -4.409134602786593E-6    6.977111992140530E-6   -6.032113701293351E-7    4.243759133253768E-1   -9.036999358943973E-1
 8.475533898305085E8     4.361894633006165E-1   -9.084940122924992E-1   -5.880689550907021E-6    3.906952508177791E-6    5.895209353162942E-6   -5.657314116479548E-6    4.125649858188424E-1   -9.098133344392385E-1
 8.575234297108674E8     4.234442041475592E-1   -9.147540988900674E-1   -8.029679947706062E-6    8.058528502832284E-6   -4.064957324021933E-6    8.013693208486142E-6    4.007839948387991E-1   -9.151491875035435E-1
 8.674934695912263E8     4.105750951264204E-1   -9.213590280419994E-1   -7.615330133825757E-6    1.189111132028292E-6    1.772511226793342E-6   -8.496141941274656E-7    3.886711227094151E-1   -9.198209467492061E-1
 8.774635094715853E8     3.975188802547521E-1   -9.280290438068572E-1    1.580066571687592E-6   -7.676825606613581E-6   -1.642614652983810E-5    1.438568553430473E-5    3.760674626706859E-1   -9.245347104268234E-1
 8.874335493519442E8     3.844789322621678E-1   -9.326395857500026E-1    9.941217633491427E-7   -1.557198770001009E-5   -1.411370653392375E-6   -4.233705138488663E-6    3.629573450531696E-1   -9.289828108744158E-1
 8.974035892323031E8     3.731275452930561E-1   -9.363356723267076E-1    1.835140114049875E-5   -1.273287495809022E-5   -1.594291717632555E-6   -3.278296738844266E-6    3.495619215917277E-1   -9.334330884904831E-1
