#  HZ   S   RI   R     50.00 
! Rohde & Schwarz Vector Network Analyzer 
! Rohde-Schwarz,ZNB20-2Port,1311601062102128,3.60
! Created: UTC 4/29/2024, 2:59:41 PM
! freq[Hz]                re:S11                  im:S11                  re:S21                  im:S21                  re:S12                  im:S12                  re:S22                  im:S22
 1.000000000000000E5     9.966720290688720E-1    3.894023426028265E-3    1.377109749619424E-4   -9.721295786575652E-5    1.129886007559927E-4    2.217453847572286E-5    1.010576098171112      -1.145347841890953E-2
 1.007003988035892E7     9.993259956059292E-1   -1.392582476927233E-2   -5.752936429430067E-6   -1.782020970249865E-6    2.396728350539449E-6   -1.474161574005999E-6    9.960174226985034E-1   -1.456836012317832E-2
 2.004007976071785E7     9.988038903631380E-1   -2.699878172470856E-2    3.206479724327704E-5   -1.625538939873253E-5   -4.654169751535215E-7    1.107340255060596E-5    9.989124973950976E-1   -2.772165080614783E-2
 3.001011964107677E7     9.982330498455311E-1   -4.108788167467999E-2   -7.942104040045682E-6    1.387964875392158E-5   -2.683836467253875E-5   -6.653230021738488E-6    9.976044503715255E-1   -4.198209157454431E-2
 3.998015952143569E7     9.969097661461116E-1   -5.313008278017974E-2   -1.180883694642218E-5   -5.608062170326741E-6    1.108579477697180E-5    6.523457854274295E-6    9.976330801699662E-1   -5.672228588616751E-2
 4.995019940179461E7     9.951594924679433E-1   -6.605160296691592E-2    1.847000811965044E-6   -9.895078831820813E-6    2.295808650386714E-6   -3.101070466832385E-6    9.965269551325985E-1   -6.908038772707302E-2
 5.992023928215354E7     9.941316950021382E-1   -7.879971100694234E-2    7.206914874994469E-6   -5.118531401547523E-6   -7.266006690553557E-6   -6.709123789428999E-6    9.944972468544223E-1   -8.187370658702817E-2
 6.989027916251247E7     9.937791413757192E-1   -9.190566091693253E-2    1.317859845131859E-5   -7.123301149903860E-6   -3.996150601623650E-6   -1.287010609131925E-5    9.934598446557841E-1   -9.476681335812533E-2
 7.986031904287139E7     9.931405002499993E-1   -1.052894663156166E-1   -1.034377751868427E-5    2.627803594861578E-6   -8.168410101823903E-6   -9.808617759287677E-6    9.923545525620213E-1   -1.079370500453704E-1
 8.983035892323031E7     9.913100611028273E-1   -1.187848526178392E-1    1.133932846537720E-5    4.075946658124158E-6   -6.840969275324094E-6   -8.843137137476308E-6    9.907358430707107E-1   -1.211000661156994E-1
 9.980039880358922E7     9.885358486247938E-1   -1.321853850548062E-1   -6.780315740227035E-6    1.156106266864304E-5    1.020686128791286E-5   -9.992087663204740E-7    9.884585756416969E-1   -1.344856957751535E-1
 1.097704386839482E8     9.861869309129689E-1   -1.454766607892606E-1    7.825079049949235E-6    1.310723478162458E-5    1.438058938056889E-6    6.121014143634484E-6    9.861388930693200E-1   -1.477676786248239E-1
 1.197404785643071E8     9.853368541920257E-1   -1.589791815720815E-1    2.379739559320198E-6    9.127846049846264E-6    1.581620733684790E-5   -1.059581714174877E-6    9.842650636501721E-1   -1.611401082597655E-1
 1.297105184446660E8     9.833887927235309E-1   -1.718331911585741E-1   -9.710277638312848E-7   -5.401923716263899E-6    1.014333146205359E-5    6.999673428462539E-6    9.828113051254038E-1   -1.743914483607616E-1
 1.396805583250249E8     9.818528730440482E-1   -1.846765840402310E-1   -1.155694661086634E-5   -8.983601564220748E-6   -6.539080931107424E-6    3.045388745844094E-6    9.807638637443131E-1   -1.874863538949113E-1
 1.496505982053838E8     9.784192266251358E-1   -1.970052296189592E-1   -1.313291588759811E-5   -5.290475670870206E-6    5.127634922524044E-7    1.112176185540442E-5    9.784241620675986E-1   -2.003392655866239E-1
 1.596206380857428E8     9.759637336785483E-1   -2.094430804687979E-1    2.350247233537207E-6   -2.806783941638645E-6   -4.155042218669735E-6    6.864582097694304E-6    9.756617922233144E-1   -2.133465097835257E-1
 1.695906779661017E8     9.735649154926580E-1   -2.223687814319644E-1    1.536633371125161E-5    6.762790509526777E-6    6.809497938226086E-6    1.904562138406115E-6    9.726917541128791E-1   -2.261671125001399E-1
 1.795607178464606E8     9.709049536418843E-1   -2.348395643160475E-1   -1.430849800783474E-6    2.791763266953270E-6   -8.514838346746434E-6   -1.009763421765666E-5    9.701263731922583E-1   -2.380395455245461E-1
 1.895307577268195E8     9.674575548620320E-1   -2.469844822140569E-1    3.792086713735012E-6   -6.813081099890717E-6    1.593996879593300E-5   -7.061780502878269E-6    9.667084473442443E-1   -2.505130848337099E-1
 1.995007976071784E8     9.636523396799053E-1   -2.593698281655283E-1   -6.697302383732198E-6    4.296913711603796E-6    9.720952578909775E-6    8.452360281477494E-6    9.626646124284272E-1   -2.630923540148939E-1
 2.094708374875374E8     9.605712776792663E-1   -2.724828481975313E-1    1.144821979049259E-5    3.196250681818905E-6   -2.656239229031587E-6   -1.035252754170997E-5    9.587674568001948E-1   -2.761910071463707E-1
 2.194408773678963E8     9.575096238145592E-1   -2.851662940512416E-1   -1.105184877548488E-5   -1.710940898442280E-5   -7.331806433280747E-6   -1.697911081765267E-5    9.551118617440897E-1   -2.891393203626151E-1
 2.294109172482552E8     9.535991694042305E-1   -2.972978494650664E-1   -1.007087073045957E-5    3.652903322118971E-6   -8.196856071043390E-6    5.978915528442437E-6    9.508296019969781E-1   -3.017207897383098E-1
 2.393809571286142E8     9.504706239666072E-1   -3.093656197942594E-1    7.688322171870662E-6    1.808601173862952E-5   -2.658080189470814E-6   -7.656607410732540E-6    9.469610350205533E-1   -3.140327224049203E-1
 2.493509970089731E8     9.469126584838121E-1   -3.232811485587581E-1    2.486020888982938E-6    7.245697329883039E-6   -6.558145503921216E-6   -9.424876035577303E-6    9.441046208034708E-1   -3.275664974045021E-1
 2.593210368893320E8     9.427674276563568E-1   -3.353286373245666E-1   -1.822289405717852E-5   -3.452534446591085E-6   -4.983768342284592E-6    2.079267419396738E-7    9.397330700486295E-1   -3.408122573071564E-1
 2.692910767696909E8     9.384695694259044E-1   -3.467500362915713E-1   -1.373056412699054E-5   -9.186292417241318E-6   -2.383373207056235E-5   -7.484748720538914E-6    9.353858836936043E-1   -3.528668131593299E-1
 2.792611166500499E8     9.336066033495742E-1   -3.583397432343804E-1   -7.162587416133850E-6    1.155861184286212E-5    5.396580217650071E-6   -3.835416544815944E-6    9.308730271745630E-1   -3.645784972540701E-1
 2.892311565304088E8     9.289865940672837E-1   -3.705090174398163E-1   -1.202835264595963E-5   -1.286610641212651E-5   -1.421294078589615E-5    1.304619440355949E-6    9.261623675358914E-1   -3.768848076970714E-1
 2.992011964107677E8     9.241858973505565E-1   -3.826500726107102E-1   -2.156690693630916E-5   -3.320308432283846E-8    1.953011503501003E-5    1.036826070658436E-5    9.211615989708947E-1   -3.886558317841846E-1
 3.091712362911266E8     9.188384433351517E-1   -3.948409371234471E-1    1.140635382411907E-5    1.979537587123818E-6    1.402409516821977E-5   -2.052975345145810E-5    9.155942521122143E-1   -4.001289419159961E-1
 3.191412761714855E8     9.130705852478175E-1   -4.072364683920836E-1   -1.992525740974919E-6   -2.268802618902749E-5   -2.591615282733055E-5    5.623720531761604E-6    9.097577373870982E-1   -4.119287485018406E-1
 3.291113160518445E8     9.075175833111010E-1   -4.199538106687180E-1   -1.062051966980713E-5   -2.436957703106400E-6    1.874710394878833E-5    1.439984486535733E-5    9.033957220021878E-1   -4.243585993720426E-1
 3.390813559322034E8     9.021269346692685E-1   -4.328302285119006E-1    3.913657693898855E-6   -1.284498967173657E-5    9.464416907783038E-7    3.664629302409210E-6    8.967805615904936E-1   -4.368807391819343E-1
 3.490513958125623E8     8.967426371098873E-1   -4.453053327549548E-1   -7.826328489734519E-6   -8.112927515272201E-6    1.018796317464337E-5   -2.402285642141866E-5    8.904820670558402E-1   -4.493454235291378E-1
 3.590214356929212E8     8.911855428119064E-1   -4.578376055689720E-1    2.654395150456282E-6   -1.623811257188348E-6   -1.528902769937847E-7    5.802980022360750E-6    8.844508323105756E-1   -4.619872513110706E-1
 3.689914755732802E8     8.857804420695317E-1   -4.699519423744755E-1    7.476021331362397E-6   -4.487503039543667E-6    9.148509357768860E-6    5.409653654654395E-6    8.790637728342342E-1   -4.746817627775466E-1
 3.789615154536391E8     8.798189024031763E-1   -4.812429267863131E-1    9.727372752664804E-6    6.321130657614516E-7   -1.179550262321586E-5    1.899705701171497E-5    8.738381710536611E-1   -4.867529692093949E-1
 3.889315553339980E8     8.742706541258195E-1   -4.920146552611671E-1   -7.592575510672807E-6    6.747223938976419E-7    1.232788419645692E-5   -9.562826734297757E-6    8.678024257540222E-1   -4.987271329292288E-1
 3.989015952143569E8     8.673546621824058E-1   -5.027921115892753E-1   -6.437910398421435E-6    1.713590238524569E-5    1.026181640524063E-5    6.274814118742395E-7    8.610168212770092E-1   -5.097397892687318E-1
 4.088716350947158E8     8.601498049562606E-1   -5.134544837741198E-1   -3.564542519931624E-6    5.216023461616696E-6   -8.253862916357226E-7    4.382108276185787E-6    8.541332126276556E-1   -5.206276015260686E-1
 4.188416749750748E8     8.532854550785861E-1   -5.251627274761030E-1   -1.902548496241356E-6   -6.060246954449105E-6   -9.230802455911800E-6    1.337640669891061E-6    8.476585540735730E-1   -5.315296023001507E-1
 4.288117148554337E8     8.459965632517694E-1   -5.367999566806633E-1    4.220287624075735E-6   -3.126413653603437E-6    2.157065025836636E-6    4.459088730584896E-6    8.405474017403369E-1   -5.417875016090797E-1
 4.387817547357926E8     8.382062643264262E-1   -5.481829489254890E-1    8.239856504132342E-6    5.484810868759620E-6   -6.748021481975355E-6   -2.383057372100405E-6    8.325163059777402E-1   -5.522457369070678E-1
 4.487517946161516E8     8.304816043470572E-1   -5.599488324705022E-1   -5.425146107041376E-6   -6.354568128399107E-6   -6.571555091017565E-6   -9.996658830379287E-6    8.241759798593342E-1   -5.634082561490386E-1
 4.587218344965104E8     8.234693797745496E-1   -5.718768347508565E-1   -5.806243689199742E-6    5.353610449117554E-6    6.214329367693380E-6    4.101797956687001E-6    8.160060893970128E-1   -5.752620960745226E-1
 4.686918743768694E8     8.170277979884911E-1   -5.833922643796939E-1    6.879727013045289E-7    2.236715990959710E-6   -4.374359564274011E-6    5.318170975358492E-6    8.078538877567796E-1   -5.867958468291459E-1
 4.786619142572283E8     8.098946382224828E-1   -5.942007932955460E-1    8.170884237486994E-7   -3.409664996137863E-6   -2.568357482381011E-7   -1.838381718057611E-5    7.993367435562958E-1   -5.980884006371467E-1
 4.886319541375872E8     8.022054016079468E-1   -6.045831787072393E-1   -3.060606120404026E-6   -9.486554929597024E-6    2.259473979935276E-5   -1.386552907502408E-5    7.904387628014407E-1   -6.087623989265970E-1
 4.986019940179462E8     7.939847419898359E-1   -6.152946904323903E-1    7.819822588684956E-7   -7.773455590914527E-7   -5.227018400077447E-6   -7.108470137660685E-6    7.823068266294601E-1   -6.196900475688698E-1
 5.085720338983051E8     7.856304517778085E-1   -6.245028439274883E-1    1.545183695650444E-5    1.889718273220034E-5    3.626537276216246E-7    6.749022436866911E-6    7.746485801813224E-1   -6.302881310197143E-1
 5.185420737786640E8     7.782114673935501E-1   -6.334902333399225E-1    9.030949304821360E-6    1.120489376770250E-6   -4.891132037041326E-6   -3.840860172468337E-6    7.668688681816497E-1   -6.400276024203566E-1
 5.285121136590229E8     7.699800962725332E-1   -6.430495833055411E-1   -2.065223807604996E-7    8.870932370711130E-7    1.166124859813733E-5   -1.916454622392171E-6    7.589058370608067E-1   -6.496021466724010E-1
 5.384821535393819E8     7.613777145531988E-1   -6.530825454696432E-1   -7.607846968775926E-6    3.924999841803486E-6    1.511013587395631E-5   -1.515649088023592E-5    7.508464919223446E-1   -6.592742058240779E-1
 5.484521934197408E8     7.531960361983904E-1   -6.636383476928974E-1    2.593798317648886E-6   -2.491618695759734E-6   -1.612486591719421E-5   -5.180570568158251E-6    7.424894193471065E-1   -6.692428323764598E-1
 5.584222333000997E8     7.446776371978469E-1   -6.745186323212736E-1   -8.876242516732231E-6    9.046909055252804E-6   -9.620559107598579E-6   -8.275305694778055E-7    7.332524024125031E-1   -6.791687247583303E-1
 5.683922731804587E8     7.354818501555613E-1   -6.851432798559335E-1   -1.762881572668372E-6    6.639927601386793E-6    1.682042955265106E-5    3.781491934836114E-8    7.230919723312017E-1   -6.891240750907707E-1
 5.783623130608176E8     7.262550575207469E-1   -6.950282783640257E-1    1.096720613380403E-5    6.398261885316903E-6    9.374046231539168E-6    1.994374512206696E-6    7.126055958596408E-1   -6.989124453132790E-1
 5.883323529411764E8     7.169939206112570E-1   -7.049853494091425E-1   -9.403451092151455E-6    7.290457389823259E-6    5.816364002840187E-6    2.064493283775390E-5    7.022035975440809E-1   -7.087047821487902E-1
 5.983023928215353E8     7.077535487485510E-1   -7.151204930084888E-1    1.051112172587255E-5   -6.929753371620475E-6   -3.675830712356055E-5    1.155348385907998E-5    6.919245119000581E-1   -7.182537865878197E-1
 6.082724327018943E8     6.983946423653610E-1   -7.249266143318208E-1   -6.646066488503441E-7    1.563594422040341E-6    1.045295626721159E-5    7.957665041841352E-6    6.816110442235989E-1   -7.277394993243101E-1
 6.182424725822532E8     6.885842529769114E-1   -7.346119901787155E-1    1.416406412847954E-5   -9.705518056030575E-6    1.006358078368751E-5   -9.389564536243293E-6    6.717404841412374E-1   -7.371765116943800E-1
 6.282125124626122E8     6.779466817212493E-1   -7.439428221058659E-1   -7.679354297629345E-6   -1.135881178494087E-6   -2.245423537467596E-5    6.162223814923752E-6    6.626536808506458E-1   -7.467954964953566E-1
 6.381825523429711E8     6.682149034488885E-1   -7.509529373499860E-1    2.908618948119147E-6    8.142972589033772E-6    3.159397347001618E-6    8.247345404652167E-6    6.536905161545027E-1   -7.556196648437075E-1
 6.481525922233300E8     6.593314528425002E-1   -7.596029597578809E-1    7.442151476597556E-6   -1.387191500397186E-5    2.810608168873440E-6   -3.678449792921009E-6    6.446420180773703E-1   -7.641408044665081E-1
 6.581226321036890E8     6.497717410864835E-1   -7.685835667222148E-1   -1.699958303215315E-5   -1.018725434157042E-5   -1.171255978235704E-5   -4.076319888953729E-6    6.344669400134491E-1   -7.724009346171857E-1
 6.680926719840479E8     6.396523972147220E-1   -7.771840095223870E-1    4.797081688801488E-6    1.302896920170508E-5    6.073814806450511E-6    1.182574910532888E-6    6.240016297321027E-1   -7.805071189576441E-1
 6.780627118644068E8     6.297516852249774E-1   -7.853066559037416E-1   -1.334105112555506E-5    4.867674152228245E-6   -2.651301296900086E-6   -2.961372949481858E-6    6.129235839635168E-1   -7.883969554692578E-1
 6.880327517447658E8     6.194584282931235E-1   -7.936611839074986E-1   -9.319498902443335E-7   -9.798789413331309E-6    1.158324024831789E-5    2.845820592310887E-6    6.015559745219428E-1   -7.959113762727021E-1
 6.980027916251246E8     6.086469897514375E-1   -8.018053795595215E-1   -1.314947141721360E-5    8.162812306564668E-6   -1.399957639289932E-6   -1.172742368733885E-5    5.899246860458365E-1   -8.035558222188023E-1
 7.079728315054835E8     5.972093326386009E-1   -8.101997754832553E-1   -6.929866982491068E-6   -2.625408805697118E-6    4.105143475060073E-7    6.434642576005227E-6    5.784404033041028E-1   -8.115829570396208E-1
 7.179428713858424E8     5.860042450445027E-1   -8.186651475946024E-1   -1.159801818486990E-5   -9.254769518998149E-6   -5.964008484334644E-6   -2.744419183170223E-6    5.672605037844743E-1   -8.201737234001326E-1
 7.279129112662014E8     5.750407162866810E-1   -8.270738650911346E-1   -7.323251310403028E-6   -9.588662751956446E-6   -2.591976835307725E-5   -5.911291604381923E-6    5.559273673593869E-1   -8.289518967484171E-1
 7.378829511465603E8     5.637513256059298E-1   -8.359608864011571E-1   -4.778626214366623E-6    4.393905202220134E-6    8.910759786121313E-6    1.418658671655341E-5    5.445536065309325E-1   -8.372611706688478E-1
 7.478529910269192E8     5.518378572081027E-1   -8.445912705399513E-1    3.862604941674032E-7   -1.682297115082104E-6    5.638608229868217E-6   -7.774135562307001E-7    5.334182120921152E-1   -8.450054068729795E-1
 7.578230309072782E8     5.391706393293605E-1   -8.516101422018277E-1   -2.353669261231272E-6    8.234174428990192E-6    2.049653719570265E-5    1.131961686518790E-5    5.222703538160938E-1   -8.518900627295545E-1
 7.677930707876371E8     5.286947635436274E-1   -8.569729200724200E-1   -4.999036473276715E-6   -4.580360275815947E-6    6.334966399329485E-7   -2.260332876081213E-6    5.110596301894381E-1   -8.584450518005011E-1
 7.777631106679960E8     5.191539371986309E-1   -8.639215154394060E-1   -1.150947330525070E-5    2.671797773291350E-6   -3.432673721334660E-6   -1.161347458991992E-5    4.994898716249765E-1   -8.648449291825596E-1
 7.877331505483550E8     5.088697726658250E-1   -8.708393980669763E-1   -1.235271759201979E-5   -4.020820768308473E-6   -3.810934590980185E-6   -1.756440778505964E-6    4.875645768579687E-1   -8.714514311522989E-1
 7.977031904287138E8     4.976770463941873E-1   -8.772545834870630E-1   -1.551094540939052E-5   -8.894971282678762E-6    2.324048153792110E-6    7.413658226844278E-6    4.748822907963824E-1   -8.779810383680606E-1
 8.076732303090727E8     4.859031315797480E-1   -8.832018771059845E-1   -2.755658698870871E-6   -1.136281036459151E-5   -8.131761015086518E-6    1.549934009905579E-6    4.619946300695170E-1   -8.840850970718239E-1
 8.176432701894317E8     4.738077430111362E-1   -8.890261716514375E-1    5.635672747904274E-7    2.063924381434220E-6    5.700129302437533E-6   -7.632994145104689E-6    4.492043442233316E-1   -8.903318942490629E-1
 8.276133100697906E8     4.614809128922952E-1   -8.954414523751746E-1    8.774750004837982E-6    4.071318505862237E-6   -8.097984466986687E-7   -7.330830491633128E-6    4.365297988479918E-1   -8.970835021491828E-1
 8.375833499501495E8     4.488970442903558E-1   -9.019830202375611E-1   -4.019304317977644E-6   -4.614873699646993E-6    1.072612548318017E-5    1.540131592306549E-5    4.244055857537554E-1   -9.037606199054385E-1
 8.475533898305085E8     4.361405050468531E-1   -9.084071323768694E-1    9.879692677576287E-6   -7.328260085287696E-6   -2.223808070814954E-6    1.451886728614961E-6    4.124928640552135E-1   -9.096950046142364E-1
 8.575234297108674E8     4.232864841403020E-1   -9.146590707436214E-1    1.266066626091954E-5   -4.052716268364454E-6   -5.870000210155032E-6   -1.463956987340314E-5    4.007449627052810E-1   -9.150835519569360E-1
 8.674934695912263E8     4.104852019740595E-1   -9.212539680254614E-1   -4.228937635561783E-6    2.109418970605050E-6   -5.646600602833124E-7   -5.010346072107533E-6    3.887649224892291E-1   -9.200972992852288E-1
 8.774635094715853E8     3.973135366058581E-1   -9.279076543996929E-1    8.547976203255484E-6   -1.405141430543698E-6   -1.697678024178400E-5    5.968561191518268E-6    3.761603258421505E-1   -9.246844208494676E-1
 8.874335493519442E8     3.842918259913101E-1   -9.325762309918031E-1    1.020633158845191E-6    1.484289913940330E-5    1.639077465160244E-5   -5.109280583065906E-6    3.630653092583598E-1   -9.290727440295830E-1
 8.974035892323031E8     3.730244775850430E-1   -9.362419422343584E-1    7.869281226698433E-6    4.003077331065210E-6    2.018327141892784E-6    1.199148369436810E-6    3.495263499733355E-1   -9.332743836349472E-1
