#  HZ   S   RI   R     50.00 
! Rohde & Schwarz Vector Network Analyzer 
! Rohde-Schwarz,ZNB20-2Port,1311601062102128,3.60
! Created: UTC 4/29/2024, 2:59:39 PM
! freq[Hz]                re:S11                  im:S11                  re:S21                  im:S21                  re:S12                  im:S12                  re:S22                  im:S22
 1.000000000000000E5     9.961002509845129E-1    3.777618589302850E-3   -4.451460502542599E-6    8.125218232331193E-5    2.513606573034537E-5   -6.912664337699141E-5    1.010580786750046      -1.127466835831064E-2
 1.007003988035892E7     9.977316545197008E-1   -1.369046679017468E-2    6.364919150561203E-6   -2.152805777120956E-5   -1.264378656353414E-5    1.469945062964615E-5    9.957739559261707E-1   -1.445400356162809E-2
 2.004007976071785E7     9.997490056252880E-1   -2.720229330094692E-2    5.748813340528210E-6   -1.486046960168748E-8   -9.552267786553656E-6    1.009520014714116E-5    9.988049709522117E-1   -2.771412155238248E-2
 3.001011964107677E7     9.978646029764890E-1   -4.108991900129084E-2    4.194017919036959E-6   -4.612978611539425E-6    1.765638032026998E-5    1.923768957389731E-6    9.975444085169254E-1   -4.199973296657405E-2
 3.998015952143569E7     9.976132922278201E-1   -5.309734004252778E-2   -1.622528035535902E-6    7.607922546497227E-6   -1.473652255429608E-5    2.670862950105433E-5    9.977243058345797E-1   -5.663942876643967E-2
 4.995019940179461E7     9.960618896272281E-1   -6.608043445891330E-2   -3.008585547616996E-6    3.385398342866416E-6    1.049332073356357E-6   -2.042238237801766E-5    9.965550651025167E-1   -6.914087944716184E-2
 5.992023928215354E7     9.941204488585125E-1   -7.886639271344822E-2    1.400410817335950E-5   -4.474915105789919E-6    3.190600295216700E-6   -5.453696575115107E-6    9.946213197810098E-1   -8.193283801910314E-2
 6.989027916251247E7     9.929766014116365E-1   -9.177256191674547E-2   -2.891624456867924E-6   -5.529036294009940E-6   -8.088937643688005E-6   -1.704658156811734E-5    9.932836062637626E-1   -9.489437188172933E-2
 7.986031904287139E7     9.925020556209404E-1   -1.052828145834043E-1    8.631822705075493E-6   -4.572764048602191E-6    6.339618269160188E-6    2.995059528166102E-5    9.922969202122799E-1   -1.079161757190860E-1
 8.983035892323031E7     9.913961428717366E-1   -1.188017048199807E-1   -4.301849859666757E-6   -7.175961956198831E-6   -1.782294763451609E-6    5.424552869527646E-7    9.909161654947303E-1   -1.211157452297132E-1
 9.980039880358922E7     9.893399402504713E-1   -1.323371134829842E-1   -2.686399289263307E-6    2.804114480222145E-6    8.848733072795950E-6    6.110228901769469E-6    9.886827662777709E-1   -1.344814371627238E-1
 1.097704386839482E8     9.865328088362885E-1   -1.455797105099901E-1    2.782681047424200E-6   -1.072194622919990E-5   -3.555040738061391E-6   -1.718000032949822E-5    9.858843952216479E-1   -1.476859178666833E-1
 1.197404785643071E8     9.848065880053840E-1   -1.589192358898303E-1   -4.636301798738515E-6    2.587970767164736E-6    1.503845912935250E-5    1.182850113882394E-5    9.841836028472379E-1   -1.610756737495113E-1
 1.297105184446660E8     9.829182784102012E-1   -1.717742116711773E-1    1.760641002778567E-6    1.732865986894681E-5   -1.742603276510974E-5   -1.390852881794244E-5    9.827126505249082E-1   -1.744170322303555E-1
 1.396805583250249E8     9.815009020992338E-1   -1.846139564805799E-1   -5.137070946195708E-6   -4.819626118657489E-6    2.757057881652994E-6   -9.372160835258947E-6    9.809541690015570E-1   -1.876040783294858E-1
 1.496505982053838E8     9.789573377350091E-1   -1.970894080752750E-1    2.890368642652452E-6   -4.916570400352448E-6    3.740875986641971E-6    1.511881209770306E-5    9.784332583667031E-1   -2.004456157718291E-1
 1.596206380857428E8     9.761682610510568E-1   -2.095167528204544E-1   -5.939076969955518E-6    1.342199826890127E-5    8.667731277226352E-6    4.231984180804431E-7    9.756066968678480E-1   -2.132099368156069E-1
 1.695906779661017E8     9.730738584797797E-1   -2.223016565971088E-1    5.669348165185735E-6    3.630725530929992E-6    3.914130132203025E-6    3.975926404490633E-6    9.728734132801593E-1   -2.261383768957633E-1
 1.795607178464606E8     9.706747138657984E-1   -2.348247832710846E-1   -4.308135172641848E-7    3.231576392323129E-6    7.541867997350911E-6    7.966485993049763E-6    9.702165239789552E-1   -2.380725531816891E-1
 1.895307577268195E8     9.678202959619828E-1   -2.470499582829546E-1   -1.607417589400772E-5    2.292917878788777E-5    3.407482292695059E-6    1.046725881802028E-5    9.666695029363914E-1   -2.505324215418662E-1
 1.995007976071784E8     9.637839800340808E-1   -2.596002982335661E-1   -4.192516629394450E-6    1.524593111177455E-5   -6.038678146617771E-6    2.708225077352136E-6    9.626824797688737E-1   -2.631098926049720E-1
 2.094708374875374E8     9.602285322377986E-1   -2.722914497344677E-1   -1.447657526102884E-5    2.178368787940913E-7   -1.568630413193142E-5   -5.891378484894120E-6    9.588800320120594E-1   -2.761592108646749E-1
 2.194408773678963E8     9.573435099616807E-1   -2.851681511019355E-1    3.711229631720661E-6    1.543703967588519E-5   -9.724490296665996E-6    1.214580467742824E-5    9.552127483863292E-1   -2.891633365693662E-1
 2.294109172482552E8     9.537333597757451E-1   -2.974418540301624E-1   -7.122785371509789E-6   -9.690912468716230E-6   -6.280503781682373E-6    1.663780331461306E-5    9.510001698923913E-1   -3.017839017385369E-1
 2.393809571286142E8     9.504841754700812E-1   -3.093380142350667E-1    1.697606361278099E-5    5.910690524647301E-6   -1.376541263382746E-5    1.254869340255125E-5    9.469039218788753E-1   -3.140383418266416E-1
 2.493509970089731E8     9.467168309389686E-1   -3.232212382710998E-1   -4.355288992297974E-6    4.432073392651802E-6   -2.559986379687719E-5   -3.272754185845776E-5    9.441051534714764E-1   -3.276370871522116E-1
 2.593210368893320E8     9.427400991033238E-1   -3.353777773566314E-1   -3.613105373418228E-6    3.028411304341555E-6    9.638335917903152E-7   -3.421181973698524E-6    9.398284745231209E-1   -3.408492040026700E-1
 2.692910767696909E8     9.386909296529331E-1   -3.468256411635168E-1    6.603704593536213E-6   -4.276595416518934E-6   -7.675753915139427E-7   -7.287986688652234E-6    9.355586602226224E-1   -3.529372898483009E-1
 2.792611166500499E8     9.337139803387507E-1   -3.583830932963165E-1    1.633843426467342E-5   -5.664676091115830E-6    3.486340095026325E-7   -3.741661061289054E-6    9.309132987712112E-1   -3.647279006307463E-1
 2.892311565304088E8     9.288076045972203E-1   -3.703685365849423E-1   -1.585170087601830E-6    1.370866253763783E-5   -5.807236528274494E-7   -1.264233654110698E-5    9.261270042506861E-1   -3.768575647989236E-1
 2.992011964107677E8     9.240987172405463E-1   -3.826301976220708E-1    7.640849973945715E-6   -7.673072272693458E-6   -7.767982747169757E-6   -2.585603850788816E-6    9.211736503204324E-1   -3.886494301745002E-1
 3.091712362911266E8     9.188686510030021E-1   -3.949732485388447E-1    1.698641597940990E-5   -1.749487156299932E-5   -2.335633653479638E-6    8.282047548266792E-7    9.156977672067866E-1   -4.001254910197770E-1
 3.191412761714855E8     9.132681549673437E-1   -4.072503818444183E-1   -5.905131909722314E-6   -2.516420199978911E-6    5.356052137689912E-6   -8.885015082709399E-6    9.096524709196161E-1   -4.118572669311298E-1
 3.291113160518445E8     9.075455776328426E-1   -4.199664005133875E-1    5.364154929244885E-6    1.176428509649210E-5    8.496768380147623E-6   -2.395199298337853E-5    9.033919731531209E-1   -4.243096056495185E-1
 3.390813559322034E8     9.019738186753338E-1   -4.327608157982996E-1    4.226017170370790E-6    1.040825634769239E-5   -5.634032148666051E-6   -1.583602553327531E-5    8.968270741114001E-1   -4.369936022672331E-1
 3.490513958125623E8     8.966532067033524E-1   -4.453545788191348E-1   -1.412123254265120E-6    1.160361524003975E-5    1.078209190774206E-5   -6.121796710234915E-6    8.904849311981848E-1   -4.492794584119519E-1
 3.590214356929212E8     8.913175774915811E-1   -4.578625040805857E-1   -3.755706141342669E-6   -4.053295648739243E-6    1.022399270235574E-5    4.072497258168967E-6    8.844454873043505E-1   -4.621145870353264E-1
 3.689914755732802E8     8.859152973684213E-1   -4.699608910397342E-1   -6.085672594810435E-7   -3.947946617339486E-6    4.127597916842096E-6   -9.251585616762447E-6    8.791287320946435E-1   -4.747032187539583E-1
 3.789615154536391E8     8.797548006282252E-1   -4.813138721511747E-1   -1.889923894682016E-6   -9.912876205390796E-6   -1.074859472645729E-5   -4.840235470800012E-6    8.737650629973739E-1   -4.868218557194871E-1
 3.889315553339980E8     8.742475807056967E-1   -4.920170922114316E-1   -1.107225786561946E-5    6.174444051322839E-6   -8.797991887394587E-6   -2.012921616733374E-6    8.679215004803722E-1   -4.987173808260256E-1
 3.989015952143569E8     8.674904393581723E-1   -5.027003595973525E-1   -1.995360395915327E-5   -6.466670273597630E-6   -2.928628996966982E-7    2.178254849728866E-5    8.610918974168446E-1   -5.097441165181579E-1
 4.088716350947158E8     8.601848133520561E-1   -5.135577124695729E-1    6.141387486287116E-6   -2.367073101411765E-6   -7.753247178454893E-6    7.290241952118212E-7    8.542322799118086E-1   -5.207540109108032E-1
 4.188416749750748E8     8.532842301967155E-1   -5.250883647294842E-1    1.967569179291686E-6   -5.507885159993954E-6    2.069895698719508E-6   -5.207414021829599E-6    8.476687431641113E-1   -5.315084737488661E-1
 4.288117148554337E8     8.460047795556848E-1   -5.367744808207369E-1   -9.620918328042983E-6   -1.144476068490722E-5   -5.606378123454939E-6    6.627305646983165E-6    8.405155522316611E-1   -5.417860738599527E-1
 4.387817547357926E8     8.382719165891900E-1   -5.481630561776228E-1    3.168019735300891E-6    2.530107126164006E-6    8.905862872819134E-6   -5.320973174730593E-6    8.325663554947496E-1   -5.522859952873681E-1
 4.487517946161516E8     8.304516731222318E-1   -5.600442464156178E-1    3.759074534433456E-6   -3.549648543055695E-6    7.702410649558820E-6    8.592922981383261E-6    8.241668419419543E-1   -5.635066926469886E-1
 4.587218344965104E8     8.235346818887719E-1   -5.720117342270929E-1    2.249145426496350E-6   -1.483246499041126E-7   -8.868975809812940E-6    5.112205671634816E-6    8.160554989485371E-1   -5.752780826853638E-1
 4.686918743768694E8     8.169226322824203E-1   -5.833896812847049E-1    1.021677441376177E-5    1.491086599188971E-6    1.692527088712905E-6    8.961661482452449E-6    8.078585641920900E-1   -5.868655776539685E-1
 4.786619142572283E8     8.097612911761370E-1   -5.940938335142287E-1   -1.724640959530990E-6    1.368198603134778E-5    9.174231028918807E-6    1.373278681094991E-5    7.992467741242623E-1   -5.980474169335613E-1
 4.886319541375872E8     8.022371698626918E-1   -6.046020101336438E-1    2.609480371180260E-5   -1.896526086348129E-5   -6.214362021946049E-7    2.322997371587813E-5    7.904673349111897E-1   -6.087408782295531E-1
 4.986019940179462E8     7.940288688974814E-1   -6.153879910737106E-1    6.679433279050604E-6   -2.447946448093521E-6   -1.695464615527074E-5    6.981661666869482E-6    7.821939278497347E-1   -6.196718482449399E-1
 5.085720338983051E8     7.856901096116250E-1   -6.244772266140655E-1    1.479729014773510E-5    9.597853724683907E-6   -3.552817808541756E-6   -8.666812142918974E-6    7.745910031223319E-1   -6.302992734187636E-1
 5.185420737786640E8     7.782086257785739E-1   -6.334892782030535E-1    5.050541198717092E-6    3.639184404044563E-6    1.630988135111519E-5   -5.668258741694336E-6    7.669360149576430E-1   -6.400732720462199E-1
 5.285121136590229E8     7.699276303293516E-1   -6.430153280059279E-1   -2.012533819481437E-6    1.416945777076775E-5   -7.805138686267986E-6    1.026015169249542E-5    7.589563949104778E-1   -6.497256562377633E-1
 5.384821535393819E8     7.613581422798911E-1   -6.530669184244099E-1   -6.223680864515748E-6   -1.077987674880858E-6    8.064674375011814E-6   -1.338676662352281E-5    7.508148411496240E-1   -6.593741024867477E-1
 5.484521934197408E8     7.533187763833293E-1   -6.637193113798717E-1   -8.952215328736736E-6    7.410504255395341E-6   -6.009795193384917E-6    6.975113303033952E-6    7.424025281411470E-1   -6.691456131016733E-1
 5.584222333000997E8     7.447516421086927E-1   -6.746320824602552E-1    5.240338084563762E-6   -1.588256737906806E-5    5.798590130490514E-6    8.812161606779887E-6    7.332502136117527E-1   -6.791515611834268E-1
 5.683922731804587E8     7.355677272256660E-1   -6.851188317718364E-1    2.209706683603651E-6    1.174405292107942E-5    1.268309621002158E-6    1.301927883754122E-5    7.230569862856587E-1   -6.891681563445546E-1
 5.783623130608176E8     7.262427736184137E-1   -6.950603749275069E-1   -3.215692668821125E-6   -4.857652137422506E-6    9.826189897177639E-7    1.071072085991709E-5    7.125359809801589E-1   -6.989480616756716E-1
 5.883323529411764E8     7.171104483662187E-1   -7.050557421899344E-1    1.110865424643531E-6    3.388785805321708E-6    5.299542146998699E-6    1.382406410304792E-6    7.020921517356927E-1   -7.085435825666782E-1
 5.983023928215353E8     7.078632893135859E-1   -7.151062169322732E-1   -9.589012359824272E-6   -2.032290914793159E-6    5.055891457144109E-7    1.110303948100054E-5    6.918598487866875E-1   -7.183643165911811E-1
 6.082724327018943E8     6.984496653092291E-1   -7.249223860290901E-1    1.118801851150601E-5   -7.275517649109345E-8   -1.008220906991762E-5   -2.770708228430157E-6    6.816698662870164E-1   -7.278423098687634E-1
 6.182424725822532E8     6.885998948203937E-1   -7.345863719834643E-1   -6.357771560995116E-6    5.476331811182032E-6   -1.416973460566605E-5    2.042512999932296E-7    6.716452087402555E-1   -7.372473300950884E-1
 6.282125124626122E8     6.779805549134743E-1   -7.439191251121695E-1    9.746831686294269E-6   -2.210750151562853E-6    2.262725443902492E-5   -1.886419457472908E-8    6.626277498299860E-1   -7.467285383776471E-1
 6.381825523429711E8     6.682698922800572E-1   -7.510706651554052E-1   -3.495830244998596E-6    7.386245186514643E-6   -2.009121055016287E-5   -1.702286243241003E-5    6.536595280426286E-1   -7.555774169874171E-1
 6.481525922233300E8     6.593703372669939E-1   -7.596749997753874E-1    8.423646803412578E-6   -6.838595262937594E-6    2.782325352660418E-6    8.211409839379368E-6    6.445674864657901E-1   -7.640976706040092E-1
 6.581226321036890E8     6.496382467095327E-1   -7.685932491864719E-1   -4.821191671156607E-6   -1.325496414487836E-6   -1.526600847425348E-5    7.408907155523561E-6    6.345195604285628E-1   -7.725018415058945E-1
 6.680926719840479E8     6.396979176468649E-1   -7.771687056671124E-1   -7.611351655455565E-6    8.335440511132504E-6   -4.633779715928728E-6   -1.890815909539576E-5    6.238459762618298E-1   -7.804386549292769E-1
 6.780627118644068E8     6.299010402865952E-1   -7.854135825628061E-1   -3.569122481573936E-6   -7.747859874279453E-6   -1.797922356328783E-6   -6.911082453205819E-6    6.128050799638500E-1   -7.882610023913036E-1
 6.880327517447658E8     6.195239793068261E-1   -7.935901381921097E-1    6.052097889881319E-6    6.924706170391760E-6    7.070145964071278E-6   -1.580964157346154E-5    6.014854140920253E-1   -7.959533967991315E-1
 6.980027916251246E8     6.085652870228072E-1   -8.018420198502971E-1   -6.852412933047280E-6    7.544376972387846E-6   -1.035201733797304E-5    2.108937439325970E-5    5.899735829871808E-1   -8.035523959655316E-1
 7.079728315054835E8     5.972325759623429E-1   -8.101320768257106E-1    1.188447439945118E-5   -1.643784847877324E-5    1.560350747342724E-5    5.237588569539534E-6    5.786185334141618E-1   -8.117647826626277E-1
 7.179428713858424E8     5.860531915810763E-1   -8.187502796469407E-1    6.535296210607633E-6   -4.972317500604545E-6    2.314486051718981E-6   -2.028049138358412E-7    5.671897589504278E-1   -8.200337789440393E-1
 7.279129112662014E8     5.751533140334080E-1   -8.272247428937332E-1   -5.244240111661665E-6   -1.098584306972734E-5   -8.808837234399606E-6   -1.168208167039730E-5    5.558915211540415E-1   -8.287424099911272E-1
 7.378829511465603E8     5.637895287765933E-1   -8.359615199097491E-1   -9.271243852121982E-6   -2.313880246874380E-6   -3.591102506486929E-6    1.771062810103563E-5    5.445340087850475E-1   -8.371612375342936E-1
 7.478529910269192E8     5.518411443794308E-1   -8.444489728479133E-1    9.341123648871831E-6    1.157934540792576E-5   -3.597527770820553E-6   -9.855010639546835E-6    5.334158440710747E-1   -8.450225396971885E-1
 7.578230309072782E8     5.391776564405018E-1   -8.515363295768171E-1   -7.986389433633168E-6    4.220457873770899E-6    8.005492256352583E-6    9.433601912258901E-6    5.223462503569013E-1   -8.518883220844903E-1
 7.677930707876371E8     5.287127834743957E-1   -8.570294207554716E-1    7.658809306350395E-6   -1.367751550418608E-6   -7.145992022399720E-6   -4.433761614232243E-6    5.109066502643412E-1   -8.582474516138420E-1
 7.777631106679960E8     5.191902402460907E-1   -8.639312018002610E-1   -5.144181856107183E-6    7.825236875272607E-6    8.545970603416828E-6    2.324921108094218E-6    4.993733125504456E-1   -8.647913460366202E-1
 7.877331505483550E8     5.088492294354851E-1   -8.708260998379495E-1   -4.878778055343648E-6    5.803472966521511E-6   -2.363493930357393E-6    5.044681960708749E-6    4.875742388137814E-1   -8.714544685587968E-1
 7.977031904287138E8     4.976811367412234E-1   -8.773026924186065E-1    4.685256546379885E-6    1.662147429119972E-5    1.344259287705530E-5    8.288002474961233E-6    4.748832421962897E-1   -8.779624372978249E-1
 8.076732303090727E8     4.858415724625938E-1   -8.831224110030573E-1    1.188656070455393E-5    4.241592068623010E-6    8.249750788826746E-6   -1.053576719765671E-5    4.619639236800283E-1   -8.840814068987181E-1
 8.176432701894317E8     4.738616008920760E-1   -8.891653557516065E-1   -9.136190045717162E-6    2.831548593431291E-6   -4.604756338513981E-6   -6.729913515901097E-6    4.491642961466447E-1   -8.902559345642733E-1
 8.276133100697906E8     4.615553421590182E-1   -8.955804751798228E-1   -4.987747133219112E-6    2.042154240814085E-6   -9.365656266419796E-6    5.094506644014141E-6    4.366132378408112E-1   -8.969734060856556E-1
 8.375833499501495E8     4.488781453106971E-1   -9.020047982715893E-1    1.584044902887645E-5   -6.907183695752930E-6    3.012812739182192E-6    6.710216437290477E-6    4.243845241269111E-1   -9.037004383661910E-1
 8.475533898305085E8     4.361220662998511E-1   -9.083839464278889E-1    3.746405336350099E-6   -9.461446648108913E-6   -2.019720985296412E-5   -6.362304553584857E-6    4.125547663894373E-1   -9.098560222983640E-1
 8.575234297108674E8     4.233696582529006E-1   -9.147014435629880E-1   -1.070667457893528E-5    5.367977176925360E-6    1.479589730805439E-5   -8.398300097587890E-7    4.007370078277764E-1   -9.150212897890663E-1
 8.674934695912263E8     4.105114239024162E-1   -9.213688344367523E-1    4.795100315390988E-6   -6.002587585518858E-6    1.043298509040563E-6   -2.530296082383306E-6    3.886944193935713E-1   -9.197871141831243E-1
 8.774635094715853E8     3.975018023720588E-1   -9.280501509092516E-1   -4.479812870083302E-6   -5.865484837863848E-6    8.595140741982138E-6   -6.307241507363839E-6    3.761386036710850E-1   -9.246022472376783E-1
 8.874335493519442E8     3.843641715322983E-1   -9.326717554411503E-1    2.192572044619532E-6    9.378635070184335E-6    1.038143236048034E-6   -2.554998750477508E-6    3.629547480566629E-1   -9.291429353480147E-1
 8.974035892323031E8     3.730657106921614E-1   -9.362353727516369E-1    1.204462289460899E-5   -1.473563033574207E-5   -9.290290555487140E-6   -2.925047201071332E-6    3.495167723227648E-1   -9.333932426511903E-1
