#  HZ   S   RI   R     50.00 
! Rohde & Schwarz Vector Network Analyzer 
! Rohde-Schwarz,ZNB20-2Port,1311601062102128,3.60
! Created: UTC 4/29/2024, 2:59:46 PM
! freq[Hz]                re:S11                  im:S11                  re:S21                  im:S21                  re:S12                  im:S12                  re:S22                  im:S22
 1.000000000000000E5     9.957358979779976E-1    3.786697895747683E-3   -2.193070795897952E-5    1.939451867550845E-4   -1.466809456627842E-5    1.917171308935266E-4    1.010446990062007      -1.138865905466040E-2
 1.007003988035892E7     9.983905490497670E-1   -1.391197212539344E-2   -4.001741187888493E-6   -2.038175527934732E-5   -8.768431313845609E-6   -6.164177417545404E-6    9.957623370148002E-1   -1.451524708437517E-2
 2.004007976071785E7     9.999318193030828E-1   -2.720782281697199E-2    1.067640316532764E-5   -2.611314821969901E-5    8.374132768449844E-6   -8.263428882178222E-6    9.986908021964002E-1   -2.750133556482839E-2
 3.001011964107677E7     9.983332025947512E-1   -4.103313016728434E-2   -1.792383102458664E-5   -2.461719527477574E-6    9.264555515696961E-6    7.629384603491463E-6    9.975287141757060E-1   -4.204820236082701E-2
 3.998015952143569E7     9.975313096843609E-1   -5.314535287094212E-2    1.976097965779941E-6   -2.064694253945412E-5    6.105812545264977E-6   -1.580913702302361E-5    9.976169571275674E-1   -5.666115354042282E-2
 4.995019940179461E7     9.956850299918206E-1   -6.601542868926977E-2   -2.102440384746588E-5    7.520026045336551E-6    1.912898165665711E-5    2.191363272251514E-5    9.966639134907658E-1   -6.909955944655956E-2
 5.992023928215354E7     9.939205815515020E-1   -7.887811016695000E-2    1.144930201600862E-5   -1.515161845557852E-5    1.129868975734962E-6    1.315142887146541E-5    9.947606547801287E-1   -8.201632625323686E-2
 6.989027916251247E7     9.933247519520417E-1   -9.193704806497986E-2   -6.561872922109160E-6   -1.430482794746841E-5    1.579993887121379E-5    3.888489710015505E-8    9.934587126649079E-1   -9.462494201576636E-2
 7.986031904287139E7     9.928995844590356E-1   -1.053116118347322E-1   -5.959196028101544E-6   -1.626220204704819E-5   -2.913227700914757E-6    5.109333032013982E-6    9.922533134168537E-1   -1.079836418006440E-1
 8.983035892323031E7     9.916849909724276E-1   -1.188171891991597E-1    7.466161702902565E-6   -4.219722334392424E-6   -1.490217437647986E-5   -5.803587380491041E-6    9.907894852816732E-1   -1.210553499654212E-1
 9.980039880358922E7     9.891559153179910E-1   -1.323399049032560E-1    7.109970468450138E-7    2.200870229640599E-6    1.696011321539895E-5   -8.569440837707878E-6    9.885756559864386E-1   -1.344644345930126E-1
 1.097704386839482E8     9.862919487695242E-1   -1.454929351426267E-1   -4.384209681551591E-6    2.292903971351757E-6    2.113795928113729E-7    5.125870250941391E-6    9.860584146865781E-1   -1.476621526076421E-1
 1.197404785643071E8     9.848560854698610E-1   -1.589837000456110E-1   -1.530590206203057E-5    8.163137850048289E-6   -6.457034396218642E-6   -2.240702492944460E-6    9.842096079984882E-1   -1.611611452556580E-1
 1.297105184446660E8     9.830721002952963E-1   -1.718163655523517E-1    9.158484828437261E-6   -1.411565731577116E-5    1.041397579361325E-5    3.619763663911280E-6    9.826947063559757E-1   -1.744779140732193E-1
 1.396805583250249E8     9.816435202856040E-1   -1.846652620558408E-1   -1.643423479453654E-5   -1.121015666878742E-6   -1.429056492488057E-6    1.675160756212066E-6    9.810250921257170E-1   -1.875505829210450E-1
 1.496505982053838E8     9.787883099895597E-1   -1.970964520200622E-1    2.017339520546905E-5    2.789953518027903E-6    8.447555495107096E-6   -1.785192125856558E-5    9.784890956248732E-1   -2.003680392583747E-1
 1.596206380857428E8     9.760437952758190E-1   -2.094221949690632E-1   -1.177749038911525E-5   -3.622282699558814E-6    1.616661603453076E-6    1.050721545133424E-6    9.757058502774560E-1   -2.133372245327074E-1
 1.695906779661017E8     9.732958067063797E-1   -2.223182664889439E-1   -2.184724637068270E-6    5.415821922336306E-6   -5.057248788737997E-6   -5.900450060506854E-6    9.729003071150485E-1   -2.261116457077769E-1
 1.795607178464606E8     9.707898006090765E-1   -2.348082900938922E-1    2.931024144115836E-6   -3.799589091990451E-6    3.342872157525088E-6    7.629382214548515E-6    9.701670102215421E-1   -2.380728256421276E-1
 1.895307577268195E8     9.676111972592810E-1   -2.469828440743676E-1    2.641351447572423E-6   -4.784404553234049E-6   -4.756625858371515E-6   -4.759592175891585E-6    9.666835759641266E-1   -2.504781502982613E-1
 1.995007976071784E8     9.636310215811453E-1   -2.595121447339587E-1    1.461609724151818E-5   -1.455252694254072E-5    1.329224503615564E-5    3.195106236073297E-6    9.627265844303116E-1   -2.631333300852019E-1
 2.094708374875374E8     9.604981833632779E-1   -2.724607043320715E-1   -2.241886245236357E-6    8.762792363954651E-7   -5.670696600827855E-6    6.737494717669527E-6    9.588931760576914E-1   -2.760818497382359E-1
 2.194408773678963E8     9.572538702786264E-1   -2.851469688305894E-1    2.573998651556862E-6    5.237237799694576E-6    4.471971895461357E-6   -5.851852898078164E-6    9.550863482893461E-1   -2.891316356766961E-1
 2.294109172482552E8     9.535858906605409E-1   -2.974073189533699E-1    4.461894686471928E-6   -6.036847556429533E-6   -9.329877526670584E-6   -6.997535853472863E-6    9.508239217727031E-1   -3.017342765648785E-1
 2.393809571286142E8     9.505569355166745E-1   -3.094399985143248E-1   -1.109854066051068E-6    7.039156111610284E-6    1.752030085873987E-5   -3.522455793600042E-6    9.469925569024609E-1   -3.140044884120177E-1
 2.493509970089731E8     9.468344166906387E-1   -3.233237679972512E-1   -5.652216668331763E-6   -3.057517655373652E-6   -1.511328040253325E-5   -1.294343582087862E-6    9.442859588139834E-1   -3.276600327911824E-1
 2.593210368893320E8     9.427211403867366E-1   -3.353567909630820E-1    1.250745241777634E-5   -2.058382896742291E-6    4.859018513663226E-6   -1.705601815312052E-5    9.398748052043217E-1   -3.409040583494028E-1
 2.692910767696909E8     9.385187165771955E-1   -3.467948153045559E-1    5.334490470198664E-6    2.914956859561845E-6    7.882161056445702E-6   -4.740206911592121E-6    9.354251531170704E-1   -3.528404831857123E-1
 2.792611166500499E8     9.338834158631208E-1   -3.583978766192727E-1    4.947683268774611E-6    1.163483058146174E-5    9.814943652957346E-6   -2.826701661456608E-6    9.308570605100123E-1   -3.646565501771462E-1
 2.892311565304088E8     9.289242632918064E-1   -3.704802734824626E-1   -1.388631339323193E-6    2.263889679433948E-6    4.346925295381684E-6    5.270623135313217E-6    9.261744744279099E-1   -3.768067402155018E-1
 2.992011964107677E8     9.241126725312976E-1   -3.826280865408693E-1    7.922717869015591E-6   -2.648202777327804E-6   -8.887214973492649E-6   -9.458114938216512E-6    9.212700989803327E-1   -3.886628283011493E-1
 3.091712362911266E8     9.186640567378025E-1   -3.948379512464089E-1   -1.882461487008696E-5    5.197593490501627E-7   -8.522389181118239E-6   -2.311368291827042E-5    9.156538655533919E-1   -4.001225006018859E-1
 3.191412761714855E8     9.132302608793870E-1   -4.072523776040255E-1    1.210986680143444E-5   -1.350517698703569E-5    2.910775822091993E-6    1.153937995486408E-5    9.097627513970198E-1   -4.119799288758278E-1
 3.291113160518445E8     9.076016621261742E-1   -4.199480265904266E-1   -4.477723922609417E-6    1.430164257620897E-6    2.911405011063942E-5   -2.800221503282786E-7    9.035076293388832E-1   -4.243935097633860E-1
 3.390813559322034E8     9.019418685337940E-1   -4.328229092718802E-1   -1.526913753829975E-6   -3.866649900380889E-6   -8.184273328462899E-6   -1.761552082964930E-5    8.967631658301364E-1   -4.369220006161846E-1
 3.490513958125623E8     8.966139847408213E-1   -4.452420317315181E-1    1.094214801003177E-5    1.138038562833441E-5   -5.599196224963567E-6    1.879672543212510E-5    8.903937393878658E-1   -4.494136870938101E-1
 3.590214356929212E8     8.913052918037371E-1   -4.578078377697995E-1    9.397751286039073E-6   -2.956757985951835E-6   -8.891780223615987E-6   -3.018473903099680E-6    8.845553457443710E-1   -4.620727947475600E-1
 3.689914755732802E8     8.858857894462764E-1   -4.699886198844785E-1   -5.855694380324138E-6    1.120242136826108E-5   -1.268297853293553E-5   -6.938146806303895E-6    8.790580510061183E-1   -4.747270006522556E-1
 3.789615154536391E8     8.797321123863864E-1   -4.812063304981367E-1   -5.419154247141626E-6   -1.457521697026386E-6   -7.740289153097190E-6   -1.234714892021080E-5    8.738649630478191E-1   -4.867825981262629E-1
 3.889315553339980E8     8.740639609732919E-1   -4.920001096948550E-1    3.854759828409534E-6    5.558125665260998E-6    7.286432977928478E-6   -1.803886004361543E-6    8.678755515705748E-1   -4.987910245726225E-1
 3.989015952143569E8     8.673726826976794E-1   -5.026337516382701E-1   -6.988442965450933E-6   -9.819848191568776E-6   -6.138896810001526E-6   -1.300554763550286E-6    8.610677609780916E-1   -5.096788368100909E-1
 4.088716350947158E8     8.601143300703165E-1   -5.135128267677403E-1    4.251687090819121E-6    1.315347553334911E-5    1.191729433281876E-5    2.643907886951547E-6    8.542525320199387E-1   -5.205981377019024E-1
 4.188416749750748E8     8.532564520806520E-1   -5.251197388681283E-1   -1.218165259233287E-5   -5.860334797938467E-7   -9.910772948000328E-6   -7.269213883423949E-6    8.476599108310992E-1   -5.314444686123985E-1
 4.288117148554337E8     8.459986880989668E-1   -5.366905075736103E-1   -4.641322599985859E-6   -9.051305379938554E-6   -6.824893486254527E-6    8.481673447746334E-6    8.406217496275602E-1   -5.418217842705828E-1
 4.387817547357926E8     8.382153989771831E-1   -5.481347049308973E-1    1.828513799429860E-6    5.077815972178742E-6   -6.890019589078712E-6    1.099580413063997E-5    8.324574028701508E-1   -5.522265118706535E-1
 4.487517946161516E8     8.305072080377132E-1   -5.599286510481236E-1   -5.299485081204360E-6   -4.803820156634143E-6   -1.083487196465472E-6    4.335462462829471E-6    8.242084844048083E-1   -5.634610583399674E-1
 4.587218344965104E8     8.235641500668374E-1   -5.719653185191091E-1    3.287304348057900E-6    4.793811517839625E-7   -1.069357004252555E-5   -8.172573105121315E-7    8.161246945699615E-1   -5.753583099561564E-1
 4.686918743768694E8     8.169587867763982E-1   -5.834159910484691E-1   -1.769014784639986E-6    1.269885064574222E-6    5.006900453249030E-6   -1.130557861825938E-5    8.078420611246003E-1   -5.867924420617158E-1
 4.786619142572283E8     8.098451332468345E-1   -5.940584977894955E-1    4.013909547103956E-6   -3.031884062921245E-6    1.038059662377859E-5   -1.882141711118354E-5    7.992422021363099E-1   -5.979480817288492E-1
 4.886319541375872E8     8.023374521280109E-1   -6.046202413480800E-1   -2.508937325649255E-6   -7.265522101453639E-6   -7.147811219413155E-7   -9.666891253941187E-6    7.905016705273532E-1   -6.088772376659447E-1
 4.986019940179462E8     7.939708621956422E-1   -6.152930000297853E-1    1.913393183298166E-5    6.110422441810269E-7    7.751578697689580E-6    1.376129355773981E-5    7.823148934884351E-1   -6.197362367773468E-1
 5.085720338983051E8     7.855970349614573E-1   -6.245093032007958E-1    1.292392676347972E-5   -2.511538559935648E-6    2.349082163259248E-5    1.235932489428325E-5    7.746987219304688E-1   -6.303451227467641E-1
 5.185420737786640E8     7.781829970283333E-1   -6.334120601532631E-1   -3.268204881818201E-6    6.439886478953054E-6   -9.506250639809861E-6   -1.891367548113376E-5    7.669032488056692E-1   -6.401282915293341E-1
 5.285121136590229E8     7.699006320251160E-1   -6.429904929617882E-1    1.663154893743630E-5   -5.435351563170510E-6   -1.868049689305733E-6   -5.956767492307542E-6    7.589365534723524E-1   -6.497077807380218E-1
 5.384821535393819E8     7.614474594182750E-1   -6.531099701504868E-1   -6.713813512677919E-6   -1.374371150690840E-5    5.259099021259132E-6    1.129311012731207E-5    7.508568922189912E-1   -6.594049486845630E-1
 5.484521934197408E8     7.532979925566256E-1   -6.637080510006962E-1    1.108793626871795E-5   -6.517872364135219E-6    1.085283809100745E-5   -5.317283054966553E-6    7.424534389694247E-1   -6.692856982741271E-1
 5.584222333000997E8     7.445999037092002E-1   -6.744930660949412E-1    3.223943486661627E-6    2.829329583674109E-6    7.938279646611510E-6    5.310571231852136E-6    7.332938944251304E-1   -6.792617623048066E-1
 5.683922731804587E8     7.355439792277140E-1   -6.850779782729565E-1   -6.242589465861867E-6   -7.082238772255057E-7   -4.384110707750208E-6    2.634568398844520E-5    7.231841085324580E-1   -6.891973560734127E-1
 5.783623130608176E8     7.263151848170796E-1   -6.949807312451991E-1   -7.266350259748936E-6   -6.868366752032418E-6    1.090215309161801E-5   -1.920431274069687E-5    7.125199161011716E-1   -6.988908944369239E-1
 5.883323529411764E8     7.170837500592881E-1   -7.050958618410754E-1   -1.162584561369086E-5   -5.937522948877328E-6    1.679528639756227E-5    1.179324137707509E-5    7.021237897629352E-1   -7.086526959487968E-1
 5.983023928215353E8     7.078291823206956E-1   -7.152230806071467E-1    1.044271441429657E-5    4.345272344170775E-6    1.182669140701704E-5    2.413264098254622E-6    6.919653569689092E-1   -7.184479564674664E-1
 6.082724327018943E8     6.983217256053760E-1   -7.247671298750308E-1    1.726753469908548E-6    2.050006804898675E-5    6.131707882916495E-6    1.561844800423987E-5    6.816515271957923E-1   -7.278344286269227E-1
 6.182424725822532E8     6.885933203606763E-1   -7.345803627463161E-1   -9.780764849446199E-6    1.893684458812190E-5    1.745068872918565E-5    9.275446601828546E-6    6.716919801653902E-1   -7.371785796582416E-1
 6.282125124626122E8     6.781509311872026E-1   -7.439303384849256E-1   -2.346837915359035E-6   -1.150121415926870E-5   -1.217640827814275E-5   -5.893928379505625E-6    6.626058229362094E-1   -7.467982066202788E-1
 6.381825523429711E8     6.683962439363641E-1   -7.510673211068406E-1   -1.270134977214692E-6   -1.064820762947158E-5   -2.555443283446795E-6   -6.733411893604502E-6    6.536104140611949E-1   -7.556110128879463E-1
 6.481525922233300E8     6.593808452935811E-1   -7.595646200366283E-1    4.102822752722088E-6    3.133957586264267E-6    6.984497072179844E-8    7.338518972899331E-7    6.445832178762610E-1   -7.641644968750999E-1
 6.581226321036890E8     6.496182128254754E-1   -7.684333915990299E-1    3.398252445726098E-6    1.205620336953512E-5    9.888683903274050E-7    1.446601882091484E-5    6.345413935003379E-1   -7.725315413981957E-1
 6.680926719840479E8     6.397603679815836E-1   -7.771455053935100E-1    4.636055857385847E-8    1.141978401137132E-6   -1.994177269942561E-5   -1.628726869106427E-5    6.239916667434015E-1   -7.805033988634318E-1
 6.780627118644068E8     6.298560003785829E-1   -7.853141533039777E-1   -2.236652035487817E-6   -1.214975057979902E-5    1.737241048156821E-5   -2.238822570788794E-5    6.128341709038129E-1   -7.882935415276187E-1
 6.880327517447658E8     6.195278812281539E-1   -7.935203886906466E-1    1.682585540117688E-6   -6.039148431823248E-6   -1.077548623207019E-5    2.689455540695494E-6    6.014109846420119E-1   -7.959514148669966E-1
 6.980027916251246E8     6.085852890668177E-1   -8.017189387826386E-1    4.290027528767540E-6    2.338905774917159E-6   -7.130562963019085E-6    1.387463812743297E-5    5.899894074469023E-1   -8.037371578267938E-1
 7.079728315054835E8     5.973197457971509E-1   -8.101311994451296E-1   -6.101200599996563E-6    1.114239784642648E-6    7.629952093261158E-6   -6.980789766653591E-6    5.785220058195336E-1   -8.116197994950871E-1
 7.179428713858424E8     5.860938600614761E-1   -8.186573965437550E-1   -1.005543869374607E-5   -6.489375037386992E-6    1.239416727359625E-5    5.116492699766233E-6    5.672859639835863E-1   -8.201856493431540E-1
 7.279129112662014E8     5.751687647075624E-1   -8.271572823790789E-1    1.307601904503191E-5    2.009887700178695E-6   -6.580980594034282E-6    4.638719128406469E-6    5.559752886706142E-1   -8.288006991915652E-1
 7.378829511465603E8     5.638243035184146E-1   -8.358537434854199E-1   -1.481859645635532E-5    4.689313162455868E-7   -9.500376794698716E-6    4.130338045717023E-6    5.447065305220479E-1   -8.373647618307052E-1
 7.478529910269192E8     5.517768815005041E-1   -8.443951914198800E-1   -8.341628655068984E-6    7.615374672589118E-6   -8.601968434445959E-6    1.220685768734243E-5    5.334102290830386E-1   -8.449886506731881E-1
 7.578230309072782E8     5.391940303874871E-1   -8.516123290902291E-1   -4.251627514287196E-6    9.423652092244690E-6    5.084563964134415E-6    1.666409434150918E-5    5.223481053108090E-1   -8.518522043084241E-1
 7.677930707876371E8     5.288433869929773E-1   -8.570379639461901E-1    6.236162841458113E-6    9.842671975333792E-6   -1.120083498607945E-5   -6.880151988732776E-6    5.109880385558616E-1   -8.583263885978689E-1
 7.777631106679960E8     5.192649689112224E-1   -8.639358803308971E-1   -2.367350302960775E-7   -3.343644762852703E-6    8.703823365783618E-7    2.200233398142602E-6    4.993989417728246E-1   -8.648176100426886E-1
 7.877331505483550E8     5.088396258773326E-1   -8.707932412208398E-1   -5.485844718626616E-7    1.352328999893163E-5    1.073139119945576E-5   -1.175089770151451E-5    4.876399011598915E-1   -8.715473177378369E-1
 7.977031904287138E8     4.977446639644720E-1   -8.772148532758494E-1   -3.484296559595790E-6   -1.269614697048920E-5   -2.134526582719814E-6   -2.747751602912350E-6    4.748895772696878E-1   -8.780770706591710E-1
 8.076732303090727E8     4.859028308253728E-1   -8.830941874984554E-1   -8.905739180775528E-6    4.531717084534627E-6   -2.239926783354291E-5    1.704473747048377E-5    4.620111092739763E-1   -8.840634100735683E-1
 8.176432701894317E8     4.739214074251159E-1   -8.891140955347500E-1    7.031933969424978E-6    8.275217786359411E-6   -1.189695556159020E-5   -1.351405903227050E-6    4.491440321291035E-1   -8.904104838930821E-1
 8.276133100697906E8     4.615180364732336E-1   -8.954419910669691E-1    6.270670983676250E-7    2.353266345108088E-6    1.281594983822915E-5    2.648042643111294E-6    4.365264807543933E-1   -8.970617531620941E-1
 8.375833499501495E8     4.489405227392742E-1   -9.019462811275338E-1   -1.258526335164425E-6   -1.725509076454998E-5   -1.723562542859219E-5    2.318269569104637E-6    4.244538096805718E-1   -9.038187517802935E-1
 8.475533898305085E8     4.362268508980072E-1   -9.082890059186305E-1   -9.069976975059621E-6   -8.426476767663760E-6   -1.623629831285516E-5    1.584264020851547E-5    4.125690527527600E-1   -9.098568530125836E-1
 8.575234297108674E8     4.233962821982638E-1   -9.147132501180893E-1   -6.610857664462670E-6   -2.964877331386761E-6   -8.554084594896809E-7   -1.772468451764095E-5    4.008111593136082E-1   -9.151605537596380E-1
 8.674934695912263E8     4.105588414825529E-1   -9.213921374869948E-1   -9.896645310381901E-6   -6.801425080276922E-6    2.557316699122817E-6   -1.672863965863734E-6    3.886374209302912E-1   -9.198500687633965E-1
 8.774635094715853E8     3.974917429550001E-1   -9.279509111726562E-1    1.669861212877767E-7   -7.768589661168620E-6    5.975710641561436E-6    2.071096389546472E-6    3.760630407615702E-1   -9.245544243441119E-1
 8.874335493519442E8     3.843162054889213E-1   -9.324789164376632E-1   -1.337117167182499E-6    2.217262988359156E-6    4.598063531491736E-6   -7.192341760209575E-6    3.630193424306846E-1   -9.291023813051627E-1
 8.974035892323031E8     3.731025327578966E-1   -9.362347058917736E-1    2.614323574624713E-6   -9.633297694500870E-6    4.329619386249919E-6    1.350576837978047E-5    3.496323307407811E-1   -9.335816727016943E-1
