#  HZ   S   RI   R     50.00 
! Rohde & Schwarz Vector Network Analyzer 
! Rohde-Schwarz,ZNB20-2Port,1311601062102128,3.60
! Created: UTC 4/29/2024, 2:59:44 PM
! freq[Hz]                re:S11                  im:S11                  re:S21                  im:S21                  re:S12                  im:S12                  re:S22                  im:S22
 1.000000000000000E5     9.961915126018628E-1    3.818436186364946E-3   -8.480085680208603E-5   -3.385614831241245E-5    1.277242247096253E-4   -4.367361005940862E-5    1.010408201251086      -1.135259306208097E-2
 1.007003988035892E7     9.975332882563087E-1   -1.413595322748059E-2   -4.996456683400240E-7   -8.860585142831871E-6    3.744459666237616E-6   -7.315499515587782E-6    9.957493371342688E-1   -1.448706583724564E-2
 2.004007976071785E7     9.996838984675228E-1   -2.741953558783584E-2   -7.330071361154233E-6    1.570397401343747E-5    2.082161317338560E-5   -3.439357419483105E-5    9.986979707620324E-1   -2.772546934387993E-2
 3.001011964107677E7     9.979413021984590E-1   -4.108134834777355E-2    9.656248914716335E-6    1.091277546520590E-6    1.469030747809366E-6   -2.731352251509439E-6    9.975400907964562E-1   -4.196491363357970E-2
 3.998015952143569E7     9.977923192682807E-1   -5.311713767108933E-2   -7.816564409453823E-6   -3.522346940239001E-6    3.793532085527665E-6   -1.227223335799565E-5    9.977575968668314E-1   -5.665133862811662E-2
 4.995019940179461E7     9.960860646224040E-1   -6.598437558190744E-2    2.201569270383548E-6    2.191502876589189E-5   -3.131442599274709E-7   -6.780349228967546E-6    9.965826682891541E-1   -6.908121518534763E-2
 5.992023928215354E7     9.943677884243628E-1   -7.883559579591873E-2    4.832745645013753E-6   -3.096940298591484E-5   -7.093333553044038E-6    1.427627821272098E-5    9.945833704904774E-1   -8.190647119496780E-2
 6.989027916251247E7     9.931218380563402E-1   -9.174398480490652E-2    4.566052244744493E-6    2.324135907049877E-6    3.655864253121207E-6   -7.387297649760488E-6    9.935371926403134E-1   -9.476203058977994E-2
 7.986031904287139E7     9.925943640563939E-1   -1.051359158778570E-1    5.071001514868341E-6   -8.604337234955811E-6   -7.155367558400960E-6    2.108524052225886E-6    9.924012422107492E-1   -1.079342631502123E-1
 8.983035892323031E7     9.915301632445237E-1   -1.187740113977990E-1   -8.073024400610742E-6    5.969345369731505E-6    7.298385239304867E-7   -3.798350564246258E-6    9.908178380074546E-1   -1.210973075257936E-1
 9.980039880358922E7     9.895319622476541E-1   -1.323559264963275E-1   -1.293736069647619E-5    7.880428409252301E-6   -1.433299991378372E-5   -1.492432873879589E-5    9.885486565260776E-1   -1.344526173596531E-1
 1.097704386839482E8     9.865912702534541E-1   -1.455202655146764E-1   -1.068372582781609E-5    6.157306538304425E-7    1.167167113506270E-5   -2.502855718619588E-6    9.861239017813891E-1   -1.477669419072541E-1
 1.197404785643071E8     9.849784733013853E-1   -1.589706773702555E-1   -1.234789461199118E-5   -1.340985251601572E-5    1.246878621896926E-5    1.122558224973253E-6    9.842300581389324E-1   -1.611124811388385E-1
 1.297105184446660E8     9.831047036257958E-1   -1.717496025890187E-1   -6.699769061579765E-6    9.146382301013527E-6    4.971161955064217E-6    7.641682147275357E-6    9.827108668442674E-1   -1.744118613276284E-1
 1.396805583250249E8     9.815804452003893E-1   -1.845343231666985E-1    1.530310809506133E-6   -3.640705096628215E-7   -3.084738864667786E-6   -3.007805207789036E-6    9.809423023162834E-1   -1.876241757872023E-1
 1.496505982053838E8     9.790442194615480E-1   -1.971117188938358E-1   -2.411733289823038E-6    6.835337297537426E-6   -4.401481226256331E-6    3.718699818052702E-6    9.785015176765400E-1   -2.004067344459379E-1
 1.596206380857428E8     9.763332686079698E-1   -2.094452805265950E-1    3.645282145799287E-6   -1.329340061784697E-5   -8.492417909642950E-6   -5.581149093210602E-7    9.757291990904651E-1   -2.132686687687456E-1
 1.695906779661017E8     9.732607708668322E-1   -2.223080877523774E-1    1.389708726740721E-6   -9.111511184654950E-6   -6.762067220742413E-6    1.270544178055326E-6    9.728506732435681E-1   -2.261109428369809E-1
 1.795607178464606E8     9.708483199013096E-1   -2.347801579992096E-1   -5.581287961615900E-6    9.860549037713539E-6   -5.214084884842647E-7   -8.523801429644571E-6    9.702341057311997E-1   -2.381107532936489E-1
 1.895307577268195E8     9.678380333723855E-1   -2.469899685745102E-1   -1.647243750560254E-5   -1.009341768808943E-5   -1.996386577791010E-5    9.475401277854791E-6    9.667960245458157E-1   -2.504976964018870E-1
 1.995007976071784E8     9.638945512174001E-1   -2.593939975386845E-1    1.494969076684737E-6    3.201487740123787E-6   -3.973484571480397E-6   -6.594205772306022E-7    9.627122568951556E-1   -2.631023501997938E-1
 2.094708374875374E8     9.604133776124071E-1   -2.722444219377837E-1   -7.164168610202099E-6    3.444851314185553E-6   -9.433559392544090E-7    9.358878933145111E-6    9.588877211117630E-1   -2.761426255541494E-1
 2.194408773678963E8     9.573129027748551E-1   -2.850988291604969E-1   -4.728086417413421E-6   -1.674953819593001E-5   -5.698123396986728E-6    2.329441410174467E-6    9.550650716924877E-1   -2.891288790888955E-1
 2.294109172482552E8     9.537540741225535E-1   -2.974131759200079E-1   -7.734550974456937E-7   -8.305936404323439E-6   -1.428222904630968E-6   -4.022502736560256E-6    9.509266531652141E-1   -3.018379882712756E-1
 2.393809571286142E8     9.506768693716808E-1   -3.093704894413448E-1   -1.219896659916519E-5   -3.815749429215463E-6   -1.029352786113621E-5    3.581433464719197E-6    9.469555842790942E-1   -3.139856596211825E-1
 2.493509970089731E8     9.468556652784295E-1   -3.231806776249395E-1    8.915714380655532E-7    1.495110249465536E-5    1.585992475502303E-5    1.178087488963628E-5    9.440089993502045E-1   -3.276016016689666E-1
 2.593210368893320E8     9.428022641576560E-1   -3.353459996052930E-1    1.318648194907697E-6   -8.637174429272155E-6    7.726608054785605E-6    6.952539123163184E-6    9.398176970053722E-1   -3.408095973386240E-1
 2.692910767696909E8     9.386418985164737E-1   -3.467327069916701E-1   -7.124360716761059E-6   -5.288982095331109E-6    1.968664821185809E-5    1.172642337979463E-5    9.356347243170130E-1   -3.527762202928542E-1
 2.792611166500499E8     9.338313320113202E-1   -3.583693479592303E-1    9.626046619621287E-6   -1.969050344963994E-5   -1.143540642483336E-5   -6.912328620064213E-6    9.310311154127434E-1   -3.646485520475748E-1
 2.892311565304088E8     9.290454729087726E-1   -3.703854419018761E-1    2.989696991513199E-6    3.530051182236239E-6    1.871691464369168E-6   -3.432127386554673E-6    9.260893092940858E-1   -3.767995235052045E-1
 2.992011964107677E8     9.241585014809385E-1   -3.825565380343232E-1    7.391982468617507E-6    6.443108913099228E-7   -2.100083163708723E-5    2.450648580754311E-6    9.211060209534626E-1   -3.886208794393443E-1
 3.091712362911266E8     9.189483887539297E-1   -3.949067587477166E-1   -1.090258858713911E-5    1.098647027442142E-5   -1.166955809602449E-5   -7.485549643950457E-6    9.157405368306646E-1   -4.002985798404141E-1
 3.191412761714855E8     9.134592911907001E-1   -4.073435042931308E-1    6.264984525777350E-6    1.567366429443287E-5   -1.523564786492436E-6   -5.156615229654459E-6    9.097842579553654E-1   -4.119975786189678E-1
 3.291113160518445E8     9.075992044387831E-1   -4.200042592198305E-1    4.972947597457617E-6   -7.091215589470373E-6   -4.860201046801573E-6    7.626163017023416E-6    9.033205076153565E-1   -4.244125546351307E-1
 3.390813559322034E8     9.021238912700932E-1   -4.328149742272393E-1    5.682194312789819E-6    4.676462765865389E-6    3.769257323555530E-6    1.067015605706660E-5    8.966982535145662E-1   -4.369421494733551E-1
 3.490513958125623E8     8.968227607929394E-1   -4.453906102532885E-1   -7.186430744619761E-6   -3.646050478569098E-6   -2.699047323311601E-7   -9.035411346328051E-7    8.904524469600820E-1   -4.493778923026677E-1
 3.590214356929212E8     8.914084510400635E-1   -4.578277655164134E-1    1.394780150239913E-5    4.908285195433194E-6   -1.017201013634141E-5   -2.271009810956198E-6    8.846006880821927E-1   -4.621268109581751E-1
 3.689914755732802E8     8.860129330213397E-1   -4.700483645360845E-1   -5.028192720969720E-6    6.851554145375384E-6    2.113783022225823E-6   -6.603188436252708E-6    8.790383278031810E-1   -4.747598661369877E-1
 3.789615154536391E8     8.799275416017400E-1   -4.812738597600742E-1   -1.054926200759595E-5   -1.298926724198863E-5   -4.840261056465043E-6    2.016128346140367E-5    8.737763177240564E-1   -4.867643025401685E-1
 3.889315553339980E8     8.742868385022178E-1   -4.920739094735019E-1    1.790155825574923E-6   -4.785053635883142E-7   -4.955736350194466E-6    1.037739208277152E-5    8.679781407179449E-1   -4.987704270188043E-1
 3.989015952143569E8     8.676536154189467E-1   -5.027424491922141E-1    1.368881595481224E-5   -2.638532747089736E-6    7.326094093069442E-6    5.176391642170659E-6    8.611562699906873E-1   -5.097550716329375E-1
 4.088716350947158E8     8.602351234809034E-1   -5.135716178026956E-1    6.253143177869859E-6    7.729619799936982E-6   -8.460942731271001E-6   -1.506973936033831E-5    8.542488058271390E-1   -5.206184102048185E-1
 4.188416749750748E8     8.532988543666719E-1   -5.249951860771065E-1   -1.137082052074947E-5    6.073041521672640E-6   -4.561112758814231E-6   -1.136298162788662E-5    8.476223968858734E-1   -5.315378238896854E-1
 4.288117148554337E8     8.461557163192233E-1   -5.368116368672106E-1   -1.327428563280357E-5    8.650665243340458E-6    2.251627165316969E-6    1.193552256590393E-6    8.405338560386794E-1   -5.418728723924846E-1
 4.387817547357926E8     8.383474465126833E-1   -5.482094525215595E-1   -2.707350902548142E-7    1.398682274081905E-5    4.230367304985612E-6    3.807347598593550E-6    8.326469087093072E-1   -5.523131532678799E-1
 4.487517946161516E8     8.306232766983714E-1   -5.600193692489056E-1   -6.933806312007133E-7   -3.062617295174315E-6   -2.030306860912444E-6   -1.358159774230299E-6    8.241414786517703E-1   -5.634459696386521E-1
 4.587218344965104E8     8.236736135914914E-1   -5.719639883423423E-1    1.376524507385134E-5    1.000816022379926E-5   -1.215812373278772E-5   -1.546358295526911E-5    8.160207716640522E-1   -5.753242233595904E-1
 4.686918743768694E8     8.171552411845320E-1   -5.834627069978510E-1   -5.133479119862479E-6   -8.044627311284420E-6   -1.444341004146221E-5   -2.399688614692970E-5    8.078407219535926E-1   -5.868434744743676E-1
 4.786619142572283E8     8.099806180487178E-1   -5.941889502566868E-1   -1.463742810629006E-6   -5.040224386309855E-6    7.912383177113411E-6    5.616652588678767E-7    7.992913426130489E-1   -5.980805838907920E-1
 4.886319541375872E8     8.023475437000029E-1   -6.046069319009097E-1    2.968557499069703E-6    4.499510718175991E-6   -3.612668469641990E-6    5.948719214500884E-6    7.904440302571004E-1   -6.088906897644468E-1
 4.986019940179462E8     7.942293059103089E-1   -6.153934260018140E-1    2.338917557684002E-6   -3.787335762963477E-6   -1.147857827175077E-5    6.760702429104386E-6    7.822925574818262E-1   -6.197530385872486E-1
 5.085720338983051E8     7.857649375758295E-1   -6.244677635417034E-1    5.528330781511542E-6    9.952021726735505E-6   -1.718466795238579E-5    1.049571142623454E-5    7.747187129608546E-1   -6.303187728867186E-1
 5.185420737786640E8     7.783386200997954E-1   -6.334940038230311E-1   -4.454616625406083E-6    4.365577251500974E-6    2.078356795731105E-5    1.524899650251778E-5    7.668907138846837E-1   -6.400446283799099E-1
 5.285121136590229E8     7.701530064022764E-1   -6.431177100042069E-1   -2.878837545655374E-7   -5.497707285140238E-7   -1.859089941316460E-6    4.916632170431953E-6    7.590533308040737E-1   -6.497389269940911E-1
 5.384821535393819E8     7.614385326811837E-1   -6.530885769806947E-1   -2.060307566220831E-6    6.659008822541309E-6   -1.267883556919630E-5   -5.717547162586766E-6    7.508798645237262E-1   -6.593915991088138E-1
 5.484521934197408E8     7.533372841508170E-1   -6.636403245948986E-1    9.815319946573829E-6   -3.477064151486084E-6   -7.577015464621406E-6   -2.453485420448827E-6    7.423809697149447E-1   -6.692261855923330E-1
 5.584222333000997E8     7.447639167095129E-1   -6.746796308093893E-1   -6.613140267611188E-6   -6.877119135674209E-6   -1.395586458810879E-5    9.062079976151902E-6    7.333501879857534E-1   -6.792137661660242E-1
 5.683922731804587E8     7.357276749170601E-1   -6.851459914447878E-1   -1.828775203423165E-5    3.670226771111949E-6    2.029627398630356E-5    1.562970735850303E-5    7.231439705908699E-1   -6.891665820189294E-1
 5.783623130608176E8     7.264348493102366E-1   -6.950911603860389E-1    1.225626709265311E-5   -4.296911706364562E-7    1.460304608006712E-5   -1.158410994312231E-5    7.126119581655420E-1   -6.989598576228933E-1
 5.883323529411764E8     7.171369185692484E-1   -7.050690127238214E-1    1.352881128576849E-5    7.835433625322119E-6   -1.027336499578764E-5    1.463907546527317E-5    7.022236620846671E-1   -7.086914608641750E-1
 5.983023928215353E8     7.079324940969238E-1   -7.152124031646248E-1   -1.931614356564113E-6    4.110782328331770E-6    2.688811004176277E-6   -7.299085400025570E-6    6.918655800626167E-1   -7.183372054160295E-1
 6.082724327018943E8     6.984811699342884E-1   -7.249091557595698E-1    1.346024487466109E-5    1.121310855870791E-5   -5.676335531574787E-6   -9.773464135704165E-6    6.816922701016034E-1   -7.278303585481928E-1
 6.182424725822532E8     6.887240524908409E-1   -7.346717097777089E-1    5.895889672446515E-6   -1.396710805335415E-5    1.344126516901307E-5    1.395429875256057E-5    6.717179315748233E-1   -7.373195961965502E-1
 6.282125124626122E8     6.781251438390135E-1   -7.440657329768444E-1   -5.057780081335446E-6    9.095615511569083E-6   -4.584423269615606E-6   -1.792785800070704E-5    6.627253063703319E-1   -7.467720080675454E-1
 6.381825523429711E8     6.683690042767463E-1   -7.511569797530433E-1   -6.939196322958560E-6   -6.206341186236300E-6    9.863606018319510E-6    5.642848603907376E-6    6.537594758116430E-1   -7.556155890757922E-1
 6.481525922233300E8     6.594068199409396E-1   -7.595873912587155E-1    3.687652207558795E-6   -7.422552415243690E-6   -1.194831512919070E-5    1.069740700912697E-5    6.445316767660547E-1   -7.641142805426223E-1
 6.581226321036890E8     6.497212421684367E-1   -7.685889831351125E-1   -6.653320490048472E-6    1.410176270556584E-5   -8.301541655476599E-7   -1.187674771164066E-5    6.346059097156225E-1   -7.724366015871793E-1
 6.680926719840479E8     6.398432140064314E-1   -7.773224564956667E-1   -5.429951834527702E-6    5.028353429028219E-6    4.986364223989794E-6   -6.155155353406892E-6    6.239307514732725E-1   -7.804169950917038E-1
 6.780627118644068E8     6.299972517779636E-1   -7.854364607970613E-1   -2.738627394456550E-6    4.571634621350778E-7   -1.315529239641700E-5    1.133973180835901E-5    6.128960145371091E-1   -7.882057876962251E-1
 6.880327517447658E8     6.195831176165078E-1   -7.936280739433645E-1    1.063417147028724E-6   -1.810333561918275E-5   -3.846768797306792E-6   -1.800825047056371E-6    6.014500856173488E-1   -7.959431717904535E-1
 6.980027916251246E8     6.085834175112840E-1   -8.018398557872177E-1    4.476758651020099E-6   -4.149393840056137E-6    3.109520038863151E-6   -8.230162160017386E-6    5.899658214413147E-1   -8.036872372313679E-1
 7.079728315054835E8     5.973710436632360E-1   -8.102847653771948E-1   -7.247974795110319E-7   -4.581145237842724E-6    1.210315578751807E-5    1.172881869005976E-5    5.785713084553122E-1   -8.116668085511731E-1
 7.179428713858424E8     5.861688167864602E-1   -8.186579143158372E-1   -4.267670879695303E-6   -8.895407831949476E-6    9.409982030536282E-6   -1.536972288683539E-5    5.672853176539797E-1   -8.201256209916027E-1
 7.279129112662014E8     5.751144432214809E-1   -8.272241481406766E-1    7.975433089242180E-6    1.746511459118701E-6    1.091308320497777E-5   -4.486236162256660E-6    5.559086399998661E-1   -8.287645872876597E-1
 7.378829511465603E8     5.638181322496435E-1   -8.360528854808995E-1    6.982639094991102E-6   -7.555869008623870E-6   -4.067523134759550E-6   -8.139649950939395E-6    5.445256559606548E-1   -8.372149972175730E-1
 7.478529910269192E8     5.518119328832045E-1   -8.444842277651188E-1   -5.208147686339151E-6   -1.260676171573757E-6    2.340650947333862E-6   -4.133572285223849E-6    5.333494333113511E-1   -8.449173069232829E-1
 7.578230309072782E8     5.393449496937252E-1   -8.516261670556726E-1   -1.055216429965039E-5    5.677157734699301E-6    2.093604362876133E-6    1.522075158087174E-5    5.222377341788258E-1   -8.518657682940753E-1
 7.677930707876371E8     5.288467256508735E-1   -8.570227356572150E-1   -1.165624348767551E-5    8.902377138812971E-6   -2.176088435496546E-5    5.815578747640696E-6    5.109236588008795E-1   -8.583180692798000E-1
 7.777631106679960E8     5.192291895617388E-1   -8.639654142998900E-1   -3.607592816819034E-6    1.046603227752650E-5   -9.626534556943319E-6   -8.838795808515812E-6    4.994712089653893E-1   -8.647546580427461E-1
 7.877331505483550E8     5.089025261093769E-1   -8.709824531917669E-1    1.162563523244984E-5    4.325768358658120E-6   -2.017574556368898E-5   -1.432112470891788E-6    4.876542365060617E-1   -8.714954546668524E-1
 7.977031904287138E8     4.976366873578930E-1   -8.772464542428973E-1    5.700614770436298E-6   -4.625966300179589E-6   -6.450751835184621E-7   -7.923335555581075E-6    4.749164157562368E-1   -8.779048144302193E-1
 8.076732303090727E8     4.860188323501630E-1   -8.831631523066041E-1    5.201667890115774E-6   -2.142765856015135E-6    1.475750836804120E-5    1.446635688795805E-5    4.620216893111346E-1   -8.840338161262502E-1
 8.176432701894317E8     4.739012145357213E-1   -8.891948891181204E-1   -8.656328274042440E-6    7.414217130346513E-6    5.488003058633891E-6    1.097148364294775E-5    4.491590175281442E-1   -8.902782001053482E-1
 8.276133100697906E8     4.615735125159553E-1   -8.956476582041769E-1   -4.217868603620104E-6   -6.337370007809730E-6   -8.194019282561746E-6   -3.573053325635297E-6    4.365725459999528E-1   -8.970375556653321E-1
 8.375833499501495E8     4.489331642501854E-1   -9.019924323435321E-1   -4.866522432410659E-6    3.180619690049580E-6    4.067284989529448E-6   -1.149412084316998E-5    4.244319406970374E-1   -9.037617577938802E-1
 8.475533898305085E8     4.361594932830888E-1   -9.084934336234106E-1   -1.579329454361574E-5   -3.770132213509118E-6   -1.559706552329262E-5    1.271655767697341E-5    4.124790752554520E-1   -9.097402726705239E-1
 8.575234297108674E8     4.234252135914437E-1   -9.147828141205347E-1    1.233092821516958E-5   -1.693983996772710E-6    1.458226139044420E-5   -1.644976345406422E-5    4.008715200806300E-1   -9.150992172650310E-1
 8.674934695912263E8     4.106593066336706E-1   -9.214677256846677E-1   -4.617295475401851E-6    1.527609405132747E-5    8.135258988826952E-6    6.851964108220424E-6    3.887061995522065E-1   -9.198707280626017E-1
 8.774635094715853E8     3.974604103809755E-1   -9.280599115786823E-1    4.001591204849144E-6   -8.670755780342491E-6    1.278403103710456E-5    1.584272135607154E-5    3.761531174272221E-1   -9.246676968376846E-1
 8.874335493519442E8     3.844474058789363E-1   -9.326928913899625E-1    8.957303558388737E-6   -3.550970601199648E-6   -3.400207171138261E-6   -1.247864825740787E-5    3.631056585006891E-1   -9.289673560118306E-1
 8.974035892323031E8     3.731424411296011E-1   -9.363902005615786E-1    6.619826091669197E-7    6.410363501732721E-6   -1.931027390408095E-6   -1.832183533401631E-5    3.495493062316480E-1   -9.334000916891186E-1
