#  HZ   S   RI   R     50.00 
! Rohde & Schwarz Vector Network Analyzer 
! Rohde-Schwarz,ZNB20-2Port,1311601062102128,3.60
! Created: UTC 4/29/2024, 2:52:40 PM
! freq[Hz]                re:S11                  im:S11                  re:S21                  im:S21                  re:S12                  im:S12                  re:S22                  im:S22
 1.000000000000000E5     9.964208330875639E-1    3.781806964854080E-3    5.044571089185355E-5   -7.706835150048689E-5    5.707381900583777E-5    2.403171247729220E-5    1.010516816293338      -1.148650203688110E-2
 1.007003988035892E7     9.977449480867250E-1   -1.386585104005804E-2    1.741243972988927E-5   -3.626537988105494E-6    3.619679757926198E-6    1.342281153749627E-5    9.957067304204091E-1   -1.458856966160617E-2
 2.004007976071785E7     9.997202274035424E-1   -2.722050795313049E-2   -2.618346797961242E-6   -1.338154203940907E-5    5.563589006772807E-6   -8.216983519836384E-7    9.988774114026566E-1   -2.768313717616444E-2
 3.001011964107677E7     9.979282750589022E-1   -4.100117152244789E-2    2.396270835426574E-6    4.880344175101626E-6   -5.547597142308454E-6    1.520567098272087E-5    9.975542410678879E-1   -4.202529215743209E-2
 3.998015952143569E7     9.977052301481157E-1   -5.314089012588313E-2    2.514661874818864E-5    9.071129981119687E-6   -4.372711068626254E-6   -4.234959943628771E-6    9.976172723966865E-1   -5.666945350093059E-2
 4.995019940179461E7     9.960798894589941E-1   -6.602001831025742E-2   -1.315409725558461E-5    1.044460576514889E-5   -2.717430553915684E-6   -1.753442652901680E-6    9.964715457702163E-1   -6.902015664096275E-2
 5.992023928215354E7     9.941889816110595E-1   -7.890241214825025E-2   -5.564910801376167E-6   -1.849827722616288E-6   -3.079757582145043E-6    9.666036432740983E-6    9.945069481556663E-1   -8.191927970579617E-2
 6.989027916251247E7     9.930012875666435E-1   -9.188860085900026E-2    7.363977544661314E-6    7.816166686111688E-6    1.384050531761826E-5    9.348268593005263E-6    9.933890124755460E-1   -9.467941834318763E-2
 7.986031904287139E7     9.924732266421210E-1   -1.052020975207281E-1   -7.535375943930342E-7    5.668108930743608E-6    1.039020812445112E-5   -8.976473150767740E-6    9.922633821130489E-1   -1.078868024096834E-1
 8.983035892323031E7     9.915436665928630E-1   -1.187989133004317E-1    2.535720260518686E-7   -6.965905488581580E-6   -3.696758257618193E-6   -1.027974949959750E-5    9.907128547872996E-1   -1.210215143271587E-1
 9.980039880358922E7     9.894345478348681E-1   -1.325055340841748E-1    2.817668014638857E-6   -1.900786797195961E-5    1.271071993066326E-5   -4.673406908519187E-6    9.885428527875165E-1   -1.344044691265891E-1
 1.097704386839482E8     9.865485769089142E-1   -1.454697394001060E-1    4.837839663469903E-6    1.240082277629326E-5   -7.738589800930329E-6   -1.116829467483047E-5    9.860210608314066E-1   -1.477366560812171E-1
 1.197404785643071E8     9.848553682783912E-1   -1.589332784454735E-1    5.186083129114732E-6   -2.933859793920647E-6   -6.229830028069835E-6   -1.107726474576355E-5    9.843004655772276E-1   -1.610400518083943E-1
 1.297105184446660E8     9.830690628751615E-1   -1.718071898123265E-1   -1.283365219895929E-6    4.630186791527024E-6    1.228894662232805E-5   -2.560583175237735E-6    9.828834498018379E-1   -1.744505563475409E-1
 1.396805583250249E8     9.817398980377914E-1   -1.846465314308874E-1    3.611999935512805E-6    1.296498609592302E-5   -1.403117009785844E-6    2.948555894977766E-6    9.810033582794905E-1   -1.874921829292687E-1
 1.496505982053838E8     9.790067120904521E-1   -1.971647881876588E-1   -1.984388619118628E-6    1.130953447940768E-5    8.925165461317650E-6    4.067105354344877E-6    9.785677586903463E-1   -2.002877068134135E-1
 1.596206380857428E8     9.762299279403631E-1   -2.093486739387983E-1   -8.654134614952466E-6   -1.940652135787913E-6   -1.665883838968745E-5   -2.782702879903111E-6    9.758140165531131E-1   -2.131965957423231E-1
 1.695906779661017E8     9.731792154973605E-1   -2.223477627077998E-1   -1.163187389433640E-5   -9.988978462501730E-7   -9.923245625643483E-6    9.378884455167925E-6    9.728593747899498E-1   -2.261055014700918E-1
 1.795607178464606E8     9.706797806591789E-1   -2.348041284648444E-1   -1.086721998050293E-5   -1.082211419640147E-6   -2.075352058412824E-6    2.171822864446704E-8    9.701742013960750E-1   -2.381148616491618E-1
 1.895307577268195E8     9.677650587330477E-1   -2.470956296208280E-1   -2.081041563254030E-5   -2.655700288661741E-6   -7.165781525615575E-6   -2.881388227614803E-6    9.667240580248903E-1   -2.505069948090679E-1
 1.995007976071784E8     9.638676622126463E-1   -2.595608466928835E-1   -1.190452224035914E-5   -4.024014315913725E-6   -2.094471029423900E-6   -1.077148725568514E-5    9.626942290569163E-1   -2.631948308962793E-1
 2.094708374875374E8     9.605284897439533E-1   -2.723727912619117E-1   -1.551151561628295E-6    6.700539220981709E-7   -1.947119583788582E-6   -6.278366730383096E-6    9.589288498083043E-1   -2.761539488769229E-1
 2.194408773678963E8     9.572667695439804E-1   -2.851453008841411E-1   -5.041908085524554E-6    6.627062546145849E-6   -4.050735293394468E-6   -6.588992672377050E-7    9.550414152211076E-1   -2.890632906670367E-1
 2.294109172482552E8     9.536783279549366E-1   -2.974063381887515E-1    1.190209540070861E-6   -1.296281108162280E-5    1.661759350113419E-5   -1.611874070741504E-6    9.508313074139014E-1   -3.017430295517418E-1
 2.393809571286142E8     9.505973459371944E-1   -3.094565140603899E-1   -6.222580727900438E-6   -1.692159154104044E-6    3.749917535329519E-6    6.755921574548170E-6    9.471245412293032E-1   -3.141045915777759E-1
 2.493509970089731E8     9.469117690875839E-1   -3.233348523948255E-1   -8.036161655034818E-6   -5.474537065450386E-6   -1.829529424233282E-5   -6.252738387807454E-6    9.441412552256745E-1   -3.276868847550871E-1
 2.593210368893320E8     9.427281861752252E-1   -3.354556663823306E-1    4.553618636880466E-6    7.130331743731502E-6   -7.105709866905667E-6    1.014196454869343E-6    9.397372239188707E-1   -3.407657210754889E-1
 2.692910767696909E8     9.384833629915184E-1   -3.468258850029895E-1   -6.336733163165426E-6    1.992281342596946E-7   -8.951516463608523E-6    8.942934535923288E-7    9.355642703853055E-1   -3.528567468836847E-1
 2.792611166500499E8     9.337928476871290E-1   -3.583623614448044E-1   -6.261331238441221E-6   -2.829728054921924E-6    6.659282156339266E-6   -4.058368144480638E-7    9.310823280318449E-1   -3.646939184080990E-1
 2.892311565304088E8     9.290046445916341E-1   -3.705094824730635E-1   -2.796468167286317E-6    7.397345642110983E-6   -2.369492788502753E-6   -8.887785072387812E-6    9.262248456725405E-1   -3.768022604294397E-1
 2.992011964107677E8     9.241730192049821E-1   -3.827428279593539E-1    8.350454269003768E-6   -5.919240848889545E-6    8.599170717543074E-6    1.028204735292483E-5    9.210520781263302E-1   -3.885911208457199E-1
 3.091712362911266E8     9.188580441190286E-1   -3.949119275979243E-1    7.121137285928445E-6   -9.433344958662332E-6    1.778557494172372E-5    3.629260337499290E-6    9.157295008012006E-1   -4.001680376288541E-1
 3.191412761714855E8     9.132939338263725E-1   -4.073769976821547E-1    1.620494716677109E-6    6.506727542583086E-6   -1.109606537648663E-5   -4.856501300902227E-6    9.098628753522492E-1   -4.119728801777310E-1
 3.291113160518445E8     9.076222035383336E-1   -4.200502526428738E-1    1.151695325564753E-5   -2.399299475130366E-6    8.698265300084810E-6   -1.503871262241239E-5    9.033330760253522E-1   -4.243633868898312E-1
 3.390813559322034E8     9.019420401966607E-1   -4.328328341068706E-1   -2.741391683257235E-6    1.089817642819788E-5    1.162087289625221E-5   -1.538791099683581E-5    8.968099261300785E-1   -4.368662323507247E-1
 3.490513958125623E8     8.967626715627615E-1   -4.454054580907026E-1    1.167405271261250E-6   -3.575120894088969E-6   -5.414606622828407E-6    2.930193269204532E-6    8.904380333460931E-1   -4.494058670475672E-1
 3.590214356929212E8     8.913118732887254E-1   -4.578585535809988E-1    1.875230474204412E-6   -1.042076851442615E-5    8.663538858617031E-6   -8.561051895532823E-6    8.846385334902571E-1   -4.621511471309631E-1
 3.689914755732802E8     8.859318558339744E-1   -4.701598181186884E-1   -2.628647759937265E-6   -1.897311600022130E-6   -1.641175437412007E-6   -2.648710512095773E-6    8.790617805060607E-1   -4.747675276739062E-1
 3.789615154536391E8     8.799401667033040E-1   -4.814025251013190E-1    1.783679654447005E-6   -3.548384474099415E-6   -1.424676064917999E-5   -1.486513217137545E-5    8.737713818306396E-1   -4.868150878892058E-1
 3.889315553339980E8     8.740861828961537E-1   -4.919965683912494E-1   -7.802698850252023E-6    6.503666251140099E-6   -2.167954240249475E-5    2.155747586240536E-5    8.679014688766803E-1   -4.987895644097853E-1
 3.989015952143569E8     8.673213399822710E-1   -5.027368667591415E-1    1.484525154785548E-6    3.438721858093455E-6    2.497686033681002E-6    5.082118042095162E-6    8.612092122223028E-1   -5.097381655551767E-1
 4.088716350947158E8     8.602084644410473E-1   -5.135734783495021E-1   -5.110951099774266E-6   -8.860908383391632E-6    8.323776122812721E-6    5.406484985808461E-6    8.542276920304542E-1   -5.206762842162004E-1
 4.188416749750748E8     8.533272852696850E-1   -5.251685115641495E-1    4.844639452295501E-6   -7.713116855830704E-7    3.790190622356519E-6   -6.493345477852107E-6    8.475825496116980E-1   -5.313717584179843E-1
 4.288117148554337E8     8.460186222910825E-1   -5.368299930346513E-1    4.223972629959719E-6    6.490649302418069E-6   -2.419646124881539E-6    1.372776536110585E-5    8.405321404418798E-1   -5.418385537342149E-1
 4.387817547357926E8     8.381990579440068E-1   -5.482206185220279E-1    1.494979438925176E-6   -8.558265549769206E-6    2.055362062901581E-6   -1.333367253881655E-5    8.326705578004374E-1   -5.523379320063404E-1
 4.487517946161516E8     8.303849727882519E-1   -5.600203133582686E-1    2.890444524820250E-6   -3.783356228836515E-6    4.211808958749175E-6    4.417299937749919E-6    8.241362189065368E-1   -5.634507601401622E-1
 4.587218344965104E8     8.235668940615538E-1   -5.719774661151394E-1    6.540579035556733E-6   -4.865453850086080E-7    3.909627188849651E-6    7.415442874773024E-6    8.158648540673991E-1   -5.752238813855864E-1
 4.686918743768694E8     8.170998992288449E-1   -5.835151501401421E-1   -9.236896405347677E-7    5.025094309129533E-6   -1.475101864095875E-5    1.101361288380209E-5    8.078775131507018E-1   -5.867768906389238E-1
 4.786619142572283E8     8.099852584224463E-1   -5.943234838784172E-1   -3.169803248971287E-6   -5.435892238747999E-6    7.088698541702148E-6   -1.066447570834417E-5    7.993535916869156E-1   -5.980559634904449E-1
 4.886319541375872E8     8.022128838168144E-1   -6.046742042658366E-1   -1.505240363790543E-6    1.960483794308906E-5    1.739548804115831E-5   -1.658426074670422E-5    7.904868182792663E-1   -6.088515717257722E-1
 4.986019940179462E8     7.938859044977075E-1   -6.153553501409337E-1    5.461395181007107E-6   -5.633527236694264E-7    3.899240005759928E-6    4.017517675824566E-6    7.823167777220937E-1   -6.195818870835506E-1
 5.085720338983051E8     7.855892672830547E-1   -6.245288433741610E-1   -1.939529443223362E-5    2.220437655497830E-5    4.285243301500109E-6    1.264005344005000E-5    7.745629809374320E-1   -6.302279786083722E-1
 5.185420737786640E8     7.783331698775645E-1   -6.336839534462537E-1   -3.468157008363749E-6   -7.168908035721896E-6   -3.724593982782319E-6    1.168682165737692E-5    7.669879020615608E-1   -6.400886908882342E-1
 5.285121136590229E8     7.699972407038935E-1   -6.431972395692467E-1   -8.241067045031571E-6    3.110915488045412E-6    1.382669883190089E-5   -2.039662737202846E-5    7.589892690145662E-1   -6.497637772039533E-1
 5.384821535393819E8     7.613485396868951E-1   -6.531012274274434E-1   -2.140175321773134E-6   -1.387909545192986E-5    7.471241558865411E-6    1.340310555008355E-6    7.508314155998035E-1   -6.592566481122510E-1
 5.484521934197408E8     7.532618606421931E-1   -6.636684894507552E-1    2.531791247875701E-6   -4.100857137620142E-6   -1.072024992977001E-5   -1.170432775951239E-5    7.424046158489401E-1   -6.692841904129621E-1
 5.584222333000997E8     7.448261755901073E-1   -6.747928127539717E-1   -1.080635425288541E-6    9.666844596781780E-6    9.768791218513338E-7    1.156752197159591E-5    7.333177247606075E-1   -6.791698736616043E-1
 5.683922731804587E8     7.356157528034252E-1   -6.852225217091441E-1   -8.169086971961548E-6   -1.313862328936502E-6    7.535824700326592E-6   -7.760895613542793E-6    7.230102870406661E-1   -6.891764087804592E-1
 5.783623130608176E8     7.262750333697148E-1   -6.951184221853811E-1   -8.878498267256016E-6    4.013328220960887E-6   -2.180440479896910E-6    3.624285257516411E-6    7.126057204511845E-1   -6.990250170527688E-1
 5.883323529411764E8     7.170184560041790E-1   -7.051276326949610E-1    1.222024767728536E-5   -2.260789324606436E-6   -2.434420646281182E-6    4.831395201325388E-6    7.021522331804061E-1   -7.086187862078048E-1
 5.983023928215353E8     7.078391510642540E-1   -7.152924074402223E-1   -6.263628467715317E-6   -4.549247961497827E-7    1.995038888056764E-5   -1.148923477312697E-5    6.920338171978517E-1   -7.183700873154719E-1
 6.082724327018943E8     6.984469622372242E-1   -7.250890514462526E-1   -1.113971711970920E-7    5.206123412836125E-6    5.113884284024586E-6   -2.449494300413048E-6    6.816306727331776E-1   -7.276994162155269E-1
 6.182424725822532E8     6.885955888990160E-1   -7.347684560367840E-1   -6.047659816748327E-6   -5.351487386042268E-6   -1.170718127279522E-5    6.729392643853171E-6    6.716390140374625E-1   -7.372714021609570E-1
 6.282125124626122E8     6.780041856714921E-1   -7.440674003358638E-1   -1.377380628860179E-5    1.938250365894195E-5    2.573441814371943E-5   -4.776217701094886E-7    6.626693351515889E-1   -7.468427028458635E-1
 6.381825523429711E8     6.683588226571056E-1   -7.511649210248559E-1    4.148499891008557E-6    4.893890853843752E-6   -8.874938348450272E-6   -3.022276370770414E-6    6.537591050372679E-1   -7.556806226796045E-1
 6.481525922233300E8     6.593732554095033E-1   -7.595588057185255E-1    5.623189923918698E-6    4.809029000638802E-6   -2.700553059496083E-6   -5.590680017016597E-7    6.445563713592076E-1   -7.641495885558439E-1
 6.581226321036890E8     6.496148546339606E-1   -7.686634954510015E-1   -3.415724747517341E-6   -2.096685554989657E-6   -3.839636327765997E-6    2.675183932815780E-7    6.345796864166097E-1   -7.724695050333920E-1
 6.680926719840479E8     6.397790582487366E-1   -7.773401435078349E-1    6.613963945173363E-6   -1.151939650382791E-5    1.422268534889258E-5    1.444922784160012E-5    6.239255860473812E-1   -7.804212140835245E-1
 6.780627118644068E8     6.298977387473716E-1   -7.854049329501037E-1   -1.180613879535494E-5    5.601640208056917E-6   -2.910437019185974E-6   -7.379886435119712E-6    6.129531226848325E-1   -7.883662621657923E-1
 6.880327517447658E8     6.194581603913644E-1   -7.935886560127243E-1    2.358364484320986E-5   -2.043777201533122E-6   -4.633773629825535E-6    9.968800389085182E-7    6.015508488125634E-1   -7.960469133034109E-1
 6.980027916251246E8     6.085929203204771E-1   -8.018093598089681E-1    9.109401187664345E-6    8.692763284320263E-6    8.959381566681500E-6   -4.676100051372219E-6    5.900181589718223E-1   -8.037399060400247E-1
 7.079728315054835E8     5.973161433403649E-1   -8.103324490342678E-1   -5.727568524886244E-6   -1.116500095432574E-5   -1.530267809203927E-5   -2.549988120720182E-6    5.785740280159872E-1   -8.115578577480544E-1
 7.179428713858424E8     5.862126590639540E-1   -8.189615525125328E-1   -1.455090987179538E-6   -4.034358011747840E-6   -1.577178686715826E-5    1.102948080589300E-5    5.671893689642910E-1   -8.201617103785200E-1
 7.279129112662014E8     5.750650862553264E-1   -8.272426585225185E-1    1.077942345679570E-6   -7.318420977892410E-7    5.846353618978862E-7    8.585867185308603E-7    5.559719507164987E-1   -8.289242380305121E-1
 7.378829511465603E8     5.637344590819952E-1   -8.358844619554134E-1    1.180973545627716E-6   -1.533964783215188E-6    1.851258863784677E-5   -5.103576278523232E-6    5.446684170651022E-1   -8.373115144019962E-1
 7.478529910269192E8     5.518165687782176E-1   -8.445594117906358E-1   -2.479446557245745E-6    9.840844967173012E-6    1.780624661835014E-5   -9.732900847868381E-6    5.334204970039129E-1   -8.449697457817521E-1
 7.578230309072782E8     5.391894345960392E-1   -8.517205413795350E-1   -6.676455214396621E-6   -9.992185094215847E-6   -1.855504375691240E-6    3.785530772218233E-6    5.222454588410151E-1   -8.519332769909564E-1
 7.677930707876371E8     5.287410417090829E-1   -8.570485046101873E-1    1.493795166124793E-5   -1.219217632035757E-5    2.629857096068139E-6   -7.440762235470097E-6    5.109191688262583E-1   -8.582481889879382E-1
 7.777631106679960E8     5.191561696336023E-1   -8.639371503427230E-1    3.420583166588482E-6   -1.131881377506948E-5    1.519673659135735E-5   -1.739594980448119E-5    4.995030294995684E-1   -8.648893793299912E-1
 7.877331505483550E8     5.088514348017878E-1   -8.709123117751385E-1    3.917410003566563E-6   -1.006542489153750E-5    1.302331333596526E-6    1.264633214962882E-5    4.876945060506345E-1   -8.714602732495370E-1
 7.977031904287138E8     4.976178549595031E-1   -8.773267139444475E-1   -1.821644287897215E-6   -1.337330201582592E-5    6.488588065769595E-7   -1.105256087088888E-5    4.748969687579939E-1   -8.780097597253199E-1
 8.076732303090727E8     4.859118699397350E-1   -8.832921876970280E-1   -3.129637516460488E-6    6.473439995570357E-6   -1.392392606724269E-5    5.653735194652381E-6    4.621274721233176E-1   -8.840136032399623E-1
 8.176432701894317E8     4.737686950766873E-1   -8.892736753176840E-1   -1.317604456369854E-6    9.348966349367387E-6    1.433396215140988E-6    5.002500220268677E-6    4.491252005930592E-1   -8.902599690684924E-1
 8.276133100697906E8     4.615289523287059E-1   -8.956318423527022E-1    8.359449065327730E-6    3.207098797921100E-6    7.120494133247773E-6   -2.267508227845929E-6    4.365475447157454E-1   -8.970993255088986E-1
 8.375833499501495E8     4.488823905914283E-1   -9.019974173014517E-1    9.117918276930745E-6    5.242788404706528E-6    1.102466268332459E-5    9.510440459334699E-6    4.245313004915889E-1   -9.038246074670133E-1
 8.475533898305085E8     4.361243875641966E-1   -9.084833959840454E-1    1.133324800942582E-5    3.767815339263252E-6    1.979157609558187E-6   -1.854713259839177E-5    4.126252204649370E-1   -9.098136354178585E-1
 8.575234297108674E8     4.233566274391609E-1   -9.149436626340209E-1    1.253063458759715E-6    6.459809078228027E-6   -4.937252376375766E-6   -9.623075136275823E-6    4.007354329414791E-1   -9.150490048736225E-1
 8.674934695912263E8     4.105027026566087E-1   -9.214981677373538E-1    2.148862637246611E-6   -3.962872508385046E-6    9.288909216451480E-6    1.043550786750051E-5    3.886958258905998E-1   -9.199754492865235E-1
 8.774635094715853E8     3.973353093745226E-1   -9.279532032624069E-1   -7.529591759790806E-6   -1.546655264532247E-5   -2.850323671896934E-6    7.823097628616157E-7    3.762026592407064E-1   -9.247208733008285E-1
 8.874335493519442E8     3.843139343007364E-1   -9.326616743804241E-1   -5.794613524557329E-6    1.804257852937910E-6    1.233147756601359E-7   -1.370588424244780E-5    3.631407636656063E-1   -9.291717180610030E-1
 8.974035892323031E8     3.730531695488983E-1   -9.364417695367655E-1   -5.828246053268002E-6   -2.337805644271173E-6   -6.276355251753331E-8    1.022608721852121E-5    3.495335028144411E-1   -9.334696350276380E-1
