#  HZ   S   RI   R     50.00 
! Rohde & Schwarz Vector Network Analyzer 
! Rohde-Schwarz,ZNB20-2Port,1311601062102128,3.60
! Created: UTC 4/29/2024, 2:52:44 PM
! freq[Hz]                re:S11                  im:S11                  re:S21                  im:S21                  re:S12                  im:S12                  re:S22                  im:S22
 1.000000000000000E5     9.955055927600386E-1    3.890596807356135E-3    1.126353301925568E-4   -1.660961542582742E-4   -6.823336048493595E-5    6.620645226918922E-5    1.010491085833045      -1.124718966358438E-2
 1.007003988035892E7     9.987769942324161E-1   -1.404621128374977E-2    1.802914226523248E-5   -1.360399195597605E-5   -1.876571643946764E-6   -3.707697803355531E-7    9.957704306537838E-1   -1.445251799045617E-2
 2.004007976071785E7     9.999110761621866E-1   -2.720556739072540E-2   -8.760826821397009E-6   -1.244204012409544E-5    1.003868110569139E-5   -1.077250920008630E-5    9.988945556176738E-1   -2.768024934735433E-2
 3.001011964107677E7     9.985220349876606E-1   -4.106597646245727E-2   -2.647032786469476E-5    1.341761063053154E-6    1.022233939284534E-5    9.835459040763508E-6    9.975822348611074E-1   -4.196300976335986E-2
 3.998015952143569E7     9.975373541587177E-1   -5.313741766316107E-2   -1.573601821769861E-7    1.586688228480199E-5   -1.079667469600018E-5    1.088164749503275E-5    9.975953552423736E-1   -5.671637976657289E-2
 4.995019940179461E7     9.955174320129062E-1   -6.598013777954878E-2   -9.764643390260551E-6   -9.532272286759440E-6   -5.320742044940262E-6   -1.118728857992856E-5    9.965245372838920E-1   -6.920095676979282E-2
 5.992023928215354E7     9.938511357586882E-1   -7.887019025927292E-2    4.371165406192860E-6   -8.477188035100176E-6   -6.550833525977030E-6   -2.325885410971715E-5    9.947717511546214E-1   -8.195152390161033E-2
 6.989027916251247E7     9.934119986816154E-1   -9.190115506229175E-2    8.131310550388584E-6    8.693676067896545E-6   -8.847059945870440E-6    5.071879850612673E-6    9.934731525395530E-1   -9.484689242397888E-2
 7.986031904287139E7     9.930332942121527E-1   -1.052848723424171E-1   -3.898129605415529E-6    7.766155105592087E-6   -8.085921270815347E-6    1.235994636304434E-5    9.923342895761706E-1   -1.078959444536997E-1
 8.983035892323031E7     9.916938082397425E-1   -1.189141948681659E-1    2.596751828087975E-6    9.348375763942644E-6    5.897254272807388E-6    9.264734783404287E-6    9.906327405533626E-1   -1.209889119114353E-1
 9.980039880358922E7     9.891306927088558E-1   -1.323769835840727E-1   -3.978572349706396E-6    4.796454531585568E-6   -1.114713014502236E-5   -4.548758683676177E-6    9.885306066978944E-1   -1.344167320695250E-1
 1.097704386839482E8     9.861370599147387E-1   -1.454966618306412E-1   -1.650465192329435E-5    4.035622849393891E-6   -7.031233660848259E-6    6.270390519557510E-6    9.861681513006674E-1   -1.477800536632315E-1
 1.197404785643071E8     9.849474417956344E-1   -1.589737432063480E-1   -3.394755539013026E-6   -7.722337415839650E-6    7.210439872374141E-6   -6.594649813189216E-6    9.843965134283885E-1   -1.610123267266225E-1
 1.297105184446660E8     9.832608947252310E-1   -1.718301657573705E-1   -2.620777437320440E-6    6.271974789723079E-6   -5.610769206888269E-6   -5.118019414874029E-6    9.829007876178023E-1   -1.743925780398774E-1
 1.396805583250249E8     9.817989538684815E-1   -1.846937582734860E-1   -3.193148966892763E-6   -4.518620548939974E-7    1.227282103430721E-5   -1.817297246318925E-5    9.808317895747709E-1   -1.874672899173010E-1
 1.496505982053838E8     9.786946306178296E-1   -1.970960724554678E-1   -5.679768128940095E-6   -1.362941584349045E-6   -8.317392185283101E-6    2.081036643702980E-6    9.785538193645764E-1   -2.003726610381434E-1
 1.596206380857428E8     9.761435909426311E-1   -2.094890121836667E-1    1.022024255177098E-5   -5.371440347801317E-6    1.767586613222511E-5   -6.526347994632771E-6    9.758285238174007E-1   -2.132871245935616E-1
 1.695906779661017E8     9.734868784023637E-1   -2.224478942758176E-1    1.904861175594478E-5    7.859325577121285E-6    1.364254396257596E-5   -6.639266875265001E-6    9.729363953038203E-1   -2.260964026856178E-1
 1.795607178464606E8     9.709182264189234E-1   -2.348658505343169E-1   -6.440469585646088E-6   -1.426731252558661E-5    5.708857348943416E-6   -1.061229719124262E-6    9.701181345764670E-1   -2.380509161173755E-1
 1.895307577268195E8     9.675487935693822E-1   -2.470143407945980E-1   -8.527007534177897E-6   -1.158484159274330E-6   -2.729855131298752E-5   -5.084627940362846E-6    9.667473478660968E-1   -2.505056201942991E-1
 1.995007976071784E8     9.637047873879425E-1   -2.595150091958163E-1   -1.079121935373072E-5   -4.004088008874995E-7    5.423756108577036E-7   -5.792467504504128E-6    9.626893692113514E-1   -2.631680655642866E-1
 2.094708374875374E8     9.605529722189896E-1   -2.724686402978811E-1    1.105533710700780E-6    3.031709340806522E-6    1.211011598035227E-5    2.585237607585567E-5    9.590375978839333E-1   -2.762037616276427E-1
 2.194408773678963E8     9.574335300670004E-1   -2.852074682044283E-1   -6.579177247116482E-7    2.239222224335992E-5    7.821770555757561E-6   -1.874781023158904E-6    9.550965081896760E-1   -2.890952473015441E-1
 2.294109172482552E8     9.537020878029875E-1   -2.974931136934598E-1    2.208671990259633E-6   -5.375135136259810E-6    4.706806911103023E-6   -8.825131489520689E-6    9.510257033785344E-1   -3.018281599468023E-1
 2.393809571286142E8     9.505195697703570E-1   -3.094434352814902E-1    4.484446052050600E-6    7.077061148062493E-7   -1.409606384389491E-6    1.023860846878639E-5    9.470007736964420E-1   -3.139953562574895E-1
 2.493509970089731E8     9.469641963615820E-1   -3.233843026018463E-1    1.514137127587110E-5    1.896730044673374E-6   -4.656381442261074E-6    9.531755350725104E-6    9.441010791822793E-1   -3.276802010514550E-1
 2.593210368893320E8     9.429369213318441E-1   -3.354530112015633E-1   -2.477940827012113E-6   -1.026852387177314E-5    8.647964983671600E-6    1.711731606509496E-5    9.398731735671662E-1   -3.409023811377576E-1
 2.692910767696909E8     9.385264299384760E-1   -3.468718264869198E-1   -2.067641317487635E-5    1.628649053080263E-5   -8.822848692748526E-6    1.604547634788906E-5    9.354415584313103E-1   -3.528518271845834E-1
 2.792611166500499E8     9.337806435450539E-1   -3.584524329964101E-1    8.291100875919857E-6   -5.934455689136000E-7   -1.556587552837403E-6   -1.064316181012283E-5    9.308693780875128E-1   -3.645902336928274E-1
 2.892311565304088E8     9.291015626013545E-1   -3.705657460784875E-1    8.337508310485408E-6    9.162218449492526E-6   -8.894046719743484E-6   -7.615615998212010E-9    9.262315749687208E-1   -3.768411018907797E-1
 2.992011964107677E8     9.242791913316625E-1   -3.827607348083924E-1   -6.317027560162999E-6   -6.155739448905967E-6    8.966027905625841E-7    1.609528354997912E-5    9.211701690028438E-1   -3.886817800702876E-1
 3.091712362911266E8     9.188915712360973E-1   -3.949768531262300E-1    1.648689289381865E-6    8.461831196874917E-6    8.257421212663267E-6    3.049646997340944E-5    9.156868624347303E-1   -4.001185788966153E-1
 3.191412761714855E8     9.132330397265052E-1   -4.074042473198746E-1    3.029352691963722E-6   -2.724799008069441E-6   -2.829355907480840E-6   -1.041525272921144E-5    9.097260580376417E-1   -4.120225253904181E-1
 3.291113160518445E8     9.075620144194934E-1   -4.200891226122373E-1   -2.271035535555271E-6    7.462372545533038E-6   -1.241437024139709E-5   -4.685355686873695E-6    9.033758461409602E-1   -4.243649946751257E-1
 3.390813559322034E8     9.019754582555850E-1   -4.329473953633243E-1    3.139393834887932E-6    8.519022531352310E-6    4.534620864328935E-6    1.615387972747595E-5    8.969159976994986E-1   -4.368812857476643E-1
 3.490513958125623E8     8.967752506352317E-1   -4.455026142262927E-1    1.000745012376034E-5   -9.661046635194920E-6   -1.961085826551985E-6   -1.527118615185511E-5    8.905063723948081E-1   -4.494832494063410E-1
 3.590214356929212E8     8.913329487459207E-1   -4.579158140222801E-1    7.785022472549950E-7   -2.462082766522848E-6   -2.357266718701596E-6   -4.435882388588398E-6    8.846298547924906E-1   -4.620936871016205E-1
 3.689914755732802E8     8.860236207640423E-1   -4.700911560474629E-1    4.231111686165909E-6    1.166923844877094E-5   -4.919775966044895E-6    7.680310209206409E-7    8.791153024348500E-1   -4.747177104957463E-1
 3.789615154536391E8     8.798653878944679E-1   -4.813949445131686E-1   -4.550835504540650E-6   -4.705827337309188E-6    9.336536248379425E-6    8.670704907293565E-6    8.738376334412451E-1   -4.867087273556777E-1
 3.889315553339980E8     8.742015829931761E-1   -4.922150162569485E-1   -1.504080650081957E-5   -5.092226369351909E-6   -4.451124248411612E-6   -8.883036515037987E-6    8.680078405842974E-1   -4.988091555383979E-1
 3.989015952143569E8     8.674242694785942E-1   -5.028417806318535E-1    3.400715489912943E-6    8.671442571761727E-6   -3.734817817164859E-6    3.385247520739371E-6    8.611220624718762E-1   -5.096976202900548E-1
 4.088716350947158E8     8.601649102197185E-1   -5.135974850408138E-1    2.354937318562727E-6    4.571479001745525E-6    2.557282219301627E-5    1.049807278474274E-5    8.542074609003535E-1   -5.205996569562071E-1
 4.188416749750748E8     8.533037527742594E-1   -5.251604269882397E-1    1.477827706154420E-5    8.706766363299434E-6    2.021046952495178E-5    5.604356490512122E-6    8.476344781732420E-1   -5.313946116328789E-1
 4.288117148554337E8     8.460512009162202E-1   -5.369070493324768E-1   -1.449889106045640E-5    3.277502165346933E-6    8.068972994233279E-6    6.024684034825537E-6    8.407029145037201E-1   -5.418668878665703E-1
 4.387817547357926E8     8.382634632901601E-1   -5.482954219509832E-1    2.299143746615601E-6   -3.695113557794070E-6    2.290164378732079E-6   -5.202052885153867E-6    8.325967299105812E-1   -5.522681550721529E-1
 4.487517946161516E8     8.304716651515570E-1   -5.600851252183403E-1   -2.013594164057476E-6    6.438259326870744E-6   -4.403252609426223E-6   -1.279655463943229E-5    8.241455168355343E-1   -5.634823049812984E-1
 4.587218344965104E8     8.235835551021520E-1   -5.720203884172397E-1    9.166503978119928E-6    3.371996389760370E-6   -4.310606058986192E-6   -2.426231001031265E-5    8.160338377294740E-1   -5.752500815060326E-1
 4.686918743768694E8     8.170129195274987E-1   -5.834568480414487E-1    6.048208868985750E-6   -1.806098342580078E-5    8.024162256855638E-6   -1.505694006744795E-5    8.078486979062256E-1   -5.868441701304993E-1
 4.786619142572283E8     8.098538798720204E-1   -5.943462888758508E-1   -4.371983104138859E-6   -1.207648420621775E-6   -2.970405895936955E-6   -1.112802245950633E-5    7.992212851274088E-1   -5.980302245327836E-1
 4.886319541375872E8     8.022855670578153E-1   -6.047620896874348E-1   -4.617604272843955E-6   -7.813914792694952E-6   -5.268176292056619E-6   -8.484583990714592E-6    7.903892523129756E-1   -6.087502484318685E-1
 4.986019940179462E8     7.940192225123937E-1   -6.155029416209845E-1    1.613312065373886E-5   -7.639773816873437E-6   -5.847792841679389E-6   -1.910437983533777E-5    7.823550967902689E-1   -6.196773290932438E-1
 5.085720338983051E8     7.857130859051495E-1   -6.247140780638879E-1    1.784427439088967E-5    7.328178158351072E-6   -2.903417894217046E-6    7.828558792924452E-7    7.746776312706904E-1   -6.302783694662749E-1
 5.185420737786640E8     7.782111738999647E-1   -6.336932220765464E-1    5.728012933204987E-6   -4.437027176997943E-6    1.384145782669642E-5    1.707840580155834E-5    7.669890070993075E-1   -6.400432924792672E-1
 5.285121136590229E8     7.698417741726893E-1   -6.431232587849555E-1   -1.720528971684271E-6    5.866042911091485E-6    1.232263529389872E-5   -7.173127738830969E-6    7.589541487499670E-1   -6.496243875702333E-1
 5.384821535393819E8     7.613451195631814E-1   -6.531769585658119E-1    5.404244386972432E-6    2.160279758011382E-6   -7.986317010045314E-6   -1.941674053878801E-6    7.508675560719875E-1   -6.594294115946532E-1
 5.484521934197408E8     7.532305447038989E-1   -6.638205556081612E-1    7.276084188073941E-7   -2.183148480413651E-7   -9.926873127570556E-8   -3.895068528987878E-6    7.424620105064044E-1   -6.692582737627687E-1
 5.584222333000997E8     7.447430163450496E-1   -6.747937120579334E-1   -9.621960811208594E-6   -1.429126326975567E-6   -2.370443989116556E-6   -3.593440253204198E-6    7.333554575938220E-1   -6.792872453337766E-1
 5.683922731804587E8     7.355673514924043E-1   -6.851131511222723E-1    1.365494524254220E-5    2.231653201860494E-5    6.017883650891352E-6   -1.667811969181496E-5    7.231718648362708E-1   -6.891782807296105E-1
 5.783623130608176E8     7.262360627554065E-1   -6.950985595147045E-1   -3.501710368944223E-7   -6.010748192885593E-6   -9.917577853816542E-7   -1.156829574140884E-5    7.125236365488973E-1   -6.988890704221071E-1
 5.883323529411764E8     7.172114220241895E-1   -7.051928963608125E-1    6.161495773491229E-6   -1.345801613134204E-6    8.766271945360504E-6   -9.924949604074599E-6    7.021963586330007E-1   -7.087706156736221E-1
 5.983023928215353E8     7.078785819665526E-1   -7.152978459563171E-1   -5.231186723305843E-6    5.490695092888804E-6    1.509682397649483E-6   -3.799063703486226E-6    6.920563706945151E-1   -7.184932389391617E-1
 6.082724327018943E8     6.984205204588380E-1   -7.249512121580218E-1   -5.490411614385473E-6   -4.496243185100728E-6    2.580905534526809E-6   -2.255691722615149E-6    6.816844294819016E-1   -7.277977665837219E-1
 6.182424725822532E8     6.885777415552877E-1   -7.347043528294609E-1   -6.956942979893608E-6    1.288163547896359E-5    5.007696586077692E-6    5.425656088173674E-6    6.716925272780767E-1   -7.370762118496123E-1
 6.282125124626122E8     6.778995533238205E-1   -7.439955107705950E-1    8.369250859811603E-6   -1.520581286906800E-5    3.536632018241410E-6   -9.186894412672123E-7    6.627005862767996E-1   -7.468438377492288E-1
 6.381825523429711E8     6.682325575142366E-1   -7.510553405403887E-1    1.219159047136090E-6   -5.072065667865786E-6   -1.123120433866430E-5   -1.464637670144130E-5    6.537934003254934E-1   -7.557283014578049E-1
 6.481525922233300E8     6.593180082835108E-1   -7.596567925370756E-1    8.290779054181643E-6   -6.312147979204929E-6    1.200382880979212E-5   -1.157055438616510E-5    6.446565953799387E-1   -7.643205034600247E-1
 6.581226321036890E8     6.496693296320188E-1   -7.686423030209517E-1   -4.521764692511987E-6   -2.614413898157310E-6    9.270647049535658E-6   -2.503690406789964E-6    6.345495510780731E-1   -7.725000255027843E-1
 6.680926719840479E8     6.397365340709573E-1   -7.772675037309075E-1   -9.169570479578515E-6    5.750458090169457E-6    1.143497837020648E-5   -6.626332856751617E-6    6.238889362382435E-1   -7.804400714680033E-1
 6.780627118644068E8     6.298492575576816E-1   -7.853818303628799E-1   -8.270717876651403E-6    6.784665169264047E-6   -4.009218663597332E-6   -1.166471435046756E-5    6.129533859649545E-1   -7.884263723235772E-1
 6.880327517447658E8     6.194476215797510E-1   -7.937162644721062E-1   -1.080534252337476E-5   -9.779856044814938E-6    5.745861711494289E-6   -1.398838713737932E-5    6.016754514047969E-1   -7.961038727101649E-1
 6.980027916251246E8     6.085614241698935E-1   -8.018324123235543E-1    1.441326196837409E-6   -2.585067149830181E-6    6.248541903501330E-6   -5.470479741071345E-6    5.900215815618386E-1   -8.036745830986726E-1
 7.079728315054835E8     5.972215849349701E-1   -8.102672713179860E-1    1.307308107557161E-6    9.091856709103555E-6   -1.436821224348244E-6   -5.059064939131360E-6    5.783777729167562E-1   -8.115076500152890E-1
 7.179428713858424E8     5.860678316002855E-1   -8.188447339818979E-1   -1.040647246499550E-5   -5.886364418419337E-6    9.352569950321816E-6    3.010216544549565E-6    5.672868789470056E-1   -8.201298051880223E-1
 7.279129112662014E8     5.751096709612836E-1   -8.272874846862558E-1   -6.957578233119599E-7   -1.119645587629171E-5    4.374697103466336E-6   -7.694645822862180E-7    5.560845184308540E-1   -8.290022776222357E-1
 7.378829511465603E8     5.637614577604922E-1   -8.360354134492046E-1    1.927760252906627E-6   -8.249991889068749E-6   -2.177364673788941E-5   -6.339655310540903E-6    5.446037790527920E-1   -8.373367507559930E-1
 7.478529910269192E8     5.518246952434517E-1   -8.445621024183434E-1   -5.331491976767963E-6   -1.664873100038926E-6   -3.476640604742262E-8   -1.580573178687885E-5    5.334174103660062E-1   -8.449619754445333E-1
 7.578230309072782E8     5.392043577470803E-1   -8.517915412915165E-1    2.235812756075670E-6    1.477303902708536E-6    6.203902026027371E-6    5.142558987663951E-6    5.221664620179342E-1   -8.519656650963494E-1
 7.677930707876371E8     5.287345939062271E-1   -8.570382180400947E-1   -5.398981847226788E-6   -2.911576197169563E-6   -1.844239341077236E-8    5.176580465835067E-6    5.110057415445821E-1   -8.583730396378914E-1
 7.777631106679960E8     5.190984267107451E-1   -8.639111248015409E-1    5.799126048745814E-6    6.866654329759523E-6   -2.321341177774277E-5    5.913889962447145E-6    4.995377418495809E-1   -8.649156214107306E-1
 7.877331505483550E8     5.087729562030325E-1   -8.708941860685833E-1    1.438993922203650E-6   -2.723445092640759E-6    3.566888482372836E-6    2.045119570442965E-6    4.876854234356724E-1   -8.715955121679398E-1
 7.977031904287138E8     4.975991528949879E-1   -8.773843320518695E-1    1.413986167247752E-5    3.785673615659417E-6   -2.031532282641035E-5    1.220977515116091E-5    4.749104338534139E-1   -8.779454227756139E-1
 8.076732303090727E8     4.858401762995919E-1   -8.833079659086140E-1    5.183915921822122E-7    8.476387624891969E-6   -9.505657764319099E-7    8.346330749865475E-6    4.620261253864031E-1   -8.840729542483481E-1
 8.176432701894317E8     4.737536205308993E-1   -8.892755855650215E-1   -4.899784865315979E-6   -1.509166135926929E-5   -4.849648133162677E-6    1.063772279504283E-6    4.492024803696908E-1   -8.904028091991325E-1
 8.276133100697906E8     4.614512661364241E-1   -8.954934938886118E-1    1.304490245275274E-6    6.805978699470809E-6    1.271299872965471E-5    5.988151733804362E-6    4.366122609425990E-1   -8.971987262014367E-1
 8.375833499501495E8     4.488021769033630E-1   -9.020006502022221E-1   -7.007413639991099E-6   -5.186421875245927E-6    2.391720528367308E-6   -7.869352572242389E-6    4.243403433317730E-1   -9.038606878952128E-1
 8.475533898305085E8     4.360448305663096E-1   -9.085132888590322E-1   -2.431880324494487E-6   -8.338356920325068E-6   -3.017730359616815E-6   -2.416257286176595E-6    4.125837784251076E-1   -9.099286989299278E-1
 8.575234297108674E8     4.232944277943258E-1   -9.149037395392964E-1    7.151327093918226E-6   -5.609245894637443E-6    5.100467785618534E-6   -1.101881787266990E-5    4.007038672940073E-1   -9.151775536166983E-1
 8.674934695912263E8     4.104275378162570E-1   -9.214496011820940E-1   -2.254347730515435E-7    5.672116909436016E-6   -2.406820051361733E-6    1.073146615339565E-5    3.886967774554148E-1   -9.200674678764734E-1
 8.774635094715853E8     3.972939927301045E-1   -9.279550892955784E-1    2.228031877274096E-6   -6.396622764087950E-6   -9.636823727546473E-6    3.140639082285280E-6    3.761833339633271E-1   -9.246899526348803E-1
 8.874335493519442E8     3.842933889277748E-1   -9.326795508351167E-1   -2.145282702708580E-6    3.375086441663919E-6   -5.960853472702153E-6   -1.520826007123379E-5    3.631185094592230E-1   -9.291588165754909E-1
 8.974035892323031E8     3.730445754291390E-1   -9.363795187047199E-1    5.134863939602014E-6   -6.349900788944160E-6   -2.275132579803634E-6    2.277667527090512E-6    3.496134112133452E-1   -9.334116951533041E-1
