#  HZ   S   RI   R     50.00 
! Rohde & Schwarz Vector Network Analyzer 
! Rohde-Schwarz,ZNB20-2Port,1311601062102128,3.60
! Created: UTC 4/29/2024, 2:52:26 PM
! freq[Hz]                re:S11                  im:S11                  re:S21                  im:S21                  re:S12                  im:S12                  re:S22                  im:S22
 1.000000000000000E5     9.963971890309574E-1    3.670513549114824E-3   -1.826200197226921E-4   -3.995866171698662E-5    3.238284565160034E-5   -5.489181246757796E-5    1.010616422546450      -1.142285470773338E-2
 1.007003988035892E7     9.974929034345477E-1   -1.394062716184096E-2   -5.001655845966326E-6   -8.138802954779383E-6    5.462652975346074E-6    8.396940614986396E-6    9.958710236957998E-1   -1.449783580703878E-2
 2.004007976071785E7     9.997953390239305E-1   -2.706852437475374E-2   -3.025667008139176E-6    1.649485213176528E-5   -1.240215016018450E-5   -1.582390883663420E-5    9.987836574637590E-1   -2.791748153663327E-2
 3.001011964107677E7     9.979993102738792E-1   -4.096375193165142E-2    2.484556971123629E-6    5.966075885996399E-6    3.351873467521552E-6   -2.496859003775737E-6    9.975536097573624E-1   -4.197386013782462E-2
 3.998015952143569E7     9.977875062582695E-1   -5.316436856668177E-2   -1.185716209324512E-5    4.166443628923333E-6    1.273561117614330E-5    5.256167388886261E-6    9.977677079128859E-1   -5.670993490639584E-2
 4.995019940179461E7     9.961071749744976E-1   -6.607982285963221E-2   -6.380372500616630E-6    2.224739644627696E-5   -1.083354576743483E-6    5.386973108298658E-6    9.966367654955941E-1   -6.905617410440772E-2
 5.992023928215354E7     9.943310101124090E-1   -7.891068883246796E-2   -1.290697961750198E-5    5.600663065837709E-6    1.356832037716063E-5    2.704915780275028E-6    9.945565383672655E-1   -8.183705501589852E-2
 6.989027916251247E7     9.930797587088179E-1   -9.193551793703006E-2    6.844378948867593E-6   -8.378177430534249E-6   -8.823267042280157E-6   -1.504915026923586E-5    9.935069214228057E-1   -9.473167803120122E-2
 7.986031904287139E7     9.924815019838661E-1   -1.052671205409020E-1   -7.905023811913915E-6   -2.568684509567044E-6   -1.579628038718859E-5    5.941864898294108E-6    9.923917242433398E-1   -1.078447163521365E-1
 8.983035892323031E7     9.915236779761445E-1   -1.188373500984137E-1    2.124518027877961E-5    1.414741427343466E-5    1.390118691271195E-5    7.062334880171807E-6    9.909565700429094E-1   -1.211119332847866E-1
 9.980039880358922E7     9.894838382306895E-1   -1.323427979644796E-1   -4.135881471730515E-6    1.132312224639839E-5    9.467776349147822E-7   -2.498835239220049E-5    9.886345975683183E-1   -1.344144454772297E-1
 1.097704386839482E8     9.865050875159324E-1   -1.455765721819485E-1    2.282554195489822E-7    1.037725405585510E-5    5.901942958140681E-6   -7.320573500173628E-6    9.860150150159622E-1   -1.477685105384791E-1
 1.197404785643071E8     9.847778271322792E-1   -1.589262535728332E-1    8.380360650479920E-6    5.803375661886412E-6   -3.536638556101209E-6   -1.549413397222713E-5    9.843900384234382E-1   -1.610484931387301E-1
 1.297105184446660E8     9.829089162021052E-1   -1.718148180571453E-1    4.459221768905705E-6   -2.111168028251913E-6   -2.186743901555299E-5   -1.298829270416041E-5    9.828939002695092E-1   -1.744095218776479E-1
 1.396805583250249E8     9.816354217609227E-1   -1.847044727136044E-1    4.483276738499330E-6    8.759410019902877E-6   -1.005289913094853E-5    1.434005665272337E-5    9.809940562130257E-1   -1.875188370627004E-1
 1.496505982053838E8     9.790988479426078E-1   -1.970965677595560E-1    4.408122483649433E-6    5.221869931216047E-7   -1.660317601474075E-5   -8.768238255197331E-6    9.783415373513364E-1   -2.003617770174368E-1
 1.596206380857428E8     9.761840576817510E-1   -2.094482716151525E-1    1.714562199327827E-5   -9.709167876875185E-6    6.048070635639247E-6    1.178419256456171E-5    9.757706996510452E-1   -2.132213394783780E-1
 1.695906779661017E8     9.731097231450299E-1   -2.222792305423370E-1   -5.990978113670667E-6    8.203129652570439E-6    3.471255054308319E-6    1.312672734935860E-5    9.729568058836433E-1   -2.260531615973410E-1
 1.795607178464606E8     9.706120183580502E-1   -2.347998282030196E-1    5.466524368115177E-6    5.669128222289999E-6    1.990076286392129E-5   -2.042004333282569E-6    9.702838686085761E-1   -2.381025994812541E-1
 1.895307577268195E8     9.677245727453976E-1   -2.470536681210023E-1   -1.883846575223900E-6   -1.273806053827887E-5    1.110693037060495E-6    4.828401940003819E-6    9.666395637430266E-1   -2.505213053770370E-1
 1.995007976071784E8     9.639367380841473E-1   -2.595084181109356E-1   -2.657880495395019E-7   -1.754157334874932E-6   -1.097933649646878E-5   -8.311381436004405E-6    9.627743365278626E-1   -2.632739421571740E-1
 2.094708374875374E8     9.602956579278120E-1   -2.723839150446893E-1   -1.783998034341635E-6   -9.755007191483639E-6   -1.252148555497298E-6    3.491423355968172E-6    9.589391658010946E-1   -2.761868375915949E-1
 2.194408773678963E8     9.571605426945621E-1   -2.851703108413343E-1    2.294007544719334E-6    1.132310603928463E-5   -2.030742036525405E-5    5.195722828142529E-6    9.551743746023155E-1   -2.891479028146789E-1
 2.294109172482552E8     9.537208591082812E-1   -2.974665905206633E-1    2.173454520333401E-6    3.386311049328732E-6    3.562743396827597E-6   -9.849314121825544E-6    9.509625038636343E-1   -3.017204746781089E-1
 2.393809571286142E8     9.505394824284252E-1   -3.094502606330716E-1    5.668643911327635E-6   -4.795837807742817E-6   -8.037865747839523E-6   -5.283790928522830E-6    9.470584910974157E-1   -3.140692928401267E-1
 2.493509970089731E8     9.467840739348992E-1   -3.233896355333920E-1   -3.213213407400809E-6    1.636180181754427E-5    9.145060643279106E-6   -1.437052269779740E-5    9.442242337080495E-1   -3.276483098846846E-1
 2.593210368893320E8     9.426447736215183E-1   -3.353898659660264E-1   -4.876937269673055E-6   -4.351263820141990E-7   -1.958803345219432E-5   -2.428355770647305E-6    9.397592176645093E-1   -3.408461029329388E-1
 2.692910767696909E8     9.385662203339792E-1   -3.468057687967380E-1    6.842841720822367E-6    1.801750394834241E-6    5.630215715022564E-6   -1.076942457272331E-5    9.355091225145939E-1   -3.528420412812799E-1
 2.792611166500499E8     9.338689432060224E-1   -3.584178190628989E-1   -1.604212648538754E-6   -7.328410539628313E-6   -8.773025553713731E-7    4.162393265790906E-6    9.310081868043996E-1   -3.646402921602023E-1
 2.892311565304088E8     9.287925727451768E-1   -3.705461069376271E-1    6.476310478757677E-6   -3.173291487355533E-6    6.820216309051146E-6   -9.922734807497022E-6    9.262909115463059E-1   -3.768406086996070E-1
 2.992011964107677E8     9.240126579530964E-1   -3.825680111359497E-1    3.424229759614177E-6   -1.041422382046868E-6   -9.113180213657533E-6    1.702020424934753E-6    9.212131640038296E-1   -3.886361800464512E-1
 3.091712362911266E8     9.188160164465928E-1   -3.949555932376765E-1    1.300750253073756E-6   -5.864438223459153E-6    1.419494715174827E-6    5.841212379498435E-6    9.157278943859103E-1   -4.000908432733669E-1
 3.191412761714855E8     9.132556964714136E-1   -4.073216109386483E-1   -5.230414426125311E-6    1.473149041302409E-5    3.618089776147613E-6   -3.465088785323268E-6    9.098189774213605E-1   -4.119909772273674E-1
 3.291113160518445E8     9.076229532717941E-1   -4.201213723127363E-1   -1.378340922468566E-6   -7.132830548503119E-6   -1.988309010845098E-5   -1.273025433884164E-5    9.034236242252919E-1   -4.245083843931523E-1
 3.390813559322034E8     9.019541689046422E-1   -4.328286633598139E-1    7.106975757510793E-7   -2.022917873271841E-6   -9.494211200506962E-6    2.161874621931897E-6    8.968478751080560E-1   -4.370092242330670E-1
 3.490513958125623E8     8.966178263942336E-1   -4.453497687048912E-1   -1.557680471227878E-6   -6.162477245860316E-6    6.393367239904367E-6   -1.842724780503157E-5    8.905510235742623E-1   -4.494473128180850E-1
 3.590214356929212E8     8.912354068716349E-1   -4.578489166952937E-1    1.032793965447095E-6   -1.325840474494500E-5   -6.320286072480828E-7    9.722698033119824E-6    8.844493400087114E-1   -4.620889593069687E-1
 3.689914755732802E8     8.859618004301034E-1   -4.700879015702764E-1   -1.147771011471296E-5    1.129688652103986E-5    8.345132686648255E-6    3.194854222809853E-6    8.790776579144990E-1   -4.748480782781965E-1
 3.789615154536391E8     8.798037337832276E-1   -4.814446375191828E-1   -4.497804745765346E-6   -5.345647463825884E-6   -5.316976670548851E-6   -1.417070767824119E-5    8.739066137795778E-1   -4.868761320535957E-1
 3.889315553339980E8     8.742057270742311E-1   -4.920135773701201E-1    2.347445430908541E-6   -7.610208439445264E-7    4.227195160228813E-6   -4.354370045726128E-6    8.679786231711043E-1   -4.987438496034661E-1
 3.989015952143569E8     8.674450700631221E-1   -5.027228331552726E-1   -9.889604139172016E-6   -8.002662836981410E-6    7.121589556280728E-7   -3.266425463885719E-6    8.611810910464238E-1   -5.096772768142097E-1
 4.088716350947158E8     8.600969332146484E-1   -5.135739490780993E-1    8.527375504771801E-6   -1.184755315559609E-5    1.307070743314883E-6   -2.309885804838018E-5    8.543246693156517E-1   -5.206774811615831E-1
 4.188416749750748E8     8.532774111454533E-1   -5.251140002461460E-1    4.844817839118097E-6    1.986703866154253E-6   -1.997106154823397E-5    1.387332179198317E-6    8.476497121800015E-1   -5.315639969988896E-1
 4.288117148554337E8     8.459355027792681E-1   -5.368534280233797E-1    8.088921028718216E-6   -7.531652751946291E-6    2.086087309813662E-6   -9.454405320456505E-6    8.405425764708552E-1   -5.417881948858925E-1
 4.387817547357926E8     8.382117311832892E-1   -5.482791278802011E-1   -8.203660350942021E-6    4.957985472684102E-6   -5.664785307515103E-7   -1.893027103068279E-5    8.326212073373980E-1   -5.523808836926694E-1
 4.487517946161516E8     8.304590865716478E-1   -5.600537264998600E-1    5.417218401296396E-6    9.606155459835286E-6    1.799364853537797E-6   -3.224326237129586E-7    8.241474130320470E-1   -5.634361405890015E-1
 4.587218344965104E8     8.235756152682893E-1   -5.720031313916756E-1   -8.700648956164549E-6    1.800046262463000E-5   -2.615536031435139E-5    2.088800626700932E-6    8.159879095863821E-1   -5.752062123948819E-1
 4.686918743768694E8     8.169730330544491E-1   -5.834600017878561E-1   -4.145716629107514E-6    3.566223687949632E-6   -1.525651913786122E-8    3.977661564644136E-6    8.079934665877359E-1   -5.869103267329179E-1
 4.786619142572283E8     8.098661726723011E-1   -5.942816947038589E-1   -5.087793721419155E-7    9.287604504706032E-6    1.646113333413540E-5   -1.483676130616456E-7    7.993137234921074E-1   -5.980175836001569E-1
 4.886319541375872E8     8.022430306133003E-1   -6.047758815286877E-1    2.512478077919016E-6   -2.250221937236954E-6   -1.052012137126778E-5    7.827489501305404E-6    7.904533391772515E-1   -6.088522833093868E-1
 4.986019940179462E8     7.939895660014983E-1   -6.154577054204527E-1   -2.386666263845001E-6    1.288492413546810E-5   -1.935916338262635E-6   -1.014027530181526E-5    7.822689273601552E-1   -6.197438615928711E-1
 5.085720338983051E8     7.856289132013792E-1   -6.245456132665392E-1   -1.617579038273067E-5   -4.797061187899764E-7    1.097086755878183E-5   -1.175003436900332E-5    7.746627879264174E-1   -6.303215725027254E-1
 5.185420737786640E8     7.782324456166254E-1   -6.336298898531526E-1    7.629400499408190E-6    5.815650249709154E-6   -3.814025848804796E-6    5.213944560246695E-6    7.669809777929083E-1   -6.401993522483667E-1
 5.285121136590229E8     7.699031016608378E-1   -6.430847447210285E-1    2.312161221598246E-6   -7.299051699664034E-6   -1.089384018415791E-5   -1.767508904765534E-5    7.589957289188343E-1   -6.497049993761166E-1
 5.384821535393819E8     7.614150564191825E-1   -6.532597606604766E-1   -2.119439142651967E-7    2.305410446900551E-6    4.715649773913269E-6   -6.526192120301713E-6    7.508966805796944E-1   -6.593317761891306E-1
 5.484521934197408E8     7.533059678944252E-1   -6.638056848114655E-1    7.534475473319254E-7    6.948892506309154E-6    1.264091175696421E-5   -5.644518917568021E-6    7.424644339767075E-1   -6.692259445952458E-1
 5.584222333000997E8     7.446849881625633E-1   -6.746958585291468E-1   -4.067838663898101E-6    1.574847582168593E-5   -1.400496208551580E-5    1.997356169730324E-6    7.333330118983861E-1   -6.792830563886176E-1
 5.683922731804587E8     7.354981631289078E-1   -6.851589802253670E-1   -2.536664765573298E-6   -1.420347593945425E-5   -1.918870971817334E-6   -8.978026299351182E-7    7.231085674341134E-1   -6.893030239368354E-1
 5.783623130608176E8     7.262700839690224E-1   -6.951425400142053E-1   -3.658586748184556E-6    1.191315115949200E-5    2.619796561505423E-6   -6.883535113251910E-7    7.126592617576406E-1   -6.989285674284947E-1
 5.883323529411764E8     7.170255986287940E-1   -7.052247966862122E-1   -1.983881165993781E-5    6.119552693183758E-6   -1.887213248700112E-5    2.902679371388293E-6    7.022283418745708E-1   -7.086810825537555E-1
 5.983023928215353E8     7.078807470780543E-1   -7.153829281971251E-1    8.417003781306862E-6   -3.505120035586726E-6    1.053646444578573E-5    3.383828915152493E-6    6.919874538738325E-1   -7.185417469896084E-1
 6.082724327018943E8     6.983895333913424E-1   -7.249840584294727E-1   -1.015807856142432E-5   -1.938547076680035E-5    4.183915296945629E-5   -1.544817660395675E-5    6.817194562864187E-1   -7.278090445645604E-1
 6.182424725822532E8     6.885158108242539E-1   -7.347183495233891E-1   -1.245187532327108E-6   -5.382782013542319E-6   -1.121117742884352E-5   -6.925871895264223E-6    6.717034583573115E-1   -7.371819698524066E-1
 6.282125124626122E8     6.780656500829381E-1   -7.441225231319432E-1    1.345425023183301E-5    9.303103055860641E-6   -6.082645780324222E-6    1.611355518176532E-5    6.626620646289569E-1   -7.467345978893342E-1
 6.381825523429711E8     6.683780916020854E-1   -7.512192219513559E-1    8.153901566999606E-6   -1.855720954845985E-6    5.309120770233102E-6    9.457979898715459E-7    6.537976985576502E-1   -7.556550209150000E-1
 6.481525922233300E8     6.593331166636353E-1   -7.597005149193881E-1    7.609924592002025E-6   -5.463099493606723E-7    1.401228402384844E-5   -5.627478246912588E-6    6.446499717888344E-1   -7.641485740669024E-1
 6.581226321036890E8     6.496006639754013E-1   -7.686453059425532E-1    5.182962738346934E-6    1.776302396464365E-6   -1.647349982077745E-5   -1.652457905433116E-5    6.345285061569552E-1   -7.724409424783090E-1
 6.680926719840479E8     6.396827709599848E-1   -7.772322771498611E-1    2.651179020192495E-6   -7.255878610110239E-7   -5.562826771581402E-6   -1.057720033060480E-5    6.240120763460011E-1   -7.804259586612151E-1
 6.780627118644068E8     6.298704074978911E-1   -7.853954240505405E-1   -2.201610837277592E-6    1.184358047872548E-5    3.225479933601822E-6    4.601692352449744E-6    6.128929166832471E-1   -7.883855265549139E-1
 6.880327517447658E8     6.195914371584322E-1   -7.938131887982954E-1    1.135090414774647E-6    2.811154291162649E-6    1.069766916836746E-5    7.877409990488963E-6    6.014810235396681E-1   -7.959867707111303E-1
 6.980027916251246E8     6.085840805305078E-1   -8.020145409673186E-1   -4.238507694393782E-6   -4.061332218086128E-6   -9.930435048184008E-7    6.022974090403826E-6    5.898622382029095E-1   -8.036433582206536E-1
 7.079728315054835E8     5.972709746923948E-1   -8.102057431463084E-1   -8.109926763888447E-6   -1.175270888000189E-5   -7.192411578187668E-6    1.639153782651405E-5    5.785278609815034E-1   -8.116126755950973E-1
 7.179428713858424E8     5.860975285033697E-1   -8.186943280895743E-1    1.382151017796185E-5    3.506278917569331E-6   -1.005892404953184E-5    9.628452782889533E-7    5.672264539095679E-1   -8.202710769176447E-1
 7.279129112662014E8     5.751968621476119E-1   -8.273650329694490E-1   -9.921698224794392E-6    6.917241874570057E-6   -3.932750603699356E-6    4.797602926327152E-6    5.558491747310802E-1   -8.289135182939833E-1
 7.378829511465603E8     5.638427706960075E-1   -8.361039976800856E-1   -6.847518334556735E-6   -9.632339176172559E-6    6.650926714828798E-6    1.137513753689018E-5    5.445894442853428E-1   -8.372249204958963E-1
 7.478529910269192E8     5.518578389636755E-1   -8.446751428620262E-1    7.563186583852672E-6   -1.216828509074993E-5   -8.235646977512956E-6   -7.806946899748823E-6    5.334247812407938E-1   -8.450143412726207E-1
 7.578230309072782E8     5.391774058440508E-1   -8.517033327257831E-1   -4.729980218813446E-6    1.164054755838068E-5    7.094826377007651E-6   -3.030618207675563E-6    5.223725196373918E-1   -8.519887325152529E-1
 7.677930707876371E8     5.286270760439954E-1   -8.569836323132152E-1   -4.433085216941207E-6   -9.042801467242925E-6   -2.631736611800278E-6   -2.169456815844118E-6    5.109990195420914E-1   -8.583750939525004E-1
 7.777631106679960E8     5.190904703664735E-1   -8.639400212947884E-1    6.862334483341482E-7    1.814550042914483E-5    7.281786224913667E-6    1.082303465388886E-5    4.994019768911515E-1   -8.648513700744197E-1
 7.877331505483550E8     5.088832809770319E-1   -8.710563644815295E-1   -1.471639447280642E-5    5.101389004730593E-6    1.379476604918838E-6   -4.419885956855019E-7    4.876430012826367E-1   -8.715260406357566E-1
 7.977031904287138E8     4.975636427157651E-1   -8.774180807850941E-1   -1.168875538197700E-5   -8.626366676592911E-6   -8.087224638872126E-6   -1.422720463169096E-5    4.748529329257916E-1   -8.779074221366314E-1
 8.076732303090727E8     4.858132520884538E-1   -8.831219920650041E-1   -4.728191120537557E-6    1.714195298561946E-6   -6.449763668023364E-6    5.596079340553698E-6    4.619908986312964E-1   -8.839995512006590E-1
 8.176432701894317E8     4.737754387548142E-1   -8.891510310868982E-1   -3.185859647085126E-6   -8.249469566438803E-7    3.345498453121690E-6    5.200691935500113E-7    4.491519041142933E-1   -8.902838213711907E-1
 8.276133100697906E8     4.615033846535393E-1   -8.956300668952358E-1   -1.735327150352183E-5    7.790044331563346E-6   -1.585635037866695E-5    1.710880850766924E-6    4.365839172880108E-1   -8.970774841687827E-1
 8.375833499501495E8     4.488766656689096E-1   -9.022104423447475E-1    6.164413768727872E-6    2.172228681271361E-6    2.059747045213124E-5    4.838254287158966E-7    4.243754785423742E-1   -9.037992156008202E-1
 8.475533898305085E8     4.360717109110518E-1   -9.086791640085140E-1    1.933160995039401E-6    5.640931260898170E-6    4.096578148734569E-6    8.300918995205362E-6    4.125404299188601E-1   -9.098072011472648E-1
 8.575234297108674E8     4.232750898216532E-1   -9.148871209488155E-1    1.369329070381224E-5   -2.970443947225444E-6   -1.500538317590363E-5    1.734018990320297E-6    4.007464772029465E-1   -9.151442398568325E-1
 8.674934695912263E8     4.104812376980010E-1   -9.215274849903441E-1   -4.788303373621662E-6    1.005034338596520E-5   -1.507885900872967E-6    9.326462304097954E-6    3.886756577814831E-1   -9.198731406550865E-1
 8.774635094715853E8     3.973842123432659E-1   -9.281407770830022E-1    6.838135119355810E-6    1.107015460044140E-5   -5.456387576689318E-7    2.610577648166139E-6    3.760429697288375E-1   -9.245688587337987E-1
 8.874335493519442E8     3.843373217304340E-1   -9.327798069522930E-1    1.310221919336219E-5    3.601547008477040E-6    3.355743682052340E-6    6.427307334969314E-6    3.631573225801408E-1   -9.291866307699065E-1
 8.974035892323031E8     3.729912647849351E-1   -9.364349083749411E-1   -5.548664776267216E-7   -1.411829619000385E-6    5.331237919545609E-6    3.743961389791849E-6    3.495548708185680E-1   -9.334045858675758E-1
