#  HZ   S   RI   R     50.00 
! Rohde & Schwarz Vector Network Analyzer 
! Rohde-Schwarz,ZNB20-2Port,1311601062102128,3.60
! Created: UTC 4/29/2024, 2:53:27 PM
! freq[Hz]                re:S11                  im:S11                  re:S21                  im:S21                  re:S12                  im:S12                  re:S22                  im:S22
 1.000000000000000E5     9.964557054527690E-1    3.742844036784646E-3   -7.837256414387034E-6    3.802018333475359E-5   -1.798565084459295E-5    5.111592410017808E-5    1.010431906740388      -1.126441256226685E-2
 1.007003988035892E7     9.976191158972902E-1   -1.374460743153051E-2   -8.147455628922298E-6    8.138503110930420E-6   -1.892573418018484E-5   -1.178022118025423E-5    9.957671852539958E-1   -1.453540582758086E-2
 2.004007976071785E7     9.998744027454189E-1   -2.699415032733376E-2    1.099819449077281E-5   -1.727145415844053E-5   -2.572355241609883E-5   -5.420937195485946E-6    9.988479530429054E-1   -2.771783091146144E-2
 3.001011964107677E7     9.979336443216912E-1   -4.107170962558028E-2   -1.489052460153564E-6    7.954111581190052E-6   -1.363136093812937E-5    1.732710987948949E-5    9.975987926325364E-1   -4.201482540121935E-2
 3.998015952143569E7     9.976574756431907E-1   -5.311406727068117E-2    2.198208589415493E-5    4.469573515519632E-6    1.637644364726405E-5   -5.652148461101661E-6    9.978593444751918E-1   -5.668843255618330E-2
 4.995019940179461E7     9.962070728011254E-1   -6.600423965634798E-2   -6.711393314723069E-6   -8.582759902290076E-6   -6.672764474810216E-7    3.438930648177607E-6    9.965848678457515E-1   -6.913156758405543E-2
 5.992023928215354E7     9.943367379610489E-1   -7.888346329586539E-2   -1.139842051384021E-6    1.226730347055905E-5   -3.428078380722184E-5   -6.609427054421403E-6    9.945479472155097E-1   -8.184169741191201E-2
 6.989027916251247E7     9.931727189386004E-1   -9.182200736985398E-2   -3.471310219538421E-7    3.010409196307033E-6    1.258065571819452E-6   -1.744139251575061E-5    9.933865416941662E-1   -9.477028488235505E-2
 7.986031904287139E7     9.925479858897261E-1   -1.052529132791723E-1   -5.094164549097243E-6   -1.100069252908709E-5   -8.575887781442309E-6    1.368615498047321E-5    9.925247281534602E-1   -1.079161934945731E-1
 8.983035892323031E7     9.915041987382859E-1   -1.188104450949447E-1   -4.432258079360640E-6   -2.789539942899950E-5   -2.034360201252542E-6   -1.564792694866305E-5    9.910171797815849E-1   -1.211252692064681E-1
 9.980039880358922E7     9.894380517166367E-1   -1.323435764107684E-1   -2.500688394883243E-6    7.952238011569507E-7    1.546379323372887E-6   -1.806253548659389E-5    9.886046498401889E-1   -1.345090745095458E-1
 1.097704386839482E8     9.867259499341730E-1   -1.455762741159617E-1    5.195430378027421E-6   -1.148152409556179E-5   -4.362913124097133E-6    7.988656849198649E-6    9.861877207627808E-1   -1.476181292796434E-1
 1.197404785643071E8     9.848898552270366E-1   -1.589697619935548E-1    1.178972766176113E-5   -3.682641796977321E-6   -8.424246008560445E-8    5.891086564146506E-6    9.842659071697936E-1   -1.611472012237977E-1
 1.297105184446660E8     9.830353005009840E-1   -1.718651601098507E-1   -9.278890454132423E-6   -5.202680624028347E-6    8.733006861197729E-6   -7.949112453656577E-6    9.829001872208982E-1   -1.744123143886687E-1
 1.396805583250249E8     9.815399058057748E-1   -1.846401256731694E-1    1.703741116181563E-6   -5.037679972183212E-7    1.001560414872677E-5   -1.132732118734841E-5    9.809684300708905E-1   -1.874952041317667E-1
 1.496505982053838E8     9.789389602890408E-1   -1.971174809209802E-1   -4.393372186421086E-7    7.982447031005243E-6   -9.350931348025713E-6   -1.593037358628805E-7    9.785034689981839E-1   -2.003622874198853E-1
 1.596206380857428E8     9.762156051577947E-1   -2.095108320637405E-1    4.745318666617849E-6   -6.224672275314932E-6    2.113728225706084E-5    1.830594871832240E-5    9.757827224150050E-1   -2.132074076218505E-1
 1.695906779661017E8     9.733058993769372E-1   -2.223597007301136E-1   -1.267095563654970E-6    1.616631689574662E-5   -4.169823072305143E-6    7.070604183002352E-6    9.728599602877747E-1   -2.261262849680734E-1
 1.795607178464606E8     9.708071710193374E-1   -2.348775657902984E-1    6.095210611194831E-7   -8.649561152801346E-6   -2.409163852910991E-5    7.792475316272789E-6    9.701980635606068E-1   -2.380588046171172E-1
 1.895307577268195E8     9.676795530989922E-1   -2.470077800173415E-1   -1.030435367027799E-6    3.832779743491295E-6   -1.209590869399690E-5    6.157788358639579E-6    9.668132105270428E-1   -2.505036228130760E-1
 1.995007976071784E8     9.638100933452589E-1   -2.595736356523056E-1   -1.535298500705605E-5    1.205068779684310E-5    1.518311873601861E-5    1.600347127649091E-5    9.627357324830171E-1   -2.630992598547636E-1
 2.094708374875374E8     9.604439890705808E-1   -2.724132115549575E-1   -1.166249261194071E-6   -1.008331997473180E-5   -3.384206691054965E-6   -6.174847575140199E-6    9.589180545641264E-1   -2.761195265728859E-1
 2.194408773678963E8     9.573451732677324E-1   -2.851301758164226E-1   -1.253409178595890E-5    1.999373461475774E-6    9.375600884056695E-6   -1.168015230454702E-5    9.551825552986069E-1   -2.891585447488239E-1
 2.294109172482552E8     9.535659733635402E-1   -2.974153289626106E-1    3.620178492350098E-6   -1.633809307981172E-5    1.682986129224880E-6   -2.407341408329747E-5    9.509257247555168E-1   -3.017333084332111E-1
 2.393809571286142E8     9.505513943185178E-1   -3.094232000424984E-1   -5.331869935747151E-6    3.139550477865761E-6    8.045938241535618E-6    1.425789990486723E-6    9.469769753452757E-1   -3.139479071991354E-1
 2.493509970089731E8     9.468492774952784E-1   -3.233113855219675E-1    1.184717082195240E-5    5.826170284701054E-6   -4.983798505440382E-6    1.066840037639282E-5    9.442331689944796E-1   -3.276179306223373E-1
 2.593210368893320E8     9.427278637533838E-1   -3.354040508161600E-1    1.182076742690123E-6    1.310679441099376E-6    2.890916540761448E-7    2.895675778672590E-6    9.398638054278839E-1   -3.408753709855207E-1
 2.692910767696909E8     9.386234967132787E-1   -3.468301643852887E-1    4.554770667162465E-6    2.040688071154022E-6    1.724373729161043E-6   -9.388470462274397E-6    9.354187887965342E-1   -3.528333695713700E-1
 2.792611166500499E8     9.338394611669800E-1   -3.584910966647277E-1   -3.606025310536201E-6    5.792445964834714E-6    5.967500924843626E-6   -4.731903786767746E-6    9.309352378916660E-1   -3.647074837976293E-1
 2.892311565304088E8     9.289527961696137E-1   -3.704889718756923E-1    1.124195834105399E-5    2.607728188141968E-6   -1.289878230516461E-5    4.460452357845130E-6    9.262805588085146E-1   -3.768684207458613E-1
 2.992011964107677E8     9.241732767558912E-1   -3.826896786062004E-1   -1.423792440213279E-5    2.593370742945110E-5    8.563274214551250E-6    2.618018631511308E-5    9.212549249967098E-1   -3.886392905247263E-1
 3.091712362911266E8     9.188961814264047E-1   -3.950144224160354E-1   -9.098975695431806E-6   -1.894092227738921E-6    2.320496221291173E-6    8.028897708612216E-6    9.156439303215670E-1   -4.001889902512082E-1
 3.191412761714855E8     9.132907704632908E-1   -4.073917399881595E-1    5.643423716163206E-6   -1.839416199349003E-5   -2.407413542538532E-7   -1.869652150710064E-5    9.098241593892387E-1   -4.119651411699882E-1
 3.291113160518445E8     9.075320529586790E-1   -4.199690181955686E-1   -2.932934149206201E-6   -2.129760499602932E-6   -1.043705953548852E-6    1.269030558028198E-5    9.033594860737367E-1   -4.244097494501219E-1
 3.390813559322034E8     9.018885046731329E-1   -4.327701257187617E-1   -1.153613663663962E-5   -6.761977157673929E-6    6.558651827931310E-6   -1.324848019456436E-5    8.967145404745125E-1   -4.369364873163782E-1
 3.490513958125623E8     8.966941797765188E-1   -4.454389121937807E-1    7.053435580155586E-6   -2.086358176580754E-6    2.873328410434051E-6   -6.899699630675661E-6    8.904940033860242E-1   -4.494588092439213E-1
 3.590214356929212E8     8.912629582361720E-1   -4.579138598954835E-1   -1.789204569514758E-6   -3.397811306960856E-6    7.762468113564550E-6   -3.199150726262519E-6    8.845971051385496E-1   -4.621425665352640E-1
 3.689914755732802E8     8.859823047369704E-1   -4.700794283910836E-1    3.862708687160997E-7    7.075570022263228E-6   -1.804528667353420E-5    7.457228148401882E-6    8.791031394235558E-1   -4.747199134663067E-1
 3.789615154536391E8     8.798246143997680E-1   -4.813062046459917E-1    2.114635499088274E-5    6.627406779813560E-6    4.766270002357932E-6    3.104778534466460E-6    8.738501538562549E-1   -4.868034243748219E-1
 3.889315553339980E8     8.741637655859379E-1   -4.920180413423543E-1   -6.972779861011402E-6   -6.288148554607792E-7   -6.785993097322209E-6    3.140610184822067E-6    8.679239343478592E-1   -4.987570507452967E-1
 3.989015952143569E8     8.674039078366654E-1   -5.027726675019192E-1   -1.044654236146753E-5    2.513493302187909E-6    1.277661482281894E-5   -2.019101310052840E-5    8.612076967297936E-1   -5.098324681926549E-1
 4.088716350947158E8     8.602840243681177E-1   -5.136308945391541E-1    9.211278182958738E-6    9.062101632335987E-6   -1.496570753181519E-6    1.187173914543079E-5    8.543289403282560E-1   -5.206408317032939E-1
 4.188416749750748E8     8.532182776380024E-1   -5.251200933143813E-1    7.505885487158354E-6    1.209172975607193E-6    1.717634381077214E-6   -6.845561084761179E-6    8.476271329626444E-1   -5.314614563479306E-1
 4.288117148554337E8     8.460453896918935E-1   -5.368080863604583E-1   -1.032881939840024E-5    1.555693305817155E-5    5.592570191022413E-7    1.023529351139522E-5    8.405925341083723E-1   -5.418681329119012E-1
 4.387817547357926E8     8.382485356913850E-1   -5.482181756533845E-1    1.740459595184482E-6   -4.420045738045075E-6    4.087176290380063E-6   -5.976623016026125E-6    8.326583765674979E-1   -5.523609907683200E-1
 4.487517946161516E8     8.306271457922566E-1   -5.600943026505286E-1    1.394138187964217E-6   -4.336178075037260E-6   -1.220813189044489E-5   -1.938327156895838E-5    8.242401278740965E-1   -5.634397468145190E-1
 4.587218344965104E8     8.235717035198290E-1   -5.719710559830203E-1    2.113582595413028E-6    3.218549852284782E-6   -1.371033854584167E-5   -8.778813440137491E-6    8.160219052293540E-1   -5.753177330808191E-1
 4.686918743768694E8     8.170283851009943E-1   -5.834524983128380E-1   -9.253396914911345E-7   -1.434936333793528E-6    1.903397758697627E-5   -9.892785452879969E-6    8.078265947428137E-1   -5.868304639276597E-1
 4.786619142572283E8     8.099199010223831E-1   -5.942246273553130E-1   -2.929305417728767E-6    2.269398360544669E-6   -1.283901786391881E-5    1.316805521765578E-5    7.993401096800077E-1   -5.981023980108721E-1
 4.886319541375872E8     8.024627542249586E-1   -6.047522513001333E-1   -6.810117026439259E-6    3.679079113289249E-6   -5.010614245279799E-6    1.519151298483539E-5    7.907962055693167E-1   -6.090313906655346E-1
 4.986019940179462E8     7.940671013197461E-1   -6.154330846528689E-1    1.448038868128901E-5   -5.990399493594066E-6    3.004187956624189E-6    9.229401251121809E-6    7.824129040833306E-1   -6.196569063792100E-1
 5.085720338983051E8     7.855638172010938E-1   -6.245634341647001E-1   -6.510550076940081E-6   -1.099504513876054E-5    2.159484171908536E-6   -1.468412751344279E-7    7.745280346715109E-1   -6.302196196699925E-1
 5.185420737786640E8     7.782814150511214E-1   -6.336168574922152E-1   -5.589417880013771E-6    5.601906654164763E-6   -7.161871143908990E-6   -8.297592686690447E-6    7.669846668456606E-1   -6.400857845614466E-1
 5.285121136590229E8     7.700515059034073E-1   -6.431810389342911E-1   -7.670090343623984E-6   -6.903504902433170E-6    2.986448476803061E-6   -6.765650465441156E-6    7.590727416991279E-1   -6.497592137033890E-1
 5.384821535393819E8     7.614218311879958E-1   -6.531911226978944E-1    1.461525938048045E-6    1.291798880092700E-5   -8.901023895196077E-6   -5.373201841781047E-7    7.509100250735626E-1   -6.594464187496666E-1
 5.484521934197408E8     7.532264524658524E-1   -6.637763163660305E-1   -5.608196135899575E-6   -3.209633906451006E-6    6.526011478885141E-7   -9.849018514143484E-6    7.424162925918618E-1   -6.692459713126638E-1
 5.584222333000997E8     7.447890063627002E-1   -6.746542081656912E-1   -8.906006865825932E-6   -1.611847938488621E-6    1.848758656149192E-5    1.518933556868518E-5    7.332837121156864E-1   -6.791955552958775E-1
 5.683922731804587E8     7.356979545282695E-1   -6.852422288044273E-1   -4.380811456014253E-6   -4.320098456376182E-6   -6.373465000254721E-7    3.336864056861357E-6    7.231864839839625E-1   -6.891638378719429E-1
 5.783623130608176E8     7.263581020366616E-1   -6.951290171410828E-1    5.733510359573228E-7    7.004578685362247E-6   -3.310909835359943E-5    1.380117775584415E-6    7.127923953593818E-1   -6.989856344234597E-1
 5.883323529411764E8     7.171542836750696E-1   -7.051476939963769E-1    1.301443008755830E-5    7.865804460905055E-6    2.585880391788266E-6   -1.490093920910301E-5    7.022593762957228E-1   -7.087784582797609E-1
 5.983023928215353E8     7.079060568431299E-1   -7.153437332558810E-1    1.493261569371759E-5   -3.210128176096270E-6   -5.950887231237234E-6    1.110193917139737E-5    6.917986202248335E-1   -7.183444088734531E-1
 6.082724327018943E8     6.984074149565647E-1   -7.249994030012608E-1    6.928056105677327E-6    9.618974800960384E-6    1.484293263484965E-6    2.151827445579640E-6    6.815897575463711E-1   -7.277813202468107E-1
 6.182424725822532E8     6.885522253120349E-1   -7.347022061805299E-1    5.534122890801616E-6    3.763273225495635E-6   -6.166216549677273E-6   -5.502452494624178E-6    6.718032141208117E-1   -7.372560206065418E-1
 6.282125124626122E8     6.780443898983534E-1   -7.440033161177021E-1   -2.953191830135226E-6   -1.262872024705348E-5   -8.476535571251166E-6   -1.695085028273634E-5    6.628061158774945E-1   -7.468850544069588E-1
 6.381825523429711E8     6.683162601907152E-1   -7.511056873465217E-1   -1.097047898109219E-5    1.313203834137057E-5   -6.678549538621324E-6   -4.329807525205765E-6    6.538836868229946E-1   -7.557547677819537E-1
 6.481525922233300E8     6.593727196730435E-1   -7.597763274892458E-1   -1.104903193431153E-5    4.050962227629645E-7    6.217228483048850E-6    8.534508126723753E-7    6.446280566606353E-1   -7.641653675678796E-1
 6.581226321036890E8     6.497027204248117E-1   -7.686029704886747E-1    5.756792557616663E-6    4.421627207134148E-6   -3.289787816947975E-7   -1.159715522511558E-5    6.345734061378439E-1   -7.724641710323893E-1
 6.680926719840479E8     6.397449289879725E-1   -7.772571903485775E-1   -2.718858701403903E-7    3.508318523334930E-6   -1.889249587679051E-6    1.251133691068117E-7    6.238720219852142E-1   -7.805089005384225E-1
 6.780627118644068E8     6.299260066832381E-1   -7.854231329170128E-1   -6.106757973728640E-6   -7.025105516405355E-6   -2.361112255530264E-6    7.545128477039802E-6    6.128808456854602E-1   -7.883511921126711E-1
 6.880327517447658E8     6.196400609795990E-1   -7.938386339702480E-1    7.035772132138612E-6   -1.556263045863791E-5   -6.340060008622791E-6    7.297554564461147E-6    6.016232418842448E-1   -7.960770921586594E-1
 6.980027916251246E8     6.086676599767360E-1   -8.019166812591833E-1   -1.113658975742468E-5    5.207503212999126E-6   -6.064347213526689E-6    1.191503981982434E-5    5.900939358725430E-1   -8.037816107646958E-1
 7.079728315054835E8     5.972683018559017E-1   -8.101972270925396E-1   -8.717197362527977E-6    2.542140404104679E-5    7.867324377644273E-6   -3.675320628837384E-6    5.785014845724432E-1   -8.116126602247852E-1
 7.179428713858424E8     5.860635478789356E-1   -8.188002959951202E-1   -7.641872528859900E-6   -1.577531282046421E-6   -4.979657287039925E-6   -2.274376742720924E-6    5.673440672904260E-1   -8.202632616353014E-1
 7.279129112662014E8     5.751261091339233E-1   -8.272927727320788E-1   -1.930773015516080E-5    6.405142688264443E-6   -1.636125641854162E-5   -6.543949974128239E-6    5.559447453880695E-1   -8.289929959478793E-1
 7.378829511465603E8     5.638206647258377E-1   -8.360730356621411E-1    2.710587168726170E-5    5.582134338900411E-6   -1.314744168699882E-5    2.085922761751022E-5    5.446191752873664E-1   -8.373002052361527E-1
 7.478529910269192E8     5.518393545154614E-1   -8.445494319308668E-1   -5.055935322860403E-6   -5.416457285294395E-6    6.921567892693808E-7    1.489131631138557E-5    5.334464580853140E-1   -8.450256487320098E-1
 7.578230309072782E8     5.391382920778374E-1   -8.516633212799325E-1   -7.172800832707977E-6    2.087265858468230E-6    7.020894295324778E-7   -1.444196640302642E-5    5.223794829598704E-1   -8.518972808714881E-1
 7.677930707876371E8     5.288184705253739E-1   -8.570295719274724E-1   -1.688500360883043E-5   -1.033281839915779E-5    1.062226793148358E-5   -2.569380333361182E-6    5.110012794221113E-1   -8.583273743705802E-1
 7.777631106679960E8     5.192477686598190E-1   -8.640460379935081E-1    4.168722111343969E-6    9.517106690036233E-6   -2.513937370348178E-6    5.944850256917290E-6    4.995282425228589E-1   -8.649449017007638E-1
 7.877331505483550E8     5.088163368849802E-1   -8.709123056786078E-1   -4.856390500481274E-6    3.264538559898470E-6   -3.611800375688576E-6    1.228254534408825E-5    4.876801731603974E-1   -8.715892059143415E-1
 7.977031904287138E8     4.975917927900355E-1   -8.772317502271855E-1   -1.208432195625663E-5    8.723012291937156E-6    8.606819191823292E-6   -1.315621335379460E-6    4.750469887841583E-1   -8.780128850597960E-1
 8.076732303090727E8     4.858414911424305E-1   -8.830495050419345E-1   -2.743214536380594E-6    2.825070733175729E-6   -5.981009235849675E-6   -1.771816551330449E-5    4.620308522165853E-1   -8.840257112331483E-1
 8.176432701894317E8     4.738300131400880E-1   -8.892636513030590E-1    1.582743728466935E-5    1.238560802127821E-5    7.043582911071836E-6   -1.445504553075137E-6    4.492440312605157E-1   -8.903896572127272E-1
 8.276133100697906E8     4.615421575790704E-1   -8.955853321214807E-1   -4.016904410361649E-6    1.328022394691413E-6   -1.617151404615512E-6    4.116020900770940E-6    4.365997457375778E-1   -8.971301616296694E-1
 8.375833499501495E8     4.488678190598713E-1   -9.020401430700875E-1   -1.133698108021503E-5   -1.271613566643452E-5    8.901580477184232E-7   -5.439209913706549E-6    4.244543199950246E-1   -9.038415822815700E-1
 8.475533898305085E8     4.360778674832091E-1   -9.083851892147063E-1   -8.307779239637479E-6    2.427323676065811E-7   -1.008425177598661E-5    3.243601260774981E-6    4.125970751315673E-1   -9.098638537890726E-1
 8.575234297108674E8     4.233791929249615E-1   -9.147841361125180E-1    7.166045203530284E-6    8.079801711200721E-6   -2.064094256639879E-6    1.007521920287412E-5    4.008154234524829E-1   -9.151098525796647E-1
 8.674934695912263E8     4.105613177276163E-1   -9.214090010048915E-1    5.470203880952152E-6    2.993880272735476E-6   -4.868954259979756E-6   -5.267569068289594E-6    3.886611830222244E-1   -9.199845534034720E-1
 8.774635094715853E8     3.974051177143050E-1   -9.280360087518186E-1    9.331915837979700E-6   -2.900338706329849E-6   -4.946565609947142E-6   -5.514139838331505E-6    3.761595234908145E-1   -9.246909549797582E-1
 8.874335493519442E8     3.843778954685574E-1   -9.327671659112202E-1    5.992013712396735E-6   -8.231283480801063E-6    1.419789765361449E-6    9.689674973629269E-6    3.630798743591730E-1   -9.291656551067363E-1
 8.974035892323031E8     3.730440995056423E-1   -9.364008900138814E-1   -7.923970568053507E-6   -3.243075850148206E-6   -1.392144439805724E-5    1.161651941416652E-6    3.495912782229738E-1   -9.334884993530083E-1
