#  HZ   S   RI   R     50.00 
! Rohde & Schwarz Vector Network Analyzer 
! Rohde-Schwarz,ZNB20-2Port,1311601062102128,3.60
! Created: UTC 4/29/2024, 2:53:37 PM
! freq[Hz]                re:S11                  im:S11                  re:S21                  im:S21                  re:S12                  im:S12                  re:S22                  im:S22
 1.000000000000000E5     9.958973260879547E-1    3.607348315344263E-3   -1.647307523358214E-4    3.206142341132580E-5   -1.330829702013548E-5    1.491184929042749E-4    1.010390340402939      -1.117275590840597E-2
 1.007003988035892E7     9.980426389349392E-1   -1.388100392067751E-2   -2.125243901465989E-5   -1.318726630043621E-5   -1.007054767760191E-5   -1.547823832422366E-5    9.959898571289505E-1   -1.442898759258789E-2
 2.004007976071785E7     1.000016498751014      -2.719074198933629E-2    2.064302116383772E-5   -9.836740481265286E-6    4.629019251967637E-5    5.050504950729718E-6    9.989429750545340E-1   -2.768738613391515E-2
 3.001011964107677E7     9.981393560993609E-1   -4.095205429226144E-2   -9.686906531552792E-6    3.865922865839994E-6   -2.070889224854182E-5   -2.380632572149206E-5    9.976736751587703E-1   -4.201248377580406E-2
 3.998015952143569E7     9.975804891200580E-1   -5.313852339686312E-2   -4.445165816875958E-6   -1.188970176972554E-5   -5.512590813250951E-6    1.508545181387486E-5    9.976521298895170E-1   -5.668819019751008E-2
 4.995019940179461E7     9.959384224863497E-1   -6.603068891632065E-2    7.993430921175550E-7   -1.323721315106374E-5    2.383435372939627E-5    8.316305165631513E-6    9.965563757742051E-1   -6.910950972736284E-2
 5.992023928215354E7     9.940264640528310E-1   -7.878348565399917E-2   -1.398370151227202E-6    7.550160844741305E-6    7.721871987059261E-6    1.316315652681325E-6    9.946608440581552E-1   -8.195385886386676E-2
 6.989027916251247E7     9.931740272113599E-1   -9.186196338793828E-2    9.045489070196798E-6   -2.708192016846538E-6    5.869088197213478E-6    1.656395882719104E-5    9.934138065398576E-1   -9.475521146517908E-2
 7.986031904287139E7     9.927396171284055E-1   -1.052780604372960E-1    8.167774410437564E-6   -9.061292684301532E-6    3.867407937374833E-6   -4.650303349007476E-6    9.923353158288246E-1   -1.079038542023951E-1
 8.983035892323031E7     9.915839212246990E-1   -1.188959635137681E-1    8.023254684787587E-7   -1.503251108766581E-5   -1.208368962894738E-5   -1.029194749516538E-5    9.908008986796931E-1   -1.210821225860678E-1
 9.980039880358922E7     9.892359757094007E-1   -1.323736996181052E-1    2.127115144699978E-5   -1.221156674069868E-6   -1.508267159854342E-5    2.839226937795083E-7    9.886069295151272E-1   -1.343525558299474E-1
 1.097704386839482E8     9.865258524447144E-1   -1.454640477798436E-1    4.548298802713906E-6    2.450744351350600E-6    1.601463574743884E-6   -5.750190237019332E-6    9.860309412952862E-1   -1.477496537852845E-1
 1.197404785643071E8     9.848614454971919E-1   -1.589788211154138E-1   -1.848668535285329E-5   -1.153394550615457E-5   -7.479819615174427E-6    3.486207803324829E-6    9.842967752261427E-1   -1.612255555155548E-1
 1.297105184446660E8     9.830957907337432E-1   -1.718496496631001E-1    3.877086278007409E-6    1.157550509136294E-6   -7.287611849148254E-6    8.384190165814445E-7    9.828458693095380E-1   -1.744109678197395E-1
 1.396805583250249E8     9.816848560444270E-1   -1.847198189397601E-1   -1.924598748197578E-5    1.728528114904053E-5   -3.158309337617876E-7   -8.020791209963830E-6    9.809239796382088E-1   -1.875481254407426E-1
 1.496505982053838E8     9.788414928977608E-1   -1.971273830417469E-1   -2.395162376662383E-6    5.240478742013126E-6    5.896381365781248E-7   -1.405078107236893E-5    9.785398121101337E-1   -2.003606282159551E-1
 1.596206380857428E8     9.760663602152932E-1   -2.094952009728153E-1   -1.322686086546754E-5   -6.184934775535193E-6    2.133497156403013E-5   -1.736661180500835E-5    9.757327279956330E-1   -2.133070272240624E-1
 1.695906779661017E8     9.731913049265626E-1   -2.223524856003959E-1    1.122627402737225E-6    2.997000736972836E-6   -4.136913303087434E-7    5.235811000451091E-6    9.728111346700069E-1   -2.260037096634075E-1
 1.795607178464606E8     9.708475701951477E-1   -2.347615650425666E-1    8.751524357868997E-6   -1.018209973061335E-5    4.057928986230695E-6   -8.705786954981270E-6    9.702938751296571E-1   -2.379706830994268E-1
 1.895307577268195E8     9.676772894584796E-1   -2.469872055520713E-1   -3.239012793919004E-8   -8.119741499541969E-7    1.326929128846782E-5    7.023773267672723E-6    9.668664515173007E-1   -2.506091612528039E-1
 1.995007976071784E8     9.636793369667058E-1   -2.595145980792269E-1    1.092560520394480E-5   -5.609398108912837E-8   -1.034756791430182E-5   -1.162319905539935E-6    9.627798380098711E-1   -2.631825292156248E-1
 2.094708374875374E8     9.604777035687005E-1   -2.724567397227407E-1    2.818698313942320E-6   -5.846696461656544E-7    3.223181797791877E-5    1.063995748821977E-5    9.588553516034695E-1   -2.761275341369629E-1
 2.194408773678963E8     9.573560460797935E-1   -2.852306671339478E-1   -7.922700357270565E-6   -4.180370337479708E-6    1.134047443959642E-6    5.817494380332376E-6    9.551562130979147E-1   -2.890936199557920E-1
 2.294109172482552E8     9.536652443259718E-1   -2.974408979009409E-1    1.194909396014906E-5    1.723653972785872E-5    1.242162377881695E-5   -3.622753712313245E-6    9.511171669125419E-1   -3.018439394802901E-1
 2.393809571286142E8     9.504213057918139E-1   -3.094393656022818E-1   -6.556036447779720E-6    1.442694868613370E-6    1.502014015276801E-5   -8.511967855892153E-6    9.470667789407523E-1   -3.140312122243897E-1
 2.493509970089731E8     9.467681762741769E-1   -3.232993947670778E-1   -1.868987900377741E-6    1.485967823755266E-5   -1.237727734709181E-5    3.431256608469379E-6    9.440832397300484E-1   -3.275562846833041E-1
 2.593210368893320E8     9.428387146713865E-1   -3.353698432733042E-1    4.335547016727360E-6    6.790218623776841E-6    8.205075298850317E-6   -1.486527771448636E-5    9.397472891032184E-1   -3.409070367275465E-1
 2.692910767696909E8     9.385899247970585E-1   -3.468440788162528E-1   -1.845539304176460E-5   -3.177599342427793E-6    1.320382319424461E-6   -8.406163602748506E-6    9.357466923116182E-1   -3.528857732921090E-1
 2.792611166500499E8     9.339053290904971E-1   -3.584337435457840E-1    9.259392196569015E-6   -6.955575862482974E-6    7.404903288506807E-6   -9.331079806655868E-6    9.309875656446430E-1   -3.646508503254962E-1
 2.892311565304088E8     9.289041831032647E-1   -3.704550796072651E-1   -1.152066354015404E-5    5.000756931459414E-6    8.955356116309147E-6   -2.850134609617003E-7    9.262477010434956E-1   -3.767730983325592E-1
 2.992011964107677E8     9.241738192488357E-1   -3.827161766741558E-1    3.665428984718515E-6   -1.700865160534440E-6   -4.907914231658723E-6    1.504695581604080E-7    9.211638400360922E-1   -3.886457708617051E-1
 3.091712362911266E8     9.188899041988854E-1   -3.949596947101007E-1   -2.260146968713670E-6    8.902950819754608E-6   -7.028946314210632E-6    8.362178599743268E-6    9.157204008869239E-1   -4.001497716023523E-1
 3.191412761714855E8     9.132509302303258E-1   -4.073722199038747E-1    1.542697680879704E-6   -7.932693769201043E-6   -1.278534885487183E-5    6.368486247938096E-6    9.097686472530536E-1   -4.120525789926128E-1
 3.291113160518445E8     9.075304615212014E-1   -4.200067924699943E-1    5.437986245960261E-6    4.748444757062120E-7   -5.195727092937498E-6   -1.553139678046149E-6    9.034336759026186E-1   -4.243560014713558E-1
 3.390813559322034E8     9.019732403747931E-1   -4.329213977645214E-1   -2.103563521618446E-6    3.664110886290233E-7    2.021743056146811E-5   -3.497892696797997E-6    8.967582509956695E-1   -4.369670096652967E-1
 3.490513958125623E8     8.967828268008005E-1   -4.453293676382041E-1    9.454948331162016E-6    1.249950835618114E-6    7.073892338014685E-6   -1.021403612017476E-5    8.904615630532220E-1   -4.494513225757898E-1
 3.590214356929212E8     8.913292249729614E-1   -4.579047725569737E-1   -7.611689454973950E-7   -8.433343932497595E-6   -1.515962193854051E-6    1.081600890628090E-5    8.845618632151340E-1   -4.621676061704292E-1
 3.689914755732802E8     8.858175581515892E-1   -4.700179817765656E-1    8.650802055127009E-6    8.092729237225198E-6    1.033237457925440E-5   -6.464466164238064E-6    8.791358137915932E-1   -4.747807404622917E-1
 3.789615154536391E8     8.798071995513627E-1   -4.812855160974344E-1    4.297695991088190E-6    1.368790095590367E-5   -1.665023186450308E-5    4.480438640114556E-6    8.738566989483207E-1   -4.867900061098080E-1
 3.889315553339980E8     8.741967803777154E-1   -4.920568744678189E-1   -5.473504639373458E-6    1.803968706374591E-6    2.805678528817849E-5    2.035709679227510E-5    8.679000856342695E-1   -4.987975447321469E-1
 3.989015952143569E8     8.675390727717123E-1   -5.027735454592330E-1   -5.599053396774248E-6   -6.987537915723309E-6   -4.796347822625599E-6   -1.194929395282671E-5    8.610633234057870E-1   -5.096534689691091E-1
 4.088716350947158E8     8.601129245095844E-1   -5.135654593181775E-1    8.998375512580967E-6   -1.242416126842462E-5   -1.696502371120363E-5    4.923388325742561E-6    8.543320738312455E-1   -5.206980941569780E-1
 4.188416749750748E8     8.531898813215787E-1   -5.250956930538643E-1   -4.474160485298368E-6    1.732399205856650E-5    8.583072201000005E-6   -6.974854269612570E-7    8.475533107577344E-1   -5.314202294781039E-1
 4.288117148554337E8     8.459925121641958E-1   -5.368229757942281E-1    4.836962233926013E-6    8.978268281132894E-6   -8.688117115274971E-6    6.951842510707377E-6    8.405946570357299E-1   -5.418263751429374E-1
 4.387817547357926E8     8.382943351777967E-1   -5.482830314555159E-1   -4.619764482857948E-6    5.821479713784883E-6   -7.510672474934911E-6   -6.447020002640834E-6    8.326100931297316E-1   -5.522594687102366E-1
 4.487517946161516E8     8.304923682731742E-1   -5.600797542566985E-1    4.950324574952269E-6    6.017379213412782E-6   -1.112746074467009E-5   -2.547273332054970E-7    8.242326327749595E-1   -5.634440080272686E-1
 4.587218344965104E8     8.235873684474900E-1   -5.719614511003660E-1    2.192085324956983E-7    6.872584195033650E-6    1.532003964153985E-6    2.487823026572869E-6    8.161412803598207E-1   -5.753188908307943E-1
 4.686918743768694E8     8.168952621461101E-1   -5.833124990656957E-1   -1.030916872173494E-5    3.329978039767610E-6    1.222107247794371E-6   -1.624754857183556E-5    8.078663125306601E-1   -5.868721631326098E-1
 4.786619142572283E8     8.099077766359840E-1   -5.942630696881498E-1    4.182711237560210E-6   -6.011162712278602E-6   -7.465869780142299E-6    1.274023931844440E-5    7.991856968130590E-1   -5.979166197089124E-1
 4.886319541375872E8     8.023792264307993E-1   -6.047337719253295E-1   -9.840437934415587E-7   -1.005349745349845E-5    8.688074293514253E-6    2.541146547301447E-6    7.905475000468545E-1   -6.089216548492092E-1
 4.986019940179462E8     7.939445270953404E-1   -6.153583240397662E-1    3.488365248063883E-6    4.518856738441286E-7    9.123681039206008E-6   -1.704018720291169E-5    7.824743308827622E-1   -6.198015051398831E-1
 5.085720338983051E8     7.855693422419704E-1   -6.245997106302605E-1   -7.321256856678858E-7    1.685062644148029E-6   -1.075059801203330E-5    1.144592941533584E-5    7.746874593225938E-1   -6.304250005498835E-1
 5.185420737786640E8     7.782984705697880E-1   -6.335812274095332E-1    4.031153603110982E-6    9.172143584807438E-6   -3.100339695512725E-6    6.506181173661439E-6    7.669609147966709E-1   -6.399869703406577E-1
 5.285121136590229E8     7.700286186004621E-1   -6.431904368555976E-1    4.654016578229291E-6    4.178131035363923E-6   -1.743209505109519E-5    2.177663543585507E-5    7.588600625077616E-1   -6.496674973371108E-1
 5.384821535393819E8     7.613949951195226E-1   -6.530826671981010E-1    8.244267109606463E-6   -2.018406865446380E-6   -2.558819705200548E-6    3.915337475558301E-6    7.509679181208341E-1   -6.594527720637670E-1
 5.484521934197408E8     7.532290092002092E-1   -6.636635362666118E-1    1.341435042172948E-5   -1.187056520649769E-5   -3.019770404123245E-6   -3.696554157172933E-6    7.426095480828527E-1   -6.694046008991995E-1
 5.584222333000997E8     7.447813950338324E-1   -6.747165394987192E-1    1.631119607021492E-5   -1.127393852972002E-5   -2.844400297933677E-6   -5.937625959660446E-6    7.333071461924833E-1   -6.792016628663817E-1
 5.683922731804587E8     7.356099061803011E-1   -6.851582580056738E-1    8.656143380766527E-6    1.738220722353689E-5    8.441755940152393E-7   -1.297836985809246E-5    7.230914426890466E-1   -6.891867898198156E-1
 5.783623130608176E8     7.263223010053018E-1   -6.951612864017064E-1   -3.822073005161885E-6   -5.160173185495619E-6   -1.150002492395982E-5   -1.462384169301640E-5    7.127200407819368E-1   -6.990803066523600E-1
 5.883323529411764E8     7.171481395342593E-1   -7.051829923064796E-1   -6.802537544360714E-6    2.035124599575986E-5    2.104250545717758E-6    1.430309526940164E-5    7.023078922047683E-1   -7.086799362981535E-1
 5.983023928215353E8     7.078707128506599E-1   -7.151661511465387E-1   -2.932522625850997E-6    8.994790200016487E-6   -9.759155700502359E-6   -3.613494262568340E-6    6.919381837338503E-1   -7.183480480075534E-1
 6.082724327018943E8     6.983041364069791E-1   -7.249692145752483E-1    7.075691436744888E-7   -1.583309696113394E-7   -1.080417835547227E-6    5.144745813901501E-6    6.816973040710975E-1   -7.277462174617307E-1
 6.182424725822532E8     6.885854397910901E-1   -7.346985380914168E-1   -5.253133736461043E-6    2.030113102431311E-6    8.245010776008075E-6    1.105653020494417E-6    6.718142726073122E-1   -7.372463527186045E-1
 6.282125124626122E8     6.780944853220230E-1   -7.441290049017073E-1   -2.008968099374930E-7   -8.597458172666888E-8    1.370616550120652E-5   -3.677017168257718E-6    6.627705419335116E-1   -7.469373463748537E-1
 6.381825523429711E8     6.683168178713643E-1   -7.511229767447517E-1   -8.308954490264594E-7    2.041192305306703E-6    4.405337422469338E-6   -1.943288152606840E-5    6.537706142495697E-1   -7.557504009183292E-1
 6.481525922233300E8     6.593035082087654E-1   -7.596595486872992E-1   -2.586190356252689E-6    9.261878870365883E-6    1.765423639188016E-6   -9.267778420830167E-7    6.446013841123773E-1   -7.641336522573832E-1
 6.581226321036890E8     6.496165274159087E-1   -7.685188940382838E-1   -1.154189651768551E-5    5.946388089334202E-6    6.906214756847303E-6   -5.440288900087440E-6    6.345382564321711E-1   -7.724004948522326E-1
 6.680926719840479E8     6.397568139784624E-1   -7.772688432200490E-1   -1.686187109128197E-6    1.109905694588489E-5    1.269985467581664E-5   -1.958893301566913E-6    6.239475032770944E-1   -7.804776048798737E-1
 6.780627118644068E8     6.299301797459075E-1   -7.855067183365986E-1    2.660046369665686E-6    1.404534525936349E-5   -1.829839202555695E-5   -1.616898379860790E-6    6.129627747493808E-1   -7.884657266520871E-1
 6.880327517447658E8     6.195602897592706E-1   -7.936916761368036E-1    1.281060683025029E-5   -4.950498566250442E-7    5.045898133563430E-6    3.647354557332651E-6    6.015986361680123E-1   -7.960409316860475E-1
 6.980027916251246E8     6.086162775465233E-1   -8.018573515061953E-1    9.845694464950779E-6   -1.185818501967492E-5    3.152836318326364E-5   -3.895058302886328E-6    5.899950646265777E-1   -8.037606152065913E-1
 7.079728315054835E8     5.972220187222044E-1   -8.101980800829847E-1    1.115287870958482E-5    1.183992391621633E-5   -2.064796789844952E-6    4.402668026439327E-6    5.784600311653145E-1   -8.115717630380189E-1
 7.179428713858424E8     5.861996049978195E-1   -8.187672132597790E-1    6.084146367202931E-6    5.375719205066331E-6   -1.282124910943307E-5   -2.895518998063248E-6    5.672723074560615E-1   -8.201924894113223E-1
 7.279129112662014E8     5.750980825690616E-1   -8.272665151188313E-1   -1.308653340685995E-5   -7.094073575102515E-6   -2.341742609324419E-6   -4.610293102106705E-6    5.560259369697804E-1   -8.290113467964754E-1
 7.378829511465603E8     5.637532169605709E-1   -8.360209854147944E-1    3.578413461579984E-6   -6.827777477552689E-6   -3.569816954957097E-6   -9.207533187558631E-6    5.446401254585296E-1   -8.374469497586791E-1
 7.478529910269192E8     5.517760962261272E-1   -8.444323532112284E-1    3.154373088267530E-6    1.234575608128034E-6    9.238909577123741E-6    8.506443004231365E-6    5.333558383512302E-1   -8.449152826851338E-1
 7.578230309072782E8     5.392323164052418E-1   -8.516891989029612E-1    8.482222899605450E-6    4.318886073987446E-6   -9.523526085854782E-6   -1.578179927915421E-6    5.222449723609537E-1   -8.519175042273662E-1
 7.677930707876371E8     5.287789665567076E-1   -8.570539194064319E-1   -9.085790863561089E-6    7.544952568182262E-6   -4.717749823780897E-6    3.637179836447269E-6    5.110548001081707E-1   -8.583625038919461E-1
 7.777631106679960E8     5.191879109468812E-1   -8.639626582933038E-1    1.418132283368239E-6   -1.133241065498054E-6    7.355048440858228E-6    6.701728632767536E-6    4.995257702952169E-1   -8.648908658534563E-1
 7.877331505483550E8     5.088801649726107E-1   -8.708891081125575E-1    1.570558611327140E-5    7.605478569828226E-6   -1.605394879798989E-6   -1.323781042670595E-5    4.875816982393167E-1   -8.715900727916063E-1
 7.977031904287138E8     4.975785047754138E-1   -8.774183707391484E-1   -1.907824505538975E-5    5.729582750693056E-6    1.319450875462627E-6    8.320439902541487E-6    4.749457276800634E-1   -8.779729507448285E-1
 8.076732303090727E8     4.857755959499192E-1   -8.832481215421373E-1   -1.235002803611892E-5    1.033089409090752E-5   -3.378775180805593E-6   -2.084071905816458E-5    4.621029790004853E-1   -8.840214204940163E-1
 8.176432701894317E8     4.737833536995157E-1   -8.892822910511144E-1   -3.746669826375596E-6   -2.585798650443437E-7   -8.898163257498886E-6   -8.287659618424795E-7    4.492654962436809E-1   -8.903959134576940E-1
 8.276133100697906E8     4.614351007413236E-1   -8.956899563820682E-1   -7.514923099270597E-6   -1.386322299056380E-5    3.126461375221316E-6    6.051279954977819E-6    4.365798658445511E-1   -8.970959906828492E-1
 8.375833499501495E8     4.489029875027899E-1   -9.020201093152213E-1    4.297826066041323E-6   -2.246766818413100E-6   -2.546594138115721E-7   -1.688806441078382E-7    4.243398957642694E-1   -9.038531083644170E-1
 8.475533898305085E8     4.360993067245626E-1   -9.085017966912813E-1    1.249509495924181E-5   -9.029321021012654E-6    8.528474048485471E-6    7.692241105831438E-6    4.125406920649624E-1   -9.098846221442286E-1
 8.575234297108674E8     4.233359084892879E-1   -9.149029647432529E-1   -1.068344070983423E-5    3.840618398537644E-6   -1.205366556806731E-5    8.306986502380102E-7    4.007899279735265E-1   -9.151206374952775E-1
 8.674934695912263E8     4.105478878651695E-1   -9.215673661449669E-1    1.264688590207355E-5   -4.697326038382798E-6   -2.693886048382010E-7   -2.216247480207014E-6    3.887210255796111E-1   -9.200484818170754E-1
 8.774635094715853E8     3.974514738449087E-1   -9.280883873775316E-1   -1.878585013175732E-6   -8.190350408501865E-6   -2.689598701831054E-6    5.404008374813071E-6    3.761644199166250E-1   -9.246423125538508E-1
 8.874335493519442E8     3.843348347208690E-1   -9.326632963553360E-1   -1.115320541231621E-6   -1.527342690534751E-6   -2.631316556064315E-6    1.107080540520553E-5    3.630520621539084E-1   -9.290877164538218E-1
 8.974035892323031E8     3.730456412007275E-1   -9.363645287449023E-1    1.123791618693802E-5    7.075415194806952E-7   -2.202973730492470E-6    1.036094484990092E-5    3.495399005884444E-1   -9.333869396034910E-1
