#  HZ   S   RI   R     50.00 
! Rohde & Schwarz Vector Network Analyzer 
! Rohde-Schwarz,ZNB20-2Port,1311601062102128,3.60
! Created: UTC 4/29/2024, 2:54:44 PM
! freq[Hz]                re:S11                  im:S11                  re:S21                  im:S21                  re:S12                  im:S12                  re:S22                  im:S22
 1.000000000000000E5     9.958570108082558E-1    3.588132792126727E-3    1.594889515320889E-5    2.187707018115754E-5    5.564041753654080E-5    6.430266819617514E-5    1.010586841551874      -1.143421684098351E-2
 1.007003988035892E7     9.980164117738908E-1   -1.387015700265622E-2    1.606859939524438E-6    5.699959755572314E-6    1.469930916292045E-8    3.061844254175013E-6    9.959430095758933E-1   -1.437408735248494E-2
 2.004007976071785E7     1.000003759537430      -2.724500298273521E-2   -1.774768073532663E-5    1.509420602697377E-5   -1.704063172958830E-6   -4.893067462759212E-6    9.987930873476054E-1   -2.763173794898394E-2
 3.001011964107677E7     9.982644578097213E-1   -4.097592421022562E-2    1.469478322222113E-5    6.278903744763467E-6   -1.133890885688057E-5    1.435791868618264E-6    9.975469637806199E-1   -4.202184950347446E-2
 3.998015952143569E7     9.977542065235826E-1   -5.315116355304339E-2   -5.525413229852547E-6   -1.823798051208066E-5    8.320722108797821E-6   -1.588362279070252E-5    9.977068493227935E-1   -5.663693998656036E-2
 4.995019940179461E7     9.958456256284691E-1   -6.595544943379739E-2   -4.977953400005723E-6   -7.871326649590196E-6    2.417729310379581E-6    1.102477177693722E-5    9.964512827358267E-1   -6.908988161424841E-2
 5.992023928215354E7     9.940472232900813E-1   -7.886118445999060E-2    1.089519002948716E-5   -1.233881805383999E-5    2.981737808156249E-5   -4.399597972948829E-6    9.947353215811658E-1   -8.195848891453120E-2
 6.989027916251247E7     9.930046010714273E-1   -9.189318990699455E-2   -1.353081249753597E-5    1.306307231997616E-6   -1.081835567000167E-6   -5.181285571119311E-6    9.934449988228531E-1   -9.470272949952578E-2
 7.986031904287139E7     9.925825161289772E-1   -1.052500289454984E-1    4.634968016748856E-6   -4.663320622235952E-6   -1.835479364722921E-7   -9.871138968347307E-6    9.923931637126506E-1   -1.078805528802077E-1
 8.983035892323031E7     9.917944319695939E-1   -1.188232297253143E-1    1.170760909947199E-5   -1.046626214174612E-5   -2.426441786577388E-6   -3.276694869150454E-7    9.908527292771188E-1   -1.210772517315332E-1
 9.980039880358922E7     9.892703338920720E-1   -1.322976666478331E-1    8.968677073519632E-8   -1.372470945930969E-5   -1.447268622978818E-5   -4.540725809278373E-6    9.884753527803201E-1   -1.343864817897415E-1
 1.097704386839482E8     9.863527318911438E-1   -1.455281593092460E-1    1.332510805444712E-5    6.366776494345991E-6    1.489709539813490E-5    8.481868103722816E-6    9.860613956049460E-1   -1.477861381698113E-1
 1.197404785643071E8     9.848323126165971E-1   -1.589573454384462E-1    5.186899325199194E-6   -3.319273037934528E-6   -2.211047151021245E-6   -1.075439449525992E-5    9.842952877473928E-1   -1.611822809094285E-1
 1.297105184446660E8     9.831418531695837E-1   -1.718402606128138E-1   -1.410799231485411E-5   -1.207065345371515E-5   -1.377920693204415E-5    7.322658567735545E-6    9.829103681725037E-1   -1.744989587225611E-1
 1.396805583250249E8     9.817635594394623E-1   -1.846845894488176E-1   -5.021173493649063E-7    1.298424951562786E-5    1.552156297377723E-6   -1.477553112831542E-5    9.809038305015565E-1   -1.875510599714019E-1
 1.496505982053838E8     9.787446227146732E-1   -1.971002939532325E-1    6.959521606330732E-6    7.042628963710614E-6   -2.072834882330927E-6   -7.377862641131711E-6    9.785728897241290E-1   -2.004214843399371E-1
 1.596206380857428E8     9.761389333514198E-1   -2.094255725423906E-1    1.178045994745152E-5   -2.487910902396864E-6    9.755131082885681E-6    4.212630979765055E-6    9.756632173401087E-1   -2.132982330175712E-1
 1.695906779661017E8     9.733000300443442E-1   -2.223511647421686E-1    2.367471938952536E-6   -4.845161505504797E-6    9.230730281488783E-7   -1.355484750614449E-6    9.728541440202415E-1   -2.260682932544933E-1
 1.795607178464606E8     9.708896082282051E-1   -2.349097687896693E-1    1.721360182259163E-5   -4.334122251640137E-6    2.880683643290665E-6   -7.940599229445154E-6    9.702307458133680E-1   -2.380487508666387E-1
 1.895307577268195E8     9.677248214739251E-1   -2.469882460101162E-1    2.079739047785311E-6   -1.434963974928965E-6   -1.441271242496059E-5   -1.485470763397596E-7    9.666709991162519E-1   -2.505202031664778E-1
 1.995007976071784E8     9.637212277788375E-1   -2.595057402568255E-1    6.042540459696262E-6   -8.629060420557321E-6    2.038237270918808E-5    1.186879812241883E-6    9.627992067768532E-1   -2.631168170459370E-1
 2.094708374875374E8     9.604482639825580E-1   -2.723890705518017E-1    4.783543631833753E-6   -3.355445312075423E-6   -1.907179064768725E-6    3.015643259713897E-6    9.589697832580076E-1   -2.761312918821382E-1
 2.194408773678963E8     9.574084713326797E-1   -2.851992022032087E-1    8.170043652583201E-6   -9.228102235637066E-6    1.814951248498718E-6   -7.036431660177902E-6    9.550018043926214E-1   -2.891578589509491E-1
 2.294109172482552E8     9.536596856524148E-1   -2.973867331857481E-1    1.541165669769843E-5   -5.399205744259152E-6   -1.985325232458949E-5    1.019434895116818E-5    9.509042649139449E-1   -3.017817635028016E-1
 2.393809571286142E8     9.506357453321264E-1   -3.094288032480069E-1    1.056852028284954E-5   -1.050978407933582E-5   -1.075707811050548E-6    1.499356268430114E-5    9.469752651212682E-1   -3.140078367464397E-1
 2.493509970089731E8     9.469382831531081E-1   -3.233293496273733E-1   -4.377211687666932E-6   -7.119890248045320E-6    4.532667806872220E-6   -1.018280996358474E-5    9.441494875301898E-1   -3.276110688350419E-1
 2.593210368893320E8     9.427702557266194E-1   -3.353284485128453E-1   -1.154180086647039E-5   -1.539597965701973E-6   -1.382005529428239E-5    8.443089608573322E-7    9.398188551578700E-1   -3.408096783914404E-1
 2.692910767696909E8     9.386116841016320E-1   -3.468090355688875E-1    7.863969456172175E-6    9.912185400806175E-7   -4.161922364544786E-6   -1.486168394433115E-5    9.355614755139423E-1   -3.528368409824461E-1
 2.792611166500499E8     9.338129302079836E-1   -3.584041531004447E-1   -7.733392380726266E-6    3.002767447378856E-6   -7.221092662805698E-6   -7.740282835629947E-7    9.309708955034605E-1   -3.646150099149409E-1
 2.892311565304088E8     9.289966400052559E-1   -3.704290433141176E-1   -5.863680728594039E-8    2.203708817157593E-5   -7.652299455340159E-6    8.102751226821257E-7    9.261788223531310E-1   -3.767721525958125E-1
 2.992011964107677E8     9.241664371702584E-1   -3.826751633938841E-1   -1.218988585070318E-6   -9.880347914402695E-6    2.809936261195300E-6   -7.478156258666031E-7    9.211121060699418E-1   -3.885705213516059E-1
 3.091712362911266E8     9.188711210393846E-1   -3.949801589862984E-1    1.134931568820849E-5   -1.766473152022510E-6   -6.390885734911948E-6    1.729076968803301E-6    9.156708312418673E-1   -4.001550642874487E-1
 3.191412761714855E8     9.133579194917557E-1   -4.073250931671995E-1   -1.838321873977620E-5    1.620718169205789E-5   -3.455234258281807E-6    1.610331493535299E-5    9.097994466125735E-1   -4.119809466768514E-1
 3.291113160518445E8     9.076762567026188E-1   -4.200407777152935E-1    3.141563221274251E-6    1.410798091168417E-5    8.401787278798553E-6   -2.094315674148934E-6    9.034555358456783E-1   -4.243886277445973E-1
 3.390813559322034E8     9.019707586119913E-1   -4.327303362680645E-1    1.109760678604817E-5   -8.007995657837808E-6    1.565461895107338E-5   -1.652602192966993E-5    8.968046030818715E-1   -4.369275659320280E-1
 3.490513958125623E8     8.966309152034113E-1   -4.452963021018214E-1    4.845675346951201E-6    6.819426496139056E-6    7.402868052118064E-6   -5.420013483425170E-6    8.904801780641507E-1   -4.494464765071413E-1
 3.590214356929212E8     8.913121907353087E-1   -4.578262781990319E-1    1.038315034398485E-5    8.618272333738886E-7    7.131900935630801E-6   -6.965131213042502E-6    8.844878936918409E-1   -4.621890352316489E-1
 3.689914755732802E8     8.860449080094378E-1   -4.700795324526494E-1   -1.396948096331987E-6    2.457836157978800E-6    3.708495387627803E-6   -4.750247468309575E-7    8.790774940938949E-1   -4.747602401288494E-1
 3.789615154536391E8     8.798913475205619E-1   -4.813279279986700E-1   -3.256383486501625E-6    5.484564243083546E-8   -7.664824127416975E-6    9.051302470760937E-6    8.737976588531284E-1   -4.867598084594263E-1
 3.889315553339980E8     8.740779115809770E-1   -4.920443122334073E-1    9.018354896273130E-7   -1.790737368525627E-6   -1.105297700200559E-5   -1.310420464481508E-5    8.679268331634946E-1   -4.987823975085268E-1
 3.989015952143569E8     8.674020655472545E-1   -5.026585510274040E-1    9.947256414323488E-7   -5.084923068061885E-6    1.021450223696972E-5    1.135699128419102E-5    8.610861883737091E-1   -5.097412054935682E-1
 4.088716350947158E8     8.602388527556487E-1   -5.135949625519199E-1   -9.324748594936833E-6   -6.468790244157895E-6   -1.061000954251705E-5   -1.276944894333685E-5    8.542205207185992E-1   -5.206599362978284E-1
 4.188416749750748E8     8.533757861818382E-1   -5.251562584502351E-1    1.388582337458618E-5    8.704634020242931E-6    2.623867782692170E-5   -9.556185660015951E-6    8.476124626351604E-1   -5.315370099014536E-1
 4.288117148554337E8     8.460703745125393E-1   -5.367110886072047E-1   -1.283661213964100E-5   -6.079162902539427E-6    4.526104039116314E-6   -6.221966588081745E-6    8.405772648530142E-1   -5.417601247989857E-1
 4.387817547357926E8     8.381568430226489E-1   -5.481117930479078E-1    8.649757369566149E-7    5.905321206644308E-6   -5.411891872016426E-6    1.782846735904670E-5    8.326238359076662E-1   -5.522706740280300E-1
 4.487517946161516E8     8.305159807054942E-1   -5.600002510058755E-1    6.167469676612414E-6   -5.987450191237065E-6    5.562072606968627E-6   -4.268559311077634E-6    8.242015938946798E-1   -5.634848743879698E-1
 4.587218344965104E8     8.236443231740808E-1   -5.720113514814169E-1   -8.474144711309503E-6   -1.425008680352964E-5   -1.755915592816118E-5   -2.900493867173615E-7    8.159897305823112E-1   -5.752808604837514E-1
 4.686918743768694E8     8.170791969897064E-1   -5.833575947385513E-1    5.579743923848638E-6    1.468596507450608E-5   -3.629510960160811E-6    7.054658136543053E-6    8.078114313228089E-1   -5.868337218008756E-1
 4.786619142572283E8     8.097973787000897E-1   -5.940719329952013E-1    6.884928724838689E-6   -2.329201011758430E-7   -2.943213254375594E-6   -5.103307605900894E-6    7.992563994272424E-1   -5.980069694670086E-1
 4.886319541375872E8     8.022890023967612E-1   -6.045813347382821E-1    1.573035182703835E-5   -4.130658899354168E-6    5.138650631319595E-6   -1.104743673136220E-5    7.905736989140424E-1   -6.088465623781717E-1
 4.986019940179462E8     7.940227467438888E-1   -6.154006091223732E-1    1.913788629019553E-5    3.657291698764445E-6    6.039303251425767E-6   -1.156692099079459E-5    7.823249893868759E-1   -6.197010755248725E-1
 5.085720338983051E8     7.856319271059501E-1   -6.245066768379737E-1    5.890253867237476E-6   -5.233783926868835E-6   -1.549514790764492E-5    5.390652876093711E-6    7.745851375874415E-1   -6.302368813869221E-1
 5.185420737786640E8     7.782012015252623E-1   -6.335359732361310E-1   -1.178070099432310E-5   -1.203406972099661E-5   -6.380535297664717E-6    1.510985349666419E-5    7.669735057416903E-1   -6.400829461663394E-1
 5.285121136590229E8     7.699256581380223E-1   -6.430538807182543E-1    1.507807432165117E-5    7.860469452826035E-6    1.084392438136601E-5    1.577436536967280E-5    7.590128867654743E-1   -6.497590314139344E-1
 5.384821535393819E8     7.614827682609253E-1   -6.531562870550374E-1    1.465848794818717E-5    1.013231571931495E-5    4.693930118455168E-6   -1.231086694318416E-5    7.508263023471115E-1   -6.593735083477126E-1
 5.484521934197408E8     7.532593067723334E-1   -6.636425515138605E-1   -3.077874215532161E-6    4.398953663057165E-6   -3.649679459987356E-6   -7.490047643626516E-6    7.424296085116356E-1   -6.692706605473898E-1
 5.584222333000997E8     7.447224345096084E-1   -6.746309104635256E-1    1.101021831745229E-5    9.428088559067115E-6    4.270674228809095E-6   -1.395188489048477E-6    7.333425740848992E-1   -6.792007357864278E-1
 5.683922731804587E8     7.356131195187100E-1   -6.851036041942312E-1    1.487793896855116E-5   -7.686991907696698E-6    4.975438762204615E-6    7.598708187950637E-6    7.230805892388159E-1   -6.891976240153809E-1
 5.783623130608176E8     7.262917303260418E-1   -6.950555918958691E-1   -6.951404417236471E-6    7.096531478844993E-6    1.192458081766253E-5   -2.137988509984344E-6    7.127656776737340E-1   -6.989503804026811E-1
 5.883323529411764E8     7.170899299885048E-1   -7.051043756046188E-1    6.133643484781253E-6   -7.995582893219817E-6   -5.800107349507799E-6   -5.420503761121264E-6    7.021438150512270E-1   -7.087685089510789E-1
 5.983023928215353E8     7.078917258719123E-1   -7.152162620908767E-1   -2.176234517358144E-7   -6.170658477078551E-6   -1.835366876045652E-5   -5.751207495996701E-6    6.919107152123050E-1   -7.182673020454512E-1
 6.082724327018943E8     6.983711092715823E-1   -7.249715047089349E-1   -6.484715666995303E-6   -9.430215373147776E-6   -9.638748108755645E-6   -7.874911909556466E-6    6.816216659040888E-1   -7.277608044346638E-1
 6.182424725822532E8     6.885139218566773E-1   -7.346493748893382E-1    4.675479094995892E-6   -5.120851002024321E-6   -7.870380678042624E-6   -2.023166144053950E-5    6.717290767511040E-1   -7.372629232737042E-1
 6.282125124626122E8     6.780775989089091E-1   -7.440198756586940E-1   -8.555234921468351E-6    7.243297657123512E-6    1.090335151453939E-5   -8.193570127972506E-6    6.626511914300626E-1   -7.467783101120166E-1
 6.381825523429711E8     6.683543697325177E-1   -7.511106750569303E-1    6.034136295753647E-6   -8.099048746045222E-6   -5.587655219157449E-7   -1.642426510096161E-5    6.537197204384296E-1   -7.557480666921880E-1
 6.481525922233300E8     6.593614197808384E-1   -7.596318556144307E-1    1.216450746918086E-5    6.539326203451270E-6   -6.148212544959229E-6    4.829228585666623E-6    6.446110325667773E-1   -7.642453988352296E-1
 6.581226321036890E8     6.497143268500588E-1   -7.685829970313830E-1   -9.902839643869175E-6    8.899587884018447E-8   -9.865653859019167E-6   -9.342081261998976E-7    6.345109920712576E-1   -7.724099036824446E-1
 6.680926719840479E8     6.397270675432490E-1   -7.773126570769564E-1   -6.333829011365686E-6   -2.225089046363695E-5   -9.667067495519825E-6    8.951962749991526E-7    6.238649905915631E-1   -7.804436679286126E-1
 6.780627118644068E8     6.298679218825493E-1   -7.853664299540709E-1    6.691908165186362E-6   -1.762706405403919E-6   -6.580227571765981E-6    1.487570600672710E-5    6.128973701754454E-1   -7.882946245722637E-1
 6.880327517447658E8     6.194745410096285E-1   -7.935660404742197E-1    5.410722263606634E-6   -1.284883629556763E-5    6.779441515478516E-6    2.022407332924511E-5    6.016478941678315E-1   -7.960389070263943E-1
 6.980027916251246E8     6.085538037765013E-1   -8.018152319356162E-1   -4.275689435359660E-6   -1.757957376012045E-7    2.037416225939879E-6    7.085016921066863E-6    5.899500529459049E-1   -8.037550862834458E-1
 7.079728315054835E8     5.973005314298780E-1   -8.102248221144551E-1    5.950524891869571E-6    8.574974086582690E-6   -2.126134045654684E-6   -1.418705571784022E-5    5.785636691728114E-1   -8.116017304979123E-1
 7.179428713858424E8     5.861596338547067E-1   -8.187003009646514E-1    6.287178870141051E-7   -5.602323622519617E-6   -6.505496301107945E-6   -8.279008080468818E-6    5.672437487190657E-1   -8.202153623467735E-1
 7.279129112662014E8     5.751355912872135E-1   -8.271204535624084E-1   -7.273995772376903E-6   -7.837653886182177E-6    8.706465380846440E-6    8.199182095187571E-6    5.559743060505787E-1   -8.289449503851980E-1
 7.378829511465603E8     5.638894849235879E-1   -8.359259508465211E-1   -4.776740030530110E-6    8.412902740333975E-6   -1.507861245861161E-5   -2.087733057829345E-5    5.445404109696853E-1   -8.373435158547591E-1
 7.478529910269192E8     5.518545061869115E-1   -8.445047813794353E-1    2.599636991113795E-6   -4.907010685824708E-6   -5.608409915309401E-6    5.455385436992294E-6    5.333925829241034E-1   -8.450194841761682E-1
 7.578230309072782E8     5.391818389607519E-1   -8.515837811120390E-1    3.795747755605856E-6   -2.190132683138446E-6   -7.928089295139079E-6    1.610824737812488E-5    5.223563363845443E-1   -8.518677780631762E-1
 7.677930707876371E8     5.288291522013407E-1   -8.569943561413219E-1    1.043441952208035E-5    5.833839854101623E-7    2.371247743045785E-6   -1.248845483286935E-5    5.109735374634182E-1   -8.584037908983535E-1
 7.777631106679960E8     5.191610081407404E-1   -8.638886179302542E-1   -1.488839026033614E-7    6.494984058876838E-6   -1.990161748958432E-5    7.973181387334109E-6    4.995129904309073E-1   -8.647665169144606E-1
 7.877331505483550E8     5.088751664724871E-1   -8.708382768565702E-1   -2.078286574284644E-6    5.498167973403662E-6    5.091192431993114E-6   -4.711500967892996E-6    4.876864278926267E-1   -8.715135658206850E-1
 7.977031904287138E8     4.976180902830964E-1   -8.773174604630591E-1   -1.535604076032700E-6    1.314929698162131E-5    4.399324892298950E-6   -8.132736772385818E-6    4.749925573234668E-1   -8.779233027053653E-1
 8.076732303090727E8     4.858757983804590E-1   -8.830598403019638E-1   -2.872281679736810E-6    9.416686054901986E-6   -5.058332290947536E-6    4.612046907684000E-7    4.621085470239026E-1   -8.841469063394426E-1
 8.176432701894317E8     4.736606459621487E-1   -8.890978878289865E-1   -1.001145674809885E-5   -1.758436272633278E-6   -3.064106109082125E-6   -7.631730993613065E-6    4.491661374681315E-1   -8.903671371636431E-1
 8.276133100697906E8     4.614925119352526E-1   -8.955692664843635E-1   -9.907208036606005E-6   -1.087465921834573E-6   -9.979078330099934E-6   -1.064068878386765E-5    4.364643851798004E-1   -8.970058464614560E-1
 8.375833499501495E8     4.488995057676751E-1   -9.019534301962747E-1   -1.181032927914334E-5    1.864221509961938E-5   -1.193596576439222E-5   -2.055944846181991E-5    4.244275755676078E-1   -9.038156578892242E-1
 8.475533898305085E8     4.361391384504886E-1   -9.084522036225673E-1   -7.573682177149375E-6   -3.038160645194749E-6    1.269074973146400E-5    9.553451989202896E-6    4.125530627462871E-1   -9.097618037582371E-1
 8.575234297108674E8     4.233604388868561E-1   -9.147990866530045E-1    3.446757387484079E-6   -7.844489353925070E-7    5.798816328541465E-6   -1.362176488229084E-6    4.008385548120612E-1   -9.152063364930828E-1
 8.674934695912263E8     4.105180304408169E-1   -9.213842038329983E-1    5.817862363783406E-6    1.232510390580033E-6    4.435630544316721E-6   -7.451276304549921E-6    3.886516204429362E-1   -9.200152391146226E-1
 8.774635094715853E8     3.974246247142546E-1   -9.280106821176337E-1    3.605687827413848E-6    9.689625570654626E-6    1.135241018466472E-5    1.549742429338059E-5    3.761318617033390E-1   -9.244810764777823E-1
 8.874335493519442E8     3.843073389444445E-1   -9.326090600532936E-1   -3.020410959271632E-6   -6.879954048416441E-6   -6.018664916021140E-7    2.106682427707046E-6    3.630800399429285E-1   -9.290612618515396E-1
 8.974035892323031E8     3.730088122115443E-1   -9.363179601127817E-1    6.132885612302200E-6   -8.579019225759648E-6    2.705654166294077E-6    1.125226619146565E-5    3.495396206791135E-1   -9.335058415825626E-1
