#  HZ   S   RI   R     50.00 
! Rohde & Schwarz Vector Network Analyzer 
! Rohde-Schwarz,ZNB20-2Port,1311601062102128,3.60
! Created: UTC 4/29/2024, 2:40:39 PM
! freq[Hz]                re:S11                  im:S11                  re:S21                  im:S21                  re:S12                  im:S12                  re:S22                  im:S22
 1.000000000000000E5     9.961648899686888E-1    3.658425835436667E-3   -1.492071608582899E-4   -8.553113221263647E-5    4.293520854953885E-6   -1.490945408369613E-4    1.010322387687197      -1.140419555831053E-2
 1.007003988035892E7     9.975440465596370E-1   -1.395661494524150E-2    1.329023467284540E-6   -7.841654604946032E-6    4.531446539449838E-6    1.037387705070775E-5    9.958615842064473E-1   -1.448197294527686E-2
 2.004007976071785E7     9.998712598380163E-1   -2.708269784692270E-2   -2.922395682572701E-6   -3.379442492261895E-6    1.719072297749346E-5    1.431583277616768E-6    9.988450957021544E-1   -2.780803647477868E-2
 3.001011964107677E7     9.978470567664283E-1   -4.093705440344694E-2   -2.232235403919808E-6   -1.132200603506279E-5   -7.846059913295100E-6   -2.342423359459746E-6    9.975424886540025E-1   -4.199103892968625E-2
 3.998015952143569E7     9.977255044977175E-1   -5.309267696473473E-2   -1.699630785672380E-6    1.623934408590580E-5    1.244474550743278E-5   -3.461799291060953E-6    9.977663350179407E-1   -5.664021209621994E-2
 4.995019940179461E7     9.962440495938149E-1   -6.600185323766669E-2   -3.697206266898594E-6    8.143828497019267E-6   -1.073696748196609E-5    1.347749636211997E-5    9.965738760417582E-1   -6.908936061948727E-2
 5.992023928215354E7     9.943553879209619E-1   -7.892632635287788E-2   -8.315018525434197E-6    4.294233085054732E-6   -7.905160481264147E-7   -8.361701166052796E-6    9.947312825182248E-1   -8.184106466875490E-2
 6.989027916251247E7     9.930386263717850E-1   -9.186799941125225E-2    4.416143662755075E-7   -5.429446023138829E-6   -9.667184163561336E-6   -4.763205003033241E-6    9.936057294770425E-1   -9.477625163952688E-2
 7.986031904287139E7     9.923595055041310E-1   -1.052181988856810E-1    7.839746906654813E-6   -7.388666914981065E-6    1.547557488640122E-5   -1.496884372722153E-5    9.924558474396432E-1   -1.079190886180513E-1
 8.983035892323031E7     9.914225633999825E-1   -1.188109975607210E-1   -2.612746781245789E-5    5.033806954136927E-6    1.153379679305905E-5    4.886106531057254E-6    9.909709544131956E-1   -1.210848079928249E-1
 9.980039880358922E7     9.894103382595857E-1   -1.323532028275762E-1    2.330005803370866E-6    1.141413772635861E-5    3.380753156173044E-6   -2.831050163658136E-5    9.887153984736171E-1   -1.344049951582113E-1
 1.097704386839482E8     9.866704345477777E-1   -1.455254189561540E-1    9.050598106304667E-6    4.585063305381136E-7    3.325446685533697E-6   -1.171460990350010E-5    9.862228344691174E-1   -1.477613693641651E-1
 1.197404785643071E8     9.848775650215187E-1   -1.589497727565737E-1    2.761299499811072E-6    1.010852991444083E-5   -4.997939839980807E-6    1.412406721001593E-6    9.843465217530969E-1   -1.612207896604314E-1
 1.297105184446660E8     9.830922731729953E-1   -1.719217386023660E-1    6.620828990860160E-6   -1.736495332459834E-5   -1.920984102476520E-6    5.437171252846802E-6    9.829454390410923E-1   -1.744770768584387E-1
 1.396805583250249E8     9.815151445794313E-1   -1.847646316140546E-1   -1.371692322258587E-5   -2.109234085616268E-6   -4.833974112644271E-7    1.470284880283119E-6    9.809149813770547E-1   -1.874798265885628E-1
 1.496505982053838E8     9.789002466122884E-1   -1.971960548654373E-1    2.027911593310158E-6    1.579258029696328E-5    1.417969182653438E-5   -6.448927399417606E-6    9.784622495675864E-1   -2.004335791506044E-1
 1.596206380857428E8     9.762661752599171E-1   -2.096187422092199E-1   -9.017758071609212E-7    5.618002938445944E-7   -5.972948451893346E-6   -8.422696517695018E-6    9.758591429979738E-1   -2.133059370231279E-1
 1.695906779661017E8     9.732795320720949E-1   -2.223967309082073E-1   -1.432936176612873E-6    2.228873473446724E-6   -1.073877552320756E-5    9.084424964190519E-6    9.729705048713133E-1   -2.260779583519696E-1
 1.795607178464606E8     9.706347550168004E-1   -2.348642715519267E-1    1.127801075860749E-5    1.625403675948539E-6   -2.213228283336756E-7    3.117977356190851E-6    9.702317660125176E-1   -2.380366651618467E-1
 1.895307577268195E8     9.675916404206243E-1   -2.471155821023133E-1    6.871769537761699E-6   -1.459065642264559E-7    1.157092929000755E-5   -1.087507754537967E-6    9.667892811310956E-1   -2.505335777617486E-1
 1.995007976071784E8     9.639159850877937E-1   -2.596679592527424E-1    2.418764908085102E-6   -3.034029773776541E-7    8.576693583126781E-6   -1.273753812376593E-5    9.627964168820824E-1   -2.631106391597635E-1
 2.094708374875374E8     9.604802326646044E-1   -2.724803865091483E-1    5.216770317720919E-6    2.260126911131246E-6    1.062727651116018E-5   -6.304806527702707E-6    9.590763386235227E-1   -2.762184921924131E-1
 2.194408773678963E8     9.572228348993688E-1   -2.851975650872409E-1    9.446824438229122E-6   -1.637201505878758E-5   -5.270188585084271E-6    3.287295207516643E-5    9.551534965161147E-1   -2.890501091135281E-1
 2.294109172482552E8     9.535274198824533E-1   -2.974655173378154E-1    5.092924687092668E-6    1.324606088939049E-6    2.726284153678381E-5   -1.566566428014908E-7    9.509973882306936E-1   -3.018040698994829E-1
 2.393809571286142E8     9.505500892512651E-1   -3.095133510769644E-1   -9.329686213125190E-6    1.346672728715322E-6    1.798548451936292E-5   -1.580553300010703E-5    9.470147413489369E-1   -3.139596089354909E-1
 2.493509970089731E8     9.469901441253635E-1   -3.234571535051701E-1   -1.182300350737154E-6    5.435139592464358E-8    1.492305058663018E-5   -4.257917646867233E-6    9.441447979614469E-1   -3.276446140957024E-1
 2.593210368893320E8     9.426627383929496E-1   -3.354683806324961E-1   -1.270311993634374E-6    1.166590779961908E-6    1.910027296956036E-5   -1.980267203360214E-6    9.398051512836084E-1   -3.409692994336791E-1
 2.692910767696909E8     9.383263035210800E-1   -3.468576477733030E-1   -6.776374551687665E-6    2.185268879927468E-6    8.050859588581176E-6   -1.229704335689752E-5    9.355570074030579E-1   -3.529023610648659E-1
 2.792611166500499E8     9.339340621962833E-1   -3.585159248763482E-1   -1.208630423235602E-5    4.672865582163126E-6    6.633700709970704E-6    1.662343851144078E-5    9.310624619911865E-1   -3.646349431678427E-1
 2.892311565304088E8     9.289773997097174E-1   -3.706247040325449E-1    3.009632203687269E-6    2.023095786971964E-5    7.643078656394463E-6    5.768485150719174E-6    9.263091476016736E-1   -3.769079274488599E-1
 2.992011964107677E8     9.240142160499475E-1   -3.827457918569466E-1    2.302894681106647E-6   -1.765466651141739E-6   -1.469660226107702E-5   -5.214917713336957E-6    9.212458540848296E-1   -3.887018867752078E-1
 3.091712362911266E8     9.187106189715003E-1   -3.949785080825375E-1    1.091078658872303E-6   -1.370777822553468E-6    1.996658697304286E-5   -2.770594271181682E-5    9.157489360774830E-1   -4.002443349026329E-1
 3.191412761714855E8     9.132080866375950E-1   -4.073771509204102E-1   -5.402318693612056E-6    6.988346493045309E-6   -7.222914530516866E-6   -8.916271104903277E-6    9.097422542088696E-1   -4.120452077660411E-1
 3.291113160518445E8     9.075048004702331E-1   -4.200345887845041E-1   -6.855966364035993E-6   -2.629117146966573E-5    6.070058975852697E-6   -2.999423113091981E-5    9.034080344392849E-1   -4.245073824405424E-1
 3.390813559322034E8     9.019821672843387E-1   -4.328898464372015E-1    2.009675072518502E-5   -4.584847951638519E-7   -1.487483381325016E-5    1.415460544642583E-5    8.968639269277290E-1   -4.370996668881066E-1
 3.490513958125623E8     8.966085231573722E-1   -4.453185357074159E-1    1.030293007190798E-5    1.256534110549122E-5   -1.147039531820430E-5   -1.067921105011190E-5    8.904863322735891E-1   -4.494490935642440E-1
 3.590214356929212E8     8.911384414093818E-1   -4.577874647067480E-1    4.131663447191125E-6   -2.742018850723205E-6    1.184984545506465E-5   -6.462174849888381E-6    8.845457655671982E-1   -4.621964895494569E-1
 3.689914755732802E8     8.858516279248091E-1   -4.701185220413927E-1    4.709949389943355E-6    1.143289760579117E-5    1.164873321827791E-5   -3.798294935869369E-6    8.790909824735024E-1   -4.748391380302535E-1
 3.789615154536391E8     8.797879538238909E-1   -4.813950410521958E-1    4.287333066967550E-6   -7.954222809519314E-6   -2.176018967499172E-6   -1.247179394302583E-6    8.738691124439866E-1   -4.868467632511091E-1
 3.889315553339980E8     8.740114924951099E-1   -4.920696025160037E-1    4.366762550568963E-6   -5.008954428184785E-6   -1.044607171547771E-5   -1.223769060921448E-5    8.680159840934464E-1   -4.987638069960792E-1
 3.989015952143569E8     8.672667441394829E-1   -5.026524097300566E-1    9.848231506269588E-6    1.055205872566960E-6   -1.938004427585038E-5    1.637072455560819E-5    8.611836707599045E-1   -5.097786338084302E-1
 4.088716350947158E8     8.601914586020922E-1   -5.135781492708356E-1    1.280272239519906E-5    3.899337598135299E-6   -4.034518900099839E-6   -1.205498253951633E-5    8.543437890393529E-1   -5.206817888502494E-1
 4.188416749750748E8     8.532107715837914E-1   -5.251254474435704E-1   -1.077398335796022E-5   -5.157995137068847E-6   -7.319983948700208E-7   -2.119910183294600E-5    8.476377632052982E-1   -5.315430343758379E-1
 4.288117148554337E8     8.459584355638969E-1   -5.367592398420988E-1    1.803795604098874E-6   -5.712862356195080E-6   -5.815091280631207E-6   -1.648056758556502E-5    8.405963616286608E-1   -5.418748373911979E-1
 4.387817547357926E8     8.381426702378791E-1   -5.481345823535361E-1    9.288078529232264E-6   -2.407454496333795E-6   -6.714273909967147E-6    1.020423286910561E-6    8.326723990683154E-1   -5.524029289040878E-1
 4.487517946161516E8     8.304877888540866E-1   -5.599778905475421E-1   -8.681819297111478E-6   -1.204903375495248E-5    1.568449800117604E-5    1.374389869663973E-5    8.241876539741722E-1   -5.635390900424420E-1
 4.587218344965104E8     8.234818149784754E-1   -5.719855769641842E-1   -1.149046963259698E-5   -6.086556355497633E-6    1.479157908203750E-6   -4.626568418337139E-6    8.160435705463084E-1   -5.753548087499260E-1
 4.686918743768694E8     8.169491945752532E-1   -5.834383365056914E-1   -5.738711112750959E-6   -3.851950290289416E-6   -1.331515741577182E-5   -5.328481457162699E-6    8.078371224535534E-1   -5.869313831255409E-1
 4.786619142572283E8     8.097153221187495E-1   -5.942055418497945E-1   -3.516283571878612E-6    2.235369451113287E-6    6.456498161361969E-6    3.303282833190218E-6    7.993426388362814E-1   -5.981011300072054E-1
 4.886319541375872E8     8.022639857153692E-1   -6.047593111023137E-1    1.672518658822277E-5    3.140103968161775E-6   -1.691474416724953E-5   -5.729803000930142E-6    7.905921438808611E-1   -6.089047701572486E-1
 4.986019940179462E8     7.939816912433979E-1   -6.154728021695470E-1   -1.136670454136192E-5   -1.098840694682735E-5   -1.617188305968294E-5    1.143011702300661E-5    7.823439002808955E-1   -6.196810231431240E-1
 5.085720338983051E8     7.855212557506362E-1   -6.245462370693521E-1   -3.381959659634079E-6    6.715464689998623E-6    2.131830577606921E-5   -2.479441215579714E-6    7.747615134376398E-1   -6.303544629594249E-1
 5.185420737786640E8     7.782275667405003E-1   -6.335945166109597E-1    2.963313817875493E-6    4.806363883462554E-9   -1.554436234783729E-5    5.222788188020972E-6    7.670790489393312E-1   -6.401914584422528E-1
 5.285121136590229E8     7.699399157167144E-1   -6.431084258735744E-1    1.590988568072068E-6   -6.184804930944103E-6   -1.053403936620388E-5    5.206531797193863E-6    7.590364025482023E-1   -6.497957019599175E-1
 5.384821535393819E8     7.614552443464816E-1   -6.532145434261708E-1   -6.413321278300443E-6   -7.579929951337253E-6   -4.774081976487082E-6    4.253602729691849E-6    7.508936125538985E-1   -6.594530000639282E-1
 5.484521934197408E8     7.532735956675223E-1   -6.637068790941557E-1   -7.727573665151250E-6   -4.648600381091372E-6    1.686106414756064E-6    7.732686595179215E-6    7.423917493839045E-1   -6.692807986440062E-1
 5.584222333000997E8     7.447045080440032E-1   -6.746769147503360E-1    2.665096919815841E-6   -1.372012150672688E-6   -1.790777917951600E-5    1.119109743921221E-5    7.333246875574404E-1   -6.792947030008127E-1
 5.683922731804587E8     7.355596530524108E-1   -6.851958071928931E-1   -6.732795240806169E-6    5.903696742459126E-6   -6.801289048491073E-6   -7.051322947857000E-6    7.232448800758998E-1   -6.893200081057230E-1
 5.783623130608176E8     7.261963717224545E-1   -6.951268730271766E-1   -3.251643091124768E-6   -1.671443208648022E-6   -3.095647513512044E-7   -8.525136144349426E-6    7.126280032416059E-1   -6.990572306160159E-1
 5.883323529411764E8     7.168738007739416E-1   -7.050262778010600E-1    4.774291401495838E-6   -1.800208928711216E-5    2.135483131338583E-5   -1.110410458755490E-5    7.021482914302291E-1   -7.087655977306274E-1
 5.983023928215353E8     7.078976063755464E-1   -7.153674615423418E-1   -1.747099687165257E-6   -1.132635559287529E-6   -2.631060979857736E-7   -1.021388334217444E-5    6.919729633538377E-1   -7.185947605526222E-1
 6.082724327018943E8     6.984085137191725E-1   -7.250793024426034E-1    9.908283378325033E-6    4.233136251573774E-6    7.502632081558089E-6    9.344411488210821E-6    6.816837388963300E-1   -7.279420694451991E-1
 6.182424725822532E8     6.883595462369219E-1   -7.346759297817227E-1   -5.494828438206372E-6    8.690306263994405E-6   -2.047738617232761E-5    7.096438303656029E-6    6.718268606114493E-1   -7.374107278916373E-1
 6.282125124626122E8     6.778969554550286E-1   -7.440986235157816E-1   -8.954728317955515E-6   -8.551124821944135E-6   -3.282632155133328E-6    1.089484989320985E-5    6.627249541755376E-1   -7.468672849455052E-1
 6.381825523429711E8     6.682755215894844E-1   -7.512416793208263E-1    1.781138644831160E-6   -2.033685009383620E-5   -2.381373523775898E-5   -8.224555816056079E-6    6.537163879313923E-1   -7.556446081333601E-1
 6.481525922233300E8     6.593092462354867E-1   -7.596292499822599E-1   -1.511865503093324E-6    2.290202990454632E-6    2.619914059821762E-6    1.089916311364453E-5    6.446520865310188E-1   -7.641208596908254E-1
 6.581226321036890E8     6.496062766128428E-1   -7.685655942319135E-1    5.818009998636716E-6   -1.033036191011016E-5   -1.318227525017420E-5    2.025806094750824E-6    6.346370973743103E-1   -7.725994449431104E-1
 6.680926719840479E8     6.396723781991751E-1   -7.772198573776795E-1    2.868901079385559E-6    3.420690537298696E-6    1.067967404640124E-5    3.366763124954519E-6    6.239389352890192E-1   -7.805580992331783E-1
 6.780627118644068E8     6.298479629322156E-1   -7.853791754703628E-1    1.223041284456017E-6   -4.096572168154888E-6   -1.694116452951947E-6    5.443809557409110E-7    6.129307963999215E-1   -7.883771034922710E-1
 6.880327517447658E8     6.194670721769111E-1   -7.937016879832129E-1    9.195266394077874E-6   -3.627351131356280E-6    6.903530776110897E-6   -1.273059275989476E-7    6.014849104580728E-1   -7.961149865188608E-1
 6.980027916251246E8     6.085387507176510E-1   -8.018314479526385E-1   -7.772888036025718E-6   -2.451696390664066E-5    5.636463414695311E-6    1.003584817709869E-6    5.900260701806788E-1   -8.038285715670294E-1
 7.079728315054835E8     5.972670673311118E-1   -8.102163389640973E-1   -1.357590018482183E-5   -8.078692795725308E-6   -2.378311080152019E-5    2.664719066743360E-6    5.785003101071012E-1   -8.117038725877989E-1
 7.179428713858424E8     5.860619680302762E-1   -8.187324024594923E-1   -1.245595924237742E-6    1.282729075623484E-5    3.393826600228896E-6    6.517893949470862E-6    5.672939324262219E-1   -8.203034158487139E-1
 7.279129112662014E8     5.751361315845261E-1   -8.273574603420956E-1   -1.483549918835590E-6   -8.742992533637122E-6   -7.257254094076050E-7    1.558635833071334E-5    5.559498828599563E-1   -8.290936583868187E-1
 7.378829511465603E8     5.637438933193843E-1   -8.360604746504394E-1    6.580346740420262E-6    9.067560230905742E-6   -1.698203015233924E-5   -1.143431812331100E-5    5.446046432219340E-1   -8.373448769174225E-1
 7.478529910269192E8     5.517012645802349E-1   -8.445455976324103E-1    1.611801871252010E-6   -1.243532009353129E-5   -5.595055571300194E-6    2.003623384185238E-5    5.334145275623293E-1   -8.450971336574890E-1
 7.578230309072782E8     5.391543668494749E-1   -8.518033791164399E-1   -1.966701766835278E-6    6.774849095821319E-6   -1.375056651728377E-5    2.018150509695592E-6    5.223056050839342E-1   -8.520839618904883E-1
 7.677930707876371E8     5.287533370764148E-1   -8.571320094073324E-1   -5.139804457228003E-6   -6.461029935879120E-6   -1.458039161663800E-5   -1.340419072587158E-5    5.109696817242627E-1   -8.584173518205694E-1
 7.777631106679960E8     5.191719498491032E-1   -8.639975709305454E-1    1.683081946560642E-6   -1.620286880298812E-6    1.542268171113006E-5    2.038183622241189E-6    4.994485248065036E-1   -8.648682797963725E-1
 7.877331505483550E8     5.087511076387854E-1   -8.708076214721494E-1    1.269143230948577E-5    2.098221085363033E-6    1.787528841638521E-5    1.658152321458367E-5    4.876999921428890E-1   -8.715723611598799E-1
 7.977031904287138E8     4.975726159703288E-1   -8.773372558759550E-1    1.744933079388911E-5    1.009222761762215E-5   -1.353464251758097E-5   -3.937465392941037E-6    4.749435120184168E-1   -8.780865809345144E-1
 8.076732303090727E8     4.858204670938508E-1   -8.832246852329790E-1   -1.378085348503238E-5   -3.903866188372936E-6   -2.511319875413068E-6    5.239228162466434E-7    4.620308362260737E-1   -8.842566939231316E-1
 8.176432701894317E8     4.737752633720073E-1   -8.892688906842364E-1    1.041009847972870E-5   -3.451438816556364E-6   -1.025734421022496E-6   -2.546924161256094E-6    4.491581173339833E-1   -8.904237459781662E-1
 8.276133100697906E8     4.614415409374380E-1   -8.956667082558042E-1    1.607530555306505E-6   -1.187602224678988E-5   -2.729952618902113E-6   -1.315607688907388E-5    4.365502989180907E-1   -8.971501692560373E-1
 8.375833499501495E8     4.488194892710006E-1   -9.020076017657294E-1   -6.869563023795559E-6    5.133828083450508E-6    1.398274222567628E-6   -9.088503077384934E-6    4.244521084286492E-1   -9.039075356032074E-1
 8.475533898305085E8     4.360412943343298E-1   -9.084933128569405E-1    2.912222607537785E-6   -4.370035843092391E-6   -8.044859391271026E-6   -2.538549166496195E-6    4.124630281976346E-1   -9.099299964662171E-1
 8.575234297108674E8     4.232808552500959E-1   -9.148191126371836E-1    3.386281262108170E-7    2.905486583818492E-6   -4.208840110140903E-6   -1.034167150709866E-5    4.007719528944311E-1   -9.153319895342716E-1
 8.674934695912263E8     4.104862410609636E-1   -9.215253281343578E-1    4.096607213440849E-6   -5.678023867698280E-6    1.446165565952593E-5   -5.666945731991715E-6    3.886284744105272E-1   -9.200951594317269E-1
 8.774635094715853E8     3.972418954145016E-1   -9.280518853454354E-1    3.596901943575634E-6   -6.940971087043532E-7    1.184812601603221E-5   -1.206774377606084E-5    3.760485817326493E-1   -9.246769575431288E-1
 8.874335493519442E8     3.841166601171689E-1   -9.326169895743263E-1   -4.408709862997492E-6   -6.446553703973403E-6    8.719124826575673E-6   -1.004649718815580E-5    3.630010580121154E-1   -9.292577464537399E-1
 8.974035892323031E8     3.729171113278940E-1   -9.363278264812259E-1    2.448657608819858E-6   -4.789119143672905E-6    3.952423562381938E-6    8.891217645526155E-7    3.495530126577778E-1   -9.335869045164847E-1
