#  HZ   S   RI   R     50.00 
! Rohde & Schwarz Vector Network Analyzer 
! Rohde-Schwarz,ZNB20-2Port,1311601062102128,3.60
! Created: UTC 4/29/2024, 2:40:13 PM
! freq[Hz]                re:S11                  im:S11                  re:S21                  im:S21                  re:S12                  im:S12                  re:S22                  im:S22
 1.000000000000000E5     9.964407834986868E-1    3.483290154634767E-3   -1.291372802924382E-5    8.261802316298508E-6   -1.338744953943573E-4   -1.535529301488348E-4    1.010140555315477      -1.157749033284080E-2
 1.007003988035892E7     9.975436998857329E-1   -1.383490310544429E-2   -2.116280785124674E-5    8.753264620275530E-6   -2.274943243126142E-5    1.246363150073879E-5    9.957706485997639E-1   -1.455610931459086E-2
 2.004007976071785E7     9.999024490874121E-1   -2.687252475410441E-2   -1.503897197423193E-5    1.528311280334478E-5    2.943330769708070E-6    2.688242176053968E-5    9.988824001656518E-1   -2.765554103239071E-2
 3.001011964107677E7     9.977910552007674E-1   -4.098872133275747E-2    6.479853697757318E-6    2.436930413874963E-6   -1.993338242887916E-6    8.103851485947453E-7    9.976610270677989E-1   -4.191091083098591E-2
 3.998015952143569E7     9.976089075847806E-1   -5.318352110622549E-2   -4.417392130562980E-9    8.933249321962289E-6   -7.534275101732263E-6    5.885996743092126E-6    9.977137600501491E-1   -5.660465948493560E-2
 4.995019940179461E7     9.960983831933728E-1   -6.600159690548733E-2   -3.024133133278085E-6   -9.173420249562270E-6   -9.595452214259351E-6   -3.173085147769673E-5    9.964793682251721E-1   -6.899569424259745E-2
 5.992023928215354E7     9.942987812907216E-1   -7.880117057932352E-2   -7.667428482747538E-6   -7.002438746832660E-6   -3.707970797385338E-6    1.079743108037390E-5    9.945843247242937E-1   -8.181787282189561E-2
 6.989027916251247E7     9.931873959026105E-1   -9.190292364143222E-2   -6.059767873408422E-6   -1.958331274213623E-5   -4.667297922145981E-7    9.908577184454219E-6    9.934808339744641E-1   -9.467385262792360E-2
 7.986031904287139E7     9.925504563345240E-1   -1.052786401989975E-1    5.082301877831005E-6    1.575769532415143E-5    8.192275675197704E-7    4.574818409375127E-6    9.923409654265346E-1   -1.078542165914877E-1
 8.983035892323031E7     9.913901401409660E-1   -1.187762662002785E-1   -1.439998526984795E-5   -2.750054980865590E-6    7.285387025820775E-6   -1.684746173361549E-5    9.909118267379625E-1   -1.210071979741656E-1
 9.980039880358922E7     9.893335500547173E-1   -1.323847614951333E-1    2.863849204948220E-6   -4.449729143358206E-6    9.845778527195169E-6    1.259533793410604E-6    9.886476041503330E-1   -1.343577760957521E-1
 1.097704386839482E8     9.865434060262060E-1   -1.454312305176514E-1    5.741113656537856E-6   -5.394179405479520E-6   -5.521560497150735E-6    7.938057727493469E-6    9.862896269629843E-1   -1.476947689247572E-1
 1.197404785643071E8     9.849107309236177E-1   -1.589779472129785E-1   -5.554542036165881E-6   -3.592160262328417E-6   -7.939096948126007E-7    1.030772965484436E-5    9.844420943539820E-1   -1.611077144271604E-1
 1.297105184446660E8     9.830933198772784E-1   -1.717921977663122E-1    1.440315599427020E-6   -1.711069023503039E-5    1.064913453606819E-5    8.856059231417832E-6    9.829105541820640E-1   -1.743937369982803E-1
 1.396805583250249E8     9.817243799257072E-1   -1.846904312871442E-1   -7.243194983621912E-7   -3.977801500291690E-6    4.393546523641551E-6   -9.354496031292821E-7    9.808819692051445E-1   -1.874861054122789E-1
 1.496505982053838E8     9.790027362119622E-1   -1.971441104248475E-1   -5.781490072784340E-6   -4.597725194576628E-6   -1.476266331852038E-5    3.215646163571521E-6    9.784898987701999E-1   -2.003416905667006E-1
 1.596206380857428E8     9.762495039869415E-1   -2.095588846783847E-1   -1.790969375384939E-6    1.736039113311565E-6    9.879467824574844E-7    2.189062348472371E-5    9.757262027213498E-1   -2.132852444385441E-1
 1.695906779661017E8     9.733182768658635E-1   -2.224067246249960E-1   -2.582952036854177E-6   -9.021015085869066E-7    1.008496526095729E-5   -8.485036382843035E-6    9.728092620813815E-1   -2.261102607321452E-1
 1.795607178464606E8     9.707217537133055E-1   -2.349116893707625E-1    6.971410654551843E-6   -1.827925184643967E-7   -2.339046035194227E-5    8.071010255201849E-6    9.702217481830205E-1   -2.381016525872662E-1
 1.895307577268195E8     9.677159770598590E-1   -2.470413608457770E-1   -2.511524370753530E-6    2.420738728158428E-6   -1.051978484041568E-5   -2.650947484890552E-5    9.667396768424412E-1   -2.504985016521400E-1
 1.995007976071784E8     9.639121790714346E-1   -2.595692179397417E-1   -3.745954683352759E-6    1.912059689595449E-6    1.395936291174504E-7   -4.699235807152219E-6    9.627230480301202E-1   -2.631433200416455E-1
 2.094708374875374E8     9.605029380974436E-1   -2.725042304865298E-1    1.293055229168103E-6   -4.436463458762320E-7   -7.539850062629095E-6    8.043741721999261E-6    9.589659028465184E-1   -2.760446261350888E-1
 2.194408773678963E8     9.572705875085046E-1   -2.851787359303932E-1    1.409412202472434E-5    2.064113584604044E-6    1.394290272656593E-5    5.707494493566255E-6    9.551015727473651E-1   -2.890979167101005E-1
 2.294109172482552E8     9.536545440783590E-1   -2.975264559556717E-1   -1.121250330191331E-5    5.897101010590101E-6    9.771930308391465E-6    6.206426968699531E-6    9.510012847495418E-1   -3.018542465750432E-1
 2.393809571286142E8     9.505677692327144E-1   -3.094707433268816E-1   -4.424461880359308E-6   -3.236751772397010E-6    1.193324621437213E-5   -3.862879214186211E-6    9.469164102766860E-1   -3.139439576170442E-1
 2.493509970089731E8     9.469645971548954E-1   -3.233720523729584E-1    6.086930946285000E-6   -5.936513243904000E-6    1.038692471243545E-6    2.081985010539891E-5    9.440472050258787E-1   -3.276977175747219E-1
 2.593210368893320E8     9.426979984416475E-1   -3.354912965986983E-1    3.774952947579271E-6    4.060234397575618E-7   -6.221629050147001E-6   -2.257911014637984E-5    9.399221668268026E-1   -3.409620304608458E-1
 2.692910767696909E8     9.385144201684527E-1   -3.469159000121477E-1    1.653766883941234E-5   -2.581186605743522E-6    1.223160878930487E-5    3.281683399206310E-6    9.354229631415893E-1   -3.528075893896372E-1
 2.792611166500499E8     9.338216345972233E-1   -3.585645975617727E-1   -1.190189492501794E-5   -4.979219883594487E-6    4.559356626880636E-6   -8.477286366510363E-7    9.307854098688924E-1   -3.646218773178085E-1
 2.892311565304088E8     9.290148685170183E-1   -3.706527925341236E-1   -5.513251203491061E-6    1.893534947151987E-6    9.405978530915599E-6    9.289792023132892E-7    9.262638272887301E-1   -3.769647705426665E-1
 2.992011964107677E8     9.242058319787440E-1   -3.827694330266016E-1    7.941631980771040E-7    3.957940044165973E-6    3.665263517889377E-6   -1.765560185713316E-5    9.212159382163712E-1   -3.886780470191905E-1
 3.091712362911266E8     9.188180289441916E-1   -3.949358435192870E-1   -1.035680065210181E-5    1.231687255956728E-5   -1.594924839523092E-5    7.217804227607995E-6    9.156377426039063E-1   -4.002102667151534E-1
 3.191412761714855E8     9.132528549448780E-1   -4.073484528716131E-1    5.939400962884065E-6    9.922621968118099E-6    8.613944102495319E-6    2.181034636792677E-6    9.096850516522165E-1   -4.119647457227235E-1
 3.291113160518445E8     9.076630689336377E-1   -4.201265259609016E-1    8.527976896830977E-7    5.034123252859614E-6    7.793706245701860E-6    2.869143298530746E-6    9.034022123243759E-1   -4.244771598642622E-1
 3.390813559322034E8     9.020859473303856E-1   -4.328605889956357E-1   -1.697791179510489E-7   -8.968585478499476E-7    7.766073489639058E-6    1.139341954697661E-5    8.968383447767676E-1   -4.370307654671650E-1
 3.490513958125623E8     8.966902872352172E-1   -4.453488891494802E-1   -1.864395174702548E-6   -5.226474480612173E-6   -7.974509126424278E-6    1.382981328011860E-5    8.905357578268482E-1   -4.495350654438538E-1
 3.590214356929212E8     8.911396786658611E-1   -4.578505099500292E-1   -3.542270322186520E-6    8.493075775503397E-6   -2.833547197628219E-5    7.529078898288665E-6    8.845278186114623E-1   -4.622256232029662E-1
 3.689914755732802E8     8.858850798105502E-1   -4.701031288920170E-1   -5.230109810003154E-6   -3.707510324140170E-6   -1.383526342977061E-5   -7.005736485063670E-6    8.791353315131224E-1   -4.747653256840869E-1
 3.789615154536391E8     8.799494040515813E-1   -4.814015056486362E-1    9.072776050263640E-6    1.171204911722439E-5   -7.335822822104179E-8   -2.446159226675693E-6    8.739461645798339E-1   -4.867850538293596E-1
 3.889315553339980E8     8.742141759155350E-1   -4.921223192358291E-1   -1.177803766607773E-5   -4.095041104298047E-6    5.839542548942679E-6   -7.210051175143786E-6    8.679879565672721E-1   -4.988000216680904E-1
 3.989015952143569E8     8.673140702862235E-1   -5.027448037893809E-1   -7.420475995518534E-6    4.137276812269444E-6   -5.229450299670263E-6    1.135895205789999E-5    8.610925739391323E-1   -5.097207252891750E-1
 4.088716350947158E8     8.601469652290239E-1   -5.136352212983548E-1    3.840311539948077E-6    1.427923835802607E-7   -1.279439227609435E-6    3.866165683174884E-6    8.542491389436621E-1   -5.207014388163014E-1
 4.188416749750748E8     8.533378791940025E-1   -5.252297052908771E-1    1.066125574367183E-5   -9.085497661708188E-6   -2.072067812516161E-5    1.133087272353578E-6    8.475922806107630E-1   -5.313877274665750E-1
 4.288117148554337E8     8.460649501098797E-1   -5.368398502430003E-1    1.176142245625041E-6   -7.553970177114772E-6    2.418344741625756E-6    9.032740728442455E-6    8.406346701176124E-1   -5.419147342697944E-1
 4.387817547357926E8     8.381261934403658E-1   -5.481924788296986E-1    6.109126062796332E-6   -1.162356134774045E-5   -9.414802391871352E-6   -7.566973757387362E-6    8.325878296109541E-1   -5.522670888499310E-1
 4.487517946161516E8     8.304526864942533E-1   -5.599829021046442E-1   -1.456769336659415E-7    4.232510086195810E-6    4.490215354148724E-7   -5.426421395369389E-6    8.241270149567310E-1   -5.635640064183792E-1
 4.587218344965104E8     8.235331394771241E-1   -5.719489038429575E-1   -3.823375694807671E-6   -7.311949725234184E-6    9.208120610743369E-7    2.986274881177653E-7    8.159744740731287E-1   -5.752690391891709E-1
 4.686918743768694E8     8.169775477517198E-1   -5.834173004236790E-1   -1.502641754148220E-5   -4.714996204551839E-6    1.251090925545380E-5    7.257822002298346E-6    8.078980019465213E-1   -5.869919311367685E-1
 4.786619142572283E8     8.098355800104167E-1   -5.942599661506075E-1   -9.073564569691984E-6    1.629356512870619E-6    5.821322278464344E-6    5.581222251048009E-6    7.993570030357428E-1   -5.981807047132469E-1
 4.886319541375872E8     8.022159895273433E-1   -6.046932540741284E-1   -2.006864411554052E-5    1.918427495476727E-6   -3.814552755365807E-6   -1.743288053550247E-5    7.905099963077014E-1   -6.088398047825921E-1
 4.986019940179462E8     7.938856597623256E-1   -6.154660468666796E-1   -7.553533997425266E-6   -1.418084811226058E-5   -1.442065759586091E-5    1.793357434744065E-6    7.822840512609273E-1   -6.197334867784744E-1
 5.085720338983051E8     7.855556545004808E-1   -6.245247956341656E-1    4.493232477153881E-6   -7.671045157347791E-6    1.766345588455854E-5   -1.770868194540431E-5    7.746529762678618E-1   -6.303137327910769E-1
 5.185420737786640E8     7.783073165041778E-1   -6.337038599649532E-1   -9.755941998551161E-6    1.522893156915378E-5   -6.368999130199176E-6    1.386815841961151E-6    7.670277440364619E-1   -6.402110906067304E-1
 5.285121136590229E8     7.699693574753284E-1   -6.430833386486492E-1    1.651533121424680E-5    9.226177852249112E-6    1.522063553939217E-5   -5.010437041301448E-6    7.589467193568813E-1   -6.496658378145744E-1
 5.384821535393819E8     7.613345256347102E-1   -6.530776158020802E-1    9.938198456725321E-7   -2.808709308297169E-6    1.091922490840890E-5   -7.940343825920301E-6    7.508030969261604E-1   -6.593856361910391E-1
 5.484521934197408E8     7.532161356833936E-1   -6.637366610179390E-1   -7.703468733766176E-6   -3.674892960775648E-6    2.447067371371706E-6   -1.504532802014756E-5    7.424074850519015E-1   -6.693390812850669E-1
 5.584222333000997E8     7.448224134950621E-1   -6.747345966070174E-1    9.027322675603888E-6    1.816220538908481E-6    9.497413767571633E-6    1.359061031072564E-6    7.333117322012178E-1   -6.792580186465522E-1
 5.683922731804587E8     7.355685795059509E-1   -6.852155128681631E-1   -1.993894236513714E-5    2.271432332283898E-6    2.101135804390717E-6    3.076246237304847E-6    7.232291558523947E-1   -6.892568335729474E-1
 5.783623130608176E8     7.261778598607774E-1   -6.950338912342404E-1   -8.397468670152500E-6    3.518383186541219E-6   -5.072815603844711E-6    1.688773097788917E-5    7.125743494952808E-1   -6.989673541255750E-1
 5.883323529411764E8     7.170840902611206E-1   -7.051884565561202E-1    6.342027060556017E-6   -1.244190417345376E-5   -7.252646623081979E-6    1.561901661464725E-5    7.021241690709210E-1   -7.086777621690595E-1
 5.983023928215353E8     7.078164388440644E-1   -7.152617497642277E-1    8.307121121685978E-6   -1.468006776758280E-6   -1.674413730207493E-5   -2.826651309983201E-6    6.919543879658323E-1   -7.184162471918096E-1
 6.082724327018943E8     6.983586287234177E-1   -7.250366600827468E-1    8.515919756735747E-7    9.231496700209400E-6   -1.176900750483708E-5   -8.255656142661344E-6    6.817892129012781E-1   -7.279520982180966E-1
 6.182424725822532E8     6.884394612613917E-1   -7.346167382323995E-1    1.148770087953779E-6    4.866326802646056E-6   -7.164604240901897E-6    5.965725591112957E-6    6.717781445841616E-1   -7.373745377566129E-1
 6.282125124626122E8     6.778679871892778E-1   -7.440025939742941E-1   -5.645151593306364E-6   -5.221895704318994E-6    5.813324582172623E-6    8.144681487526680E-6    6.626405221704669E-1   -7.466852277342753E-1
 6.381825523429711E8     6.682555763328415E-1   -7.511751028568191E-1   -5.002566490431841E-6   -9.484834561670921E-6   -1.152953494964008E-5    8.168920896960393E-6    6.537645384822136E-1   -7.557818455501909E-1
 6.481525922233300E8     6.593251303862550E-1   -7.596659327668269E-1   -8.157470189124477E-6   -1.165562839984236E-5   -4.588238932455583E-6    1.366967845035625E-5    6.446604101737713E-1   -7.641961375160742E-1
 6.581226321036890E8     6.496208338988341E-1   -7.685994600606644E-1    1.314705296400696E-5    1.102866224886092E-6    1.549734233684480E-5   -2.090121007490573E-6    6.345078200710990E-1   -7.724750925727787E-1
 6.680926719840479E8     6.397179977562631E-1   -7.772064905257904E-1   -3.728749361674720E-7   -1.645968045792443E-5   -1.219483842089575E-5    1.332028676783148E-5    6.239398428709185E-1   -7.805579204724119E-1
 6.780627118644068E8     6.298033151505815E-1   -7.855001600145788E-1    5.780523423429664E-6    2.322917027835955E-6   -1.539898836409431E-5   -5.749002138680994E-6    6.129025985971307E-1   -7.883770220279430E-1
 6.880327517447658E8     6.195529118635194E-1   -7.938540562713238E-1   -8.498274652771179E-6    4.745394111019115E-6    1.525121409980020E-6   -4.003047817052559E-6    6.015098802934615E-1   -7.960660592340666E-1
 6.980027916251246E8     6.085700004116816E-1   -8.018948536865057E-1    5.816107772424370E-7   -6.750310349117563E-6    1.361495302887072E-6   -6.859022783091216E-6    5.900033835814320E-1   -8.037971899249300E-1
 7.079728315054835E8     5.971670641135032E-1   -8.101369440097302E-1    4.883645059795111E-6    9.082064617030628E-6    2.519054478897375E-6   -4.606026208446834E-6    5.785738508547704E-1   -8.118443156218036E-1
 7.179428713858424E8     5.860845943448008E-1   -8.188087960108998E-1    2.946705535928214E-6   -1.899355733160800E-5   -3.942605945424545E-6   -1.380781398672731E-5    5.673590971479339E-1   -8.203095565293422E-1
 7.279129112662014E8     5.751284177856134E-1   -8.273434623229822E-1    4.615299453359655E-6   -1.135194955715141E-5   -6.798424204483327E-6   -1.644250695522440E-5    5.559015598045867E-1   -8.289617594864062E-1
 7.378829511465603E8     5.638145147990156E-1   -8.360669713349910E-1    7.624737356761017E-6   -4.388334576830177E-6   -1.773300018393970E-5   -6.898950296479165E-6    5.445770518254003E-1   -8.373483932148912E-1
 7.478529910269192E8     5.517583642887386E-1   -8.445525494203994E-1    7.581462572673451E-7   -7.181647671619316E-6    1.017639486758434E-5    2.726724900159536E-6    5.334320726367349E-1   -8.451512394813129E-1
 7.578230309072782E8     5.391529719287230E-1   -8.517764263544800E-1    4.041679496473261E-6   -2.366180813062670E-7    1.297029237021319E-5   -8.503277181999409E-6    5.222407524974003E-1   -8.521150428684442E-1
 7.677930707876371E8     5.288322770827693E-1   -8.571068595166439E-1    1.018797865064903E-6    5.282396387805611E-6    3.933560946990006E-6   -7.019163054487391E-6    5.109748267460168E-1   -8.583686500199719E-1
 7.777631106679960E8     5.191332138616763E-1   -8.640522437511714E-1    2.164688070683351E-5   -7.106904687325846E-6   -1.548347975959985E-6    1.218689350797045E-5    4.993658462185943E-1   -8.648212817636847E-1
 7.877331505483550E8     5.087864578427234E-1   -8.708809954103283E-1    2.062187959391682E-5    1.178151469333374E-5   -4.946707256970342E-6   -7.707100382293680E-6    4.876061855669008E-1   -8.714096957070554E-1
 7.977031904287138E8     4.975652386499396E-1   -8.772172824023422E-1   -8.342496944795104E-6    9.738729552405406E-6    1.330384515358293E-7   -1.136139109544228E-5    4.748683534114503E-1   -8.781079558395847E-1
 8.076732303090727E8     4.858168107880427E-1   -8.832225911795659E-1   -9.605058661868297E-7   -4.168541065069319E-6    1.760075282071480E-6    1.718907739175181E-5    4.620018979370965E-1   -8.841933382093750E-1
 8.176432701894317E8     4.737455427923579E-1   -8.892867522364946E-1   -2.711974528244366E-6   -3.609401004768651E-6    1.975511537841351E-6    2.813031684680005E-6    4.491640042342480E-1   -8.904295489797935E-1
 8.276133100697906E8     4.614361428112014E-1   -8.956902961018257E-1    3.228970062996543E-6   -2.141666516166396E-6    4.614721121907553E-6    9.884269869752612E-6    4.365270254605621E-1   -8.970368459535527E-1
 8.375833499501495E8     4.488230558872686E-1   -9.019470903064714E-1   -9.941527036125715E-7    5.816862320537072E-6    9.981918423424419E-6    9.081203877310027E-6    4.243089242819673E-1   -9.038644256808895E-1
 8.475533898305085E8     4.360207293429267E-1   -9.084918834546356E-1   -4.914955437319422E-6    9.609491291853619E-6   -2.652936408072026E-6    7.933205069583331E-6    4.124544527680213E-1   -9.098958234886192E-1
 8.575234297108674E8     4.232868252942627E-1   -9.148776827134315E-1    1.331476464665457E-5   -1.423093782644527E-6    6.878793534422000E-6   -2.920634020850926E-6    4.007178528309513E-1   -9.151347086807948E-1
 8.674934695912263E8     4.105111721733160E-1   -9.215667121967981E-1   -1.016884630021410E-5   -8.129029675167202E-6    5.688454844159738E-6    4.655483070450719E-6    3.885959326605957E-1   -9.199890114980230E-1
 8.774635094715853E8     3.973743873731662E-1   -9.280590433846263E-1    1.386937277122009E-5    3.182773403314166E-6   -8.060443969621104E-6    5.955174780299018E-6    3.760088508598209E-1   -9.247145603339869E-1
 8.874335493519442E8     3.841636173071148E-1   -9.326704023110625E-1    1.985680407829727E-5   -1.480419448077056E-5   -9.698613397532414E-6    7.246333611287760E-6    3.630553158033319E-1   -9.291872084091221E-1
 8.974035892323031E8     3.729097474765490E-1   -9.362675274953348E-1   -2.429773670880760E-5   -1.149027985826992E-5   -9.327678992751902E-6    1.341168245302241E-5    3.494128612186206E-1   -9.335925265042816E-1
