#  HZ   S   RI   R     50.00 
! Rohde & Schwarz Vector Network Analyzer 
! Rohde-Schwarz,ZNB20-2Port,1311601062102128,3.60
! Created: UTC 4/29/2024, 2:40:18 PM
! freq[Hz]                re:S11                  im:S11                  re:S21                  im:S21                  re:S12                  im:S12                  re:S22                  im:S22
 1.000000000000000E5     9.961238272358240E-1    3.492462965445632E-3   -8.115122527277870E-5    5.256789183861622E-5   -1.150350954422668E-4   -1.674147074402510E-4    1.010139444739564      -1.148022394370576E-2
 1.007003988035892E7     9.979167883174503E-1   -1.441824321151900E-2    2.818712691848289E-6   -8.581556234332018E-6   -3.502148307838040E-6    1.407851063186592E-5    9.961533480802672E-1   -1.444353689285338E-2
 2.004007976071785E7     9.997510523639915E-1   -2.734342230841763E-2   -1.754121245932051E-5    2.940382168844925E-6   -5.639436120700309E-6   -1.579947139403786E-5    9.989759921287160E-1   -2.771053800135896E-2
 3.001011964107677E7     9.979624100332604E-1   -4.098872016261113E-2    9.364622397475671E-6   -1.046654477460588E-5   -1.967046315225036E-6   -1.966343143562216E-5    9.976017836367511E-1   -4.213345467117574E-2
 3.998015952143569E7     9.976956399899382E-1   -5.303374932969014E-2    4.766946429287187E-6    4.086853817527341E-6    5.116704659312483E-6   -1.445878011659200E-5    9.977852418796251E-1   -5.667352668329095E-2
 4.995019940179461E7     9.960063660622064E-1   -6.591355778412383E-2    3.831009526380921E-6   -2.780799323454654E-5    8.609789938533344E-6   -2.930992648336954E-6    9.965613083443202E-1   -6.914961187423924E-2
 5.992023928215354E7     9.943021956902970E-1   -7.868053132624887E-2    1.161203051966010E-5   -1.247981767609088E-5    7.830615693463819E-6   -2.160642264067177E-5    9.946570692260392E-1   -8.181843209097940E-2
 6.989027916251247E7     9.931768465439640E-1   -9.169721805622252E-2   -8.386799336957306E-6    2.642748997683257E-6   -4.469675400053897E-6    7.452182002043057E-6    9.934551009004716E-1   -9.474619977161790E-2
 7.986031904287139E7     9.926085842656830E-1   -1.051790522643384E-1   -6.065679957137454E-6    5.664044650675648E-6    1.565976821378973E-5   -8.672573139102780E-6    9.925568598387087E-1   -1.079178911746332E-1
 8.983035892323031E7     9.916033463222881E-1   -1.187274890892135E-1   -1.614898631418710E-5    2.949601880588642E-6    3.399241551227097E-6    1.003192569456973E-5    9.909639720697714E-1   -1.210537717730476E-1
 9.980039880358922E7     9.893607341986816E-1   -1.322439192129134E-1   -2.193927175772512E-7    8.873743111142971E-6    1.020644334234878E-5   -4.244111215846139E-6    9.884941112568676E-1   -1.343519919440293E-1
 1.097704386839482E8     9.865966584842492E-1   -1.455029021738823E-1    9.954984732813888E-6    6.140826387857397E-6    1.312428498082444E-5    4.175220439200375E-6    9.861306372334512E-1   -1.476581008543925E-1
 1.197404785643071E8     9.848858172955632E-1   -1.588792120345498E-1    9.922067787979251E-8   -9.523161551722936E-6    5.575559821731074E-6   -1.905056324571001E-5    9.844216187715524E-1   -1.611979997338753E-1
 1.297105184446660E8     9.829899975983163E-1   -1.717443777735929E-1    3.158267970454256E-6    2.153037361073322E-6   -1.792318062735823E-5   -9.857896255136231E-6    9.829942161172575E-1   -1.743759886798525E-1
 1.396805583250249E8     9.815925052967804E-1   -1.847268704854951E-1   -8.099945630210619E-7    4.423201456893517E-7   -3.629491613064988E-6    5.302617504810248E-6    9.810038544912650E-1   -1.875078156775479E-1
 1.496505982053838E8     9.789777221803364E-1   -1.970671953816001E-1   -3.421835289996227E-6    1.672340898274260E-6    1.037538748267570E-5    7.907061136977841E-6    9.784964286077388E-1   -2.005287303122824E-1
 1.596206380857428E8     9.762680370705326E-1   -2.095147459084514E-1    2.160777509501657E-6   -1.490112049251935E-5    1.299100022239546E-5    7.177838291636608E-6    9.758359326569456E-1   -2.132214874578183E-1
 1.695906779661017E8     9.732364159105722E-1   -2.223638642697020E-1    7.713687757613317E-6   -2.052418488259467E-7   -4.551897196791168E-6    5.239431875824428E-7    9.728428368696825E-1   -2.260540102444930E-1
 1.795607178464606E8     9.708045827266583E-1   -2.348598020520339E-1    9.356029227213545E-6   -1.892033683748815E-7    5.428715069653629E-6   -3.772021923603283E-6    9.702362431893650E-1   -2.379939391977355E-1
 1.895307577268195E8     9.676740953086531E-1   -2.469950257202626E-1    9.258121100579431E-6   -1.641342151112601E-5   -1.053724612266890E-6   -1.093365643574779E-7    9.668999287466624E-1   -2.505217467414045E-1
 1.995007976071784E8     9.637999530809495E-1   -2.595353537848292E-1   -1.303162206610577E-6   -1.057256750252091E-8    1.738198793142805E-6    9.738564889327413E-6    9.628968511958798E-1   -2.632537647859935E-1
 2.094708374875374E8     9.605919865979795E-1   -2.724153751799984E-1   -7.697744466976497E-6    6.441885498275420E-6   -1.245494454000878E-5   -1.620557397445317E-5    9.589292225805137E-1   -2.761909254471966E-1
 2.194408773678963E8     9.574513510838718E-1   -2.852779572103486E-1    3.798151729272302E-6   -1.298754982301537E-5    3.353840106524604E-7    9.091547590296979E-6    9.551209071150351E-1   -2.890727337587742E-1
 2.294109172482552E8     9.537029245384199E-1   -2.974439612128154E-1    1.516338078588944E-5    7.872816345780991E-6   -1.589717114261188E-5   -1.007459961879670E-5    9.509288730287621E-1   -3.018251174559933E-1
 2.393809571286142E8     9.505235597547760E-1   -3.094358503789512E-1    5.926016718641861E-6   -1.013733650669726E-5    6.807040824193694E-6    2.195814447432573E-5    9.471793151892309E-1   -3.139948050145731E-1
 2.493509970089731E8     9.468638784353788E-1   -3.232670564080515E-1    2.666820050866861E-6    5.369227788203607E-7   -3.273574026395380E-6   -7.919706307759431E-6    9.442777015851131E-1   -3.277286481950237E-1
 2.593210368893320E8     9.427667708491554E-1   -3.354610449613034E-1   -2.848117808272830E-6    4.753851943787244E-6    1.125127532221328E-6    9.954831531605584E-6    9.397972344561684E-1   -3.408603530993603E-1
 2.692910767696909E8     9.386149925383956E-1   -3.468952900063514E-1   -3.140397709589222E-6    2.246835246225859E-5    8.547307125518723E-7   -3.003657527037237E-6    9.356418811842476E-1   -3.529384334186729E-1
 2.792611166500499E8     9.338069411848098E-1   -3.585230414543090E-1    9.626737227637016E-6   -1.099026871236215E-6    7.518004274382309E-7   -6.139807288211780E-6    9.308930048328889E-1   -3.646866519834469E-1
 2.892311565304088E8     9.288700752090391E-1   -3.704841708572532E-1    4.043032943192554E-6    6.304562224412472E-6    1.197099142145503E-5    5.926804043654784E-6    9.261108999749398E-1   -3.769411190823089E-1
 2.992011964107677E8     9.242158293004659E-1   -3.826916033561896E-1   -1.424106420828364E-5   -1.710902740007572E-5    3.764844018421693E-6    2.403624837989345E-5    9.211148391154823E-1   -3.886564677768144E-1
 3.091712362911266E8     9.187826977190848E-1   -3.949664603304474E-1    3.769486389649641E-6    1.010451568062129E-6   -1.696500173544362E-5   -1.432602049938192E-6    9.156790164281193E-1   -4.002863854852423E-1
 3.191412761714855E8     9.131908506164556E-1   -4.073157940362978E-1    8.904724501909993E-6   -1.606215726369493E-6   -7.639002883827810E-7   -6.616615447654467E-6    9.096404455263497E-1   -4.119790952482902E-1
 3.291113160518445E8     9.075313694512653E-1   -4.198864332284657E-1   -6.467285987683597E-6    7.087762863706835E-6   -1.118288802418303E-5    1.034730083001540E-5    9.033947834730689E-1   -4.245136300581885E-1
 3.390813559322034E8     9.019303753409923E-1   -4.328121333289116E-1   -1.311079764358037E-5    1.026874106784714E-5    3.242382576266600E-6   -1.191126738653868E-5    8.968844488094443E-1   -4.369704543059618E-1
 3.490513958125623E8     8.967417793716875E-1   -4.454155844602527E-1    2.096570630102054E-7   -2.366894505665023E-7    5.291999803550406E-6   -5.488759683671786E-6    8.905004924907987E-1   -4.493850131503661E-1
 3.590214356929212E8     8.912422628920624E-1   -4.578380214603636E-1   -1.199236578513805E-5    7.742574567071141E-6    1.660926262433977E-5    4.081208153533219E-6    8.845220380753955E-1   -4.621316975620089E-1
 3.689914755732802E8     8.858866669046230E-1   -4.700233734103396E-1   -5.093295065131816E-6   -5.140719002396055E-6    2.286996024771775E-5   -2.944321540255802E-6    8.790425993284574E-1   -4.748222734369636E-1
 3.789615154536391E8     8.798081500082952E-1   -4.812957547308622E-1    2.367669799083742E-6    5.323299379799572E-6    2.475867998164882E-5   -1.464847095867088E-5    8.739496689546771E-1   -4.868190521604514E-1
 3.889315553339980E8     8.741025056574300E-1   -4.920349749555730E-1    1.147044303960143E-6    4.430262098353231E-6   -3.595981995258003E-6    2.298344975146646E-6    8.679873056912181E-1   -4.988741242785252E-1
 3.989015952143569E8     8.674695895540562E-1   -5.028048863149334E-1   -6.776047458725551E-6   -6.818201986782869E-6   -1.726951765982003E-5   -2.328649844670224E-6    8.611571775443634E-1   -5.097834734373512E-1
 4.088716350947158E8     8.601728054736476E-1   -5.135621983425018E-1   -3.569003579697452E-6    2.296252834978891E-6    5.412151178223864E-6    1.172336778070071E-5    8.542039247952865E-1   -5.206108492068697E-1
 4.188416749750748E8     8.533050542188128E-1   -5.250441352610975E-1    3.108575262489384E-6   -2.790118122347575E-7   -1.268973288643963E-5    2.521902199472741E-6    8.476737398278071E-1   -5.314889781848539E-1
 4.288117148554337E8     8.459787045379146E-1   -5.367787171071130E-1   -5.521718785598237E-7    2.027342835575848E-6   -2.690638665339810E-6    3.729126643070566E-8    8.406379932822575E-1   -5.419291793921218E-1
 4.387817547357926E8     8.383194116191348E-1   -5.481415085040569E-1    4.637213444349406E-6    6.537610011705168E-6   -2.882310017388961E-6   -1.235914912293789E-5    8.325868780116316E-1   -5.523168173290063E-1
 4.487517946161516E8     8.305597383577601E-1   -5.599739448327292E-1    1.966347257736814E-6   -1.142488860582498E-5    1.433515377261539E-6   -7.890180922309897E-6    8.241447429953265E-1   -5.635643510622995E-1
 4.587218344965104E8     8.235580868113276E-1   -5.719109862726874E-1   -5.643986357086096E-6    1.357004167202997E-5    1.857709869564720E-6   -5.798789580541596E-6    8.159184250107132E-1   -5.753808459538580E-1
 4.686918743768694E8     8.169475585368108E-1   -5.833741090388205E-1   -1.006737342445382E-5   -9.277147610805983E-6    3.038862188801598E-6    4.515192764780586E-7    8.078812738119745E-1   -5.869127789384420E-1
 4.786619142572283E8     8.098354178046879E-1   -5.941793357892438E-1   -1.186166333492214E-5   -3.106521058627398E-6    6.858955025835257E-7    1.211559120853705E-5    7.992987661336419E-1   -5.981739330512158E-1
 4.886319541375872E8     8.023063626465274E-1   -6.047020383001053E-1    1.160017128315662E-5    1.039779387083159E-5    7.178108483858824E-7    7.534180417038421E-6    7.904579018284658E-1   -6.088839269799931E-1
 4.986019940179462E8     7.939598061850406E-1   -6.152394879564761E-1    5.641849711795271E-6   -1.626426042749729E-5    2.372252912466829E-5    1.122550122055559E-5    7.823583718235507E-1   -6.197371171110532E-1
 5.085720338983051E8     7.856432805214386E-1   -6.245112738415903E-1    1.130497813619772E-5   -9.212249111460563E-6    1.880626114734791E-6   -5.096502848596454E-6    7.748202741984056E-1   -6.304363821823865E-1
 5.185420737786640E8     7.783038848567084E-1   -6.335493099184536E-1    1.655541515752407E-6   -9.924508508121482E-6   -2.016693362391672E-7    2.970238458132728E-6    7.670186649719914E-1   -6.401872668761195E-1
 5.285121136590229E8     7.699584344715038E-1   -6.431044682430882E-1    8.372725654880754E-6    3.739845110690811E-6   -2.714659386383666E-5    1.773112765250804E-5    7.589345002008379E-1   -6.497903035818448E-1
 5.384821535393819E8     7.614448720624667E-1   -6.531176973813143E-1    6.379940638802450E-6   -6.809068074135428E-6   -1.473286433164750E-5    2.080299639490732E-6    7.508090998894641E-1   -6.594192324029666E-1
 5.484521934197408E8     7.533125976634949E-1   -6.636525651561052E-1    5.100948896187605E-6    1.120924218290361E-5    1.562887028372125E-5   -1.166274473179923E-5    7.424504525630785E-1   -6.692095096914117E-1
 5.584222333000997E8     7.448348033649413E-1   -6.747197249135704E-1    2.508477068268509E-7    1.609585203586462E-6   -6.396818686736571E-6    1.105088878936945E-5    7.333516413391572E-1   -6.792238120982311E-1
 5.683922731804587E8     7.355986050438107E-1   -6.851223896887667E-1   -5.045951390788265E-6    5.491333103323211E-6   -4.869004387874403E-6   -1.272035469463495E-5    7.231343594167217E-1   -6.892308501591065E-1
 5.783623130608176E8     7.262268864517050E-1   -6.949890178400736E-1   -3.927922182263426E-6   -4.876064580115725E-6   -6.506734247040101E-6    3.835428999559948E-6    7.125594994355265E-1   -6.989775486069155E-1
 5.883323529411764E8     7.169559845885388E-1   -7.050627064574141E-1   -2.539531537302610E-6    4.529999412525614E-6    2.128604560855123E-5    7.521737577319016E-6    7.022652547359922E-1   -7.088305506730080E-1
 5.983023928215353E8     7.079067095428804E-1   -7.152900093108064E-1    1.557979007327878E-5    7.377394629732295E-6    1.889360552820826E-5    4.455062213650176E-6    6.921090114229509E-1   -7.185811220961450E-1
 6.082724327018943E8     6.983525266180119E-1   -7.249390542015399E-1    6.483328361195602E-6   -1.777100224668985E-5    2.127809211496083E-5    5.454811757819826E-6    6.817791162747789E-1   -7.280319442904248E-1
 6.182424725822532E8     6.884570907965609E-1   -7.346010724151554E-1    3.293059683637676E-6   -1.576932689212184E-6    7.614181898198126E-6   -2.828036408115879E-6    6.717039175225945E-1   -7.372754954842325E-1
 6.282125124626122E8     6.780365171686004E-1   -7.440639263310668E-1    5.905943502969572E-6    8.974169913188343E-6   -1.057225179926147E-5    5.307043158336725E-6    6.627577542964508E-1   -7.468785335514802E-1
 6.381825523429711E8     6.683148096006946E-1   -7.511073091323376E-1    5.766903737843736E-6   -2.136272856201489E-6   -1.292312483952887E-6    6.894314390140439E-6    6.538442702614810E-1   -7.557185351302704E-1
 6.481525922233300E8     6.592883936938190E-1   -7.596297001432510E-1   -4.583702954175838E-6    1.310720091926475E-6   -4.376184063573361E-6   -2.410796712212178E-5    6.445236825253607E-1   -7.642521210766587E-1
 6.581226321036890E8     6.495756294620166E-1   -7.685534750488013E-1    1.429236106933436E-5   -1.672055693070720E-6   -1.528567728034502E-5    4.066251618198537E-6    6.346029639695541E-1   -7.724746747430909E-1
 6.680926719840479E8     6.396790164063205E-1   -7.772543148345386E-1   -2.316120524479555E-6    3.314843733636662E-6    2.396301910404733E-6    2.751686720795010E-5    6.239330902315509E-1   -7.804910182602567E-1
 6.780627118644068E8     6.298976354201328E-1   -7.854587417370290E-1    6.704227632830176E-6   -4.427513460558018E-6   -1.556090861540167E-5   -1.239571413876740E-5    6.128899765991461E-1   -7.884080499774098E-1
 6.880327517447658E8     6.195568064801606E-1   -7.937461191673546E-1    1.346706789551724E-5    7.393025113893616E-6   -2.358214032068224E-6   -1.446709639321058E-5    6.016530607180891E-1   -7.960310165404588E-1
 6.980027916251246E8     6.086009048422163E-1   -8.018108059464762E-1   -5.086139389065801E-6   -2.951859262028613E-6   -5.433797944560419E-6    5.859122767354387E-6    5.900654366080327E-1   -8.038512638669010E-1
 7.079728315054835E8     5.972987470887319E-1   -8.101823717537475E-1   -5.006244916063603E-6    3.243390281640904E-6   -7.749246458964285E-6   -7.464525261491582E-6    5.785534615518827E-1   -8.116651684636996E-1
 7.179428713858424E8     5.860543283318689E-1   -8.187230096148994E-1    7.836413530406484E-6   -1.581949680448978E-5   -1.598459946352346E-5   -1.015580771777229E-5    5.673036853572754E-1   -8.204027332754299E-1
 7.279129112662014E8     5.750246857055212E-1   -8.272025439429334E-1    4.015027146464614E-6   -4.141978656290087E-6   -1.529001209745760E-6   -1.360798240587610E-5    5.559432859007190E-1   -8.289685950198223E-1
 7.378829511465603E8     5.637153406586846E-1   -8.360147183781458E-1    1.683523203569453E-5   -5.876631011017594E-6   -1.343933448895854E-5   -3.625646442921143E-6    5.446622125556466E-1   -8.373675389100600E-1
 7.478529910269192E8     5.517128796431898E-1   -8.446032599033613E-1   -1.586649775948856E-5   -7.058912021791059E-7    1.070198048868191E-5    3.109380914745441E-6    5.334457778073451E-1   -8.450876390893488E-1
 7.578230309072782E8     5.390624495746162E-1   -8.515832824654977E-1    1.505600321882364E-6    6.070670788744898E-6    2.306799258360367E-6   -2.041298253678824E-6    5.223076377546079E-1   -8.521058796162091E-1
 7.677930707876371E8     5.287495122051568E-1   -8.569967025250210E-1   -2.451990857071257E-6    7.741068688140780E-6   -2.652731927758529E-6   -5.200629484145202E-6    5.109142190329590E-1   -8.584214639897624E-1
 7.777631106679960E8     5.191345587812294E-1   -8.639337158056369E-1   -8.926706637596103E-6    2.058749081764382E-8    2.245010133955103E-5   -1.623333799356316E-6    4.995171896522386E-1   -8.649898229069529E-1
 7.877331505483550E8     5.087882253027399E-1   -8.708337488384451E-1   -1.874768696530948E-5   -2.546857092641638E-6   -8.898853490036023E-6   -2.865318861921285E-6    4.877051536509042E-1   -8.717464292817514E-1
 7.977031904287138E8     4.975417913439213E-1   -8.771726193396563E-1    7.004465906570595E-7    1.921278727991604E-5    3.095994627504946E-5    7.435134377591258E-6    4.749399771084608E-1   -8.781744957259190E-1
 8.076732303090727E8     4.858296137699572E-1   -8.831782820032945E-1    6.986689887777563E-6    8.384552259455800E-6    3.383562258805138E-6    1.093144121259346E-5    4.619825916393491E-1   -8.841684695359258E-1
 8.176432701894317E8     4.737718883762618E-1   -8.891372849954452E-1    6.700701340937246E-6    5.044822392983841E-7    2.132110972088642E-6    1.268608794154190E-5    4.492154515312620E-1   -8.904449833158159E-1
 8.276133100697906E8     4.614901174973715E-1   -8.956725820165814E-1    7.712420873309036E-6   -7.420608176005847E-6    5.152717825143855E-6    3.718725132682134E-6    4.364447764904369E-1   -8.971254598510519E-1
 8.375833499501495E8     4.488871424730383E-1   -9.020361509932602E-1    2.850660903852632E-6   -6.596774030514225E-6   -5.650182403589858E-6   -5.166086784509259E-6    4.243824489119029E-1   -9.038538715294280E-1
 8.475533898305085E8     4.359915516066670E-1   -9.083921686612694E-1    4.092577420328964E-6    1.434308693917525E-6   -9.764748702318948E-6   -3.968014557144330E-6    4.124863091737146E-1   -9.099461444474429E-1
 8.575234297108674E8     4.232644255708694E-1   -9.148046403244871E-1    2.432714416735154E-6   -3.753634439310911E-6    1.443303455512540E-7   -2.769227431041454E-6    4.007158975388316E-1   -9.153176639027705E-1
 8.674934695912263E8     4.104135882796040E-1   -9.213894569013301E-1   -6.762497938858848E-6    6.622539733646961E-6    5.478532271087825E-7   -7.209732254546301E-6    3.886557494335418E-1   -9.200582461062091E-1
 8.774635094715853E8     3.974184210652965E-1   -9.280560233828572E-1    1.001826674081641E-5    8.317949699268876E-6    1.162925646538055E-6    3.463331588156813E-6    3.760818641284274E-1   -9.246425134084071E-1
 8.874335493519442E8     3.842599149925628E-1   -9.326106642785456E-1    4.091988638190212E-7    4.958931536062605E-7   -3.008392957673115E-6    7.718084125275176E-8    3.630364141362477E-1   -9.292492974551783E-1
 8.974035892323031E8     3.729480581396881E-1   -9.362179728275518E-1    4.879732427840564E-6    2.251032228918178E-6    9.063594776359119E-7    1.941599652020323E-6    3.495420036984616E-1   -9.336844904541932E-1
