#  HZ   S   RI   R     50.00 
! Rohde & Schwarz Vector Network Analyzer 
! Rohde-Schwarz,ZNB20-2Port,1311601062102128,3.60
! Created: UTC 4/29/2024, 2:40:49 PM
! freq[Hz]                re:S11                  im:S11                  re:S21                  im:S21                  re:S12                  im:S12                  re:S22                  im:S22
 1.000000000000000E5     9.960619421137554E-1    3.544335956068015E-3   -3.462204965999023E-6    6.654744123210505E-5    4.525073612614724E-5   -9.922342786527109E-5    1.010309457883469      -1.144621732389564E-2
 1.007003988035892E7     9.980066824914654E-1   -1.391834211996171E-2   -8.610796436089440E-7   -3.552574105084407E-6   -4.218790817397099E-7   -2.599854257215377E-5    9.958573989594954E-1   -1.449171736801806E-2
 2.004007976071785E7     1.000066615337948      -2.711561471663390E-2    1.842970389371048E-5    1.483805928029107E-5   -1.381587895185753E-5    6.422088827436353E-6    9.988148670600727E-1   -2.756180174755780E-2
 3.001011964107677E7     9.980937314222152E-1   -4.103232108722985E-2   -1.089336595779353E-5    7.696091774086944E-6    1.970543951381147E-5    9.514581088609279E-6    9.975607454610680E-1   -4.208052187896377E-2
 3.998015952143569E7     9.977485124129514E-1   -5.316862852249669E-2    3.074394218878621E-6   -7.386118694543199E-6   -4.099349839992364E-6    1.082858257524360E-5    9.976417792359391E-1   -5.664170298370857E-2
 4.995019940179461E7     9.960203378014456E-1   -6.602581783094830E-2   -2.999956963648944E-6    7.901788274616535E-6    3.797170002021264E-6   -4.855832687029091E-6    9.965806068648446E-1   -6.916319665109315E-2
 5.992023928215354E7     9.942820787792501E-1   -7.881243596248105E-2   -3.157083486363720E-6   -2.175239574458780E-6    4.879295328062088E-6   -7.755709402192122E-6    9.946572850265681E-1   -8.187967225444336E-2
 6.989027916251247E7     9.931456105201160E-1   -9.182506814566220E-2   -4.081371896284182E-7    5.589723174212915E-6   -1.448527053531853E-6   -4.957336455127565E-6    9.934919450184577E-1   -9.475993510570453E-2
 7.986031904287139E7     9.926276707957173E-1   -1.052540724559508E-1    5.271105468185589E-6    1.141053912673925E-5   -9.188657700730040E-6    1.377152584880893E-5    9.922990125038730E-1   -1.078089355253619E-1
 8.983035892323031E7     9.915658879434293E-1   -1.188175779148686E-1    9.512023019006236E-6    5.156929697422872E-6   -8.255351468550037E-6    6.312226551626287E-6    9.908924596965427E-1   -1.211270021448310E-1
 9.980039880358922E7     9.893241410509127E-1   -1.323269756236163E-1    1.068141597803679E-5    1.515707711212164E-5    2.693713075456107E-6   -1.233235685450157E-5    9.887959076352936E-1   -1.344806900029468E-1
 1.097704386839482E8     9.865277662952439E-1   -1.455291295487125E-1   -5.165510959455834E-6    5.282067203877812E-6   -4.326377396248786E-6    6.187387756564321E-7    9.861855682319925E-1   -1.477090645074890E-1
 1.197404785643071E8     9.849358339357492E-1   -1.590285706332626E-1   -1.350142700784423E-5    1.913761143919485E-5    9.214181763140833E-6    8.820767032159368E-6    9.843370169466666E-1   -1.611248260275131E-1
 1.297105184446660E8     9.831983501771309E-1   -1.718351229106488E-1    7.515125350520293E-6   -1.101699035278712E-5    1.853986610291021E-5    1.381611500795967E-5    9.827838809366993E-1   -1.744379023273047E-1
 1.396805583250249E8     9.816949261394770E-1   -1.847585028824658E-1   -5.717302396490191E-6   -5.378568100947430E-6   -1.186650707485293E-5    1.123058191847102E-5    9.808624412015625E-1   -1.875242332305405E-1
 1.496505982053838E8     9.789675728907864E-1   -1.971611874183965E-1   -9.607373907273722E-6    2.121527697006246E-7    4.506112117646382E-6   -6.204123565450971E-6    9.785605173923784E-1   -2.003496049358811E-1
 1.596206380857428E8     9.761279428213617E-1   -2.095980542627838E-1   -1.371197584238230E-5    7.055354979553771E-6    8.045721418549061E-6   -2.066846396999854E-5    9.758575302079382E-1   -2.132919119105733E-1
 1.695906779661017E8     9.731640277036657E-1   -2.223923688789299E-1    5.572225324970579E-6    8.132043638376473E-6    9.672375750763639E-6   -3.067562802309036E-6    9.729422010752765E-1   -2.260862870987279E-1
 1.795607178464606E8     9.708584587968508E-1   -2.349690780356956E-1    7.876222855193697E-6   -3.660438436753164E-7   -2.191692778201247E-6    2.330818731723563E-7    9.701179645440954E-1   -2.380099863524724E-1
 1.895307577268195E8     9.675661750051061E-1   -2.470781163181160E-1   -1.098968224547030E-7   -3.346220384427103E-6   -1.325982669447472E-6   -2.106639575292041E-8    9.668303453051793E-1   -2.505172392196983E-1
 1.995007976071784E8     9.636714996569925E-1   -2.595629435613381E-1    1.545934197629828E-5    5.167662386605729E-6   -2.667008632708836E-6    3.513754824105238E-6    9.629646585313337E-1   -2.631928795019898E-1
 2.094708374875374E8     9.604944767651690E-1   -2.725917867845636E-1    7.563820429267959E-7   -3.653132065605349E-6   -1.458534518714746E-5    2.245754681926479E-5    9.590284447232541E-1   -2.761471355997297E-1
 2.194408773678963E8     9.572914750708487E-1   -2.852386738623061E-1   -1.584161928650062E-6   -1.009831945636906E-5    1.382440892452389E-5    1.005425237267363E-5    9.551042576503082E-1   -2.891533625600707E-1
 2.294109172482552E8     9.535477170443465E-1   -2.975235938688883E-1   -4.277917724606219E-6   -2.219741628622611E-6   -7.905483040423251E-6   -9.053397608498128E-6    9.509417995160464E-1   -3.018534958182346E-1
 2.393809571286142E8     9.504653644421336E-1   -3.094478538104736E-1    1.110866076038392E-5   -1.845741662435156E-5   -3.065775629159916E-6   -7.569927558138378E-6    9.471377034661728E-1   -3.140527043769482E-1
 2.493509970089731E8     9.469624271520543E-1   -3.234198688610616E-1    3.957906292988550E-6   -7.628124850201828E-6    1.373830336311186E-5    1.242215423112419E-5    9.442334110357850E-1   -3.276665712595707E-1
 2.593210368893320E8     9.426928173144371E-1   -3.355150165141731E-1   -4.237139878278636E-6   -8.549169218665078E-7   -8.353018530257835E-6   -1.417877525115307E-5    9.398878575351953E-1   -3.409003847218237E-1
 2.692910767696909E8     9.384352068945960E-1   -3.468928606870712E-1   -3.430490037513705E-6    3.994128103805373E-6   -2.100980670098317E-5   -9.999928262243808E-6    9.356434731083563E-1   -3.529266576784649E-1
 2.792611166500499E8     9.337848987116389E-1   -3.585102248041768E-1   -3.160784502575201E-6   -5.728567501745944E-6   -1.207047338245083E-6    7.602096982336734E-6    9.310324987830393E-1   -3.647630935549749E-1
 2.892311565304088E8     9.290626633419842E-1   -3.706613875715151E-1   -3.007641488927756E-6    1.205047411892343E-5    3.304719155070816E-6   -1.219715665625646E-5    9.262155801494129E-1   -3.768882145781105E-1
 2.992011964107677E8     9.242599671006462E-1   -3.827720453961964E-1    1.098068010978067E-5    2.140354406587919E-6    4.477952153641368E-6    1.599679427968341E-5    9.212089393941602E-1   -3.886697971510817E-1
 3.091712362911266E8     9.187758658008350E-1   -3.950399651755416E-1    1.275327104097487E-6    8.950655912544933E-7   -2.625529947085458E-5   -8.488622399096992E-6    9.157765067834137E-1   -4.002290242622938E-1
 3.191412761714855E8     9.131614654331044E-1   -4.073435052982169E-1    4.248432060187213E-6    1.062834600432862E-5   -1.182538524278475E-5    1.475398084532257E-6    9.098857996526710E-1   -4.120296588457377E-1
 3.291113160518445E8     9.075302373335535E-1   -4.200919307102899E-1   -1.394284090571634E-5    1.764263233178030E-5    2.653685872227466E-6   -1.279764169145883E-6    9.035225470020711E-1   -4.246031463225253E-1
 3.390813559322034E8     9.020585941059825E-1   -4.329155088253737E-1    1.041160386325799E-5    8.268298844137063E-6    9.328752157250713E-6   -2.812230247879613E-6    8.967842567138075E-1   -4.370389417126827E-1
 3.490513958125623E8     8.966473433820229E-1   -4.453871175477581E-1   -3.628552250429212E-6   -2.908901540417238E-6    1.041456275133437E-5    3.341108836138766E-6    8.904721781264564E-1   -4.493720567093340E-1
 3.590214356929212E8     8.912252795293618E-1   -4.578967691205665E-1   -7.433167910381210E-6   -1.369671369282570E-6    1.058900058269488E-5    7.896554218502922E-6    8.847057061402560E-1   -4.622716774147605E-1
 3.689914755732802E8     8.859156490624667E-1   -4.701394852986378E-1    6.574737398829453E-6   -5.895045783294123E-6   -5.750633256076499E-6   -2.439578088844239E-5    8.792571573323916E-1   -4.748761576494358E-1
 3.789615154536391E8     8.798968119472844E-1   -4.814154435085595E-1    2.260356732626826E-5    3.181209551964149E-6   -1.266565097208631E-5    2.237836563026825E-5    8.739122154886720E-1   -4.868640210376114E-1
 3.889315553339980E8     8.741573014473816E-1   -4.922010414017207E-1   -5.483760755216532E-6   -1.309373695542868E-6   -1.075160609541304E-5    8.157156792157193E-6    8.679031219602900E-1   -4.987410237667076E-1
 3.989015952143569E8     8.672737547722035E-1   -5.027397856774883E-1    1.807063529770367E-5   -2.764029652418818E-5    3.105881462924306E-5   -2.199731303961176E-5    8.611211153060350E-1   -5.096591471646063E-1
 4.088716350947158E8     8.601203217503230E-1   -5.136492939580155E-1    5.924751595342366E-6   -2.594582926075230E-7   -6.100218370259209E-6   -4.377077356127474E-6    8.544431968306129E-1   -5.207541896193520E-1
 4.188416749750748E8     8.533376637299233E-1   -5.251930996398932E-1    1.460966348948181E-5    9.114257599048710E-7   -1.561853705972500E-5   -2.468853138281179E-6    8.476458026742539E-1   -5.315602886708948E-1
 4.288117148554337E8     8.460904522315726E-1   -5.369679131012545E-1    1.983135860214451E-6   -1.043799683068463E-5   -6.451998101974462E-6   -2.538218180902259E-5    8.405627028719760E-1   -5.417684779144379E-1
 4.387817547357926E8     8.382644163266724E-1   -5.483275520962893E-1   -7.597400608588683E-6    9.609838196687264E-6   -1.487631000154983E-5    1.839605297579773E-5    8.325791825325285E-1   -5.523322840189946E-1
 4.487517946161516E8     8.303691342552105E-1   -5.599907657071916E-1    9.186579660246426E-6    1.232647746159328E-6   -3.995200443405643E-6   -1.109982727786003E-5    8.242097538475410E-1   -5.636302527263013E-1
 4.587218344965104E8     8.235983343013490E-1   -5.720783901344446E-1    1.606391275525958E-5    1.544207882075942E-6    2.450581638812362E-6   -3.652886542901453E-6    8.161261379194947E-1   -5.754299377533085E-1
 4.686918743768694E8     8.170760213325092E-1   -5.835516402120440E-1   -9.687246928290529E-6    1.008814984480975E-5    3.686582958324758E-6    1.578550823768931E-5    8.079110748458773E-1   -5.869103240268201E-1
 4.786619142572283E8     8.099105433560735E-1   -5.943494595729752E-1   -9.856620724959365E-6   -5.375709092817029E-7    5.835392387784232E-6    2.210559471884329E-5    7.993198983815016E-1   -5.981788353376816E-1
 4.886319541375872E8     8.022303028801914E-1   -6.047886166787124E-1    8.074321534133245E-6   -9.346952297590493E-7    1.249875673664149E-5    2.296337342661700E-5    7.905486236165328E-1   -6.090455761443669E-1
 4.986019940179462E8     7.938780604421930E-1   -6.154129918528567E-1    5.081063133691594E-6   -7.564087715040976E-7   -2.923476588865831E-6    8.429020738164931E-6    7.824340422675382E-1   -6.197957541440727E-1
 5.085720338983051E8     7.855474001768488E-1   -6.245973988023865E-1    9.250035360862953E-6    1.045491561676124E-5   -8.222933622425340E-6   -1.420722275196746E-5    7.747365192255015E-1   -6.304099688630639E-1
 5.185420737786640E8     7.783030993980384E-1   -6.337082119850664E-1   -1.132958606594244E-5    2.522353026871394E-6    2.178895940846429E-5   -1.007972187370351E-5    7.670384931621026E-1   -6.402886020915339E-1
 5.285121136590229E8     7.700176625974099E-1   -6.432253273146248E-1   -3.569124628183292E-6    5.331135868055880E-6   -1.518962445915725E-5    3.013347531670422E-6    7.590730881759153E-1   -6.497610261254401E-1
 5.384821535393819E8     7.612986427554487E-1   -6.530976508893532E-1    1.207530787032491E-5   -1.814950379748194E-5    1.394705855348856E-5    1.467209157262396E-5    7.508342491357771E-1   -6.593896705531929E-1
 5.484521934197408E8     7.531774096664433E-1   -6.636525861070010E-1    1.814578620569557E-6   -1.889266790629923E-6    8.573265773882827E-6   -2.617813249601039E-6    7.424614060771089E-1   -6.693968370084062E-1
 5.584222333000997E8     7.447966313795690E-1   -6.747318256450749E-1    1.825322945558677E-6    1.498940149846300E-5   -1.012000800751425E-5   -1.233087422479802E-6    7.333736284739677E-1   -6.792635805270000E-1
 5.683922731804587E8     7.356407425590080E-1   -6.852375366661746E-1    2.271700163512812E-6   -6.273950571299750E-6   -1.798122955481484E-6   -8.519327805238568E-6    7.231672351331988E-1   -6.892239368529257E-1
 5.783623130608176E8     7.262554601499742E-1   -6.951248343284988E-1   -5.913941460193279E-6   -1.751601447222074E-6    8.923570796599321E-6   -1.389172991527199E-5    7.126119364713851E-1   -6.990858897912684E-1
 5.883323529411764E8     7.169940827391048E-1   -7.050805942827326E-1   -3.790879487674022E-6    3.690094622826036E-6   -1.306476958484401E-5   -1.071678687405279E-5    7.022433237545855E-1   -7.087903125959759E-1
 5.983023928215353E8     7.078547934674129E-1   -7.153461166428409E-1    4.006665629168498E-6   -1.032889961946490E-5    3.737492783318362E-6   -7.863932640757701E-6    6.919513454293796E-1   -7.185014099486597E-1
 6.082724327018943E8     6.984248563840104E-1   -7.250703325028867E-1   -3.542361386441885E-7    1.277825163887300E-6   -1.509499282173058E-5   -7.543142149511324E-6    6.817644248857500E-1   -7.278748003053656E-1
 6.182424725822532E8     6.884976960540528E-1   -7.346629260811997E-1   -3.575139081343041E-6    8.123686346806206E-7    7.107659078648117E-6    1.774466892284247E-5    6.717862060806108E-1   -7.374167903483234E-1
 6.282125124626122E8     6.779240732451837E-1   -7.439785507275497E-1   -4.257869903020282E-6   -1.093553345424234E-5    1.006522437942092E-5   -1.276967527129832E-5    6.627180516564368E-1   -7.469013774279232E-1
 6.381825523429711E8     6.682318543109208E-1   -7.510884954151321E-1    2.137931384814631E-6   -3.754302780992253E-6    1.540608043412546E-5    9.374376409084198E-6    6.538240884526734E-1   -7.557134071514081E-1
 6.481525922233300E8     6.593425197441865E-1   -7.596265338088428E-1    3.601352797721538E-6   -1.188245496824840E-7    2.005097872466803E-5   -1.861362848872877E-6    6.446906770693436E-1   -7.642462282443210E-1
 6.581226321036890E8     6.496573841863704E-1   -7.686588788540779E-1    2.985631945712328E-6    9.023778132546486E-7   -5.427094652585238E-6    7.401978860825938E-6    6.346456970092512E-1   -7.725538521979926E-1
 6.680926719840479E8     6.397489316735410E-1   -7.772820257667306E-1    3.507948871669079E-6   -2.432325704313572E-6   -8.079134754282474E-6   -1.262836131744265E-6    6.238745170167804E-1   -7.805145357054649E-1
 6.780627118644068E8     6.298739220332192E-1   -7.854075518568163E-1   -7.912151259388220E-6   -1.167757407288328E-6    1.056129701294140E-5    9.457429739267938E-6    6.129480963870683E-1   -7.884612855444619E-1
 6.880327517447658E8     6.195782101685494E-1   -7.936427875754644E-1   -9.095305611493513E-6   -1.486321992473353E-5   -1.186871004274027E-5    1.383065616298722E-7    6.015750845454865E-1   -7.961143056846796E-1
 6.980027916251246E8     6.086154537112883E-1   -8.019098356389440E-1   -1.339735804299303E-5    1.326503910527258E-7    1.309044848490770E-5   -1.413523108817558E-5    5.899557316225648E-1   -8.036918558891335E-1
 7.079728315054835E8     5.972475877025574E-1   -8.102129863395097E-1    6.981305620448955E-6    1.791337216320849E-5    1.222575956121179E-5    8.937836486422548E-7    5.785353083799516E-1   -8.117316041027161E-1
 7.179428713858424E8     5.860273540545462E-1   -8.186300210748099E-1   -1.860930569150615E-6    9.154647728735005E-6   -1.188904528355976E-5    6.596731489595232E-6    5.672805623194352E-1   -8.202891156947991E-1
 7.279129112662014E8     5.750960054427583E-1   -8.271975756565156E-1    1.510384401621022E-5    1.893443740499772E-6   -1.276423102086795E-5    1.186219003984887E-5    5.559439900560523E-1   -8.290384710958557E-1
 7.378829511465603E8     5.638958587864938E-1   -8.360813305694031E-1   -4.160174961182755E-6   -1.359057682077954E-6   -4.249986445326605E-6    5.039074262528732E-6    5.445409437374599E-1   -8.374055868305148E-1
 7.478529910269192E8     5.517339963638976E-1   -8.445081244580769E-1   -3.164618937437150E-6   -5.236238869857446E-6    3.890237307168493E-6    1.676740815540219E-5    5.334740130192689E-1   -8.451527733187369E-1
 7.578230309072782E8     5.391872138299908E-1   -8.516786908597053E-1   -6.187285420706358E-6    2.077245547042725E-6   -2.847499069174029E-6    5.876386221134484E-6    5.222574094107221E-1   -8.519991430862484E-1
 7.677930707876371E8     5.286061230355922E-1   -8.569903588173009E-1   -1.176566912341458E-5    3.812243357363126E-6    1.136744941679372E-5   -9.944822981413049E-7    5.110305927948821E-1   -8.585585170522554E-1
 7.777631106679960E8     5.191658653155032E-1   -8.640314893036454E-1   -7.094014615138926E-6    1.355465297943238E-6   -1.861758178632887E-5   -8.259677084290465E-6    4.994686339261817E-1   -8.649544995626273E-1
 7.877331505483550E8     5.088499466522023E-1   -8.709262667231282E-1    9.799045071785804E-6   -9.216735844929090E-6    4.725944027688519E-6   -3.625317607246736E-6    4.875619987215715E-1   -8.716760662872239E-1
 7.977031904287138E8     4.976396464505900E-1   -8.773219425575997E-1   -8.845328068187472E-6   -9.818286198424180E-6    3.009163971203085E-6   -2.486243072194491E-6    4.749306734890840E-1   -8.780006753594090E-1
 8.076732303090727E8     4.858358408651511E-1   -8.830301030244267E-1    4.286230206875876E-6    1.677005024598607E-6   -9.648477385535168E-7   -1.037549362180577E-5    4.620225119863149E-1   -8.841390810028557E-1
 8.176432701894317E8     4.737568315932785E-1   -8.891034398151225E-1    1.980393166400449E-6   -9.117335928985739E-6    1.847046470566205E-6    5.374725311364765E-6    4.491997848606766E-1   -8.905173939026729E-1
 8.276133100697906E8     4.614479301558566E-1   -8.956375898627107E-1    9.278741767736538E-7   -4.197024927487227E-7    5.316826454266168E-8    1.172323136076891E-6    4.364693107045353E-1   -8.972494736143745E-1
 8.375833499501495E8     4.487974194385964E-1   -9.020412103553501E-1    6.374485556650588E-6   -2.416193286275841E-6   -1.350360813172654E-5   -3.456032622257004E-6    4.243781051361481E-1   -9.038730610478083E-1
 8.475533898305085E8     4.360510081154834E-1   -9.084044324372769E-1    3.313773535605444E-6   -2.641523574283708E-6   -2.221701228396165E-6    6.951272364279838E-6    4.124450953718086E-1   -9.099366782597728E-1
 8.575234297108674E8     4.232424348871004E-1   -9.146922951814689E-1    1.800058415375394E-6    7.234542938539450E-6   -1.336031399345945E-6   -1.748053104754467E-5    4.007526927772219E-1   -9.153626757935323E-1
 8.674934695912263E8     4.104460683385229E-1   -9.214588728310319E-1    3.561964372289420E-6   -7.983487027950331E-6   -9.179459609911136E-6   -1.126572990510612E-5    3.886362944166374E-1   -9.201205983394629E-1
 8.774635094715853E8     3.974298144718540E-1   -9.280398722825894E-1    1.000920643183175E-6   -2.397344679395252E-6    5.115258666901128E-6   -2.979361931707515E-6    3.760693390039614E-1   -9.247913357013132E-1
 8.874335493519442E8     3.843047854710901E-1   -9.326318593150952E-1   -1.498728379855791E-5    2.000355566691286E-5   -6.311403375501733E-6   -2.316498018625212E-6    3.630094038087253E-1   -9.292538300510133E-1
 8.974035892323031E8     3.730085223576510E-1   -9.363092600581175E-1    3.393807538824369E-7   -7.637772927915852E-6   -3.699118222081956E-6   -1.357910307986261E-5    3.494944738807891E-1   -9.335605799600719E-1
