#  HZ   S   RI   R     50.00 
! Rohde & Schwarz Vector Network Analyzer 
! Rohde-Schwarz,ZNB20-2Port,1311601062102128,3.60
! Created: UTC 4/29/2024, 2:40:24 PM
! freq[Hz]                re:S11                  im:S11                  re:S21                  im:S21                  re:S12                  im:S12                  re:S22                  im:S22
 1.000000000000000E5     9.959636684363783E-1    3.516404678874847E-3    3.606777171424050E-5    1.736330744771356E-4    3.833856161778973E-5    1.634174072575378E-4    1.010098170563320      -1.136468588896110E-2
 1.007003988035892E7     9.980840439799062E-1   -1.383058060814460E-2    2.229951800809510E-5   -2.207682035843706E-5    1.531587096024825E-5    1.285672389124604E-5    9.960052515631754E-1   -1.459671355838559E-2
 2.004007976071785E7     9.999316760319558E-1   -2.718693353183336E-2    6.089277207895312E-6   -2.009180519550713E-5   -4.173523586254565E-6   -2.379296956140318E-5    9.988361304958959E-1   -2.766600949635767E-2
 3.001011964107677E7     9.980840459441742E-1   -4.085376952849008E-2   -3.710609563662973E-6   -3.085302282988706E-6    8.706905124542495E-6    1.349464449919426E-5    9.975862510272007E-1   -4.202350584547636E-2
 3.998015952143569E7     9.977115488841531E-1   -5.305582857382664E-2    1.095028810934297E-5    1.032398485998202E-5    2.427355764038572E-5   -2.342033201728408E-5    9.976733895337974E-1   -5.664988488562933E-2
 4.995019940179461E7     9.960976464997372E-1   -6.603778561728292E-2    4.587202079223757E-6    5.570596279892349E-6    9.756085095797484E-6   -8.343539298933749E-6    9.965102251238420E-1   -6.904651423634509E-2
 5.992023928215354E7     9.941300136565435E-1   -7.878410416360743E-2   -9.058078660099812E-6    1.694548021614783E-5   -6.817781613334569E-6    3.453680163002884E-5    9.945558831653935E-1   -8.187674314955383E-2
 6.989027916251247E7     9.932320690191084E-1   -9.183463844559026E-2    2.013241294532159E-6    4.335178043775294E-6    9.460407622919518E-6   -6.317882405741308E-6    9.935473755863236E-1   -9.472566911174907E-2
 7.986031904287139E7     9.926139501624398E-1   -1.052908634301271E-1   -7.132658002241428E-6    3.960884824403203E-6    1.611597841651955E-5    6.610073537236700E-6    9.925261124842075E-1   -1.078858748537411E-1
 8.983035892323031E7     9.915394428037737E-1   -1.188038035432492E-1   -1.473153607059138E-5    7.427099303605913E-6   -6.460569069887476E-6    1.155343694328736E-5    9.908939437126910E-1   -1.209756382755802E-1
 9.980039880358922E7     9.894748427460728E-1   -1.323965465284558E-1   -7.209055018141594E-6   -1.113895652729580E-6   -1.607233015234093E-6    5.666422810526558E-6    9.885869376660116E-1   -1.343759789486123E-1
 1.097704386839482E8     9.864907886503236E-1   -1.454529848766560E-1   -1.878013402198955E-6    5.411664344523480E-6   -1.230550634469984E-5   -2.754471465319702E-6    9.861407193668692E-1   -1.476798632205847E-1
 1.197404785643071E8     9.849321755322062E-1   -1.589416870495079E-1   -1.071047614360541E-5   -6.357834708210036E-6   -1.235158873217796E-5   -4.591073300085700E-7    9.843999935508890E-1   -1.611712059797438E-1
 1.297105184446660E8     9.831743536461258E-1   -1.717568584938204E-1    2.510119727694012E-6   -4.023918795617497E-7   -2.742591259199483E-6   -3.467988286715632E-6    9.828995893487421E-1   -1.744089744181727E-1
 1.396805583250249E8     9.816763694764403E-1   -1.847190943452902E-1    7.053933837273962E-6    6.717911258392112E-6   -9.187716602544038E-6   -8.031507925141423E-7    9.809662743311335E-1   -1.876595300769348E-1
 1.496505982053838E8     9.790266596378965E-1   -1.971848838148496E-1    1.183197532497099E-5    7.825780232354614E-7    1.857045275121928E-6    1.275443343821716E-5    9.784918600873606E-1   -2.004378248712285E-1
 1.596206380857428E8     9.763445490198901E-1   -2.095364245843796E-1   -1.357829922449841E-5    4.042052497589263E-6    7.853683406183899E-7   -3.697098128417332E-6    9.756373204035781E-1   -2.133364229798567E-1
 1.695906779661017E8     9.732633585447705E-1   -2.224031639464839E-1    9.929303578031239E-6   -1.024212580205314E-5    3.610183890989238E-6   -1.287242907029884E-6    9.729628157925289E-1   -2.261663340732393E-1
 1.795607178464606E8     9.707996447075298E-1   -2.349266667774129E-1   -3.649689475686282E-6    7.189111826229206E-6    4.876543039034385E-6   -9.809947132661984E-6    9.702150676247383E-1   -2.380622183744473E-1
 1.895307577268195E8     9.675777439593585E-1   -2.471282360835182E-1    3.546590750400770E-6    1.490866356845104E-5    4.897008174013361E-6   -5.807031987488147E-6    9.667932607577709E-1   -2.505066861366838E-1
 1.995007976071784E8     9.639354569371579E-1   -2.596029247475859E-1   -3.148838927895078E-6   -3.623213457812698E-7    7.736081905964585E-6   -5.462550248809567E-6    9.628270771095770E-1   -2.631371751019320E-1
 2.094708374875374E8     9.605240189002606E-1   -2.724888482392761E-1    4.183592918398780E-6   -8.779796309874118E-6    4.947595432948891E-6    3.787857279948793E-6    9.589287635336736E-1   -2.762199173108341E-1
 2.194408773678963E8     9.573254085237893E-1   -2.851915955661981E-1    6.810163345899591E-6    8.538598547759093E-6   -9.935978322282405E-6    1.099898395466870E-5    9.551164196232840E-1   -2.891063010774630E-1
 2.294109172482552E8     9.535952936021356E-1   -2.974549921966944E-1    9.809598058747532E-6   -2.460057936102691E-6   -4.410817694607289E-6   -2.780916510571088E-7    9.509345375093056E-1   -3.018330657841952E-1
 2.393809571286142E8     9.506671326220847E-1   -3.095098572876807E-1    1.176289254935666E-5    1.062471408838572E-5    1.169625232711571E-5    9.731004649595510E-6    9.470416538738716E-1   -3.140041043573644E-1
 2.493509970089731E8     9.470671655008774E-1   -3.234308362108321E-1   -7.711758974096284E-7   -5.981665168697363E-6    3.489108571374060E-7    5.217871354912291E-6    9.442293927107365E-1   -3.276935350056531E-1
 2.593210368893320E8     9.427935819674859E-1   -3.354479515381432E-1    7.073294162683970E-6    4.238015991459710E-6   -2.945451278306251E-6   -6.843568324915015E-6    9.399030119010248E-1   -3.408771198514003E-1
 2.692910767696909E8     9.385156762175503E-1   -3.469092961440922E-1   -2.911452095290175E-6    1.433356989010123E-6   -7.040240757426808E-6   -2.119216938283640E-6    9.354490145282078E-1   -3.528262288718932E-1
 2.792611166500499E8     9.339039433750965E-1   -3.585487424848614E-1   -1.163346360881340E-5   -1.081252800140933E-5    5.406271960357438E-6   -3.660477226025667E-7    9.310796312176532E-1   -3.647306815345316E-1
 2.892311565304088E8     9.291301038652711E-1   -3.706660031610667E-1   -6.241529230160859E-6    1.498465296451036E-5   -1.684127081570901E-5    3.022836289639969E-7    9.262677633698577E-1   -3.768925868114179E-1
 2.992011964107677E8     9.240718868701296E-1   -3.827212681631753E-1   -6.365877363098738E-6    6.357820491987285E-6    1.303714485279759E-5    6.275849387298447E-7    9.211374658475443E-1   -3.886442141209201E-1
 3.091712362911266E8     9.188683497276516E-1   -3.950775150201161E-1   -1.962547422610912E-5   -5.021050024205183E-9    6.994826510225938E-6   -1.036180147480321E-5    9.156614966348283E-1   -4.001491484260347E-1
 3.191412761714855E8     9.134097175145600E-1   -4.074272661541365E-1   -1.634472008031783E-5   -1.376006449034703E-5   -9.454429142991999E-6    7.789686903195509E-6    9.097586144030880E-1   -4.120877158437110E-1
 3.291113160518445E8     9.076287878661655E-1   -4.200605789263165E-1   -2.915997651804076E-6    7.890302990910262E-6   -1.101026529223308E-5    9.077908686307214E-6    9.033610608390075E-1   -4.244522699444687E-1
 3.390813559322034E8     9.019744611614597E-1   -4.328733511993373E-1   -1.755726044953862E-6    4.496257508341170E-7   -8.255883964449538E-7    3.520305549753726E-6    8.968655432503071E-1   -4.371020896828165E-1
 3.490513958125623E8     8.966465035695477E-1   -4.453936655290079E-1   -1.655867519627582E-6    1.847129080818220E-5   -3.130032045883356E-6    5.776249623591449E-6    8.906097293225564E-1   -4.495446425757600E-1
 3.590214356929212E8     8.913587673990785E-1   -4.579202589535677E-1    1.963727095962453E-6    5.035429492345223E-7    9.780341796158430E-6   -1.537577324148404E-5    8.845283574185692E-1   -4.621105351349866E-1
 3.689914755732802E8     8.860618881781437E-1   -4.701071244235674E-1    2.750018203527920E-7   -6.514123955295198E-6    4.526886047326519E-6   -1.079112241742883E-6    8.790377080743230E-1   -4.748045793986185E-1
 3.789615154536391E8     8.799947506808611E-1   -4.814095526643080E-1    8.266617709072882E-6    2.967157886506064E-6    1.328587830702527E-6    2.173328093312025E-6    8.738787065350881E-1   -4.868623435739105E-1
 3.889315553339980E8     8.741357846533681E-1   -4.920072870797617E-1   -7.630601316477236E-6    4.421272124521915E-6   -5.779642172812882E-6    9.934910762026185E-6    8.679515308110866E-1   -4.987792011691792E-1
 3.989015952143569E8     8.674317811813830E-1   -5.028040635371590E-1   -1.414304993579032E-5    6.451820024594448E-6   -1.473350426774432E-6    2.974425712083389E-5    8.611455628781201E-1   -5.097133017300491E-1
 4.088716350947158E8     8.603091246878246E-1   -5.136529582351620E-1    8.346847572234539E-6   -3.500259376149301E-6    9.370237912242519E-7   -1.044380313969752E-5    8.541917180197488E-1   -5.206482478522997E-1
 4.188416749750748E8     8.533010639381704E-1   -5.251701839481572E-1    6.933112800167068E-7    6.418380716122440E-6    6.548550626418797E-6   -4.857837157855891E-6    8.476439202602358E-1   -5.314617906688557E-1
 4.288117148554337E8     8.460277258155344E-1   -5.367867763552889E-1    7.299990050061782E-7    7.022027340912551E-7   -8.962417332798397E-6   -2.717779919907409E-6    8.405820941894425E-1   -5.417979736113615E-1
 4.387817547357926E8     8.382410706484180E-1   -5.481268391226198E-1    1.094102503775686E-5    6.809668985350544E-6    1.805624475181827E-5    2.844595489135468E-6    8.326221888618559E-1   -5.524144193743472E-1
 4.487517946161516E8     8.304840737752045E-1   -5.600671076876004E-1    9.133451017230691E-6   -4.133907571601520E-6    5.087736051353325E-6    2.143583080056616E-5    8.241299481400443E-1   -5.635029016494748E-1
 4.587218344965104E8     8.235605918559129E-1   -5.719894853458003E-1   -1.097306126775230E-5    3.053148586642903E-6    1.237745670137834E-5   -2.325637035514596E-7    8.160214596933384E-1   -5.753099727213908E-1
 4.686918743768694E8     8.170005138065822E-1   -5.833681790778594E-1    8.122533670294463E-6    2.415524189927374E-6   -3.001333386061960E-6   -9.803290850000497E-6    8.078704414002317E-1   -5.868594465077298E-1
 4.786619142572283E8     8.097582604587807E-1   -5.941828319978371E-1    1.420517731416133E-5    7.483368414957077E-6   -5.371446683594144E-6   -1.166423759964926E-5    7.992657574097322E-1   -5.981966939909235E-1
 4.886319541375872E8     8.023093506160005E-1   -6.046721007822197E-1   -6.036189131527088E-6   -5.784045237959574E-7   -2.960744965249496E-5   -1.966704562058471E-5    7.906385538541045E-1   -6.090390798336135E-1
 4.986019940179462E8     7.941032899236151E-1   -6.154562686255448E-1    5.496055627769974E-6   -5.164249217874992E-6   -1.766217580064597E-5    1.836345528104539E-6    7.823017583757662E-1   -6.196863838129641E-1
 5.085720338983051E8     7.855278215244038E-1   -6.245728602784409E-1   -9.956066220326082E-6    2.680930519429200E-6   -6.257813979065331E-7   -3.787083126558695E-7    7.746974144532833E-1   -6.303247937545395E-1
 5.185420737786640E8     7.781559228689989E-1   -6.335678514278691E-1    1.702622362986313E-6    1.103557567081946E-5   -7.997567620380448E-6   -1.823526719199622E-5    7.671139215919534E-1   -6.402142041822857E-1
 5.285121136590229E8     7.700103376960727E-1   -6.431766138303818E-1    6.810506954539009E-6   -9.855064084418627E-6    4.895925661546538E-6   -9.453590515057135E-7    7.589930266038177E-1   -6.497801184614895E-1
 5.384821535393819E8     7.613916130221537E-1   -6.531226237073241E-1    1.268176133879332E-5   -1.519804403080116E-7   -1.045955583690748E-5   -1.951315349179431E-6    7.508271167004166E-1   -6.594746242697100E-1
 5.484521934197408E8     7.532330698560480E-1   -6.637396062253568E-1   -5.789685776991346E-7    1.013972583785482E-5    2.840000638764764E-7   -7.946146537922697E-6    7.423949001794012E-1   -6.692555412687978E-1
 5.584222333000997E8     7.447467818615496E-1   -6.746829717366460E-1    4.459431343159494E-6    5.406884399455031E-6   -8.016572184253416E-6    5.338910871865253E-6    7.333990986094459E-1   -6.792438716826574E-1
 5.683922731804587E8     7.356029049996916E-1   -6.850622471422638E-1    6.367715592482466E-6   -2.208886358330145E-6   -8.246154144029191E-6    1.824833481282984E-5    7.232960102672392E-1   -6.893656497836017E-1
 5.783623130608176E8     7.263230244155175E-1   -6.951692877192091E-1    1.884154213609530E-6   -7.788783026631648E-6    1.040165634209751E-5    6.179382162229034E-6    7.126655192035088E-1   -6.990140722199603E-1
 5.883323529411764E8     7.171558482127551E-1   -7.051960979709767E-1   -2.446299272586296E-6    1.252448426760796E-5   -2.388681520983894E-5    9.668738543257762E-6    7.021261707978568E-1   -7.086952332108837E-1
 5.983023928215353E8     7.079195954907536E-1   -7.153199577424062E-1    2.322807315116334E-5   -1.349637913149823E-5   -3.281270609117311E-6    1.367391998652472E-5    6.919532633790012E-1   -7.183139915727366E-1
 6.082724327018943E8     6.982536280090758E-1   -7.248970267983494E-1    3.532268456549479E-6   -1.733702162846330E-6   -7.499720300103080E-6    9.199529326074900E-7    6.816953286775518E-1   -7.279404531397724E-1
 6.182424725822532E8     6.885074182893650E-1   -7.347468627991840E-1   -1.293746770053044E-5   -7.679709796731769E-6   -8.446875435740467E-6   -1.237887301073163E-5    6.717972182085892E-1   -7.373316385600949E-1
 6.282125124626122E8     6.780180538842741E-1   -7.440679936443955E-1    6.313243157997833E-6   -1.024955695506072E-5   -9.998069411931765E-6   -5.242107547089032E-7    6.628073186522331E-1   -7.468816897082655E-1
 6.381825523429711E8     6.683208664404130E-1   -7.511980675380394E-1    2.960586026205566E-6    1.392743892555572E-6   -6.823447688461326E-6   -6.683213440104633E-6    6.538533015375498E-1   -7.557990876629975E-1
 6.481525922233300E8     6.592291183397486E-1   -7.596023948590098E-1   -2.021285793877513E-6   -1.608206878775501E-5   -1.335733329381015E-5   -1.736198932192733E-5    6.446398379671743E-1   -7.642114532883947E-1
 6.581226321036890E8     6.496277225177265E-1   -7.685946581253702E-1   -5.993266385643592E-6    5.381861999081435E-6    2.211236166309544E-6    1.494304891603736E-6    6.345032638007715E-1   -7.724534871696488E-1
 6.680926719840479E8     6.397470041910662E-1   -7.772491442352910E-1   -1.945320587528846E-6    5.842095411520877E-6   -5.243732446197896E-6    7.411181522857887E-7    6.238943588604338E-1   -7.805314204006254E-1
 6.780627118644068E8     6.299798500972166E-1   -7.854862409549156E-1    9.278346426489673E-6    2.313999469938539E-5    7.796120008474404E-7   -1.265140538426076E-5    6.128385556775028E-1   -7.883948238509941E-1
 6.880327517447658E8     6.195135534730601E-1   -7.936660511488408E-1   -5.660729224960914E-6   -7.563972560535086E-6    5.264117765447096E-7   -7.398623029746653E-6    6.015832891513292E-1   -7.960859491706284E-1
 6.980027916251246E8     6.085504072883667E-1   -8.018098797064858E-1   -1.142079861000501E-5    1.346700003906693E-6    5.173374776560662E-7    2.294267654928384E-5    5.898952444053421E-1   -8.036261633474845E-1
 7.079728315054835E8     5.972575691224635E-1   -8.101544702750472E-1    2.788809908141896E-6    4.562063456437316E-8   -3.654125355584479E-6    3.483154850504521E-6    5.785351342035383E-1   -8.117808089814372E-1
 7.179428713858424E8     5.862064574469298E-1   -8.188576845223288E-1    7.617599442555199E-6   -3.246516511461171E-8   -2.698139087026836E-6    1.938845730693040E-5    5.672414940903659E-1   -8.202542318868851E-1
 7.279129112662014E8     5.751467938494657E-1   -8.272974778354674E-1   -7.710749459798147E-6    9.197938451183648E-7    7.593915545241838E-6   -2.328720477827684E-5    5.559117177905294E-1   -8.289925713586351E-1
 7.378829511465603E8     5.638387705979537E-1   -8.360745332558999E-1   -7.369001019822058E-6    1.512392575220654E-5    1.296674570041072E-5   -2.077468138494566E-5    5.446326173858721E-1   -8.373874759029575E-1
 7.478529910269192E8     5.517044647344389E-1   -8.444563444451190E-1    5.314875089799556E-6    3.933041408101163E-6   -6.817064844010592E-6    5.425798334741582E-6    5.333706298571788E-1   -8.451259752641399E-1
 7.578230309072782E8     5.391718260738999E-1   -8.516751542303130E-1   -9.555804049152473E-6   -1.692604185419048E-6    6.115379482047728E-6    6.629346954746142E-6    5.222248843791715E-1   -8.520152701707076E-1
 7.677930707876371E8     5.286976879046391E-1   -8.571150397220993E-1   -5.034683214457395E-6   -3.970263734433455E-6   -1.169158348719601E-6   -7.878395203433985E-7    5.109681407019397E-1   -8.584143275998460E-1
 7.777631106679960E8     5.191494866971621E-1   -8.639865035631116E-1    1.007097314487806E-5   -9.772817356407341E-6   -1.258590793258168E-5    9.050467591846099E-6    4.995158256458846E-1   -8.649852827710174E-1
 7.877331505483550E8     5.088335733847834E-1   -8.708948411933576E-1   -2.845547851238552E-7   -4.531663308005707E-6    1.449459474433379E-6   -7.430110605386606E-6    4.876727765972923E-1   -8.716167060102891E-1
 7.977031904287138E8     4.976294629735399E-1   -8.772118913898632E-1   -2.732393930172237E-6   -2.100501104867905E-5    1.239862433562851E-5   -3.506806402590786E-6    4.748060608736205E-1   -8.779555813237749E-1
 8.076732303090727E8     4.858004737048576E-1   -8.831632991330272E-1    8.004314569537233E-6   -7.701953061011194E-6   -2.028280093356914E-6   -1.549023819970909E-5    4.620100654308176E-1   -8.840413838788943E-1
 8.176432701894317E8     4.737834850862925E-1   -8.892612558753549E-1    5.316015554842638E-6    5.227289707961195E-6   -1.604469615380827E-5    7.436061882965429E-7    4.491188087400660E-1   -8.903892036337755E-1
 8.276133100697906E8     4.613697597120146E-1   -8.956481874165317E-1    2.273643433646560E-6    8.574273335395836E-6    2.924916711732106E-6    5.364430060248936E-6    4.365614950331693E-1   -8.971489510340133E-1
 8.375833499501495E8     4.488298182752747E-1   -9.020363235263753E-1    4.085875016775705E-6   -6.197438028925932E-6    1.789048481973447E-6    7.565495472470179E-6    4.243294220750447E-1   -9.038424117755267E-1
 8.475533898305085E8     4.360622446314112E-1   -9.084364458093195E-1   -9.506881890727670E-6   -7.516467563544387E-6    7.339548732699265E-6    2.987187871396660E-6    4.125246464798688E-1   -9.098888600845926E-1
 8.575234297108674E8     4.233023171899483E-1   -9.147506008044959E-1   -7.248534693500059E-6    7.671791243186856E-6   -8.421867600709862E-6    8.903579971635802E-6    4.007109730872381E-1   -9.152356789523128E-1
 8.674934695912263E8     4.104597782898330E-1   -9.214614478120681E-1   -1.890422429005478E-6   -1.265276510167784E-5    1.180529111002983E-5   -9.679260694855567E-6    3.886932045947309E-1   -9.200808291784639E-1
 8.774635094715853E8     3.973655010677660E-1   -9.280787555339154E-1    5.880436997837811E-6   -1.810642622215140E-5    2.276546094035110E-6   -1.285851496786666E-5    3.761038771237559E-1   -9.247671346394687E-1
 8.874335493519442E8     3.842759314208877E-1   -9.325869670873559E-1    6.489119472427324E-6   -4.829401819620238E-7   -2.836144467917587E-6   -3.380418141716410E-6    3.630374223733697E-1   -9.292461735066986E-1
 8.974035892323031E8     3.729283591883920E-1   -9.362452790037752E-1    6.464707298792072E-6   -4.630220307995094E-6   -1.130302179511503E-5   -1.958168592021834E-5    3.496289540915872E-1   -9.335346481059730E-1
