#  HZ   S   RI   R     50.00 
! Rohde & Schwarz Vector Network Analyzer 
! Rohde-Schwarz,ZNB20-2Port,1311601062102128,3.60
! Created: UTC 4/29/2024, 2:42:05 PM
! freq[Hz]                re:S11                  im:S11                  re:S21                  im:S21                  re:S12                  im:S12                  re:S22                  im:S22
 1.000000000000000E5     9.963033390751461E-1    3.230506963724315E-3    9.848506603942328E-5    8.276556770848004E-5    1.207951845089123E-5   -3.181417927722098E-5    1.010279917177870      -1.178811999386808E-2
 1.007003988035892E7     9.976945228927679E-1   -1.375635591205373E-2    1.088487363981463E-6   -1.753957592569021E-5    1.686615374730611E-5   -9.158346512433787E-7    9.960353798349602E-1   -1.451197115927648E-2
 2.004007976071785E7     9.997722198049434E-1   -2.727549579780826E-2    2.516782459141825E-5   -2.383768586598113E-5    6.791409358866063E-6    1.454221737038794E-5    9.988491936355767E-1   -2.773646696835688E-2
 3.001011964107677E7     9.978884603309608E-1   -4.098933502101652E-2   -1.343101179033429E-5   -1.641105348557883E-7   -5.400476666766024E-6    1.552374639869798E-5    9.975891173708262E-1   -4.201062247864838E-2
 3.998015952143569E7     9.976848616389503E-1   -5.305670011346134E-2    9.253561883130866E-7   -5.235145473412270E-7   -1.363797310666338E-5    6.286449475890968E-6    9.976259491387597E-1   -5.666008876487646E-2
 4.995019940179461E7     9.962142675245902E-1   -6.598077481267116E-2    7.329118228662097E-6   -1.235728232280969E-6   -4.368659593140197E-6    5.756574260096879E-6    9.965919200673107E-1   -6.910354065835660E-2
 5.992023928215354E7     9.942419672201094E-1   -7.887124641035957E-2   -2.488914158857807E-5    9.689358127708820E-7   -2.994127437389943E-6    1.808733614152838E-5    9.946706873401304E-1   -8.189319366461537E-2
 6.989027916251247E7     9.930261338456069E-1   -9.184622512122248E-2    8.730951515529486E-6    8.254129049366138E-6    3.914680809512973E-6    9.545676478455591E-6    9.935103634664607E-1   -9.463881314114506E-2
 7.986031904287139E7     9.924160705416749E-1   -1.052299525153162E-1    1.416446750962214E-5    2.641781106918691E-6   -5.703515930345894E-6   -1.172882219745198E-5    9.922774352794069E-1   -1.078650124840180E-1
 8.983035892323031E7     9.915105034088929E-1   -1.187914614619663E-1   -3.314681422974553E-6    6.197960980071441E-6   -6.795893291361385E-6    2.285847303013976E-6    9.908229614503274E-1   -1.210252204992975E-1
 9.980039880358922E7     9.895425358285573E-1   -1.323295911069655E-1   -5.302474175626571E-6    1.420593737294433E-5   -2.483904490519167E-6   -7.033582520825361E-6    9.886564584920432E-1   -1.343645590099507E-1
 1.097704386839482E8     9.865040670140875E-1   -1.455197229110848E-1    4.386086010134012E-6   -1.842466793060686E-6    9.901711498935756E-6   -5.551766672651756E-6    9.861068773533020E-1   -1.477470589895758E-1
 1.197404785643071E8     9.847129609237372E-1   -1.589754352157741E-1   -1.268014032690436E-6   -1.089148468892241E-5   -3.296922192555248E-6    5.887112288050551E-6    9.843555742544846E-1   -1.612161640450834E-1
 1.297105184446660E8     9.829758553273826E-1   -1.718349248769648E-1    4.839610755778416E-6    9.034618383393479E-6   -1.031878957904441E-5    5.498836563731259E-7    9.828851290984466E-1   -1.743900812914114E-1
 1.396805583250249E8     9.815403252205169E-1   -1.846705885472026E-1    4.572903035410799E-6    2.088417015971934E-6    6.214973806050813E-6   -3.075191092006618E-6    9.810737807212980E-1   -1.875587169063386E-1
 1.496505982053838E8     9.790889282083669E-1   -1.972056389882733E-1   -8.392597046019212E-6    5.463427321250950E-6    9.049146339333468E-6    1.802356313342293E-7    9.785079009695272E-1   -2.003380874441973E-1
 1.596206380857428E8     9.763100349599740E-1   -2.095605409069183E-1    4.990194023078080E-6   -2.806709971296102E-6    4.521192985026183E-6   -9.791465509727909E-6    9.758008614004404E-1   -2.133728356195131E-1
 1.695906779661017E8     9.731999622271954E-1   -2.223135174829492E-1   -1.974735036323297E-6    2.613957117059658E-6    4.416496698399655E-8    1.140413215349433E-5    9.729136634429816E-1   -2.261615246580071E-1
 1.795607178464606E8     9.707470125221964E-1   -2.349102740792246E-1   -1.308341177419646E-5   -7.805412214788107E-6   -2.574458267538129E-6    8.385361994874594E-7    9.701869771552155E-1   -2.380449527123187E-1
 1.895307577268195E8     9.678441013477942E-1   -2.471246125091409E-1    1.063738394914373E-5    1.608216574362466E-5    4.755949502009344E-6    8.352702487138979E-6    9.668581863175560E-1   -2.505847310430053E-1
 1.995007976071784E8     9.638380653204847E-1   -2.595883404244324E-1    1.580884297470211E-5    9.946433561700572E-7   -2.942151493910433E-6   -1.481259397224926E-5    9.628374613796116E-1   -2.632788501124352E-1
 2.094708374875374E8     9.604755367633658E-1   -2.723757430501342E-1    5.837611906444923E-6    2.511385175712783E-6   -9.028342089230181E-7    9.983321742739782E-6    9.590940581378640E-1   -2.762101754532105E-1
 2.194408773678963E8     9.572195077655279E-1   -2.850724694179489E-1   -1.743577658820058E-5   -4.166355703826960E-6   -5.485372752779078E-6    2.114848210765308E-5    9.551900615149472E-1   -2.891559403415070E-1
 2.294109172482552E8     9.536132241158572E-1   -2.974928104231188E-1    5.449336317598058E-7   -7.941816596923565E-6   -9.469321156771312E-7    1.107959695742864E-5    9.511131114710595E-1   -3.018790799649175E-1
 2.393809571286142E8     9.506981871320644E-1   -3.094657927175553E-1    1.012667608996045E-5   -6.701861576139133E-6   -1.973863926374341E-5   -1.578134729813633E-5    9.470223588739356E-1   -3.140851477458896E-1
 2.493509970089731E8     9.469441435645977E-1   -3.233492595907825E-1    1.120087647624510E-5    7.115991115745583E-6    1.322682898682488E-6    1.192223444545754E-5    9.440848445780705E-1   -3.276175225544165E-1
 2.593210368893320E8     9.426275975286030E-1   -3.354273707218305E-1    8.631280002007918E-7   -4.071994761575772E-6    1.175302036953834E-5   -8.124710685301182E-6    9.399614329102424E-1   -3.409525415384474E-1
 2.692910767696909E8     9.385775613395756E-1   -3.468690882476712E-1    5.257061716487338E-6   -9.402285438880791E-7   -1.342002211671407E-5    2.172986746861541E-5    9.356282012983546E-1   -3.529296209800092E-1
 2.792611166500499E8     9.338531342020020E-1   -3.585048662146106E-1    5.629262837438365E-6   -6.032558850323255E-6   -4.944317165202155E-7    3.211051222573972E-6    9.309778716321209E-1   -3.646277447931249E-1
 2.892311565304088E8     9.289766220441026E-1   -3.705202103604371E-1   -6.329057073371586E-6   -1.000108151092704E-5   -3.756365267582410E-6    3.739319682063860E-6    9.261988805336046E-1   -3.768500180221406E-1
 2.992011964107677E8     9.240744207546009E-1   -3.827443685320956E-1    2.226546332739827E-5    1.306417923541596E-6    1.375147318117352E-5   -1.025277996480612E-5    9.211957893201337E-1   -3.886680037633110E-1
 3.091712362911266E8     9.188347422433277E-1   -3.949738867323717E-1   -8.924585544389893E-6   -1.392201676812963E-6   -1.262589650522605E-6    7.949407911086805E-6    9.157170146441892E-1   -4.001608794461521E-1
 3.191412761714855E8     9.132206273598690E-1   -4.073570833309179E-1   -5.466760510294602E-6    2.017967280161559E-7    2.290767997873512E-5    2.349286022753783E-5    9.097145400566788E-1   -4.119671594427147E-1
 3.291113160518445E8     9.075512942775062E-1   -4.200985301395755E-1    2.212507911917710E-6   -1.098132128453451E-5   -3.756236981465370E-6   -7.782756276331928E-6    9.033201448718965E-1   -4.243864888565355E-1
 3.390813559322034E8     9.020366529738146E-1   -4.328364723176606E-1    2.071948707291423E-5    5.658958210229001E-6   -7.776490637732907E-6   -2.943433758268127E-6    8.969743013982525E-1   -4.370084713261245E-1
 3.490513958125623E8     8.967130332176061E-1   -4.453447750713357E-1    8.143260616701100E-7    7.380169713819347E-6    6.377559732637599E-6    6.002464473136575E-6    8.906044791909359E-1   -4.495166484419060E-1
 3.590214356929212E8     8.912063341713271E-1   -4.579378853166659E-1    4.930106619143652E-6    3.246602839038232E-6   -1.091913673629006E-5   -1.219536839172537E-5    8.845602021220742E-1   -4.621667193354919E-1
 3.689914755732802E8     8.858976049615593E-1   -4.700940060385448E-1   -2.687872627588386E-7    6.689580535307113E-6    1.599630982979199E-6   -1.030137386313609E-5    8.790569896135846E-1   -4.747499032653905E-1
 3.789615154536391E8     8.798229836447626E-1   -4.814120743536596E-1   -2.876658680085142E-6   -6.400434647251821E-6   -1.678633014414888E-6   -1.178072146189936E-5    8.738477175735131E-1   -4.867329370397082E-1
 3.889315553339980E8     8.742168670503043E-1   -4.920478799829930E-1   -2.316633493151577E-5   -1.474127369094397E-5   -1.430425330260874E-5    1.479958212110795E-5    8.680151826112869E-1   -4.987557943703136E-1
 3.989015952143569E8     8.674479779587105E-1   -5.027566187793023E-1    8.056947661972375E-6   -2.151046490415552E-6   -1.665253895514036E-5    1.436428468094470E-5    8.612130071859913E-1   -5.097661982353787E-1
 4.088716350947158E8     8.601817057320107E-1   -5.135493671350915E-1   -5.711807495076360E-6   -4.659185541298345E-6    1.417106621096937E-6   -7.030967550727634E-6    8.542411678844704E-1   -5.206769835227217E-1
 4.188416749750748E8     8.533033420156617E-1   -5.252229164570723E-1   -3.166747323806062E-6   -7.771817146217904E-6   -8.838046104573373E-6   -2.986749544677677E-6    8.476699901935884E-1   -5.314215840421064E-1
 4.288117148554337E8     8.461123331364132E-1   -5.368148737575831E-1    9.228110437217553E-7   -7.014546560706146E-7   -7.293302688271523E-6   -2.445847972943176E-6    8.406414837051002E-1   -5.419222673534515E-1
 4.387817547357926E8     8.381486215639387E-1   -5.482069172174080E-1   -9.167413835423102E-7    8.107860743726489E-6   -1.199240596215863E-5   -7.292839195890259E-6    8.326621249695267E-1   -5.523198430912648E-1
 4.487517946161516E8     8.304322329331230E-1   -5.599505062902290E-1    7.877994449308725E-6    4.866301713569753E-6    1.217884010117192E-6   -2.933289899143398E-6    8.242706614046205E-1   -5.635812423381460E-1
 4.587218344965104E8     8.235571849605640E-1   -5.720200535039265E-1   -4.254632404011389E-6    3.724555923376912E-6    2.092698021851616E-6   -1.576923717479871E-5    8.159914463457550E-1   -5.753673386854030E-1
 4.686918743768694E8     8.170737123318096E-1   -5.834350048182488E-1    5.883483477547417E-6   -1.214777184656758E-5   -6.176753103943481E-6   -1.812540846428986E-5    8.078164992512427E-1   -5.869287499198613E-1
 4.786619142572283E8     8.098287136084997E-1   -5.942894482700308E-1    9.715022590982834E-6   -1.438780385883072E-5   -8.507374777148316E-6   -1.313075407467440E-5    7.993839617508798E-1   -5.980992207954750E-1
 4.886319541375872E8     8.022079423475081E-1   -6.046107955283410E-1   -9.335791628765552E-6   -1.193247162643152E-5   -6.756560646241202E-6    8.825409061017367E-6    7.905243992150636E-1   -6.089071042161760E-1
 4.986019940179462E8     7.939400227539424E-1   -6.154047447813310E-1    5.543498055388403E-6   -3.301156276250624E-6    2.333813437785846E-6    5.238148302479095E-6    7.823028260438680E-1   -6.197493714603822E-1
 5.085720338983051E8     7.855887638644951E-1   -6.246187035842652E-1    3.200789411080135E-6    5.968055396433545E-6   -4.629797388557697E-6    5.241496494417031E-6    7.747698442895689E-1   -6.304031048820039E-1
 5.185420737786640E8     7.783146430546749E-1   -6.336622857208858E-1    8.904464935574100E-6   -6.238524406780434E-6    6.636434311169192E-6   -1.326234657003143E-5    7.669415131187027E-1   -6.401285466281713E-1
 5.285121136590229E8     7.699777415644006E-1   -6.431782124011849E-1   -5.212554858197454E-6    4.120161155466934E-6    3.778177487851765E-6    4.196167710538785E-6    7.589690912267845E-1   -6.496947659433170E-1
 5.384821535393819E8     7.613506684671326E-1   -6.531395390563390E-1    3.837873804424798E-6   -9.770170291668155E-6   -5.913989878835336E-6   -1.271607753009776E-5    7.509188792600032E-1   -6.594105736538225E-1
 5.484521934197408E8     7.531865332267115E-1   -6.637774040755641E-1   -1.205042714058468E-6   -1.691569177162570E-5   -1.730260582369326E-5   -1.643044236259102E-5    7.424630230542938E-1   -6.693167169514834E-1
 5.584222333000997E8     7.447873147799422E-1   -6.747382499556036E-1    5.659758825690520E-6   -4.411961703135485E-6   -1.016081353294765E-5   -1.827620741852359E-5    7.333191693736787E-1   -6.792289460537065E-1
 5.683922731804587E8     7.356169592640178E-1   -6.851880084466566E-1   -2.492031105830446E-5   -8.545018577459604E-6   -1.908425168583077E-6   -7.331853753908171E-6    7.231176171511886E-1   -6.891538351654753E-1
 5.783623130608176E8     7.262236522483932E-1   -6.950133373709575E-1    1.165564100486759E-5    3.427891853247351E-6   -4.988427227424607E-6   -5.824295372625791E-6    7.126192356870679E-1   -6.989927018393138E-1
 5.883323529411764E8     7.169551532472649E-1   -7.050651844502133E-1   -1.777934299970757E-5    7.863271283042096E-6   -4.330950218012025E-7    1.438625931461793E-5    7.022495127761184E-1   -7.088271766424166E-1
 5.983023928215353E8     7.078960090904571E-1   -7.152210796531883E-1    1.243952990265486E-6   -8.073986548198840E-6   -7.516803865925747E-6   -1.583910074552783E-5    6.919428766467162E-1   -7.183841938913177E-1
 6.082724327018943E8     6.984185238078583E-1   -7.250259265897500E-1   -1.982059240503157E-6    6.824309791371870E-6    8.526342330137754E-6   -3.865137693244460E-6    6.816341340638196E-1   -7.279180354173798E-1
 6.182424725822532E8     6.885102793174337E-1   -7.347243423748602E-1    1.775873555327186E-5   -2.916202849521398E-6    1.280334361177739E-6   -1.196389384222372E-5    6.717125300957866E-1   -7.373323989918875E-1
 6.282125124626122E8     6.779866074871690E-1   -7.439349006649086E-1    1.246984884289709E-6   -1.188509100107282E-5   -1.968574089771586E-6   -1.523173255193901E-5    6.629547340528187E-1   -7.469876692903052E-1
 6.381825523429711E8     6.682568298549220E-1   -7.512095404479796E-1   -6.506303076786035E-6    6.677543434025715E-6   -4.302940445130414E-6   -2.938176976989134E-6    6.538495065724867E-1   -7.558840989045259E-1
 6.481525922233300E8     6.593211077667941E-1   -7.597467549699604E-1   -1.006004101273368E-6   -5.605897911251558E-6   -4.960312900904183E-6    6.701410247922088E-6    6.446034946586585E-1   -7.641929090837375E-1
 6.581226321036890E8     6.496412600195615E-1   -7.685783163865114E-1    1.504804745266130E-6    9.093008512381313E-6    9.640570603755442E-7   -9.410947631084119E-7    6.345214754157028E-1   -7.725363118436507E-1
 6.680926719840479E8     6.396134353403616E-1   -7.771571896041927E-1   -8.861784821892369E-6    1.026412548984096E-5   -1.722381192284930E-6   -2.153771454306596E-7    6.239858193241575E-1   -7.805198797781960E-1
 6.780627118644068E8     6.297558792318925E-1   -7.853337496175374E-1   -1.227790470825567E-5    1.442237334330375E-5    2.307523605199296E-5   -1.306560825168091E-5    6.129466540199086E-1   -7.885362041990331E-1
 6.880327517447658E8     6.195489234293580E-1   -7.937033704228598E-1   -5.674528901050519E-6    9.125692312862720E-7    7.820700012273114E-6    1.189444661986596E-5    6.014776581997768E-1   -7.960718469662144E-1
 6.980027916251246E8     6.085424196418577E-1   -8.018397666939062E-1   -9.924127010313501E-6   -1.986076605586386E-6    6.603638619718345E-6   -5.128339775925211E-6    5.900118534428951E-1   -8.037239300217269E-1
 7.079728315054835E8     5.972562457522731E-1   -8.101914545596718E-1    1.499821331974491E-5   -9.771885489291641E-6   -1.380657652398423E-5    1.123956252880522E-5    5.785242004915269E-1   -8.118041835836196E-1
 7.179428713858424E8     5.860615639545788E-1   -8.186751765961588E-1   -4.296531487956718E-6   -1.609084767965997E-5   -3.320936901840120E-6   -1.712656730425024E-6    5.672944805756135E-1   -8.203853619673478E-1
 7.279129112662014E8     5.750243072954623E-1   -8.272456750034931E-1   -4.484893501323878E-6   -1.815400337352430E-6    9.559407305325033E-7    7.651374183860165E-6    5.559799565261048E-1   -8.291199968856013E-1
 7.378829511465603E8     5.637720436196696E-1   -8.360468908956943E-1   -1.117779213781197E-6    2.828768107929202E-6   -1.220203321449418E-5    1.277483422810308E-5    5.445938106515756E-1   -8.374511480392465E-1
 7.478529910269192E8     5.517938566871110E-1   -8.444868737867025E-1   -6.199822730564877E-6    8.803152519247895E-7    1.221497587974437E-5   -5.233426299046056E-6    5.333905333182734E-1   -8.451771922780436E-1
 7.578230309072782E8     5.390718865374373E-1   -8.516839794670059E-1   -4.813341023190272E-6    3.658074998673854E-6    9.787696251826399E-6    8.350431888606680E-6    5.223155771291200E-1   -8.520403597625629E-1
 7.677930707876371E8     5.287536961658748E-1   -8.570060799325547E-1    4.920586625367531E-6   -1.007963814122941E-5   -4.728237637998324E-6   -3.744520810090339E-6    5.110242145411573E-1   -8.584956152941291E-1
 7.777631106679960E8     5.190932533923626E-1   -8.639669656447245E-1    1.144420571253365E-6   -1.123936816165686E-5   -1.393584991367772E-5    4.703857795502754E-6    4.995591150244030E-1   -8.648948895582833E-1
 7.877331505483550E8     5.086899463461383E-1   -8.709075142100725E-1   -7.309322217242576E-6    2.823680488789376E-6    4.669116411228271E-7   -3.530733026338767E-6    4.877103131883630E-1   -8.716593936716422E-1
 7.977031904287138E8     4.975807421927748E-1   -8.773046362516660E-1   -3.259829893831661E-6   -1.492175442784045E-6   -1.667071206573844E-5   -5.012389902053791E-6    4.750005818741132E-1   -8.781217720800375E-1
 8.076732303090727E8     4.857866320342621E-1   -8.831357437956472E-1   -1.161871965901039E-6   -3.526505762805027E-6    8.688735677689498E-6    1.581867653255170E-5    4.620085510981455E-1   -8.842617882745865E-1
 8.176432701894317E8     4.737754901011260E-1   -8.891432947464729E-1    2.385963855968633E-5   -3.667427889416437E-6    3.352449868555580E-6    8.059298077050317E-6    4.491415362971845E-1   -8.904587271198090E-1
 8.276133100697906E8     4.614868081038536E-1   -8.955675785957329E-1    2.293318913395373E-6   -2.668115047661329E-6    2.214700884669433E-6   -9.327388844152451E-6    4.366158759608972E-1   -8.972487974369491E-1
 8.375833499501495E8     4.487672369377221E-1   -9.020635155168094E-1    5.468396188327784E-6    6.579601564072544E-6   -3.792877153680567E-6    8.463696435980798E-6    4.242705524706605E-1   -9.039095042737122E-1
 8.475533898305085E8     4.360266109172884E-1   -9.084898160502768E-1   -9.275800009769573E-6   -5.851394271232696E-6    7.563612991955289E-6   -7.409220706218720E-6    4.125467226323978E-1   -9.099370127836465E-1
 8.575234297108674E8     4.232903955332224E-1   -9.147509132819469E-1    1.634624048802752E-5    2.718817757184822E-6    6.133989149453011E-6    6.754494846358693E-6    4.007030567237156E-1   -9.152769755640906E-1
 8.674934695912263E8     4.104040229691341E-1   -9.214071156292040E-1    2.074152663833746E-6    5.060760124987151E-6    9.159015039536317E-6   -3.074126939041206E-6    3.886608284707854E-1   -9.200583410451670E-1
 8.774635094715853E8     3.973047288391690E-1   -9.279527518114674E-1   -7.094046176219365E-6   -7.765226234774169E-6    3.303196499968697E-6    2.909323386070793E-6    3.760466186225774E-1   -9.248196108446334E-1
 8.874335493519442E8     3.843088813034510E-1   -9.327204496150004E-1   -9.369207931732482E-6   -1.896983447699791E-5    5.296967230322356E-7   -9.738646394843098E-6    3.630029620543027E-1   -9.292786915807605E-1
 8.974035892323031E8     3.730104813193410E-1   -9.362482448278776E-1   -1.453156883267469E-5    1.430809440981831E-5    1.016035714985726E-5   -8.138149556638462E-6    3.495113010383762E-1   -9.335578621524570E-1
