#  HZ   S   RI   R     50.00 
! Rohde & Schwarz Vector Network Analyzer 
! Rohde-Schwarz,ZNB20-2Port,1311601062102128,3.60
! Created: UTC 4/29/2024, 2:42:09 PM
! freq[Hz]                re:S11                  im:S11                  re:S21                  im:S21                  re:S12                  im:S12                  re:S22                  im:S22
 1.000000000000000E5     9.958022380096109E-1    3.355514765463102E-3   -1.320731123235644E-5    5.903920596224523E-5   -9.494161901807437E-5    2.790684373388127E-5    1.010319771871452      -1.187238032950630E-2
 1.007003988035892E7     9.980831779940882E-1   -1.392456552357074E-2   -1.586790476966586E-6    7.960510170917139E-6   -4.940820253258207E-6    4.852563735224415E-7    9.958137883238525E-1   -1.446800189540039E-2
 2.004007976071785E7     9.999387770809425E-1   -2.709305277110814E-2   -1.692086399613252E-6    1.696953029845868E-5   -1.504161205569551E-5    1.015804264114887E-5    9.988548587050379E-1   -2.760880029691632E-2
 3.001011964107677E7     9.982464367714021E-1   -4.096485889643702E-2    1.376743242110376E-5    1.119874428269303E-5    7.867058566600132E-6   -5.581417279156821E-6    9.977077124364020E-1   -4.198527937347661E-2
 3.998015952143569E7     9.976337534624006E-1   -5.315882590995644E-2   -9.334427027510160E-6    2.253349109072235E-5    1.310206395297058E-5   -1.228452659860929E-5    9.977554567268054E-1   -5.668932172658914E-2
 4.995019940179461E7     9.958507958520673E-1   -6.606037483800217E-2    1.644845448964579E-5   -1.719409838208695E-6   -3.705555608259671E-6    1.780915937887866E-5    9.965921959326168E-1   -6.901324113527726E-2
 5.992023928215354E7     9.941143716063758E-1   -7.893420145645294E-2   -2.036711233689747E-5    2.826214796926433E-6    2.576392422444563E-5   -2.922708428885481E-6    9.946507295916307E-1   -8.181665403682141E-2
 6.989027916251247E7     9.932375798667799E-1   -9.190533753875804E-2   -8.996557594050820E-6   -2.080855676990559E-5    2.600192375733824E-5    3.660768404393737E-6    9.935714161668131E-1   -9.461826924798400E-2
 7.986031904287139E7     9.927006345416797E-1   -1.052626365426228E-1   -6.510061872313618E-6    1.044080048306311E-5   -1.459928289552872E-5    1.879284821485332E-7    9.923568599185700E-1   -1.077910051561871E-1
 8.983035892323031E7     9.916322042289584E-1   -1.187473000333363E-1   -1.082395878739144E-5   -8.575347654232325E-6    1.548425467768785E-5    2.582960918002169E-6    9.909116488339703E-1   -1.210314548354503E-1
 9.980039880358922E7     9.892768343064083E-1   -1.323257513378174E-1   -1.339360577597643E-6   -9.986815263784032E-6   -2.036974142451316E-5    1.510829479896385E-5    9.885228528786448E-1   -1.344524809744765E-1
 1.097704386839482E8     9.865260469709901E-1   -1.455020380856478E-1    1.031206421639090E-5   -1.084632712443025E-5   -1.130628621990054E-5   -5.016028822812335E-8    9.861400902903692E-1   -1.476613278008820E-1
 1.197404785643071E8     9.849253266728958E-1   -1.588830718593943E-1   -3.227306792445417E-6   -1.537907646369369E-5    4.973121922062347E-6   -9.858173886118573E-8    9.843940476077240E-1   -1.610939993774735E-1
 1.297105184446660E8     9.831287437204478E-1   -1.719030660745104E-1   -7.803136866392228E-7    1.464381326838953E-5   -3.253923421653022E-6    5.410018829440275E-7    9.828588830819039E-1   -1.744072222206704E-1
 1.396805583250249E8     9.817716227752082E-1   -1.847886773792846E-1   -1.385092378392576E-5   -5.465234060671391E-6    9.668145001426216E-7    6.201071296335111E-6    9.809880554935222E-1   -1.875715216451078E-1
 1.496505982053838E8     9.789976985490882E-1   -1.971884638286570E-1   -9.141870499034256E-7   -5.019795861662026E-6    4.526208856651840E-6   -7.044783005890829E-6    9.785643643439963E-1   -2.003159333432566E-1
 1.596206380857428E8     9.761448707308111E-1   -2.095392327011977E-1   -3.041386790045761E-6    5.374545898618569E-7   -1.782443366495425E-5    3.295360983266125E-7    9.758172329206487E-1   -2.132919028205132E-1
 1.695906779661017E8     9.732496405104063E-1   -2.223488524663118E-1   -2.106816978616844E-5   -3.973618683462296E-6   -8.653047215902679E-6    1.396185075686280E-5    9.728392210719867E-1   -2.262112064953880E-1
 1.795607178464606E8     9.708700719952705E-1   -2.347938130592441E-1   -6.570232916281603E-7    7.566095910387568E-7   -8.570003452092972E-6    1.167999435398149E-5    9.701928205188559E-1   -2.380548893184372E-1
 1.895307577268195E8     9.678817687530262E-1   -2.471554244878033E-1    9.040128105871144E-6    1.193109628827804E-5    1.010058921367334E-5    4.477657194713475E-6    9.669043464885131E-1   -2.505017162240259E-1
 1.995007976071784E8     9.638482296997692E-1   -2.595441171083450E-1    4.407064727747995E-6   -1.295010773387256E-5    1.295431053597932E-5    4.200256757878092E-6    9.628779244816772E-1   -2.631984690071203E-1
 2.094708374875374E8     9.605055944529862E-1   -2.724464104550878E-1    6.512680764512656E-6    5.101042585350928E-6   -6.405702666418969E-7   -1.672300565239827E-5    9.589012784597125E-1   -2.761374346018045E-1
 2.194408773678963E8     9.574017119721818E-1   -2.852195355779285E-1    5.064120031814347E-6    6.308106652286346E-6   -4.287418104346299E-7    1.741021895778602E-6    9.550784975853832E-1   -2.891393709567762E-1
 2.294109172482552E8     9.536959736302200E-1   -2.975538311278818E-1    1.024067556477713E-5    9.605967865999820E-6    9.677909865657474E-6   -8.902922431186348E-6    9.511009568406645E-1   -3.018043479486876E-1
 2.393809571286142E8     9.506738956836924E-1   -3.095655795893128E-1   -5.989061024934098E-6    1.941560986372439E-6   -2.311342340318718E-6   -3.427585001907090E-6    9.470674590351572E-1   -3.140256982511990E-1
 2.493509970089731E8     9.469847190144574E-1   -3.234763699959535E-1   -1.641192354147298E-5   -2.855175251931534E-6    1.470612991029934E-6    2.901287757287566E-6    9.441076745032260E-1   -3.275986711907432E-1
 2.593210368893320E8     9.427336239287856E-1   -3.354747901125329E-1    1.046896384053620E-5   -3.946713665494124E-6   -1.144369897844275E-5    1.254595448292414E-6    9.397597470021524E-1   -3.409265963314871E-1
 2.692910767696909E8     9.386365335278756E-1   -3.469938370143138E-1   -1.266567484650787E-6    2.077670002617177E-6    7.565935984960539E-6   -7.745641513929583E-6    9.355428417311484E-1   -3.528450648331651E-1
 2.792611166500499E8     9.339175472780047E-1   -3.585158011746810E-1    1.370030988439987E-5   -4.289571665356921E-6   -7.312055984197542E-6    5.711621851251942E-7    9.310632262720808E-1   -3.647521151839648E-1
 2.892311565304088E8     9.290769102780134E-1   -3.705491259725177E-1   -2.278929749376545E-5    7.384757402994696E-6    3.797030500474277E-6   -7.831951834317675E-7    9.262258324957672E-1   -3.768694660655897E-1
 2.992011964107677E8     9.241561132555265E-1   -3.827658356977310E-1   -1.176487105810988E-5    3.243941867773576E-6    1.358134279171507E-5   -1.210290822369547E-5    9.211764351194928E-1   -3.887103408449102E-1
 3.091712362911266E8     9.188685982434945E-1   -3.951151615469102E-1   -7.026772172912431E-6    4.199674741448547E-6    5.390405115102818E-6    4.673722178550523E-6    9.157614017510355E-1   -4.002441533530297E-1
 3.191412761714855E8     9.132914828998929E-1   -4.073839641247852E-1   -4.236714115590185E-6    4.073469545095888E-6    1.173573663445166E-5    3.742656774404934E-6    9.097100628852994E-1   -4.120030172414675E-1
 3.291113160518445E8     9.075749535466505E-1   -4.200696152057997E-1    3.150507175872907E-6    1.171087592462035E-5   -1.861199162335046E-5   -1.252321075385613E-5    9.035089676772101E-1   -4.244504690547830E-1
 3.390813559322034E8     9.021144392439593E-1   -4.329353413930606E-1    1.092937332375270E-5   -8.076784366655587E-6   -1.225457604952608E-5   -6.915729889255862E-6    8.968825446127183E-1   -4.370400999770790E-1
 3.490513958125623E8     8.968008355236271E-1   -4.454371465904286E-1   -8.794924672303655E-6   -6.167224194409431E-6    1.606067137869545E-6    3.746057700967486E-6    8.904474183100024E-1   -4.494584026076539E-1
 3.590214356929212E8     8.913663144644983E-1   -4.579680058524206E-1    8.516937758995454E-6   -1.363246038233942E-6    1.018067151204320E-5   -4.799226910037402E-6    8.845748172204317E-1   -4.621099778627786E-1
 3.689914755732802E8     8.859403182302407E-1   -4.701429420602897E-1    1.317490045166917E-5    1.408549176482050E-5    4.803707933216675E-7    3.524359187053775E-6    8.791135427357932E-1   -4.748701435447489E-1
 3.789615154536391E8     8.798592003002890E-1   -4.813523216409402E-1    5.168284771368318E-6   -1.524417226827226E-6    7.802030395805685E-6    1.597548777758804E-5    8.739273127733722E-1   -4.868463605207307E-1
 3.889315553339980E8     8.742402669503925E-1   -4.921365166123864E-1    1.141620612648693E-6   -1.492559396929875E-6    1.270458946622952E-5    7.803458279136790E-6    8.679754843226165E-1   -4.988259773902918E-1
 3.989015952143569E8     8.675044902468374E-1   -5.028944378005548E-1    7.938164142203020E-6   -4.194837902030065E-6    1.724921732893083E-5   -1.129949250608320E-5    8.610911839608127E-1   -5.097641924527355E-1
 4.088716350947158E8     8.601960682994672E-1   -5.136886881023625E-1   -4.485900774685748E-6   -1.339600738798955E-5    2.046801123945292E-6   -9.428663114835427E-6    8.541509512048574E-1   -5.206751229072890E-1
 4.188416749750748E8     8.532705390980133E-1   -5.252109987065565E-1   -7.914610337528771E-6    4.922259833074752E-6   -1.768569431415267E-6   -1.844285538072212E-6    8.477279666907548E-1   -5.315571086887149E-1
 4.288117148554337E8     8.459529975734773E-1   -5.368377832577106E-1    3.503879529376860E-6    2.638261396952360E-6    5.908289587019927E-6   -5.970137249451022E-6    8.407699160378497E-1   -5.418591214379235E-1
 4.387817547357926E8     8.382158643605975E-1   -5.482592830081892E-1    4.513748128892724E-6    3.110326722735345E-6    4.824964032093184E-6    3.168862730624922E-6    8.326410988779397E-1   -5.523846928704871E-1
 4.487517946161516E8     8.305935598652406E-1   -5.601450014141188E-1   -1.390416894902167E-6   -4.791172070330748E-6   -5.193508704083818E-6    1.244326746873508E-6    8.241693541184418E-1   -5.635632945557417E-1
 4.587218344965104E8     8.236184861895482E-1   -5.720989947180836E-1    2.728317727636758E-6    1.042105014056392E-5    7.217819289905175E-6   -5.921709414567433E-6    8.159872017653204E-1   -5.753927524399748E-1
 4.686918743768694E8     8.169556063104348E-1   -5.834674168167545E-1   -1.488713730776140E-6    7.491976790449904E-6    7.643510684816561E-6   -4.097117499224514E-6    8.078334951230075E-1   -5.868284367740668E-1
 4.786619142572283E8     8.098392155816053E-1   -5.942957127875070E-1    3.262128519416552E-6   -2.446709589789056E-6   -4.491127367454587E-6   -1.979801921565298E-5    7.994054406847254E-1   -5.982017767671811E-1
 4.886319541375872E8     8.022422520481223E-1   -6.048340321653457E-1    3.535278240799837E-6   -1.265915370078590E-5    1.954792746802941E-5   -2.496667016927343E-6    7.906366067217472E-1   -6.089023077982550E-1
 4.986019940179462E8     7.940067515697821E-1   -6.155342380354457E-1    1.377709744802611E-5   -4.555762954199447E-6   -2.545660045065420E-6    1.903884478496686E-6    7.822855569873510E-1   -6.196288552583805E-1
 5.085720338983051E8     7.855157657170502E-1   -6.246394300658907E-1    2.759722056922575E-7    6.078393003709447E-6   -2.648988238039635E-7   -7.956462396738040E-6    7.746884215212397E-1   -6.303511369711546E-1
 5.185420737786640E8     7.782048892832713E-1   -6.335503410050697E-1    3.678292600684831E-6    3.316747308296638E-6    1.772377837238281E-5    1.137310471661924E-5    7.670547763048685E-1   -6.402402339789944E-1
 5.285121136590229E8     7.700098726953022E-1   -6.431415205203527E-1   -1.538658942206055E-5    7.585989342360308E-6    1.385867145771398E-5   -5.135228295369811E-6    7.590299144714151E-1   -6.497558148272388E-1
 5.384821535393819E8     7.615243209026948E-1   -6.532306496782195E-1    2.623751553434939E-6   -7.705230438195518E-6    1.569228578268440E-5    8.292592871218132E-6    7.508403549421403E-1   -6.593429959165024E-1
 5.484521934197408E8     7.531951486509744E-1   -6.638130605216039E-1    7.092351410728242E-6   -7.726931256343729E-6    1.148914511848929E-5   -2.231366182012826E-5    7.424407712690658E-1   -6.693020466665658E-1
 5.584222333000997E8     7.446192088647883E-1   -6.747150431552059E-1   -1.370334164563286E-5   -2.055508818374860E-6    7.094276996079315E-6   -5.874183539047269E-6    7.333491935220713E-1   -6.792675217498566E-1
 5.683922731804587E8     7.356076142573714E-1   -6.851542979901371E-1   -1.494026312718244E-5   -7.995452238896697E-6    1.255165956956878E-5   -2.696687124182509E-5    7.232392166963527E-1   -6.893145551653113E-1
 5.783623130608176E8     7.263051189764811E-1   -6.951535114119397E-1    4.153766834430323E-6    3.144965584656970E-6   -2.787852356092907E-7   -7.563402714268708E-6    7.127208194841306E-1   -6.990565949662670E-1
 5.883323529411764E8     7.170172192742106E-1   -7.052307530658845E-1    6.008424203826745E-6    4.848355825066442E-6    8.139091475499155E-7   -4.257476097146205E-6    7.022722240447087E-1   -7.087680867217264E-1
 5.983023928215353E8     7.078200773784032E-1   -7.153563293915832E-1   -1.005499523166145E-5   -3.268137946249286E-6    6.305739416923457E-6   -9.215037388378882E-6    6.918766435450293E-1   -7.184102292999581E-1
 6.082724327018943E8     6.983071663318277E-1   -7.250530855277835E-1    2.714891696882126E-7   -6.561240351915449E-8   -6.972826807147943E-6   -1.338829866525467E-6    6.818279977737839E-1   -7.277965869769982E-1
 6.182424725822532E8     6.884980587556888E-1   -7.347656239475061E-1    1.602531538896552E-7    1.329930359391075E-5    7.822698514757975E-6   -1.223295050328970E-5    6.717827711649608E-1   -7.373377094671585E-1
 6.282125124626122E8     6.779256379273269E-1   -7.440951579280117E-1    1.825657522631617E-6   -7.568494550506071E-6   -1.832860434717646E-5   -7.814688263947825E-6    6.627570621831714E-1   -7.470302615022832E-1
 6.381825523429711E8     6.682410412636548E-1   -7.511681290180947E-1    7.551943114509850E-6    1.566213965737449E-5    5.163861062846133E-6    5.262040218500399E-6    6.536738811107685E-1   -7.557500420529583E-1
 6.481525922233300E8     6.593096103086060E-1   -7.597592526716532E-1    5.507658552696468E-6   -2.143848381127036E-6    2.050752543928859E-5    9.970039151563186E-6    6.446586578650781E-1   -7.642446663520986E-1
 6.581226321036890E8     6.496294472116920E-1   -7.687108437925020E-1    5.566556067866423E-6   -4.246457195645700E-6    3.976000480131542E-6   -9.960116173687086E-6    6.345357725141266E-1   -7.724618236953985E-1
 6.680926719840479E8     6.397430046634290E-1   -7.772995127342440E-1   -1.379729887225065E-6   -8.181123565852097E-6    2.639235669664328E-5    7.849345060856874E-6    6.239554949954155E-1   -7.804787009103270E-1
 6.780627118644068E8     6.298155535454779E-1   -7.854135912786524E-1   -2.979059073465409E-6   -8.321095472260277E-6    2.966446732415291E-6   -4.628887753439878E-6    6.128648709073845E-1   -7.884389240960991E-1
 6.880327517447658E8     6.194792945462851E-1   -7.936451894713449E-1    2.170242808254962E-6    3.123438372772546E-8    1.692595097846112E-5   -8.419400231855421E-6    6.014868088807587E-1   -7.960584021050271E-1
 6.980027916251246E8     6.085748994467145E-1   -8.019638899167912E-1   -1.298386948837690E-5   -6.083930021172667E-6    1.255482985292603E-6   -4.573061975505506E-6    5.900810028386642E-1   -8.037153660199410E-1
 7.079728315054835E8     5.972891189201905E-1   -8.104178154359502E-1    1.909741923003510E-5   -1.240424813152541E-5   -3.036177136299441E-6   -3.138150745992332E-6    5.785160969662787E-1   -8.117083058464979E-1
 7.179428713858424E8     5.860455520023352E-1   -8.187644218986406E-1   -9.581299573262923E-6   -6.107243903780712E-6   -8.156436619553156E-6   -5.923885842007570E-6    5.672751142846318E-1   -8.203815606474666E-1
 7.279129112662014E8     5.749488099007707E-1   -8.270820094239033E-1   -1.228816806551436E-5    2.873142323877402E-6   -2.710450343254128E-6    2.343910089018352E-6    5.559768153478153E-1   -8.290161042142045E-1
 7.378829511465603E8     5.638244591552920E-1   -8.361019359729940E-1    5.837995725055143E-8   -2.485175713538329E-6    7.367899658201499E-6   -1.955030395077573E-5    5.446025177400562E-1   -8.374075725901760E-1
 7.478529910269192E8     5.517675534538192E-1   -8.446857979879020E-1    9.801594280903347E-6    5.385861978372196E-6    9.182796411074713E-7    7.787428067205038E-6    5.334014884266591E-1   -8.450211791880237E-1
 7.578230309072782E8     5.391309273310595E-1   -8.517537037692934E-1   -3.402981323031557E-6   -8.391063009260817E-6    4.498077624843357E-6   -5.800126745715883E-6    5.223255719034545E-1   -8.520618451818452E-1
 7.677930707876371E8     5.286800253196019E-1   -8.570900607121584E-1    4.069251056548972E-6    6.532152828490830E-6   -1.763033821003674E-5    1.146808185312739E-6    5.110270902029173E-1   -8.584239228041949E-1
 7.777631106679960E8     5.191768528623376E-1   -8.640113469686560E-1   -1.305002473410865E-5    1.653685482824202E-5    9.518850075726577E-7   -5.189599372550434E-6    4.994050345556595E-1   -8.648332030966419E-1
 7.877331505483550E8     5.087685814409744E-1   -8.709509815708791E-1    9.530408090383911E-6   -5.555815035553830E-6   -5.011187916458379E-6   -8.745725590408016E-6    4.876777700475253E-1   -8.715789798217688E-1
 7.977031904287138E8     4.975170627942944E-1   -8.773616926110991E-1   -1.231615183369601E-5    1.770346348715596E-5   -1.661425778230821E-6   -4.327706136007542E-6    4.749250430844417E-1   -8.781872738372299E-1
 8.076732303090727E8     4.857863286276354E-1   -8.832226306738594E-1   -3.431297450396214E-7    8.366682833120251E-6    8.125497256003120E-6    2.510912077616078E-6    4.620083410639480E-1   -8.841849436330729E-1
 8.176432701894317E8     4.737520189716675E-1   -8.892382729790967E-1   -6.205000107096822E-6    1.865977025447270E-6   -5.167630821713739E-6   -3.636109862505135E-6    4.491321651210898E-1   -8.904959381047959E-1
 8.276133100697906E8     4.614577694138738E-1   -8.956603563157420E-1    7.445532634705788E-6    7.385380583482658E-7   -1.001788749595375E-5    6.177883894776833E-6    4.364384237942019E-1   -8.971792504940408E-1
 8.375833499501495E8     4.487825362432266E-1   -9.020734408144804E-1   -7.081177674059747E-6   -7.181284107792770E-6    4.755390556345464E-6    1.216881182339910E-5    4.243185362557837E-1   -9.039325833267005E-1
 8.475533898305085E8     4.360318449637061E-1   -9.084793072097762E-1    1.238412753704334E-5    9.478471156752527E-6   -6.657794386091579E-6   -3.190986008519325E-6    4.124194377301543E-1   -9.099552055244122E-1
 8.575234297108674E8     4.232383558981798E-1   -9.148368380226610E-1    7.454968515934355E-6    1.695975014584306E-5    2.268819961681752E-7    2.044702031024057E-7    4.006924173818874E-1   -9.152177168875827E-1
 8.674934695912263E8     4.103954165131197E-1   -9.215917907093195E-1   -1.050320134848139E-5   -9.913142258914074E-6   -1.261362560219942E-5    1.412636434813525E-5    3.886820562901790E-1   -9.201232865737715E-1
 8.774635094715853E8     3.972992028184311E-1   -9.281655749020812E-1    2.946316208383736E-7    7.838616609943628E-6   -8.586925656260230E-6    2.975374158950593E-7    3.760668489505809E-1   -9.248106008585063E-1
 8.874335493519442E8     3.842752815221220E-1   -9.326889686879404E-1    2.933247277635631E-6    9.179401434380270E-7   -3.268958705992324E-6    1.635993407458231E-6    3.629837445536899E-1   -9.292572931324933E-1
 8.974035892323031E8     3.729314763533665E-1   -9.364121335649935E-1    1.169691625450327E-5    1.124829985810304E-5    4.838555687796678E-6   -9.113629136894585E-7    3.494842043322747E-1   -9.335872299275957E-1
