#  HZ   S   RI   R     50.00 
! Rohde & Schwarz Vector Network Analyzer 
! Rohde-Schwarz,ZNB20-2Port,1311601062102128,3.60
! Created: UTC 4/29/2024, 2:42:12 PM
! freq[Hz]                re:S11                  im:S11                  re:S21                  im:S21                  re:S12                  im:S12                  re:S22                  im:S22
 1.000000000000000E5     9.958491499524721E-1    3.465182544851798E-3   -2.434715136790282E-4   -6.204495221468008E-5    6.386367302587063E-5    9.471177243690807E-6    1.010472994091127      -1.162428469730055E-2
 1.007003988035892E7     9.983269855559875E-1   -1.394317416008200E-2   -3.219119676558139E-5   -1.198722768383757E-5   -5.019690596236348E-7   -1.754674784834379E-5    9.957201240111326E-1   -1.453853162244527E-2
 2.004007976071785E7     9.999656204026768E-1   -2.720803875557644E-2   -6.188726526772559E-6   -2.349969359491631E-5    1.628892767040597E-5   -5.475115497115374E-6    9.986946486598896E-1   -2.765874931117964E-2
 3.001011964107677E7     9.982541326046952E-1   -4.102566077400347E-2   -6.932150233186964E-6    2.248887989914528E-6   -8.989173471290860E-6    3.962028910872306E-6    9.975592075352729E-1   -4.206114342745646E-2
 3.998015952143569E7     9.975882686325999E-1   -5.305541582027601E-2   -4.356937952570680E-6    9.903458520982881E-6    1.767627235389911E-5    4.977137686899666E-6    9.976801846783242E-1   -5.661650745064237E-2
 4.995019940179461E7     9.957071367470816E-1   -6.590833661267206E-2    9.876780267215817E-6   -3.649597143622018E-6    7.019799894051578E-6    4.334045039673193E-6    9.964528973361840E-1   -6.906479381528900E-2
 5.992023928215354E7     9.937686846901512E-1   -7.868006336465830E-2   -1.223904367871099E-5   -1.015870491124510E-5    9.964879274914541E-6   -6.478641687379165E-6    9.947557947311144E-1   -8.192462637394109E-2
 6.989027916251247E7     9.931737123644602E-1   -9.192706988289977E-2    5.581277305940586E-6    2.445968368628091E-6   -1.325729923043332E-6   -7.280083577034741E-6    9.935360037825756E-1   -9.471470861945713E-2
 7.986031904287139E7     9.928790259814990E-1   -1.052558783516620E-1    4.417736473372598E-6    1.935722840642747E-5   -1.221026292086361E-5    2.310905247718349E-5    9.922857999213637E-1   -1.078024004668597E-1
 8.983035892323031E7     9.917597411135816E-1   -1.187992363103873E-1   -7.027122126843807E-6    1.071868648815843E-5   -1.735161152784624E-5   -1.701063555037275E-6    9.907414299064612E-1   -1.210598897411849E-1
 9.980039880358922E7     9.892361536976360E-1   -1.323089058144853E-1   -3.787168448962378E-6    3.583763733068891E-6    6.857201910972394E-6   -1.412822357386454E-5    9.884794960362226E-1   -1.344851611269020E-1
 1.097704386839482E8     9.862002687974202E-1   -1.453909729191004E-1   -8.277887447360481E-8    8.253934877074326E-6    5.543580934905327E-7   -1.275255519088739E-5    9.860666777306141E-1   -1.477656912775714E-1
 1.197404785643071E8     9.848700305995133E-1   -1.590121957140203E-1    3.052379457999872E-6   -1.457482374623470E-5   -2.956402390758525E-6   -1.795688360966284E-6    9.843506214770276E-1   -1.610553917434080E-1
 1.297105184446660E8     9.830754902470730E-1   -1.718148687203071E-1    7.290445759801996E-6    2.053995065864785E-6   -4.148395815615962E-6    4.262986838598099E-6    9.829242279148774E-1   -1.745736260139492E-1
 1.396805583250249E8     9.815900403450083E-1   -1.846849748638154E-1    3.240113384234408E-6    1.354015183088890E-5   -1.055424295205575E-5    1.285509100780399E-6    9.808403934824109E-1   -1.875231462155511E-1
 1.496505982053838E8     9.786994747715094E-1   -1.971824998619143E-1   -3.034107249881720E-6    1.961641708219043E-6   -2.750759530519710E-6    2.948895741369217E-6    9.783755591004510E-1   -2.003692990149007E-1
 1.596206380857428E8     9.761205258475157E-1   -2.094770712776193E-1    8.310778705624803E-6   -1.405758421560133E-5    6.243692915350394E-6   -1.142295733735089E-7    9.758514818619625E-1   -2.134008306340244E-1
 1.695906779661017E8     9.733048384033256E-1   -2.223829022090855E-1    5.035380699887362E-6    1.884939125302656E-5   -3.374644535111732E-6   -2.221294732223923E-6    9.729346749590192E-1   -2.261777275881173E-1
 1.795607178464606E8     9.707462445666946E-1   -2.348994800201121E-1    1.907464527913798E-5    2.532102330109155E-6    7.538314722742969E-6    1.927524766769682E-5    9.700667863014619E-1   -2.380112390262928E-1
 1.895307577268195E8     9.675990139231487E-1   -2.471005750139839E-1   -5.541159649839010E-6    3.680735990042764E-6    5.613660146179056E-6    5.029190094313354E-6    9.667067260748707E-1   -2.505304914392739E-1
 1.995007976071784E8     9.638448705987164E-1   -2.595994661613301E-1    4.591759621032617E-7    7.836879215684011E-6    3.128739025961990E-6    3.366193628208252E-6    9.627466705629908E-1   -2.631495471812865E-1
 2.094708374875374E8     9.604603617221379E-1   -2.724532442938614E-1    7.031164231737497E-7    1.019888407330179E-5   -6.913880373344090E-6   -1.725019771346215E-6    9.590204223287547E-1   -2.762222188914370E-1
 2.194408773678963E8     9.572520074183110E-1   -2.851840452915588E-1   -8.255934061140330E-6    3.937090750191997E-6    9.981263463063711E-7    4.359741139291101E-6    9.551056032755411E-1   -2.890917225493238E-1
 2.294109172482552E8     9.536562318925124E-1   -2.974858038340019E-1   -3.405076028711816E-6   -4.191730143297767E-6    3.921561782477015E-6    6.383988049128062E-6    9.510041691527326E-1   -3.018209579888116E-1
 2.393809571286142E8     9.505998537768073E-1   -3.094877848569742E-1    7.802256773119461E-6   -2.001747511132460E-6   -1.851944938587481E-6    2.334690633507718E-7    9.470244436841198E-1   -3.140069698660865E-1
 2.493509970089731E8     9.469375724217635E-1   -3.234277495029145E-1   -6.139944509397146E-7   -7.816366741232072E-6   -8.716861198908133E-6   -1.362690526638580E-5    9.441994074490738E-1   -3.276658929226798E-1
 2.593210368893320E8     9.426100849129991E-1   -3.354228937067981E-1   -4.255367933795769E-6    5.015675639082770E-6   -9.427288158370804E-7    4.450294278748561E-6    9.398903958189113E-1   -3.409210486125292E-1
 2.692910767696909E8     9.384857630305026E-1   -3.469179214175516E-1   -5.266128726321874E-6   -8.674727791012453E-7   -6.576536736354414E-6    1.318893652588304E-6    9.354747782232234E-1   -3.528585112122223E-1
 2.792611166500499E8     9.337769537665161E-1   -3.584618889820171E-1    3.276010731089316E-6    9.326041110992486E-6   -1.527289812592812E-5    3.324169717064796E-6    9.309437572977501E-1   -3.646434371587007E-1
 2.892311565304088E8     9.288943460135956E-1   -3.705406470300826E-1   -5.420521622839460E-6    3.299175146440874E-6   -2.596275384022035E-6    4.498795628672214E-6    9.263219265317369E-1   -3.769109933441295E-1
 2.992011964107677E8     9.239897110028747E-1   -3.826618714171143E-1   -1.345000091010343E-5   -4.941143908023999E-6   -1.443814146149042E-5   -1.133746928444465E-5    9.212268426773105E-1   -3.886555465432556E-1
 3.091712362911266E8     9.187692146826693E-1   -3.950414868172524E-1   -1.019155992850836E-5    7.031227539929872E-6   -7.383369866515952E-6    4.771326952151748E-7    9.157004428364851E-1   -4.002201948785567E-1
 3.191412761714855E8     9.133233560589944E-1   -4.074072033397225E-1   -1.578120484819461E-6   -1.673598778885408E-5    2.180539504622241E-6   -3.893628134908160E-6    9.098533007782854E-1   -4.120574077414338E-1
 3.291113160518445E8     9.075611923051805E-1   -4.200269282087170E-1   -3.156805592589457E-6   -9.652025699295453E-6    3.728501220042400E-6    1.819020007295275E-5    9.034433407471827E-1   -4.244383079986303E-1
 3.390813559322034E8     9.019396266843070E-1   -4.328823697065854E-1   -2.129132385800939E-6   -1.142441561477510E-5   -1.661261612499093E-5   -4.839830323483830E-6    8.968134714693067E-1   -4.369726607561169E-1
 3.490513958125623E8     8.966488892216744E-1   -4.453369129572198E-1    5.267032715785950E-6    4.470347831140519E-6    1.985301340728336E-5   -4.165556676030468E-6    8.905097907154900E-1   -4.494489347574380E-1
 3.590214356929212E8     8.913586028400552E-1   -4.578818265304961E-1    1.150505428289791E-5    5.126480726764971E-6    9.121426063845666E-6   -2.689090818088515E-6    8.846683760509875E-1   -4.622420827501751E-1
 3.689914755732802E8     8.859659047421835E-1   -4.700808679398108E-1   -5.546472876019191E-6   -2.921985876489333E-6   -6.368733254251329E-6    5.332839086494816E-6    8.790542846026069E-1   -4.747399242689466E-1
 3.789615154536391E8     8.797559965529148E-1   -4.813240176538261E-1   -3.716230369917865E-6   -5.228907073229823E-7   -9.902576471315673E-6    1.582989650858707E-5    8.738326458330450E-1   -4.868072996861709E-1
 3.889315553339980E8     8.740035233067959E-1   -4.920555699827809E-1   -6.506583170173773E-7    9.522761296855725E-6   -1.719884498614718E-5    8.411707001316625E-6    8.679369705776422E-1   -4.988567366726206E-1
 3.989015952143569E8     8.674143626243002E-1   -5.027526754063092E-1    2.553080827018562E-6    1.734615114399615E-7    9.558826903193544E-6   -1.405194617934187E-5    8.611115351827417E-1   -5.096798595607999E-1
 4.088716350947158E8     8.603522216944369E-1   -5.136434780645239E-1    8.099222541978956E-6   -1.464686468531844E-5   -1.719017575503679E-5    4.188327987923313E-6    8.542599504981131E-1   -5.206838951842840E-1
 4.188416749750748E8     8.532333841180251E-1   -5.251402348810620E-1    2.442378551277917E-6   -1.637719529996101E-5   -6.352497785015087E-6   -1.234438230119383E-5    8.476923375735419E-1   -5.314554636356502E-1
 4.288117148554337E8     8.459607532117073E-1   -5.367984369438468E-1   -2.308603081838011E-6   -4.937563709292545E-6   -7.691599769051337E-6    1.319266887768177E-6    8.405477417044696E-1   -5.418065509374933E-1
 4.387817547357926E8     8.381797881341418E-1   -5.481290308380220E-1    4.828931746709541E-6   -2.505084832324539E-7   -5.292944249794461E-6    1.262333145815670E-6    8.326634586016345E-1   -5.524080678181500E-1
 4.487517946161516E8     8.304969736860707E-1   -5.601248225842210E-1    7.058418891002248E-6    4.654718313848610E-6    2.866153957765366E-6    1.915964205034128E-5    8.241470456461343E-1   -5.635640291013211E-1
 4.587218344965104E8     8.236816633779052E-1   -5.719990986434249E-1    4.082176921979807E-6    2.174643595118647E-6    1.975137872692054E-7   -1.163346118464506E-5    8.160191776427576E-1   -5.754612711872455E-1
 4.686918743768694E8     8.170168832608008E-1   -5.833994424232977E-1   -1.203374271443427E-6   -1.216628546485089E-6   -7.899873721218515E-6    1.588911791090069E-5    8.078621919298622E-1   -5.868875312887959E-1
 4.786619142572283E8     8.098707901851696E-1   -5.942716746722863E-1   -1.264878546844800E-6    2.455198945812263E-6   -4.136279146174549E-6   -7.120787755448181E-6    7.992435623942010E-1   -5.980791549348762E-1
 4.886319541375872E8     8.024090399324507E-1   -6.047467084789276E-1    1.400867482054901E-5    1.739584857937861E-6    3.517081916978258E-6    7.497726636036406E-6    7.904771463871182E-1   -6.088569089116812E-1
 4.986019940179462E8     7.940597704661023E-1   -6.153673051359242E-1   -3.070222151480853E-6   -1.577647249733035E-6   -5.382754010764908E-6   -1.926711068320963E-5    7.824222201591622E-1   -6.198467530728093E-1
 5.085720338983051E8     7.855287684764606E-1   -6.245679047577837E-1   -8.371420448300629E-6    1.289174273822421E-5   -2.125910650428221E-6    6.106468611030559E-7    7.746687630385498E-1   -6.303485102938122E-1
 5.185420737786640E8     7.782208428295506E-1   -6.335374135961934E-1   -1.025421652875666E-5    9.791333563680082E-6   -2.044457984553519E-5    2.979169081269037E-6    7.670141948815768E-1   -6.400947188258377E-1
 5.285121136590229E8     7.699228427081881E-1   -6.431285408142829E-1   -7.776677913622080E-6   -3.970354385023237E-6    8.047668594244779E-7   -2.996879254520640E-6    7.589828128172196E-1   -6.497402453793246E-1
 5.384821535393819E8     7.614460358173221E-1   -6.531718520893874E-1    2.241160282348637E-7   -1.499901285530265E-5    1.222507968127573E-5    3.529448445701380E-6    7.508873117499764E-1   -6.593869258087884E-1
 5.484521934197408E8     7.533521422188786E-1   -6.637306415003895E-1    1.256323819405187E-6   -3.528154596550576E-6    1.785290797349617E-5   -2.870718499210329E-6    7.424071075104086E-1   -6.692813600238436E-1
 5.584222333000997E8     7.448238650868175E-1   -6.747323957962008E-1    3.738703685445198E-6    5.726020390715871E-6   -1.088371917222727E-6   -1.033991436258340E-5    7.333651224240251E-1   -6.793102520281026E-1
 5.683922731804587E8     7.355600879676990E-1   -6.851197950884527E-1    2.239663145331888E-6    6.140497780447383E-6    3.911561609426978E-6    5.491465675935444E-6    7.232437770439188E-1   -6.893449205675622E-1
 5.783623130608176E8     7.263337374167895E-1   -6.950794016835810E-1    1.292328230382534E-7    8.919017344225118E-6    4.770001647830016E-6   -3.409331390663180E-6    7.125728901694985E-1   -6.990022502134529E-1
 5.883323529411764E8     7.171590892630061E-1   -7.051678661506824E-1    6.289430673061961E-7   -4.857351954332153E-6   -1.471868812993555E-6    1.011626902435062E-5    7.021666677904058E-1   -7.087193801710425E-1
 5.983023928215353E8     7.078377167234972E-1   -7.151198353361491E-1    9.869408047689060E-7   -3.208392972857930E-6   -4.209693407994676E-6    8.895660326479558E-6    6.918613241111745E-1   -7.184691106743198E-1
 6.082724327018943E8     6.982910688805886E-1   -7.249388104569520E-1   -3.710263508988853E-6   -6.341912103507206E-6   -8.436201807153145E-7    2.655697147056904E-6    6.817501256629617E-1   -7.281174501317138E-1
 6.182424725822532E8     6.885699157993382E-1   -7.347386553631636E-1    4.415521658143993E-6   -4.427122135232096E-6    7.190382133513292E-6   -1.131863706636907E-5    6.716754979238113E-1   -7.372993380902925E-1
 6.282125124626122E8     6.779588399418357E-1   -7.439738334198701E-1   -1.413360182927233E-7   -1.284448050061775E-6    3.140851804901208E-6   -6.373895801382378E-6    6.627747096090142E-1   -7.469319017756278E-1
 6.381825523429711E8     6.682865759404757E-1   -7.511720354579261E-1    1.872319379075508E-6   -8.000969953789031E-6   -2.049707711358664E-5   -1.653507194234147E-5    6.537289711580438E-1   -7.557293185799769E-1
 6.481525922233300E8     6.593012335146404E-1   -7.597357017006294E-1   -5.471611987948282E-7    3.428077328241163E-6   -2.807735004544603E-6    1.556615587381981E-5    6.445887989203992E-1   -7.641693191903056E-1
 6.581226321036890E8     6.496381687468196E-1   -7.685699907960238E-1    3.449756134429408E-6   -8.606333534642927E-6    3.518660496260064E-6   -3.579725667929952E-7    6.345340712033558E-1   -7.725691855688113E-1
 6.680926719840479E8     6.396666545647962E-1   -7.772834481229867E-1   -4.026913603745103E-6    2.250917199508298E-6    2.150120257602306E-5   -1.413319784078234E-5    6.238999396649468E-1   -7.805899183028016E-1
 6.780627118644068E8     6.299423489376699E-1   -7.854328505240055E-1    2.467310882838583E-6   -1.178579671644719E-5    1.150908105171359E-5    5.239582043568044E-6    6.128023263837298E-1   -7.884661985453234E-1
 6.880327517447658E8     6.195417095225786E-1   -7.937203944406984E-1    1.336391270194755E-5    4.808297926228253E-6   -1.279117279918150E-5    1.596404978691777E-6    6.014908471502111E-1   -7.960571804503105E-1
 6.980027916251246E8     6.085340612682953E-1   -8.018047912609710E-1   -1.151058921207466E-6   -6.119191487725177E-6    3.960630045717378E-6   -8.427288271325499E-6    5.899318508929403E-1   -8.036820383730435E-1
 7.079728315054835E8     5.972022612583037E-1   -8.101192197188430E-1    1.008662482543274E-5   -7.871442313597469E-6   -5.189183281599793E-6   -1.671260312409114E-6    5.783670473642860E-1   -8.115474340093662E-1
 7.179428713858424E8     5.861558552213179E-1   -8.187903130434642E-1    5.263337028002512E-6    7.580162359520996E-6    1.732864022552609E-5    2.299809275197301E-6    5.672950682220568E-1   -8.203438681255032E-1
 7.279129112662014E8     5.751522794531291E-1   -8.272413841780131E-1   -1.571681091763362E-6   -1.139274791428603E-6    1.510553645758995E-6   -1.034100217116142E-5    5.559706072800630E-1   -8.289557910251079E-1
 7.378829511465603E8     5.637898646998588E-1   -8.359975953312897E-1   -1.261741501636535E-5   -4.605977477579375E-6   -3.807446776272214E-6   -8.457472848154446E-6    5.445911284340895E-1   -8.374166875915540E-1
 7.478529910269192E8     5.517629436673632E-1   -8.445361167452258E-1    1.395268428556233E-5    4.143466778158986E-6   -1.673498980104947E-5   -8.439179856774866E-6    5.334565905541593E-1   -8.451534944193971E-1
 7.578230309072782E8     5.391551505482884E-1   -8.516608507926433E-1    6.874362837844070E-6   -7.465468371260161E-6   -2.608808939590166E-6   -2.422535777087580E-6    5.223177930236697E-1   -8.520215874811823E-1
 7.677930707876371E8     5.287167033114791E-1   -8.570257649899773E-1   -7.010983596447705E-6    2.545164960816633E-6    1.423708283773937E-5   -8.225424968110706E-6    5.109571732738634E-1   -8.584520496622323E-1
 7.777631106679960E8     5.191566801250770E-1   -8.639539741537098E-1   -9.149605173601880E-7    2.975305686283168E-6    4.390903390275744E-6    1.037391868457864E-5    4.995188100578126E-1   -8.649138688383831E-1
 7.877331505483550E8     5.087921789927753E-1   -8.710019372287616E-1   -8.572701494469709E-6    2.636329435623510E-6    5.310613950457053E-6   -6.982185074447889E-6    4.876687598540046E-1   -8.715044559511037E-1
 7.977031904287138E8     4.975811463032779E-1   -8.772978637027150E-1   -1.969114626219644E-5   -1.333268799495845E-6   -6.133429455985616E-7    5.567901967333758E-6    4.747996185077323E-1   -8.780138272234338E-1
 8.076732303090727E8     4.858275293609035E-1   -8.831886898740624E-1   -3.378111267968713E-6   -1.352899082484044E-6   -3.808241626333921E-7   -1.778750260165400E-5    4.619384516081493E-1   -8.840575924813436E-1
 8.176432701894317E8     4.737737650964569E-1   -8.891318330902481E-1    4.132142652925135E-6    1.278495213320988E-5    1.185054933272970E-5   -1.176208715462377E-5    4.490883727419085E-1   -8.905033252811013E-1
 8.276133100697906E8     4.614891900651514E-1   -8.956289316445692E-1   -8.543847930223719E-6   -1.240966306224499E-6   -6.699206735850379E-6   -1.238267990251827E-5    4.365950791365257E-1   -8.971294972352363E-1
 8.375833499501495E8     4.488708489977717E-1   -9.020161930751882E-1   -2.869800710477291E-6   -3.662679700355113E-6   -4.109399929607134E-6   -7.270220554749654E-6    4.243663897495369E-1   -9.038901863071880E-1
 8.475533898305085E8     4.361239954794240E-1   -9.084869941850793E-1    8.583817901063677E-6   -1.883433663357365E-6    1.224937003441400E-5    7.523837336946149E-6    4.124191973979660E-1   -9.098454904076102E-1
 8.575234297108674E8     4.233088891422156E-1   -9.147498355923769E-1    3.279821674192687E-6    3.279803884586734E-6    4.110905473381478E-6   -4.543468836458430E-6    4.007633359766013E-1   -9.152789784457476E-1
 8.674934695912263E8     4.105579568035993E-1   -9.214582401901222E-1   -1.101616907437704E-5   -1.075258303882661E-5   -1.479181040049737E-7   -1.030773739732343E-5    3.886616988401147E-1   -9.200774321096261E-1
 8.774635094715853E8     3.973033432083195E-1   -9.280627748042733E-1   -7.647242701391575E-6    3.197300295857490E-6   -3.755983593785914E-6   -7.049379019759412E-6    3.760307963838724E-1   -9.247346065689616E-1
 8.874335493519442E8     3.843309430373969E-1   -9.326119704657558E-1   -9.952933729353472E-6    1.114943217421500E-5   -9.089199494114716E-6   -1.570541762359316E-5    3.630370890622496E-1   -9.293100119099071E-1
 8.974035892323031E8     3.729729606378795E-1   -9.362822478131867E-1   -1.346058214005478E-6    1.850238173325498E-6    4.261022842096982E-6   -4.707278530889662E-7    3.495015525632328E-1   -9.335573480686631E-1
