#  HZ   S   RI   R     50.00 
! Rohde & Schwarz Vector Network Analyzer 
! Rohde-Schwarz,ZNB20-2Port,1311601062102128,3.60
! Created: UTC 4/29/2024, 2:41:50 PM
! freq[Hz]                re:S11                  im:S11                  re:S21                  im:S21                  re:S12                  im:S12                  re:S22                  im:S22
 1.000000000000000E5     9.961535009180734E-1    3.215988237679716E-3   -1.861508949099761E-4    3.779485001932339E-5    1.480348434789380E-4   -6.367359164132005E-5    1.010382982812269      -1.158630568079875E-2
 1.007003988035892E7     9.976082431361138E-1   -1.383161771267585E-2    6.106545239879731E-6   -2.212072339427671E-6   -5.543238645673795E-6    2.900852109892731E-6    9.960685840394881E-1   -1.462873157626911E-2
 2.004007976071785E7     1.000060796015905      -2.718773117393327E-2    7.799995944689615E-6   -9.537850618138391E-6   -1.252297511062621E-5   -1.239466722338760E-6    9.987586501752824E-1   -2.765015725916218E-2
 3.001011964107677E7     9.979112002711992E-1   -4.109287959337333E-2   -1.940042260965936E-6   -1.315182825901042E-5    1.573469067700570E-5   -1.318510684474808E-6    9.975377734443672E-1   -4.201759681415127E-2
 3.998015952143569E7     9.977471764910312E-1   -5.301134366279725E-2    3.678421890920406E-5   -1.550305307755832E-5    6.223881641998064E-6    5.271070351621305E-6    9.976899630862719E-1   -5.664965970367247E-2
 4.995019940179461E7     9.961441548914333E-1   -6.605703199261329E-2    9.944867131326460E-6    5.078163139384997E-6    2.531525324769398E-6   -4.200126292235946E-6    9.966894444924234E-1   -6.907748264060040E-2
 5.992023928215354E7     9.943110757093736E-1   -7.877883622671174E-2   -8.908077496204436E-6   -1.038691279772054E-5    1.089589640975382E-5   -1.688059641083533E-6    9.948183945318224E-1   -8.189896000507463E-2
 6.989027916251247E7     9.931394813737018E-1   -9.191020493563985E-2    4.818244035799528E-6    2.837492671887811E-5    5.365715706833058E-6   -1.174990173904940E-5    9.934215933508453E-1   -9.466879199828884E-2
 7.986031904287139E7     9.925117964918058E-1   -1.051865195967644E-1   -4.213705909283822E-6    8.329745226975637E-7    1.930707662179239E-6    1.777260042619914E-6    9.924162429392648E-1   -1.078684814090892E-1
 8.983035892323031E7     9.914892565571729E-1   -1.187460845194521E-1   -1.615669211207665E-6    1.218041767192945E-5    8.099850625236208E-6    9.016285832797863E-7    9.908843741687146E-1   -1.210708327963880E-1
 9.980039880358922E7     9.894631763330104E-1   -1.323473473160363E-1    3.295319904458108E-6   -1.569811574726430E-6   -2.728346137567011E-7    2.186816063867906E-5    9.887973826878643E-1   -1.344080426798193E-1
 1.097704386839482E8     9.865364448264343E-1   -1.455414582546097E-1    8.991700291620790E-6    1.177535365591700E-5    1.657706758646097E-6   -3.449580993402579E-6    9.862978499246011E-1   -1.477149917174354E-1
 1.197404785643071E8     9.848172690734481E-1   -1.588711475522755E-1    3.592843344072088E-6   -1.406440994624271E-6   -7.083103104266669E-6   -9.968410668864549E-6    9.842830614587207E-1   -1.610771440356064E-1
 1.297105184446660E8     9.831566047635489E-1   -1.718719557090805E-1    5.743509697877890E-6   -6.597936059279026E-6   -2.858438686479328E-6    2.458530321001003E-6    9.828710928494048E-1   -1.744616488436688E-1
 1.396805583250249E8     9.815690309651344E-1   -1.846749749063717E-1    2.737609260737747E-6   -6.341234746907805E-6    6.312668088280764E-6    9.391741996830971E-7    9.808692354914730E-1   -1.875075688745025E-1
 1.496505982053838E8     9.790598417049814E-1   -1.971631379312119E-1   -1.012675008247899E-5   -2.261037747684217E-6   -6.024148950512847E-6    1.795324605479234E-5    9.786574494136946E-1   -2.004812124902779E-1
 1.596206380857428E8     9.763609675498833E-1   -2.094867997283948E-1   -7.089627590599819E-7    2.149252652232825E-6   -1.309013644193560E-5   -7.460826077681924E-6    9.758746545303328E-1   -2.132878448973610E-1
 1.695906779661017E8     9.733090690847916E-1   -2.224255262566157E-1    7.984094230713613E-6    3.837327439126945E-6   -3.143153362218025E-6   -5.007352302535737E-6    9.729639236709775E-1   -2.260144281944803E-1
 1.795607178464606E8     9.707164496225364E-1   -2.348447717379580E-1   -8.131986420804844E-6    1.781656764647433E-6    4.273569510372358E-6    1.789383064557654E-5    9.702200105158957E-1   -2.380039309946458E-1
 1.895307577268195E8     9.677694212155507E-1   -2.471419513571890E-1   -7.865558954204739E-6    7.695377448043120E-6   -1.119035214192392E-5   -1.021050474610530E-6    9.667727809448926E-1   -2.505027580659283E-1
 1.995007976071784E8     9.640045901963604E-1   -2.596127026080055E-1   -6.827369586640126E-6    2.437677909887457E-6    3.026052578609674E-7   -2.928393677918254E-6    9.628723578097454E-1   -2.631866170984238E-1
 2.094708374875374E8     9.605242542886117E-1   -2.724483269730447E-1    4.858026534724017E-6   -1.664030494596602E-6    1.809351786050387E-6   -3.787639752894614E-6    9.590008943080321E-1   -2.761635230146027E-1
 2.194408773678963E8     9.572999506800904E-1   -2.852980693788922E-1   -8.470447038934348E-6   -1.054298297243076E-5   -1.888999136233078E-5   -1.003585034040165E-5    9.552152957055807E-1   -2.891163044433608E-1
 2.294109172482552E8     9.536197993298394E-1   -2.974989214975163E-1   -7.411938902726688E-6    9.554748999763550E-6   -6.742054737801420E-7   -1.045682435159029E-5    9.511030790884156E-1   -3.017812719927726E-1
 2.393809571286142E8     9.506257548899835E-1   -3.095135469953866E-1   -2.588612133615000E-6    1.091747187235009E-6   -1.783788470613679E-6    2.386965118740071E-5    9.471802592603688E-1   -3.140969754728332E-1
 2.493509970089731E8     9.469195521058129E-1   -3.233807110300630E-1   -1.262950899146932E-5   -7.619309535659983E-6   -1.037549826999474E-6   -2.038531461562895E-5    9.442136696084172E-1   -3.276732524858098E-1
 2.593210368893320E8     9.427102379695400E-1   -3.354551314698950E-1    9.717392896193256E-6   -6.938112035984699E-6   -5.731817105040346E-6   -7.633946207027476E-6    9.397735680928150E-1   -3.408137754339703E-1
 2.692910767696909E8     9.385831654435198E-1   -3.468859519835837E-1    1.339786827845225E-5    4.946801970638419E-7   -6.450454202025767E-6    2.754221819669769E-5    9.355207605423046E-1   -3.528447676698342E-1
 2.792611166500499E8     9.338544192251644E-1   -3.585134632378422E-1    1.395411778936794E-5    5.862143333513700E-7   -3.404684460440668E-6    8.650601411286603E-6    9.310450928259634E-1   -3.647316955494290E-1
 2.892311565304088E8     9.289854855632648E-1   -3.706224444926954E-1   -1.165003603306670E-6    6.494726662558982E-6    4.061218245244175E-5   -1.242917864325019E-6    9.262789115557645E-1   -3.769251735799916E-1
 2.992011964107677E8     9.241954435065490E-1   -3.827818327697379E-1   -1.758460456474592E-5   -4.066359615865808E-6   -4.130343806096031E-6   -1.691651805946170E-5    9.211757317898446E-1   -3.886826453948994E-1
 3.091712362911266E8     9.188411594512579E-1   -3.949873541059559E-1    3.636235654429835E-6   -1.122719031185550E-5    4.050155388594024E-6    7.196607803815243E-6    9.156939465159095E-1   -4.001740292448917E-1
 3.191412761714855E8     9.132539452102717E-1   -4.075131690516793E-1   -3.058867304470156E-6    1.436604434334942E-6    5.591448211392878E-6    2.069224037425694E-6    9.098452158034814E-1   -4.119940356342421E-1
 3.291113160518445E8     9.077284023377515E-1   -4.201539191580067E-1    7.550963180104029E-6    1.882398808885953E-6    2.970814373637720E-6   -4.262118950112905E-6    9.034622512667743E-1   -4.244684874919881E-1
 3.390813559322034E8     9.019314616605166E-1   -4.329075763150869E-1    5.782897111433023E-6   -4.930469737760685E-6    1.212133911483017E-5    3.929189044620155E-6    8.967798703102862E-1   -4.369949072858513E-1
 3.490513958125623E8     8.966201031559581E-1   -4.453979653017476E-1   -6.663853149002068E-6   -9.784382667687417E-6    8.399726250018395E-6   -1.207233862176976E-5    8.904696126417112E-1   -4.494908450468618E-1
 3.590214356929212E8     8.913617081643596E-1   -4.579517638755919E-1    3.757467626320764E-6    2.420786966412633E-6   -5.253244015299650E-7   -1.211785870194175E-5    8.845897176368211E-1   -4.622233149087598E-1
 3.689914755732802E8     8.859512179119127E-1   -4.701931234165116E-1    1.521408400337539E-5   -2.507261625964184E-6   -1.126264726330733E-5    2.402903433069200E-7    8.791700273135171E-1   -4.749454444015436E-1
 3.789615154536391E8     8.798588212036834E-1   -4.814598933912825E-1    4.784600156079580E-6    2.415427225952750E-6    1.072900218860613E-5   -1.685444068387148E-5    8.738976078885184E-1   -4.868955959329242E-1
 3.889315553339980E8     8.740662520344132E-1   -4.920561538624318E-1   -4.529666825523279E-6   -9.802618146995272E-7    6.961944031185555E-6    1.270419637119880E-5    8.680197187664174E-1   -4.988475427625497E-1
 3.989015952143569E8     8.674417133678181E-1   -5.028620102675893E-1    5.075385462366308E-6    1.352678919104806E-5    1.241281587180304E-5    3.651171835171814E-6    8.612478138760092E-1   -5.097867442070071E-1
 4.088716350947158E8     8.602710622952704E-1   -5.136285565319045E-1   -5.512202275074802E-7    4.890312489990827E-6    3.947257495324364E-6    1.493660398317460E-5    8.543234726989516E-1   -5.207094395165309E-1
 4.188416749750748E8     8.533106986523058E-1   -5.251610607351425E-1    7.969038843694997E-6    3.306456528994698E-6   -1.274894904636342E-5    4.559666472362264E-6    8.476142693428236E-1   -5.315484179144145E-1
 4.288117148554337E8     8.460540548805754E-1   -5.368408499192304E-1   -7.351300579990833E-6    6.281901326709993E-6    3.829521405758032E-6    3.047427997350626E-6    8.406382092151737E-1   -5.419139573560856E-1
 4.387817547357926E8     8.382999526545890E-1   -5.482104880308479E-1   -4.286075986544198E-6   -1.553649986345673E-5    8.811358634689573E-6   -2.518991993022606E-6    8.326764471657124E-1   -5.524218126862526E-1
 4.487517946161516E8     8.304808203323538E-1   -5.600806165629943E-1   -7.147107695722023E-6    4.913845427469410E-7    1.664175762242580E-5    3.190615398250988E-6    8.242339875139527E-1   -5.635624974051180E-1
 4.587218344965104E8     8.235936930182750E-1   -5.720639097646336E-1   -8.876462566330374E-6   -6.331370717214258E-6    1.187971929955151E-5    1.226750643595737E-5    8.159871221462013E-1   -5.752417667308947E-1
 4.686918743768694E8     8.170819683379875E-1   -5.835471076361494E-1    8.782357496228341E-6    4.428126556448733E-6    1.367676340725063E-5    1.118997479885607E-5    8.079002949818692E-1   -5.868757534510299E-1
 4.786619142572283E8     8.098784680634356E-1   -5.943610869463961E-1    2.937522656430105E-6    6.558517193540864E-6   -8.489920663772642E-6   -2.772457714943382E-6    7.993534654621406E-1   -5.982049818542275E-1
 4.886319541375872E8     8.022833637927330E-1   -6.047813825863750E-1   -2.939692481828246E-6   -8.561128984573187E-6    2.645849303039185E-6    1.975951232299004E-6    7.906264107173725E-1   -6.088892646950456E-1
 4.986019940179462E8     7.940020349388525E-1   -6.154886682683317E-1   -4.780504501060316E-6    3.298304912479547E-6    6.355012383933707E-6   -1.612457777409980E-5    7.823679093790145E-1   -6.197321791657687E-1
 5.085720338983051E8     7.855751310740998E-1   -6.245945690048389E-1   -1.010304613910058E-5   -1.065716722275816E-5   -4.153585302618734E-6   -7.873520503726814E-6    7.746092879418689E-1   -6.302475691051161E-1
 5.185420737786640E8     7.782600995222626E-1   -6.336396363945417E-1   -5.063248002685136E-6    5.238789309787019E-6    8.632060759449101E-6    1.723807731865830E-5    7.670521910167618E-1   -6.402743662875370E-1
 5.285121136590229E8     7.700230493444611E-1   -6.432126404396346E-1   -1.182938191409773E-5    2.084892075577172E-6   -7.955890304394278E-6   -9.528119956434864E-6    7.590425711680744E-1   -6.498439847808252E-1
 5.384821535393819E8     7.614029609184846E-1   -6.531744723599342E-1   -9.047608168517230E-6    4.395714562901308E-6    5.323496191714002E-6   -2.731994104058536E-5    7.508241981574140E-1   -6.594495622139663E-1
 5.484521934197408E8     7.532299496036700E-1   -6.637143732674422E-1    2.911313693945252E-8   -6.918132511530514E-6   -4.185040795191703E-6   -5.510324518389260E-6    7.424140084997244E-1   -6.692906793470894E-1
 5.584222333000997E8     7.447312065902186E-1   -6.747205602378608E-1   -3.797762545820991E-6   -2.125862513467043E-6   -1.560141508310465E-6   -1.942404846912713E-5    7.333182342673064E-1   -6.792363907475821E-1
 5.683922731804587E8     7.356073015595888E-1   -6.853013652439496E-1    5.837661964046251E-6   -6.768513791834550E-6    6.059593083348914E-6   -8.399815867111977E-6    7.231905141399010E-1   -6.893535672280827E-1
 5.783623130608176E8     7.262193469053460E-1   -6.951973409067412E-1   -5.410173820710440E-6   -1.317373827958231E-5    2.843845251856546E-5   -7.346998842152589E-6    7.125477947395338E-1   -6.990343731979116E-1
 5.883323529411764E8     7.170280809321078E-1   -7.051494415952599E-1   -8.127270934873444E-6   -1.694626500161624E-5   -8.520552427003313E-6   -1.785133276617321E-5    7.021071429608617E-1   -7.087296693200157E-1
 5.983023928215353E8     7.077709747563996E-1   -7.152139186952502E-1    2.902186684666015E-6   -2.795643329971424E-5   -2.688716510942304E-6   -6.794657227896143E-6    6.919682873962743E-1   -7.184723944949907E-1
 6.082724327018943E8     6.983338697717669E-1   -7.250771982386321E-1   -1.103979584513584E-5    1.342906149656507E-5   -7.811144349742819E-6   -7.910356769078622E-6    6.816691287113509E-1   -7.279820684013831E-1
 6.182424725822532E8     6.886276138368507E-1   -7.348452566625389E-1    6.968948103971864E-6    3.030035697994066E-6   -9.637429461122268E-6    1.942195046617083E-6    6.717357109056631E-1   -7.373846997512961E-1
 6.282125124626122E8     6.779714792749493E-1   -7.440226094316080E-1    7.541911963973992E-6    9.309261836491960E-6    6.886001882061465E-6    5.330176640045311E-6    6.626650948965529E-1   -7.468741650348608E-1
 6.381825523429711E8     6.682885841025946E-1   -7.511975746397097E-1    2.282988203272017E-6    3.708712966873741E-6    1.313268165941215E-5   -2.065331871199243E-5    6.536651558342023E-1   -7.558025120829887E-1
 6.481525922233300E8     6.593770341648206E-1   -7.597478136959922E-1    1.591251949485013E-6    1.069971425609264E-5   -1.379812465278472E-6    6.529973733826944E-6    6.446251688447562E-1   -7.642096657754764E-1
 6.581226321036890E8     6.496862125924231E-1   -7.686327190073697E-1    3.722219879604934E-7   -1.073252219013397E-5   -8.449764538567393E-6    4.862646048067749E-6    6.346075213880893E-1   -7.725722141464381E-1
 6.680926719840479E8     6.397746238131587E-1   -7.772657872272460E-1   -9.662340747669640E-6   -2.064859177316680E-6   -5.028542873497998E-6    2.193698417281091E-5    6.240127083310053E-1   -7.805468273944054E-1
 6.780627118644068E8     6.299340186575152E-1   -7.855793553363628E-1    6.464806531871003E-6   -1.987462941616852E-5   -4.335389591709479E-6    8.847028522520592E-9    6.128913620134000E-1   -7.885139131018918E-1
 6.880327517447658E8     6.195106438820844E-1   -7.937768062136780E-1   -1.531645734047043E-5   -6.692907029417489E-6    3.223137708835820E-6   -8.751216638486164E-6    6.015383952006784E-1   -7.962219244702724E-1
 6.980027916251246E8     6.085404771446110E-1   -8.018820541531450E-1   -7.002899893673847E-6    7.570534611019007E-6    7.013110228868415E-6    6.336625456403736E-6    5.900048690805886E-1   -8.037368419805644E-1
 7.079728315054835E8     5.973163579107683E-1   -8.103161306226334E-1   -8.784522255642982E-7   -1.635732973205076E-7    7.581902105218656E-6   -2.355601015550808E-5    5.784647027812556E-1   -8.116096114104878E-1
 7.179428713858424E8     5.862070130557114E-1   -8.188459924830324E-1   -3.741678289730965E-6   -3.953709845377158E-6   -6.504977930649585E-7   -1.979818730637452E-6    5.673139484619653E-1   -8.202446307184840E-1
 7.279129112662014E8     5.751312026658418E-1   -8.273591724828258E-1    2.713937332892192E-6   -4.414159501986142E-6   -9.703766240663020E-6   -3.407158934082848E-6    5.559232174932530E-1   -8.291062670344056E-1
 7.378829511465603E8     5.637618868086836E-1   -8.360077779148688E-1    2.451807484158687E-6    1.264626701059992E-5   -8.852349983376658E-6   -7.049285182893682E-6    5.446084383745433E-1   -8.375524287514973E-1
 7.478529910269192E8     5.517247937113495E-1   -8.445927977775467E-1   -2.349067939822715E-6   -9.212514722141041E-6   -2.914711845915871E-6   -1.485921414457815E-5    5.333984680162605E-1   -8.451151043289868E-1
 7.578230309072782E8     5.392269854279846E-1   -8.517816794603759E-1    6.749268304169528E-7   -7.785903029298413E-6   -2.948251823801605E-6   -9.082313106947981E-6    5.223030459124078E-1   -8.520591152716799E-1
 7.677930707876371E8     5.288016460928213E-1   -8.571769193461779E-1    1.420312493399049E-6    2.981963372821889E-6    1.328061554790338E-5   -5.826349392508892E-6    5.109416990177444E-1   -8.583859602505155E-1
 7.777631106679960E8     5.191319976823576E-1   -8.639628564503062E-1    6.782138805577140E-6    2.518101654284054E-6    1.447808549532669E-7   -2.198863396175592E-6    4.994667079753355E-1   -8.649477100554788E-1
 7.877331505483550E8     5.087759393036492E-1   -8.709126883113880E-1    3.337261510769589E-6    1.219662932189270E-5   -2.319985397789549E-6    2.016535007148315E-5    4.876489488639950E-1   -8.717451882087844E-1
 7.977031904287138E8     4.975929076784489E-1   -8.774190224863792E-1   -2.005129126752305E-6    1.080099296846214E-5    3.555727193634498E-6    9.218448717034773E-6    4.748150560836110E-1   -8.780033691202640E-1
 8.076732303090727E8     4.859497625197478E-1   -8.832877526616566E-1    5.281165018966491E-6    1.509216653651194E-5    1.081218793942767E-5   -1.135651474857866E-5    4.619430806584437E-1   -8.841986044633328E-1
 8.176432701894317E8     4.737426655423652E-1   -8.892901319419279E-1    1.796507757492936E-6   -2.000260501287654E-6   -2.299290613251592E-5   -4.219541906556807E-6    4.491024238112448E-1   -8.904372663989388E-1
 8.276133100697906E8     4.614654308288561E-1   -8.956397513101308E-1   -6.573005816002288E-6    3.830428447716815E-6   -2.154599898975120E-6   -4.329608132426518E-7    4.364259221491260E-1   -8.972425296077129E-1
 8.375833499501495E8     4.488400613547436E-1   -9.020141467178479E-1    1.043655111951525E-5    1.386571179827756E-5   -3.705787384066197E-6   -2.596257486703769E-6    4.243091281663980E-1   -9.039936374463632E-1
 8.475533898305085E8     4.360234527461325E-1   -9.085202503102906E-1   -1.095657260060381E-5   -3.344178332382627E-6   -7.481466683705608E-6   -1.339119383860988E-5    4.124511366506634E-1   -9.099317031164149E-1
 8.575234297108674E8     4.233202547766847E-1   -9.149783141509894E-1    1.800928944326869E-6    9.008947351905189E-6   -1.395522612293102E-5    4.674175080696205E-6    4.006808276657240E-1   -9.152415205323736E-1
 8.674934695912263E8     4.105102207841011E-1   -9.214969481733449E-1   -1.288996782762641E-5    4.234737157725897E-6    4.177246557040665E-6    8.221822667954095E-6    3.886234310931475E-1   -9.200621962291312E-1
 8.774635094715853E8     3.973669770279055E-1   -9.279723786956059E-1   -3.910146241622279E-7   -5.681414934962066E-6    5.972052591914767E-7    5.265154923396267E-6    3.761778900082479E-1   -9.248533394882844E-1
 8.874335493519442E8     3.842270064327263E-1   -9.326422070349546E-1   -2.265096668941066E-6   -4.052601596533399E-6    7.531544226690418E-6   -1.512935915720278E-6    3.629436427070040E-1   -9.292565249109924E-1
 8.974035892323031E8     3.730147257140746E-1   -9.363996700411241E-1    9.124363435607412E-6   -7.525836933051566E-6   -1.050170476378067E-5   -4.417932732218670E-6    3.495129777651283E-1   -9.335736771322410E-1
