[Version] 2.0
! Rohde & Schwarz Vector Network Analyzer
! Rohde-Schwarz,ZNL20-2Port,1323001220200009,1.71.1.10-23.02.1.238
! 
! Port Assignments:
! Nominal Port -> Actual Test Port
! --------------------------------
!   1 -> 1

! Created: GMT 2024-09-04 11:57:36

# Hz S DB R 50

[Number of Ports] 1
[Number of Frequencies] 2001

[Network Data] 
! freq[Hz]               S11[mag dB]              S11[ang]                 
1.000000000000000e+10    -1.982478182565490e+01   1.500575329334371e+02    
1.000100000000000e+10    -1.961076802318503e+01   1.500335233063873e+02    
1.000200000000000e+10    -1.943262568318107e+01   1.497674571962393e+02    
1.000300000000000e+10    -1.922902540219737e+01   1.495522311961337e+02    
1.000400000000000e+10    -1.901470973861625e+01   1.490669561370030e+02    
1.000500000000000e+10    -1.884392535020044e+01   1.484019452273615e+02    
1.000600000000000e+10    -1.867006303509208e+01   1.474153084574948e+02    
1.000700000000000e+10    -1.853717331049149e+01   1.468714302820097e+02    
1.000800000000000e+10    -1.838201207322926e+01   1.455714785186342e+02    
1.000900000000000e+10    -1.832175633694808e+01   1.445946358080821e+02    
1.001000000000000e+10    -1.820414964912706e+01   1.434385071280477e+02    
1.001100000000000e+10    -1.814068470274437e+01   1.422147431040163e+02    
1.001200000000000e+10    -1.811604577460376e+01   1.409814010733595e+02    
1.001300000000000e+10    -1.804902650619390e+01   1.395863375648618e+02    
1.001400000000000e+10    -1.805706484061790e+01   1.382075579314724e+02    
1.001500000000000e+10    -1.805607308114596e+01   1.370973071939473e+02    
1.001600000000000e+10    -1.812316878535109e+01   1.357080240943428e+02    
1.001700000000000e+10    -1.815080070604950e+01   1.344677124093935e+02    
1.001800000000000e+10    -1.821385858123872e+01   1.333342944950896e+02    
1.001900000000000e+10    -1.830734758567105e+01   1.320346131005319e+02    
1.002000000000000e+10    -1.841920322145148e+01   1.308206063418714e+02    
1.002100000000000e+10    -1.856288485371077e+01   1.298442408897642e+02    
1.002200000000000e+10    -1.870128870891417e+01   1.289220404281139e+02    
1.002300000000000e+10    -1.889894620572300e+01   1.279414024405754e+02    
1.002400000000000e+10    -1.904908697683040e+01   1.274370713119768e+02    
1.002500000000000e+10    -1.926748176145402e+01   1.267412439661063e+02    
1.002600000000000e+10    -1.951302730442701e+01   1.264067241253560e+02    
1.002700000000000e+10    -1.972176151692513e+01   1.260816588502989e+02    
1.002800000000000e+10    -1.997924736657908e+01   1.261286954508456e+02    
1.002900000000000e+10    -2.022391672793254e+01   1.261061359301108e+02    
1.003000000000000e+10    -2.040837299496253e+01   1.267832511065809e+02    
1.003100000000000e+10    -2.066231098007773e+01   1.275875765292019e+02    
1.003200000000000e+10    -2.087868871161023e+01   1.286030009809149e+02    
1.003300000000000e+10    -2.106738941410967e+01   1.295518799325366e+02    
1.003400000000000e+10    -2.124267368054150e+01   1.310406430725984e+02    
1.003500000000000e+10    -2.137123644875227e+01   1.326510144334191e+02    
1.003600000000000e+10    -2.141891107086795e+01   1.341911581240563e+02    
1.003700000000000e+10    -2.145400370774437e+01   1.363934046648543e+02    
1.003800000000000e+10    -2.145723203439486e+01   1.380806200611688e+02    
1.003900000000000e+10    -2.138141847876904e+01   1.402224643874132e+02    
1.004000000000000e+10    -2.133176781880412e+01   1.414052289342412e+02    
1.004100000000000e+10    -2.115105787169067e+01   1.432293669770101e+02    
1.004200000000000e+10    -2.094326779777286e+01   1.440876543821464e+02    
1.004300000000000e+10    -2.074069012731048e+01   1.454733418106848e+02    
1.004400000000000e+10    -2.052021711199977e+01   1.462035275520796e+02    
1.004500000000000e+10    -2.026505149193177e+01   1.467897817457741e+02    
1.004600000000000e+10    -2.006565941036384e+01   1.468104036795161e+02    
1.004700000000000e+10    -1.975741322035963e+01   1.471400121111559e+02    
1.004800000000000e+10    -1.955855994614587e+01   1.467381150996785e+02    
1.004900000000000e+10    -1.931108995689761e+01   1.462004431006801e+02    
1.005000000000000e+10    -1.911439806203913e+01   1.457439555401726e+02    
1.005100000000000e+10    -1.898767246605010e+01   1.449589474496248e+02    
1.005200000000000e+10    -1.878942461262998e+01   1.441482028305658e+02    
1.005300000000000e+10    -1.862678587066938e+01   1.431532088652012e+02    
1.005400000000000e+10    -1.848412984588704e+01   1.420343023830978e+02    
1.005500000000000e+10    -1.836872668381732e+01   1.408755870754703e+02    
1.005600000000000e+10    -1.829855123305288e+01   1.395344219302826e+02    
1.005700000000000e+10    -1.824794804609733e+01   1.382248109129250e+02    
1.005800000000000e+10    -1.822496256026628e+01   1.367710874764936e+02    
1.005900000000000e+10    -1.821408143383843e+01   1.354238825162403e+02    
1.006000000000000e+10    -1.819304265144260e+01   1.342002796717565e+02    
1.006100000000000e+10    -1.821576727544095e+01   1.326634245288775e+02    
1.006200000000000e+10    -1.829580787957407e+01   1.312115492099173e+02    
1.006300000000000e+10    -1.836617922869352e+01   1.299495728607711e+02    
1.006400000000000e+10    -1.846613962160371e+01   1.285493561070524e+02    
1.006500000000000e+10    -1.856865374302630e+01   1.273733154662307e+02    
1.006600000000000e+10    -1.871212966625282e+01   1.260971967920866e+02    
1.006700000000000e+10    -1.886615172549547e+01   1.247472334586692e+02    
1.006800000000000e+10    -1.901081697249656e+01   1.238546152239488e+02    
1.006900000000000e+10    -1.924726016682292e+01   1.228490100950193e+02    
1.007000000000000e+10    -1.949071336394232e+01   1.220887229785952e+02    
1.007100000000000e+10    -1.971731554522465e+01   1.216263719890142e+02    
1.007200000000000e+10    -1.998320333707190e+01   1.212677352900800e+02    
1.007300000000000e+10    -2.025833236248489e+01   1.209644640546701e+02    
1.007400000000000e+10    -2.051453039988368e+01   1.208074248431976e+02    
1.007500000000000e+10    -2.080130127174013e+01   1.209244296793070e+02    
1.007600000000000e+10    -2.108968480212235e+01   1.217672339694040e+02    
1.007700000000000e+10    -2.138039436561812e+01   1.225864957169009e+02    
1.007800000000000e+10    -2.162101265026786e+01   1.236461285441629e+02    
1.007900000000000e+10    -2.186115413219798e+01   1.246333922218250e+02    
1.008000000000000e+10    -2.204245701414880e+01   1.265069428287042e+02    
1.008100000000000e+10    -2.219089661749674e+01   1.285423651066150e+02    
1.008200000000000e+10    -2.226748080575436e+01   1.306214282661990e+02    
1.008300000000000e+10    -2.231381850078987e+01   1.324282329287240e+02    
1.008400000000000e+10    -2.223806212872350e+01   1.346878673374728e+02    
1.008500000000000e+10    -2.219473308272363e+01   1.364304039385392e+02    
1.008600000000000e+10    -2.204827909886845e+01   1.383695361520328e+02    
1.008700000000000e+10    -2.186205574105598e+01   1.397790060887127e+02    
1.008800000000000e+10    -2.159798075458724e+01   1.412271373418340e+02    
1.008900000000000e+10    -2.140601290627949e+01   1.419462385476460e+02    
1.009000000000000e+10    -2.114392945786399e+01   1.429317561866104e+02    
1.009100000000000e+10    -2.085371274265570e+01   1.432846464450504e+02    
1.009200000000000e+10    -2.060592718368866e+01   1.434748248342314e+02    
1.009300000000000e+10    -2.033822943745714e+01   1.432066452212247e+02    
1.009400000000000e+10    -2.006858603737141e+01   1.429099919168131e+02    
1.009500000000000e+10    -1.981975288120039e+01   1.421845851615887e+02    
1.009600000000000e+10    -1.964068625688763e+01   1.414626669373079e+02    
1.009700000000000e+10    -1.944452044078589e+01   1.405081764921017e+02    
1.009800000000000e+10    -1.924709590944340e+01   1.394161830914953e+02    
1.009900000000000e+10    -1.910623928670222e+01   1.382185749715727e+02    
1.010000000000000e+10    -1.896146783771967e+01   1.369772109308710e+02    
1.010100000000000e+10    -1.883601903074056e+01   1.356578381151765e+02    
1.010200000000000e+10    -1.876133828043178e+01   1.340361011543028e+02    
1.010300000000000e+10    -1.867628412714393e+01   1.327962699516128e+02    
1.010400000000000e+10    -1.866764723285024e+01   1.312792194902263e+02    
1.010500000000000e+10    -1.861071787611190e+01   1.296728021717614e+02    
1.010600000000000e+10    -1.864748057653394e+01   1.281272641220325e+02    
1.010700000000000e+10    -1.866494516710668e+01   1.268517776069290e+02    
1.010800000000000e+10    -1.870911737793080e+01   1.252180913249373e+02    
1.010900000000000e+10    -1.878633241376517e+01   1.237577990581454e+02    
1.011000000000000e+10    -1.889998239547339e+01   1.224668619657870e+02    
1.011100000000000e+10    -1.903866035984505e+01   1.211553965265756e+02    
1.011200000000000e+10    -1.915994227398945e+01   1.199616775754588e+02    
1.011300000000000e+10    -1.935279599760378e+01   1.189938538378684e+02    
1.011400000000000e+10    -1.951925536565556e+01   1.178137133972929e+02    
1.011500000000000e+10    -1.975574711869605e+01   1.169681080634482e+02    
1.011600000000000e+10    -1.995511323272816e+01   1.158739512460130e+02    
1.011700000000000e+10    -2.019225403209089e+01   1.156449442154655e+02    
1.011800000000000e+10    -2.047369649533708e+01   1.153708132768583e+02    
1.011900000000000e+10    -2.073405947842982e+01   1.151803621538494e+02    
1.012000000000000e+10    -2.104374648638554e+01   1.155467737695177e+02    
1.012100000000000e+10    -2.130739336804733e+01   1.160917565912824e+02    
1.012200000000000e+10    -2.162849252785195e+01   1.167099311428877e+02    
1.012300000000000e+10    -2.185470476093392e+01   1.180865114135788e+02    
1.012400000000000e+10    -2.207641572060542e+01   1.189741434369707e+02    
1.012500000000000e+10    -2.230701742442655e+01   1.209439274166869e+02    
1.012600000000000e+10    -2.247505170884044e+01   1.228814133938943e+02    
1.012700000000000e+10    -2.255837468041628e+01   1.251425658725036e+02    
1.012800000000000e+10    -2.259800929650059e+01   1.274430479860974e+02    
1.012900000000000e+10    -2.259915595718068e+01   1.295130495425414e+02    
1.013000000000000e+10    -2.250201803018331e+01   1.316444827759940e+02    
1.013100000000000e+10    -2.237708816727000e+01   1.336435017632933e+02    
1.013200000000000e+10    -2.214124020000688e+01   1.355488095228258e+02    
1.013300000000000e+10    -2.195123080837464e+01   1.368778619638675e+02    
1.013400000000000e+10    -2.172480850562935e+01   1.382276826685411e+02    
1.013500000000000e+10    -2.142974337593873e+01   1.391203249415894e+02    
1.013600000000000e+10    -2.116645561940924e+01   1.396405048308713e+02    
1.013700000000000e+10    -2.089467175420053e+01   1.399083214994329e+02    
1.013800000000000e+10    -2.061356594636135e+01   1.400384237389955e+02    
1.013900000000000e+10    -2.037605276555323e+01   1.398152627026953e+02    
1.014000000000000e+10    -2.014255571450720e+01   1.391542017312611e+02    
1.014100000000000e+10    -1.989452578193382e+01   1.384661098871468e+02    
1.014200000000000e+10    -1.972057324051154e+01   1.376920496662538e+02    
1.014300000000000e+10    -1.956396659638161e+01   1.368188937056287e+02    
1.014400000000000e+10    -1.938703428814610e+01   1.356650829421411e+02    
1.014500000000000e+10    -1.923074688879918e+01   1.343940393201914e+02    
1.014600000000000e+10    -1.914092995786274e+01   1.331773807546095e+02    
1.014700000000000e+10    -1.904681195157200e+01   1.317215184048557e+02    
1.014800000000000e+10    -1.897823017884171e+01   1.303035775589674e+02    
1.014900000000000e+10    -1.896297212531402e+01   1.288991182493962e+02    
1.015000000000000e+10    -1.894599161498906e+01   1.274137433189960e+02    
1.015100000000000e+10    -1.895951396030674e+01   1.259403965259964e+02    
1.015200000000000e+10    -1.898560055356635e+01   1.241952813214462e+02    
1.015300000000000e+10    -1.904617161085781e+01   1.228985296157283e+02    
1.015400000000000e+10    -1.913538269395985e+01   1.214829363583272e+02    
1.015500000000000e+10    -1.920790342278353e+01   1.200285054287989e+02    
1.015600000000000e+10    -1.934649882045349e+01   1.186742787920210e+02    
1.015700000000000e+10    -1.952191999205613e+01   1.174175111866104e+02    
1.015800000000000e+10    -1.966558195141675e+01   1.162761474029667e+02    
1.015900000000000e+10    -1.988708580523674e+01   1.151794455011226e+02    
1.016000000000000e+10    -2.012436195974345e+01   1.143168865129291e+02    
1.016100000000000e+10    -2.036615029516813e+01   1.135133493580139e+02    
1.016200000000000e+10    -2.062305646938312e+01   1.129851501852474e+02    
1.016300000000000e+10    -2.091577349128974e+01   1.125337067739537e+02    
1.016400000000000e+10    -2.118525535019981e+01   1.121564873033628e+02    
1.016500000000000e+10    -2.150084334688694e+01   1.123072775310230e+02    
1.016600000000000e+10    -2.176674090737848e+01   1.127506733120877e+02    
1.016700000000000e+10    -2.210954622507727e+01   1.133655619735304e+02    
1.016800000000000e+10    -2.239663463763452e+01   1.139889981175482e+02    
1.016900000000000e+10    -2.266984431721862e+01   1.153470100645701e+02    
1.017000000000000e+10    -2.284197212352027e+01   1.170081885883800e+02    
1.017100000000000e+10    -2.302646508579526e+01   1.192260094631649e+02    
1.017200000000000e+10    -2.320714413612881e+01   1.208213930314244e+02    
1.017300000000000e+10    -2.326040326495136e+01   1.234336832586348e+02    
1.017400000000000e+10    -2.329779371594688e+01   1.251451008634851e+02    
1.017500000000000e+10    -2.322411499424945e+01   1.276510187334556e+02    
1.017600000000000e+10    -2.314448179980189e+01   1.297285851625649e+02    
1.017700000000000e+10    -2.290914549560613e+01   1.312401294582301e+02    
1.017800000000000e+10    -2.274581146577531e+01   1.329672194502078e+02    
1.017900000000000e+10    -2.250475174426236e+01   1.341866192219148e+02    
1.018000000000000e+10    -2.221834182433506e+01   1.349824822846900e+02    
1.018100000000000e+10    -2.197290354855138e+01   1.353932982481078e+02    
1.018200000000000e+10    -2.171693016450665e+01   1.356420258526770e+02    
1.018300000000000e+10    -2.143465709621413e+01   1.357245469514397e+02    
1.018400000000000e+10    -2.116200383013794e+01   1.353269708571433e+02    
1.018500000000000e+10    -2.089158302821982e+01   1.349240215415888e+02    
1.018600000000000e+10    -2.065074296691385e+01   1.345710417017086e+02    
1.018700000000000e+10    -2.047272824459304e+01   1.334139980624563e+02    
1.018800000000000e+10    -2.025342403704767e+01   1.325284485700853e+02    
1.018900000000000e+10    -2.008071679694671e+01   1.311422703896389e+02    
1.019000000000000e+10    -1.993651590605239e+01   1.300931962655010e+02    
1.019100000000000e+10    -1.982292638000010e+01   1.288873529840180e+02    
1.019200000000000e+10    -1.970004408729697e+01   1.275890477274761e+02    
1.019300000000000e+10    -1.960550758429274e+01   1.262232244834180e+02    
1.019400000000000e+10    -1.956329449750256e+01   1.244001203902935e+02    
1.019500000000000e+10    -1.950508936337499e+01   1.229791988998256e+02    
1.019600000000000e+10    -1.950862839823681e+01   1.217656005463068e+02    
1.019700000000000e+10    -1.952330837522183e+01   1.200942603488574e+02    
1.019800000000000e+10    -1.956885992639056e+01   1.186134817199051e+02    
1.019900000000000e+10    -1.960926233148530e+01   1.169907506976648e+02    
1.020000000000000e+10    -1.972174444874550e+01   1.158327890127067e+02    
1.020100000000000e+10    -1.978593509948510e+01   1.143829460001103e+02    
1.020200000000000e+10    -1.995371659070223e+01   1.130341939363678e+02    
1.020300000000000e+10    -2.007966442433960e+01   1.119933637079175e+02    
1.020400000000000e+10    -2.025070637680356e+01   1.106635060713212e+02    
1.020500000000000e+10    -2.041851283673524e+01   1.098650282727369e+02    
1.020600000000000e+10    -2.066550859464531e+01   1.090976827654459e+02    
1.020700000000000e+10    -2.087303065574952e+01   1.083560439845438e+02    
1.020800000000000e+10    -2.109238411492166e+01   1.079487904854681e+02    
1.020900000000000e+10    -2.137093462429849e+01   1.075468090908437e+02    
1.021000000000000e+10    -2.165245426777457e+01   1.077888453179085e+02    
1.021100000000000e+10    -2.190286508685467e+01   1.079667245954835e+02    
1.021200000000000e+10    -2.218018605248884e+01   1.084626276089515e+02    
1.021300000000000e+10    -2.246442817077900e+01   1.095526156577230e+02    
1.021400000000000e+10    -2.270883028469782e+01   1.104529254969459e+02    
1.021500000000000e+10    -2.291790563434541e+01   1.122487770531878e+02    
1.021600000000000e+10    -2.306220039106081e+01   1.137213648783117e+02    
1.021700000000000e+10    -2.323685344322631e+01   1.155605514380721e+02    
1.021800000000000e+10    -2.331177594532745e+01   1.177090333762437e+02    
1.021900000000000e+10    -2.337068266868945e+01   1.194036782579151e+02    
1.022000000000000e+10    -2.330418389252431e+01   1.215119115960760e+02    
1.022100000000000e+10    -2.323434963700996e+01   1.238430846695932e+02    
1.022200000000000e+10    -2.311314473549419e+01   1.254289928406199e+02    
1.022300000000000e+10    -2.290391593030628e+01   1.269655575910834e+02    
1.022400000000000e+10    -2.273881417980891e+01   1.284993037947681e+02    
1.022500000000000e+10    -2.252199104389709e+01   1.295180809987892e+02    
1.022600000000000e+10    -2.225367350842916e+01   1.303415225935428e+02    
1.022700000000000e+10    -2.198685614084170e+01   1.311495041090609e+02    
1.022800000000000e+10    -2.174798731754602e+01   1.309586225701683e+02    
1.022900000000000e+10    -2.152587714331673e+01   1.313177169634418e+02    
1.023000000000000e+10    -2.126214477437534e+01   1.308997404626298e+02    
1.023100000000000e+10    -2.109321109671828e+01   1.307319543256956e+02    
1.023200000000000e+10    -2.084456104416627e+01   1.299194046106049e+02    
1.023300000000000e+10    -2.067838721893995e+01   1.292307045689290e+02    
1.023400000000000e+10    -2.047519612989364e+01   1.283914163257709e+02    
1.023500000000000e+10    -2.036464307534384e+01   1.275377592888019e+02    
1.023600000000000e+10    -2.021641283974401e+01   1.262459368798035e+02    
1.023700000000000e+10    -2.011270737757562e+01   1.251804683294381e+02    
1.023800000000000e+10    -2.002528279180460e+01   1.238481361791663e+02    
1.023900000000000e+10    -1.998102179122685e+01   1.224885098971233e+02    
1.024000000000000e+10    -1.992510664386559e+01   1.210876119460177e+02    
1.024100000000000e+10    -1.993295972942800e+01   1.198696154327878e+02    
1.024200000000000e+10    -1.993803754947134e+01   1.184716690949950e+02    
1.024300000000000e+10    -2.000586038566414e+01   1.171465180989679e+02    
1.024400000000000e+10    -2.002819247990257e+01   1.159154940035053e+02    
1.024500000000000e+10    -2.011913944324332e+01   1.145425639760991e+02    
1.024600000000000e+10    -2.023384223816555e+01   1.133762625544936e+02    
1.024700000000000e+10    -2.035248152220178e+01   1.121511859300347e+02    
1.024800000000000e+10    -2.047324744095001e+01   1.110437223192319e+02    
1.024900000000000e+10    -2.066090714797159e+01   1.102352482923626e+02    
1.025000000000000e+10    -2.088858369665017e+01   1.091779494595853e+02    
1.025100000000000e+10    -2.101637680514384e+01   1.080759104291868e+02    
1.025200000000000e+10    -2.126488559507621e+01   1.075867085351250e+02    
1.025300000000000e+10    -2.150502314027033e+01   1.072784752035126e+02    
1.025400000000000e+10    -2.176620121564896e+01   1.069371233861841e+02    
1.025500000000000e+10    -2.200882007716989e+01   1.068107929443896e+02    
1.025600000000000e+10    -2.226292961990254e+01   1.070329754415214e+02    
