[Version] 2.0
! Rohde & Schwarz Vector Network Analyzer
! Rohde-Schwarz,ZNL20-2Port,1323001220200009,1.71.1.10-23.02.1.238
! 
! Port Assignments:
! Nominal Port -> Actual Test Port
! --------------------------------
!   1 -> 1

! Created: GMT 2024-09-04 11:57:55

# Hz S DB R 50

[Number of Ports] 1
[Number of Frequencies] 2001

[Network Data] 
! freq[Hz]               S11[mag dB]              S11[ang]                 
1.000000000000000e+10    -1.993405058381363e+01   1.500373564437380e+02    
1.000100000000000e+10    -1.969705923816133e+01   1.502752084320648e+02    
1.000200000000000e+10    -1.949791528194149e+01   1.500995689540524e+02    
1.000300000000000e+10    -1.930677868380190e+01   1.498214783772059e+02    
1.000400000000000e+10    -1.909156906602690e+01   1.494124947781361e+02    
1.000500000000000e+10    -1.888685008002351e+01   1.488018564018440e+02    
1.000600000000000e+10    -1.871746935107448e+01   1.478441450814380e+02    
1.000700000000000e+10    -1.858111876413203e+01   1.472379924625394e+02    
1.000800000000000e+10    -1.843379937358532e+01   1.461272990794481e+02    
1.000900000000000e+10    -1.836969362643789e+01   1.451050852184404e+02    
1.001000000000000e+10    -1.820274217324135e+01   1.439877056650266e+02    
1.001100000000000e+10    -1.815469111510413e+01   1.428431840853106e+02    
1.001200000000000e+10    -1.808834449249404e+01   1.414307435251620e+02    
1.001300000000000e+10    -1.805711174758414e+01   1.402381900975307e+02    
1.001400000000000e+10    -1.802740579288776e+01   1.387750138401734e+02    
1.001500000000000e+10    -1.803727646085035e+01   1.375665043958175e+02    
1.001600000000000e+10    -1.805789358950749e+01   1.361670651260701e+02    
1.001700000000000e+10    -1.809017389974613e+01   1.348634463309424e+02    
1.001800000000000e+10    -1.818075720060083e+01   1.336820036757377e+02    
1.001900000000000e+10    -1.824630050490895e+01   1.322852110731881e+02    
1.002000000000000e+10    -1.837427443692958e+01   1.310403352641571e+02    
1.002100000000000e+10    -1.850236757017361e+01   1.299747829156635e+02    
1.002200000000000e+10    -1.863681159283729e+01   1.290434147314681e+02    
1.002300000000000e+10    -1.880248847960294e+01   1.280271615715947e+02    
1.002400000000000e+10    -1.899173986271533e+01   1.274780254167432e+02    
1.002500000000000e+10    -1.919688867500612e+01   1.267038137795543e+02    
1.002600000000000e+10    -1.940080105359358e+01   1.261562654880463e+02    
1.002700000000000e+10    -1.964814692774025e+01   1.258344331390234e+02    
1.002800000000000e+10    -1.986076432385514e+01   1.259993511764535e+02    
1.002900000000000e+10    -2.015607914834158e+01   1.260936137836568e+02    
1.003000000000000e+10    -2.035465300733620e+01   1.263654638555144e+02    
1.003100000000000e+10    -2.059058698898290e+01   1.272807411574504e+02    
1.003200000000000e+10    -2.082697578577847e+01   1.276319488163916e+02    
1.003300000000000e+10    -2.104322473708883e+01   1.288974915949599e+02    
1.003400000000000e+10    -2.122760361099667e+01   1.305433934327528e+02    
1.003500000000000e+10    -2.135621009304840e+01   1.319331824848407e+02    
1.003600000000000e+10    -2.143743171586555e+01   1.337517577855540e+02    
1.003700000000000e+10    -2.152068586713887e+01   1.356823359427745e+02    
1.003800000000000e+10    -2.155068359355740e+01   1.373335659182201e+02    
1.003900000000000e+10    -2.149231451102855e+01   1.393913315570495e+02    
1.004000000000000e+10    -2.138466567075611e+01   1.409675591390954e+02    
1.004100000000000e+10    -2.128433169193887e+01   1.426841208632768e+02    
1.004200000000000e+10    -2.110281711612042e+01   1.439015483607171e+02    
1.004300000000000e+10    -2.086554701404128e+01   1.451336681106872e+02    
1.004400000000000e+10    -2.063798537389967e+01   1.462298130068627e+02    
1.004500000000000e+10    -2.037924310058453e+01   1.467425635860089e+02    
1.004600000000000e+10    -2.016678778261799e+01   1.472289056655244e+02    
1.004700000000000e+10    -1.990438476238256e+01   1.472705967784646e+02    
1.004800000000000e+10    -1.963739094126095e+01   1.471321266184100e+02    
1.004900000000000e+10    -1.940388078754392e+01   1.465750177062846e+02    
1.005000000000000e+10    -1.921530310288401e+01   1.461182625587980e+02    
1.005100000000000e+10    -1.902105343439733e+01   1.453614507054679e+02    
1.005200000000000e+10    -1.883289183250358e+01   1.445400125464152e+02    
1.005300000000000e+10    -1.867520638590333e+01   1.437400190942867e+02    
1.005400000000000e+10    -1.852873583197790e+01   1.425006907628912e+02    
1.005500000000000e+10    -1.840228228478449e+01   1.413695399490168e+02    
1.005600000000000e+10    -1.832812939690837e+01   1.400422333197624e+02    
1.005700000000000e+10    -1.823825337442379e+01   1.387001103349504e+02    
1.005800000000000e+10    -1.821616847346406e+01   1.373882837765159e+02    
1.005900000000000e+10    -1.817613195757539e+01   1.361637906669119e+02    
1.006000000000000e+10    -1.817364232758362e+01   1.347880046608593e+02    
1.006100000000000e+10    -1.817508425151222e+01   1.331451108561427e+02    
1.006200000000000e+10    -1.825591896504028e+01   1.317988790804230e+02    
1.006300000000000e+10    -1.832695310596398e+01   1.302621222026695e+02    
1.006400000000000e+10    -1.838755827535121e+01   1.289513531324371e+02    
1.006500000000000e+10    -1.850742871027488e+01   1.276991012862211e+02    
1.006600000000000e+10    -1.864105545296538e+01   1.263556109592330e+02    
1.006700000000000e+10    -1.879671214641564e+01   1.249851816486531e+02    
1.006800000000000e+10    -1.893387867544577e+01   1.240720052288019e+02    
1.006900000000000e+10    -1.916172137895168e+01   1.231334334060634e+02    
1.007000000000000e+10    -1.937130393062126e+01   1.221542571459767e+02    
1.007100000000000e+10    -1.965083743769204e+01   1.214411246736808e+02    
1.007200000000000e+10    -1.987495897975922e+01   1.210398401554976e+02    
1.007300000000000e+10    -2.014647175427840e+01   1.204531878064557e+02    
1.007400000000000e+10    -2.043245538320192e+01   1.204399501909763e+02    
1.007500000000000e+10    -2.071047614855947e+01   1.206797603072071e+02    
1.007600000000000e+10    -2.098907144874373e+01   1.211294192435061e+02    
1.007700000000000e+10    -2.128609640128548e+01   1.217866214751589e+02    
1.007800000000000e+10    -2.157714647347716e+01   1.227746183221362e+02    
1.007900000000000e+10    -2.185515789508710e+01   1.238005099173187e+02    
1.008000000000000e+10    -2.204934222606409e+01   1.253781796175847e+02    
1.008100000000000e+10    -2.218552700713543e+01   1.274929628789667e+02    
1.008200000000000e+10    -2.229457876292052e+01   1.296024948032880e+02    
1.008300000000000e+10    -2.237138036750735e+01   1.313652018295431e+02    
1.008400000000000e+10    -2.233545818912547e+01   1.340188825036994e+02    
1.008500000000000e+10    -2.230110849168306e+01   1.358949255550385e+02    
1.008600000000000e+10    -2.216248808268848e+01   1.376169655910911e+02    
1.008700000000000e+10    -2.198580025620824e+01   1.394814401340458e+02    
1.008800000000000e+10    -2.172736455163023e+01   1.409681876880128e+02    
1.008900000000000e+10    -2.153459449225241e+01   1.419051226048174e+02    
1.009000000000000e+10    -2.126899931768939e+01   1.430596158463592e+02    
1.009100000000000e+10    -2.098126399371827e+01   1.433601833538390e+02    
1.009200000000000e+10    -2.070729015591180e+01   1.436879305153540e+02    
1.009300000000000e+10    -2.043099798598455e+01   1.433228975736395e+02    
1.009400000000000e+10    -2.018182449196136e+01   1.431406217607695e+02    
1.009500000000000e+10    -1.989591268270894e+01   1.426108872189412e+02    
1.009600000000000e+10    -1.972796459374307e+01   1.419751364751158e+02    
1.009700000000000e+10    -1.947625394652685e+01   1.411793018130285e+02    
1.009800000000000e+10    -1.930396379552550e+01   1.397584021312761e+02    
1.009900000000000e+10    -1.911076446238359e+01   1.387954366074604e+02    
1.010000000000000e+10    -1.898099761492316e+01   1.375588140200450e+02    
1.010100000000000e+10    -1.886464766967292e+01   1.363207580842256e+02    
1.010200000000000e+10    -1.876309093274024e+01   1.346550470378565e+02    
1.010300000000000e+10    -1.868301391669493e+01   1.332862061277694e+02    
1.010400000000000e+10    -1.865790829957862e+01   1.318760592649022e+02    
1.010500000000000e+10    -1.859559225489460e+01   1.303686913331923e+02    
1.010600000000000e+10    -1.864332196578581e+01   1.285821820591802e+02    
1.010700000000000e+10    -1.860375970726495e+01   1.273297218168091e+02    
1.010800000000000e+10    -1.866596345294520e+01   1.256742114814958e+02    
1.010900000000000e+10    -1.873772855650007e+01   1.242786883249906e+02    
1.011000000000000e+10    -1.882069218064543e+01   1.227874993198661e+02    
1.011100000000000e+10    -1.894915203557283e+01   1.215860623290308e+02    
1.011200000000000e+10    -1.905239433679823e+01   1.202274722622713e+02    
1.011300000000000e+10    -1.926060787945804e+01   1.192147328639262e+02    
1.011400000000000e+10    -1.941641633582714e+01   1.178345720354267e+02    
1.011500000000000e+10    -1.961834489144934e+01   1.170692052347930e+02    
1.011600000000000e+10    -1.984748685691967e+01   1.160947932646198e+02    
1.011700000000000e+10    -2.006882868818283e+01   1.155647713404038e+02    
1.011800000000000e+10    -2.031907480958612e+01   1.151852952507428e+02    
1.011900000000000e+10    -2.063786245209521e+01   1.150379759179664e+02    
1.012000000000000e+10    -2.091133808410613e+01   1.150355730011348e+02    
1.012100000000000e+10    -2.120345593739520e+01   1.155532132876629e+02    
1.012200000000000e+10    -2.148649615228054e+01   1.160340911454287e+02    
1.012300000000000e+10    -2.179939702284148e+01   1.168656473737639e+02    
1.012400000000000e+10    -2.204483728921075e+01   1.184187575751709e+02    
1.012500000000000e+10    -2.227480195181863e+01   1.199457541502716e+02    
1.012600000000000e+10    -2.247127069092657e+01   1.215986228906374e+02    
1.012700000000000e+10    -2.255646650910474e+01   1.241360823496157e+02    
1.012800000000000e+10    -2.266246469595587e+01   1.261909953906320e+02    
1.012900000000000e+10    -2.265868494046284e+01   1.286829206807186e+02    
1.013000000000000e+10    -2.262954767990400e+01   1.308784025911690e+02    
1.013100000000000e+10    -2.248197556719653e+01   1.329339040375774e+02    
1.013200000000000e+10    -2.231801378943121e+01   1.349657876962960e+02    
1.013300000000000e+10    -2.207924547403550e+01   1.365873834524851e+02    
1.013400000000000e+10    -2.185023156530022e+01   1.380176225056263e+02    
1.013500000000000e+10    -2.157581194663795e+01   1.389987402632065e+02    
1.013600000000000e+10    -2.130213939948494e+01   1.396656855242475e+02    
1.013700000000000e+10    -2.103103171761324e+01   1.401357153847138e+02    
1.013800000000000e+10    -2.073601395643972e+01   1.402614704211303e+02    
1.013900000000000e+10    -2.046525428002059e+01   1.402797752815523e+02    
1.014000000000000e+10    -2.023545800362690e+01   1.396384789390099e+02    
1.014100000000000e+10    -1.999002635102917e+01   1.391250554975653e+02    
1.014200000000000e+10    -1.980057220025110e+01   1.383991215026785e+02    
1.014300000000000e+10    -1.959743216399604e+01   1.374024364400847e+02    
1.014400000000000e+10    -1.942904279594270e+01   1.362338492255902e+02    
1.014500000000000e+10    -1.924299897794462e+01   1.350041760160135e+02    
1.014600000000000e+10    -1.915801742399815e+01   1.339523522931072e+02    
1.014700000000000e+10    -1.908601243856611e+01   1.324072718121033e+02    
1.014800000000000e+10    -1.897271555244567e+01   1.308295367027910e+02    
1.014900000000000e+10    -1.894722574232568e+01   1.294321997887657e+02    
1.015000000000000e+10    -1.888285906160447e+01   1.280117380075893e+02    
1.015100000000000e+10    -1.891251829987482e+01   1.265000725397637e+02    
1.015200000000000e+10    -1.895408971350066e+01   1.250550729304180e+02    
1.015300000000000e+10    -1.898658499022052e+01   1.236346555162756e+02    
1.015400000000000e+10    -1.909502030341554e+01   1.221040917853680e+02    
1.015500000000000e+10    -1.910474967403999e+01   1.205420724685995e+02    
1.015600000000000e+10    -1.924746117790988e+01   1.190862817484529e+02    
1.015700000000000e+10    -1.943451022089474e+01   1.177445827315562e+02    
1.015800000000000e+10    -1.959197873307716e+01   1.166164516703147e+02    
1.015900000000000e+10    -1.979217582930031e+01   1.153359884060150e+02    
1.016000000000000e+10    -2.000811443582245e+01   1.145865029959726e+02    
1.016100000000000e+10    -2.024689859145257e+01   1.134715352299210e+02    
1.016200000000000e+10    -2.050321547319318e+01   1.127349159485747e+02    
1.016300000000000e+10    -2.077636498926896e+01   1.120643224692291e+02    
1.016400000000000e+10    -2.104654717463727e+01   1.118702786537976e+02    
1.016500000000000e+10    -2.137255754601528e+01   1.118770520169082e+02    
1.016600000000000e+10    -2.162659441819028e+01   1.118089514170581e+02    
1.016700000000000e+10    -2.200104402709255e+01   1.123239926589240e+02    
1.016800000000000e+10    -2.231596823068288e+01   1.132129626019313e+02    
1.016900000000000e+10    -2.258169062308006e+01   1.143036088410804e+02    
1.017000000000000e+10    -2.280280926072811e+01   1.162005389459521e+02    
1.017100000000000e+10    -2.304757130056143e+01   1.178063204614810e+02    
1.017200000000000e+10    -2.320836508635658e+01   1.197773889813847e+02    
1.017300000000000e+10    -2.327064067842501e+01   1.219905614523871e+02    
1.017400000000000e+10    -2.332839748748042e+01   1.241084354942279e+02    
1.017500000000000e+10    -2.332271015469765e+01   1.266839920481594e+02    
1.017600000000000e+10    -2.326109236320193e+01   1.288556998994628e+02    
1.017700000000000e+10    -2.308876429730834e+01   1.306199038135010e+02    
1.017800000000000e+10    -2.288355318845205e+01   1.324379890655271e+02    
1.017900000000000e+10    -2.268226195948702e+01   1.337866295511827e+02    
1.018000000000000e+10    -2.240521982100643e+01   1.347046718375138e+02    
1.018100000000000e+10    -2.214452337709033e+01   1.354637443527135e+02    
1.018200000000000e+10    -2.186782687636094e+01   1.359102787635400e+02    
1.018300000000000e+10    -2.158597082334308e+01   1.361485421770116e+02    
1.018400000000000e+10    -2.129001146156492e+01   1.359182297527099e+02    
1.018500000000000e+10    -2.104405070714783e+01   1.356563173202838e+02    
1.018600000000000e+10    -2.076510594375343e+01   1.350875675000841e+02    
1.018700000000000e+10    -2.055834459809792e+01   1.341823815621946e+02    
1.018800000000000e+10    -2.033140999351909e+01   1.333059874296650e+02    
1.018900000000000e+10    -2.014754257470250e+01   1.320763514637499e+02    
1.019000000000000e+10    -1.997522107363206e+01   1.310412587350885e+02    
1.019100000000000e+10    -1.983726132109704e+01   1.296687037054891e+02    
1.019200000000000e+10    -1.977248075126134e+01   1.282870731682077e+02    
1.019300000000000e+10    -1.962156393383249e+01   1.267600327118015e+02    
1.019400000000000e+10    -1.956417366214205e+01   1.252376635688432e+02    
1.019500000000000e+10    -1.950754544467913e+01   1.238445119145562e+02    
1.019600000000000e+10    -1.949706168640947e+01   1.224890402222230e+02    
1.019700000000000e+10    -1.948853345833816e+01   1.208750575955465e+02    
1.019800000000000e+10    -1.948726293794436e+01   1.192784077284375e+02    
1.019900000000000e+10    -1.954883928263943e+01   1.177110587003694e+02    
1.020000000000000e+10    -1.962215597173503e+01   1.164425964209016e+02    
1.020100000000000e+10    -1.969880205396749e+01   1.149294748893894e+02    
1.020200000000000e+10    -1.982349283998542e+01   1.135365871449909e+02    
1.020300000000000e+10    -1.994227465270232e+01   1.120792610884941e+02    
1.020400000000000e+10    -2.011594291501464e+01   1.111883474754737e+02    
1.020500000000000e+10    -2.029413369857174e+01   1.100791731940127e+02    
1.020600000000000e+10    -2.049894855722683e+01   1.090285074559809e+02    
1.020700000000000e+10    -2.072336979445853e+01   1.082440067560327e+02    
1.020800000000000e+10    -2.093626725593025e+01   1.076410670432261e+02    
1.020900000000000e+10    -2.124397900093118e+01   1.074371202830573e+02    
1.021000000000000e+10    -2.148943204008843e+01   1.071457975584730e+02    
1.021100000000000e+10    -2.175668104580484e+01   1.073803914193594e+02    
1.021200000000000e+10    -2.205676525652574e+01   1.077679881149371e+02    
1.021300000000000e+10    -2.233122340066249e+01   1.085084578829339e+02    
1.021400000000000e+10    -2.258729969844902e+01   1.091467312286387e+02    
1.021500000000000e+10    -2.285059535243498e+01   1.109663679325408e+02    
1.021600000000000e+10    -2.304855181379087e+01   1.123705702122169e+02    
1.021700000000000e+10    -2.321640012208347e+01   1.141438703376058e+02    
1.021800000000000e+10    -2.333549925254258e+01   1.161119945029757e+02    
1.021900000000000e+10    -2.346679728125872e+01   1.179947786277126e+02    
1.022000000000000e+10    -2.342491833288837e+01   1.202978130372144e+02    
1.022100000000000e+10    -2.340812719040482e+01   1.227465208962998e+02    
1.022200000000000e+10    -2.325327862757273e+01   1.246330457270686e+02    
1.022300000000000e+10    -2.308126177046759e+01   1.266173184366861e+02    
1.022400000000000e+10    -2.287266660647524e+01   1.280070839501890e+02    
1.022500000000000e+10    -2.268732609514807e+01   1.295693723853617e+02    
1.022600000000000e+10    -2.241201817951265e+01   1.302511324354486e+02    
1.022700000000000e+10    -2.218129048861397e+01   1.310241673960634e+02    
1.022800000000000e+10    -2.191164306022720e+01   1.313446865458791e+02    
1.022900000000000e+10    -2.166099965301616e+01   1.317178050700560e+02    
1.023000000000000e+10    -2.138136972119586e+01   1.312872219656319e+02    
1.023100000000000e+10    -2.118250917951291e+01   1.312609953180653e+02    
1.023200000000000e+10    -2.095262332150995e+01   1.305146453169872e+02    
1.023300000000000e+10    -2.076810606943933e+01   1.302427318340542e+02    
1.023400000000000e+10    -2.052270728250441e+01   1.291529806948830e+02    
1.023500000000000e+10    -2.042178880874068e+01   1.283877909010733e+02    
1.023600000000000e+10    -2.026155601251561e+01   1.270913318250033e+02    
1.023700000000000e+10    -2.013916363764773e+01   1.259241026866042e+02    
1.023800000000000e+10    -2.001075595606881e+01   1.247617768982357e+02    
1.023900000000000e+10    -1.995504215762393e+01   1.233200772301423e+02    
1.024000000000000e+10    -1.991485024981382e+01   1.218606840811941e+02    
1.024100000000000e+10    -1.987314787198349e+01   1.207019650649869e+02    
1.024200000000000e+10    -1.990641044394507e+01   1.194061139849681e+02    
1.024300000000000e+10    -1.991945588402625e+01   1.178050706280523e+02    
1.024400000000000e+10    -1.996492898911018e+01   1.166352821726824e+02    
1.024500000000000e+10    -2.002704864530870e+01   1.152272909236306e+02    
1.024600000000000e+10    -2.010088599637955e+01   1.139215152555669e+02    
1.024700000000000e+10    -2.021432734144854e+01   1.125293781726476e+02    
1.024800000000000e+10    -2.030711769883902e+01   1.115610290511423e+02    
1.024900000000000e+10    -2.048482137923158e+01   1.105648829345163e+02    
1.025000000000000e+10    -2.071029130634706e+01   1.091796783248903e+02    
1.025100000000000e+10    -2.086715876417761e+01   1.082659547601972e+02    
1.025200000000000e+10    -2.108587088005132e+01   1.075762694979202e+02    
1.025300000000000e+10    -2.136536755453163e+01   1.069485791818285e+02    
1.025400000000000e+10    -2.162791023585205e+01   1.065816291108207e+02    
1.025500000000000e+10    -2.189019122164701e+01   1.061384966939764e+02    
1.025600000000000e+10    -2.213339212266371e+01   1.061394570051753e+02    
