[Version] 2.0
! Rohde & Schwarz Vector Network Analyzer
! Rohde-Schwarz,ZNL20-2Port,1323001220200009,1.71.1.10-23.02.1.238
! 
! Port Assignments:
! Nominal Port -> Actual Test Port
! --------------------------------
!   1 -> 1

! Created: GMT 2024-09-04 12:01:58

# Hz S DB R 50

[Number of Ports] 1
[Number of Frequencies] 2001

[Network Data] 
! freq[Hz]               S11[mag dB]              S11[ang]                 
1.000000000000000e+10    -2.090079453912561e+01   1.486538112973955e+02    
1.000100000000000e+10    -2.069301037220148e+01   1.497209672438303e+02    
1.000200000000000e+10    -2.048305787206867e+01   1.504663522413665e+02    
1.000300000000000e+10    -2.024777741663937e+01   1.511211316140106e+02    
1.000400000000000e+10    -1.998101416870301e+01   1.514485785361759e+02    
1.000500000000000e+10    -1.971931632958469e+01   1.516840087879904e+02    
1.000600000000000e+10    -1.949619513627697e+01   1.514067065575788e+02    
1.000700000000000e+10    -1.925720885780155e+01   1.510181039627353e+02    
1.000800000000000e+10    -1.902491966032385e+01   1.504951117412432e+02    
1.000900000000000e+10    -1.884063538314928e+01   1.497782240287201e+02    
1.001000000000000e+10    -1.865124068005558e+01   1.491431037759800e+02    
1.001100000000000e+10    -1.850019420071141e+01   1.480079200966150e+02    
1.001200000000000e+10    -1.835772897415710e+01   1.468336665394095e+02    
1.001300000000000e+10    -1.821719315607463e+01   1.458481464866858e+02    
1.001400000000000e+10    -1.813838143684027e+01   1.444823547974333e+02    
1.001500000000000e+10    -1.801113548160162e+01   1.432336508914651e+02    
1.001600000000000e+10    -1.797902556863152e+01   1.416588906422654e+02    
1.001700000000000e+10    -1.791219424880872e+01   1.402245273017401e+02    
1.001800000000000e+10    -1.789279540831528e+01   1.388420791301234e+02    
1.001900000000000e+10    -1.792448716328233e+01   1.372960285097462e+02    
1.002000000000000e+10    -1.793152466165326e+01   1.358473685957168e+02    
1.002100000000000e+10    -1.800563489709990e+01   1.343971676982255e+02    
1.002200000000000e+10    -1.808659467026746e+01   1.332289362593929e+02    
1.002300000000000e+10    -1.818245575882063e+01   1.317410400420126e+02    
1.002400000000000e+10    -1.827476938937134e+01   1.306816517513315e+02    
1.002500000000000e+10    -1.840819043701459e+01   1.294603034639795e+02    
1.002600000000000e+10    -1.859204064270372e+01   1.284583794033394e+02    
1.002700000000000e+10    -1.876462279428556e+01   1.273724134379607e+02    
1.002800000000000e+10    -1.899241906977053e+01   1.267492715640531e+02    
1.002900000000000e+10    -1.921582534210118e+01   1.257937679254052e+02    
1.003000000000000e+10    -1.944646733412491e+01   1.254848162543956e+02    
1.003100000000000e+10    -1.968441669697451e+01   1.251259785656269e+02    
1.003200000000000e+10    -1.996454878429304e+01   1.250086498894965e+02    
1.003300000000000e+10    -2.022137449544906e+01   1.251031756598798e+02    
1.003400000000000e+10    -2.047731717243875e+01   1.258195519292175e+02    
1.003500000000000e+10    -2.079848169802923e+01   1.263046489080944e+02    
1.003600000000000e+10    -2.100602477563556e+01   1.273713144361353e+02    
1.003700000000000e+10    -2.123960902253690e+01   1.287888769740800e+02    
1.003800000000000e+10    -2.143799916603767e+01   1.301981064028080e+02    
1.003900000000000e+10    -2.159346835077194e+01   1.323440614906006e+02    
1.004000000000000e+10    -2.173468126643682e+01   1.339544653559851e+02    
1.004100000000000e+10    -2.177988516645917e+01   1.363227228137621e+02    
1.004200000000000e+10    -2.179350854946085e+01   1.382223913226508e+02    
1.004300000000000e+10    -2.169541899801134e+01   1.406165341415189e+02    
1.004400000000000e+10    -2.157916746074697e+01   1.427299100398543e+02    
1.004500000000000e+10    -2.140743533470227e+01   1.442671869008645e+02    
1.004600000000000e+10    -2.118890089756220e+01   1.459353304117552e+02    
1.004700000000000e+10    -2.094822164503169e+01   1.471132331157528e+02    
1.004800000000000e+10    -2.065573129824014e+01   1.480882442938469e+02    
1.004900000000000e+10    -2.038537898275284e+01   1.484629661013437e+02    
1.005000000000000e+10    -2.008292585728556e+01   1.486751852293790e+02    
1.005100000000000e+10    -1.988489476577658e+01   1.489413488987668e+02    
1.005200000000000e+10    -1.962282297100483e+01   1.486009773350517e+02    
1.005300000000000e+10    -1.935040677970511e+01   1.482198355486159e+02    
1.005400000000000e+10    -1.909488576882111e+01   1.474944467180076e+02    
1.005500000000000e+10    -1.890965073203142e+01   1.466962909482390e+02    
1.005600000000000e+10    -1.873730058930575e+01   1.456400158171055e+02    
1.005700000000000e+10    -1.856963575653629e+01   1.445733961398256e+02    
1.005800000000000e+10    -1.847188271143953e+01   1.433751373291610e+02    
1.005900000000000e+10    -1.831061724164980e+01   1.419863614285944e+02    
1.006000000000000e+10    -1.822327491303585e+01   1.405694938633095e+02    
1.006100000000000e+10    -1.812281620649474e+01   1.391206725856398e+02    
1.006200000000000e+10    -1.812668954147749e+01   1.376035568716111e+02    
1.006300000000000e+10    -1.811170497809544e+01   1.361255488668185e+02    
1.006400000000000e+10    -1.812067605692800e+01   1.345410145231108e+02    
1.006500000000000e+10    -1.813919291040743e+01   1.331855486019400e+02    
1.006600000000000e+10    -1.819441266519769e+01   1.315066058340237e+02    
1.006700000000000e+10    -1.825925765077128e+01   1.298581725949270e+02    
1.006800000000000e+10    -1.832273833697143e+01   1.286609200104779e+02    
1.006900000000000e+10    -1.849535689044766e+01   1.270351823009695e+02    
1.007000000000000e+10    -1.864176327344685e+01   1.256524235262778e+02    
1.007100000000000e+10    -1.882598482382400e+01   1.245488621817211e+02    
1.007200000000000e+10    -1.898218651334546e+01   1.234540064530245e+02    
1.007300000000000e+10    -1.921779276384524e+01   1.221933733341770e+02    
1.007400000000000e+10    -1.945298333199742e+01   1.213365613254043e+02    
1.007500000000000e+10    -1.972084904077143e+01   1.205488578177109e+02    
1.007600000000000e+10    -1.998052620164471e+01   1.199672539857560e+02    
1.007700000000000e+10    -2.030193655675905e+01   1.196553075828436e+02    
1.007800000000000e+10    -2.062737080878982e+01   1.196729732352429e+02    
1.007900000000000e+10    -2.097171300243639e+01   1.195684894707345e+02    
1.008000000000000e+10    -2.128311177660089e+01   1.199638858138496e+02    
1.008100000000000e+10    -2.157908160108339e+01   1.211048833904038e+02    
1.008200000000000e+10    -2.186127193472548e+01   1.224300835410647e+02    
1.008300000000000e+10    -2.210129629204035e+01   1.236225040731210e+02    
1.008400000000000e+10    -2.230605931462514e+01   1.256876656601509e+02    
1.008500000000000e+10    -2.253110735369950e+01   1.277884647896795e+02    
1.008600000000000e+10    -2.264522946146860e+01   1.299754234499777e+02    
1.008700000000000e+10    -2.268219882757388e+01   1.323366105529046e+02    
1.008800000000000e+10    -2.265857299488030e+01   1.348233243081221e+02    
1.008900000000000e+10    -2.258324033018755e+01   1.369552321063840e+02    
1.009000000000000e+10    -2.239747542555631e+01   1.394252111806450e+02    
1.009100000000000e+10    -2.218516352935041e+01   1.414940713674584e+02    
1.009200000000000e+10    -2.192532873228579e+01   1.427176672974471e+02    
1.009300000000000e+10    -2.166974156059153e+01   1.436264862409194e+02    
1.009400000000000e+10    -2.133278917613585e+01   1.445513989368263e+02    
1.009500000000000e+10    -2.102036823502578e+01   1.450707868566238e+02    
1.009600000000000e+10    -2.075526039382412e+01   1.450398360392194e+02    
1.009700000000000e+10    -2.043854696877063e+01   1.449742756754650e+02    
1.009800000000000e+10    -2.018484186415291e+01   1.445611114052169e+02    
1.009900000000000e+10    -1.990785393158058e+01   1.438265130306057e+02    
1.010000000000000e+10    -1.965201321906637e+01   1.431692819521118e+02    
1.010100000000000e+10    -1.945323215035660e+01   1.421415566113780e+02    
1.010200000000000e+10    -1.924202371438898e+01   1.407030954682710e+02    
1.010300000000000e+10    -1.906546742617905e+01   1.393340887217510e+02    
1.010400000000000e+10    -1.889958237166369e+01   1.382294117252929e+02    
1.010500000000000e+10    -1.878492832215805e+01   1.367592957709123e+02    
1.010600000000000e+10    -1.872734858777552e+01   1.352248172704788e+02    
1.010700000000000e+10    -1.858322161896013e+01   1.339830509703150e+02    
1.010800000000000e+10    -1.855514928630539e+01   1.321454281164158e+02    
1.010900000000000e+10    -1.852722792294892e+01   1.305982348785109e+02    
1.011000000000000e+10    -1.854451923270723e+01   1.289913365708391e+02    
1.011100000000000e+10    -1.858945919611406e+01   1.274961590443732e+02    
1.011200000000000e+10    -1.859043132577202e+01   1.258930972036067e+02    
1.011300000000000e+10    -1.870692656410662e+01   1.245130576198548e+02    
1.011400000000000e+10    -1.877592563240486e+01   1.227575531245303e+02    
1.011500000000000e+10    -1.892029305276365e+01   1.213815512434555e+02    
1.011600000000000e+10    -1.904928330658907e+01   1.198210836824185e+02    
1.011700000000000e+10    -1.918583974559407e+01   1.186163931528120e+02    
1.011800000000000e+10    -1.938108505736294e+01   1.175458960397612e+02    
1.011900000000000e+10    -1.962854606540606e+01   1.164227226961947e+02    
1.012000000000000e+10    -1.989906965903211e+01   1.158305926954791e+02    
1.012100000000000e+10    -2.011131994435637e+01   1.150803526159897e+02    
1.012200000000000e+10    -2.040581909911993e+01   1.144985799313420e+02    
1.012300000000000e+10    -2.072504942693011e+01   1.143689434399874e+02    
1.012400000000000e+10    -2.102166838726292e+01   1.143667184336239e+02    
1.012500000000000e+10    -2.137375395308894e+01   1.148488501600461e+02    
1.012600000000000e+10    -2.164773955968653e+01   1.152830445882729e+02    
1.012700000000000e+10    -2.194320472809210e+01   1.163660903800819e+02    
1.012800000000000e+10    -2.227482995814947e+01   1.178650257024998e+02    
1.012900000000000e+10    -2.249224804940077e+01   1.197078791791371e+02    
1.013000000000000e+10    -2.273084329899593e+01   1.218346496034118e+02    
1.013100000000000e+10    -2.284693488578524e+01   1.240430244132815e+02    
1.013200000000000e+10    -2.293707214370083e+01   1.264073373257376e+02    
1.013300000000000e+10    -2.289054272459049e+01   1.291945037454421e+02    
1.013400000000000e+10    -2.289176269822430e+01   1.317136446668429e+02    
1.013500000000000e+10    -2.273044296818353e+01   1.340650041325131e+02    
1.013600000000000e+10    -2.251936291243394e+01   1.362350009704580e+02    
1.013700000000000e+10    -2.232729815968231e+01   1.378994843809919e+02    
1.013800000000000e+10    -2.206863971155108e+01   1.397170218754338e+02    
1.013900000000000e+10    -2.176707284264819e+01   1.405468135314256e+02    
1.014000000000000e+10    -2.145424653088140e+01   1.411856909882315e+02    
1.014100000000000e+10    -2.115007495526928e+01   1.418731626382406e+02    
1.014200000000000e+10    -2.088998751367699e+01   1.419095474860017e+02    
1.014300000000000e+10    -2.057646115619755e+01   1.415502097366305e+02    
1.014400000000000e+10    -2.034280811633954e+01   1.412143262361931e+02    
1.014500000000000e+10    -2.005497989721622e+01   1.405584327732421e+02    
1.014600000000000e+10    -1.983053986827451e+01   1.396083072498335e+02    
1.014700000000000e+10    -1.966553070299597e+01   1.386056629501033e+02    
1.014800000000000e+10    -1.945140529823231e+01   1.372899398307196e+02    
1.014900000000000e+10    -1.929365914780603e+01   1.362956325662703e+02    
1.015000000000000e+10    -1.915600437154799e+01   1.350106674649766e+02    
1.015100000000000e+10    -1.907736775575745e+01   1.333174879630326e+02    
1.015200000000000e+10    -1.899015172849626e+01   1.318575200006668e+02    
1.015300000000000e+10    -1.892503692707372e+01   1.303950576099500e+02    
1.015400000000000e+10    -1.889605997412396e+01   1.287261300189437e+02    
1.015500000000000e+10    -1.887114292707203e+01   1.271127587283839e+02    
1.015600000000000e+10    -1.889989971256693e+01   1.255590870025804e+02    
1.015700000000000e+10    -1.895623197343901e+01   1.237930601127467e+02    
1.015800000000000e+10    -1.903254439581493e+01   1.224048633523741e+02    
1.015900000000000e+10    -1.911389732310047e+01   1.208542837468467e+02    
1.016000000000000e+10    -1.923938557514248e+01   1.194653359765918e+02    
1.016100000000000e+10    -1.936615091222122e+01   1.179899286642363e+02    
1.016200000000000e+10    -1.955957110848821e+01   1.164172050608871e+02    
1.016300000000000e+10    -1.975273555171191e+01   1.152766074101335e+02    
1.016400000000000e+10    -1.995896583076121e+01   1.140513229273694e+02    
1.016500000000000e+10    -2.020768598111575e+01   1.128652705886605e+02    
1.016600000000000e+10    -2.041348424318988e+01   1.119809842948836e+02    
1.016700000000000e+10    -2.074059052851628e+01   1.115432652842920e+02    
1.016800000000000e+10    -2.107458730560668e+01   1.110137893372572e+02    
1.016900000000000e+10    -2.136233703868273e+01   1.105556765116855e+02    
1.017000000000000e+10    -2.168136094797095e+01   1.108346845236018e+02    
1.017100000000000e+10    -2.202570075331587e+01   1.111933886219207e+02    
1.017200000000000e+10    -2.234572479549917e+01   1.117039438663727e+02    
1.017300000000000e+10    -2.268487571581644e+01   1.129297549022882e+02    
1.017400000000000e+10    -2.297853822349136e+01   1.142482236264051e+02    
1.017500000000000e+10    -2.325756733831005e+01   1.160229270968579e+02    
1.017600000000000e+10    -2.348832477913406e+01   1.182857599228489e+02    
1.017700000000000e+10    -2.356357811211850e+01   1.201787699351371e+02    
1.017800000000000e+10    -2.363960123562984e+01   1.229904784965143e+02    
1.017900000000000e+10    -2.368821357570403e+01   1.255048818595305e+02    
1.018000000000000e+10    -2.363520970891865e+01   1.279926071103352e+02    
1.018100000000000e+10    -2.348289942077180e+01   1.301189436950509e+02    
1.018200000000000e+10    -2.329763585968174e+01   1.319057359203977e+02    
1.018300000000000e+10    -2.305375439448985e+01   1.340926462040476e+02    
1.018400000000000e+10    -2.277649917399317e+01   1.354951811027374e+02    
1.018500000000000e+10    -2.246397216853786e+01   1.362865342347609e+02    
1.018600000000000e+10    -2.215991291476868e+01   1.373928378443312e+02    
1.018700000000000e+10    -2.187227917859119e+01   1.374603978937351e+02    
1.018800000000000e+10    -2.152935212314635e+01   1.373778629550812e+02    
1.018900000000000e+10    -2.125160655871477e+01   1.369306660584105e+02    
1.019000000000000e+10    -2.097231557102052e+01   1.364996064277802e+02    
1.019100000000000e+10    -2.070290510660162e+01   1.360392898477068e+02    
1.019200000000000e+10    -2.049562056771433e+01   1.349878576091306e+02    
1.019300000000000e+10    -2.025895294099805e+01   1.337979645275359e+02    
1.019400000000000e+10    -2.006655107456972e+01   1.326312129099451e+02    
1.019500000000000e+10    -1.986578007512413e+01   1.313337177854933e+02    
1.019600000000000e+10    -1.975410147730533e+01   1.300316502322456e+02    
1.019700000000000e+10    -1.964185461151972e+01   1.285565346562215e+02    
1.019800000000000e+10    -1.951269114794409e+01   1.270030431525119e+02    
1.019900000000000e+10    -1.947738589261934e+01   1.253401293648352e+02    
1.020000000000000e+10    -1.941219030374439e+01   1.238922132462039e+02    
1.020100000000000e+10    -1.938639528581179e+01   1.222739966614191e+02    
1.020200000000000e+10    -1.940794110956789e+01   1.205559837368961e+02    
1.020300000000000e+10    -1.940978248236770e+01   1.189520527538158e+02    
1.020400000000000e+10    -1.948267216208830e+01   1.175665307595584e+02    
1.020500000000000e+10    -1.955063758699519e+01   1.159069691398741e+02    
1.020600000000000e+10    -1.967029928177412e+01   1.144443439313408e+02    
1.020700000000000e+10    -1.977061585761191e+01   1.128987801882720e+02    
1.020800000000000e+10    -1.990656941877707e+01   1.115158631867126e+02    
1.020900000000000e+10    -2.009753649469900e+01   1.103405456687014e+02    
1.021000000000000e+10    -2.029190508178426e+01   1.091331948114144e+02    
1.021100000000000e+10    -2.047757880312051e+01   1.080721873664837e+02    
1.021200000000000e+10    -2.075752917047534e+01   1.073666559533558e+02    
1.021300000000000e+10    -2.103769443471699e+01   1.069534932162425e+02    
1.021400000000000e+10    -2.130623655834420e+01   1.061553371125603e+02    
1.021500000000000e+10    -2.162719992282868e+01   1.063789911565364e+02    
1.021600000000000e+10    -2.189061334249573e+01   1.064707140334806e+02    
1.021700000000000e+10    -2.223445073386408e+01   1.065138226354449e+02    
1.021800000000000e+10    -2.251574936490490e+01   1.074688365865439e+02    
1.021900000000000e+10    -2.289083384856385e+01   1.082727830813827e+02    
1.022000000000000e+10    -2.313878356499240e+01   1.096536157435509e+02    
1.022100000000000e+10    -2.341507667573984e+01   1.114593964983715e+02    
1.022200000000000e+10    -2.360934938191553e+01   1.136341887363095e+02    
1.022300000000000e+10    -2.372359190163390e+01   1.159950780284554e+02    
1.022400000000000e+10    -2.382741732903197e+01   1.186751237250507e+02    
1.022500000000000e+10    -2.387975684374166e+01   1.209005967039800e+02    
1.022600000000000e+10    -2.380632118146593e+01   1.234278404553193e+02    
1.022700000000000e+10    -2.363648007872474e+01   1.260862909114847e+02    
1.022800000000000e+10    -2.348241884183613e+01   1.275489168253663e+02    
1.022900000000000e+10    -2.326066517945796e+01   1.299249907266997e+02    
1.023000000000000e+10    -2.299331738754538e+01   1.311921298831723e+02    
1.023100000000000e+10    -2.274810534096614e+01   1.325070059912199e+02    
1.023200000000000e+10    -2.243168301093121e+01   1.330059812451135e+02    
1.023300000000000e+10    -2.213472838500830e+01   1.341321575217858e+02    
1.023400000000000e+10    -2.180823455098846e+01   1.338494915300788e+02    
1.023500000000000e+10    -2.157129230117431e+01   1.338755535719087e+02    
1.023600000000000e+10    -2.127674223392718e+01   1.335493034020964e+02    
1.023700000000000e+10    -2.102339468765937e+01   1.329229145790424e+02    
1.023800000000000e+10    -2.079606266093446e+01   1.320940835749013e+02    
1.023900000000000e+10    -2.060122082621628e+01   1.310532949620679e+02    
1.024000000000000e+10    -2.038672572800085e+01   1.299705475219900e+02    
1.024100000000000e+10    -2.021357091815546e+01   1.288911286171682e+02    
1.024200000000000e+10    -2.011758136875576e+01   1.276153424711921e+02    
1.024300000000000e+10    -1.999421457073623e+01   1.261570636753641e+02    
1.024400000000000e+10    -1.989896375016008e+01   1.248140950159693e+02    
1.024500000000000e+10    -1.986200154246001e+01   1.233898768254201e+02    
1.024600000000000e+10    -1.980724275470310e+01   1.218839256649690e+02    
1.024700000000000e+10    -1.978638957223228e+01   1.202769014388582e+02    
1.024800000000000e+10    -1.975844990879621e+01   1.187197439774704e+02    
1.024900000000000e+10    -1.984598215088510e+01   1.173795010432518e+02    
1.025000000000000e+10    -1.990057549136773e+01   1.156308607632964e+02    
1.025100000000000e+10    -1.994543139533584e+01   1.139438583947618e+02    
1.025200000000000e+10    -2.006927359194453e+01   1.127108996155978e+02    
1.025300000000000e+10    -2.020939111087917e+01   1.111055876530428e+02    
1.025400000000000e+10    -2.037643312357293e+01   1.100200094922037e+02    
1.025500000000000e+10    -2.056277394176978e+01   1.085145500194052e+02    
1.025600000000000e+10    -2.073592164097339e+01   1.073543584607969e+02    
