[Version] 2.0
! Rohde & Schwarz Vector Network Analyzer
! Rohde-Schwarz,ZNL20-2Port,1323001220200009,1.71.1.10-23.02.1.238
! 
! Port Assignments:
! Nominal Port -> Actual Test Port
! --------------------------------
!   1 -> 1

! Created: GMT 2024-09-04 12:02:08

# Hz S DB R 50

[Number of Ports] 1
[Number of Frequencies] 2001

[Network Data] 
! freq[Hz]               S11[mag dB]              S11[ang]                 
1.000000000000000e+10    -2.093152973368535e+01   1.484311077991915e+02    
1.000100000000000e+10    -2.071653146466357e+01   1.495705276689719e+02    
1.000200000000000e+10    -2.048951913666221e+01   1.503944788818305e+02    
1.000300000000000e+10    -2.026447471915581e+01   1.511018803959765e+02    
1.000400000000000e+10    -2.002493654690435e+01   1.514962881179234e+02    
1.000500000000000e+10    -1.974616278568067e+01   1.518008057023259e+02    
1.000600000000000e+10    -1.951918545037647e+01   1.513821092011073e+02    
1.000700000000000e+10    -1.927361938841677e+01   1.512995232734506e+02    
1.000800000000000e+10    -1.905961700098328e+01   1.507030907820544e+02    
1.000900000000000e+10    -1.889170095720004e+01   1.499619212252352e+02    
1.001000000000000e+10    -1.868085390331064e+01   1.492355602679004e+02    
1.001100000000000e+10    -1.850787397938837e+01   1.482872455938961e+02    
1.001200000000000e+10    -1.834507539096115e+01   1.470456066766576e+02    
1.001300000000000e+10    -1.822216770179677e+01   1.459475213058193e+02    
1.001400000000000e+10    -1.812302583439438e+01   1.444815238788353e+02    
1.001500000000000e+10    -1.803446473262909e+01   1.432958548449531e+02    
1.001600000000000e+10    -1.797025800541205e+01   1.419649436686704e+02    
1.001700000000000e+10    -1.793369936991027e+01   1.404450809258909e+02    
1.001800000000000e+10    -1.792764006897219e+01   1.391272220036776e+02    
1.001900000000000e+10    -1.790063481509661e+01   1.376566922740254e+02    
1.002000000000000e+10    -1.793939099281766e+01   1.360487589626208e+02    
1.002100000000000e+10    -1.798610550475867e+01   1.346278291941686e+02    
1.002200000000000e+10    -1.805955011480773e+01   1.333275166841831e+02    
1.002300000000000e+10    -1.813665948655213e+01   1.320027835639614e+02    
1.002400000000000e+10    -1.824092099363899e+01   1.307563657245231e+02    
1.002500000000000e+10    -1.839179517419590e+01   1.294402237807347e+02    
1.002600000000000e+10    -1.855339328754700e+01   1.284944883707395e+02    
1.002700000000000e+10    -1.876783949403089e+01   1.274676069852918e+02    
1.002800000000000e+10    -1.895879232644698e+01   1.267201261474471e+02    
1.002900000000000e+10    -1.919184109538687e+01   1.259427527626833e+02    
1.003000000000000e+10    -1.941667894511706e+01   1.253322681231161e+02    
1.003100000000000e+10    -1.965839089245908e+01   1.253561043229462e+02    
1.003200000000000e+10    -1.991142444451330e+01   1.250210651979777e+02    
1.003300000000000e+10    -2.016123686682331e+01   1.250206465375713e+02    
1.003400000000000e+10    -2.048716189713531e+01   1.257368772676026e+02    
1.003500000000000e+10    -2.075422366773920e+01   1.261709195293049e+02    
1.003600000000000e+10    -2.097500491320554e+01   1.271828663401205e+02    
1.003700000000000e+10    -2.122867591113606e+01   1.286995396195509e+02    
1.003800000000000e+10    -2.140951559118587e+01   1.299659405249676e+02    
1.003900000000000e+10    -2.159813970852297e+01   1.320758695972295e+02    
1.004000000000000e+10    -2.171233784138065e+01   1.337799005891720e+02    
1.004100000000000e+10    -2.179282452788637e+01   1.361197718693611e+02    
1.004200000000000e+10    -2.178973998487824e+01   1.380388285481799e+02    
1.004300000000000e+10    -2.169134280417096e+01   1.403811405976904e+02    
1.004400000000000e+10    -2.158767191403086e+01   1.425101905131810e+02    
1.004500000000000e+10    -2.140494778608213e+01   1.440106640025635e+02    
1.004600000000000e+10    -2.123275636766796e+01   1.456146949895985e+02    
1.004700000000000e+10    -2.097501128374652e+01   1.468129475341618e+02    
1.004800000000000e+10    -2.070509692817774e+01   1.479796540922138e+02    
1.004900000000000e+10    -2.044224967535039e+01   1.482675840890741e+02    
1.005000000000000e+10    -2.014573911273655e+01   1.486226958427722e+02    
1.005100000000000e+10    -1.992686784151373e+01   1.487823356095132e+02    
1.005200000000000e+10    -1.964762963088743e+01   1.487248437153325e+02    
1.005300000000000e+10    -1.940642748777412e+01   1.482620514063332e+02    
1.005400000000000e+10    -1.915220843762251e+01   1.476589918162970e+02    
1.005500000000000e+10    -1.892428374008771e+01   1.469372013699798e+02    
1.005600000000000e+10    -1.874946947366827e+01   1.457895384504551e+02    
1.005700000000000e+10    -1.858419408353615e+01   1.448352290327168e+02    
1.005800000000000e+10    -1.846575339810899e+01   1.433014648726229e+02    
1.005900000000000e+10    -1.831929549153852e+01   1.423460702982750e+02    
1.006000000000000e+10    -1.823991065838162e+01   1.408216520751664e+02    
1.006100000000000e+10    -1.816663431032464e+01   1.393722734641230e+02    
1.006200000000000e+10    -1.811076687253990e+01   1.378782420283160e+02    
1.006300000000000e+10    -1.811058236696075e+01   1.362891320500848e+02    
1.006400000000000e+10    -1.810597239756075e+01   1.347279418684138e+02    
1.006500000000000e+10    -1.815203624274724e+01   1.332500968543880e+02    
1.006600000000000e+10    -1.817774174734284e+01   1.317751583548653e+02    
1.006700000000000e+10    -1.826676950034736e+01   1.301591836335866e+02    
1.006800000000000e+10    -1.831778146709583e+01   1.287707065387157e+02    
1.006900000000000e+10    -1.847617674143254e+01   1.272725265788828e+02    
1.007000000000000e+10    -1.860962276300911e+01   1.259725043552070e+02    
1.007100000000000e+10    -1.877613013993461e+01   1.246177716274170e+02    
1.007200000000000e+10    -1.894108772165599e+01   1.234473447830998e+02    
1.007300000000000e+10    -1.921139695064289e+01   1.224733120252950e+02    
1.007400000000000e+10    -1.944380074566673e+01   1.215307477306612e+02    
1.007500000000000e+10    -1.965744966756461e+01   1.206002804636456e+02    
1.007600000000000e+10    -1.998263453026374e+01   1.201678205245200e+02    
1.007700000000000e+10    -2.026339986033644e+01   1.197163689038486e+02    
1.007800000000000e+10    -2.059173946891671e+01   1.194522228375385e+02    
1.007900000000000e+10    -2.090915696522119e+01   1.195648583290814e+02    
1.008000000000000e+10    -2.124390499118322e+01   1.200670209769550e+02    
1.008100000000000e+10    -2.150934817611718e+01   1.212394912735086e+02    
1.008200000000000e+10    -2.179526553835968e+01   1.221297123114949e+02    
1.008300000000000e+10    -2.209707980017858e+01   1.234024866344129e+02    
1.008400000000000e+10    -2.227413563866006e+01   1.254445364566342e+02    
1.008500000000000e+10    -2.250789502824369e+01   1.273199398533207e+02    
1.008600000000000e+10    -2.262718408514192e+01   1.296288839176609e+02    
1.008700000000000e+10    -2.269552056089258e+01   1.319993134063210e+02    
1.008800000000000e+10    -2.260303120439989e+01   1.346599490867378e+02    
1.008900000000000e+10    -2.258617272800546e+01   1.366275408125524e+02    
1.009000000000000e+10    -2.245149965909808e+01   1.389956620197796e+02    
1.009100000000000e+10    -2.218739340389419e+01   1.407785022569379e+02    
1.009200000000000e+10    -2.195743376494011e+01   1.422847677712446e+02    
1.009300000000000e+10    -2.166603363874239e+01   1.433877062022423e+02    
1.009400000000000e+10    -2.135782279364934e+01   1.445127671645779e+02    
1.009500000000000e+10    -2.107412170965458e+01   1.450260589592428e+02    
1.009600000000000e+10    -2.082224788104453e+01   1.452381530013913e+02    
1.009700000000000e+10    -2.050589339973844e+01   1.450593301307963e+02    
1.009800000000000e+10    -2.020980756856094e+01   1.446719875848861e+02    
1.009900000000000e+10    -1.992884358010924e+01   1.439176152108747e+02    
1.010000000000000e+10    -1.966787670030287e+01   1.430202877765907e+02    
1.010100000000000e+10    -1.944354081442275e+01   1.421652726025780e+02    
1.010200000000000e+10    -1.926276279439156e+01   1.410288585821228e+02    
1.010300000000000e+10    -1.909961719222702e+01   1.397489154161921e+02    
1.010400000000000e+10    -1.894361022990575e+01   1.382916180097204e+02    
1.010500000000000e+10    -1.878550294607836e+01   1.368665777073061e+02    
1.010600000000000e+10    -1.874566725163154e+01   1.354053345215040e+02    
1.010700000000000e+10    -1.861554049151194e+01   1.340774286485640e+02    
1.010800000000000e+10    -1.856762703843571e+01   1.322348011015432e+02    
1.010900000000000e+10    -1.855938226343958e+01   1.308374791353031e+02    
1.011000000000000e+10    -1.855213741373690e+01   1.290407596784985e+02    
1.011100000000000e+10    -1.857825618865301e+01   1.275830725129224e+02    
1.011200000000000e+10    -1.859657715066635e+01   1.260466129859141e+02    
1.011300000000000e+10    -1.869439723296027e+01   1.246913264135954e+02    
1.011400000000000e+10    -1.878367144864501e+01   1.228783971968005e+02    
1.011500000000000e+10    -1.890059969613145e+01   1.216529134322646e+02    
1.011600000000000e+10    -1.904761904011777e+01   1.201445763171482e+02    
1.011700000000000e+10    -1.918180820636502e+01   1.188099749095635e+02    
1.011800000000000e+10    -1.938961261289332e+01   1.177524294001260e+02    
1.011900000000000e+10    -1.960405032814514e+01   1.168789617180568e+02    
1.012000000000000e+10    -1.985809963696120e+01   1.158687359886075e+02    
1.012100000000000e+10    -2.007220667555727e+01   1.151680061360692e+02    
1.012200000000000e+10    -2.040292593424315e+01   1.147413924336474e+02    
1.012300000000000e+10    -2.070178573306461e+01   1.144136089684509e+02    
1.012400000000000e+10    -2.097816433650202e+01   1.146319691574793e+02    
1.012500000000000e+10    -2.130156279302349e+01   1.146093302486769e+02    
1.012600000000000e+10    -2.160203241677024e+01   1.152050434401725e+02    
1.012700000000000e+10    -2.189602950659014e+01   1.166093622062290e+02    
1.012800000000000e+10    -2.219678724663449e+01   1.177951723057080e+02    
1.012900000000000e+10    -2.245558971454524e+01   1.194552714208499e+02    
1.013000000000000e+10    -2.267940127279128e+01   1.212899122763703e+02    
1.013100000000000e+10    -2.282789211425343e+01   1.239206153619250e+02    
1.013200000000000e+10    -2.289666195228194e+01   1.261398295506330e+02    
1.013300000000000e+10    -2.291565116608689e+01   1.289303507142546e+02    
1.013400000000000e+10    -2.292608681036462e+01   1.314401582204682e+02    
1.013500000000000e+10    -2.273070092407839e+01   1.339277948646965e+02    
1.013600000000000e+10    -2.260886273791479e+01   1.356346479107340e+02    
1.013700000000000e+10    -2.237018174728551e+01   1.378506988532800e+02    
1.013800000000000e+10    -2.209635141801441e+01   1.391715089411294e+02    
1.013900000000000e+10    -2.181302899404157e+01   1.404716813386329e+02    
1.014000000000000e+10    -2.153147714797015e+01   1.410803642740450e+02    
1.014100000000000e+10    -2.117092543618039e+01   1.415308662977006e+02    
1.014200000000000e+10    -2.091316608819846e+01   1.417616484643507e+02    
1.014300000000000e+10    -2.063692694244272e+01   1.415886407854986e+02    
1.014400000000000e+10    -2.035131443665648e+01   1.413054437177474e+02    
1.014500000000000e+10    -2.009161505110934e+01   1.406756267046772e+02    
1.014600000000000e+10    -1.991250695043976e+01   1.398874976714627e+02    
1.014700000000000e+10    -1.968742976247731e+01   1.387178431770025e+02    
1.014800000000000e+10    -1.945985095362863e+01   1.373907766155748e+02    
1.014900000000000e+10    -1.934579315027675e+01   1.364622794371650e+02    
1.015000000000000e+10    -1.918154193225711e+01   1.349878659020309e+02    
1.015100000000000e+10    -1.908525039159912e+01   1.336911683564074e+02    
1.015200000000000e+10    -1.901018409882773e+01   1.321925376479917e+02    
1.015300000000000e+10    -1.892358809324957e+01   1.307170836361677e+02    
1.015400000000000e+10    -1.891070412499915e+01   1.290786535905026e+02    
1.015500000000000e+10    -1.886220896253152e+01   1.273884706980944e+02    
1.015600000000000e+10    -1.890645771752116e+01   1.258789996411685e+02    
1.015700000000000e+10    -1.897375065232501e+01   1.240567958792416e+02    
1.015800000000000e+10    -1.902258790113238e+01   1.226518968729678e+02    
1.015900000000000e+10    -1.911485873443577e+01   1.210714357553218e+02    
1.016000000000000e+10    -1.923809645049080e+01   1.196468339572869e+02    
1.016100000000000e+10    -1.936281786355837e+01   1.181729781739782e+02    
1.016200000000000e+10    -1.955534578149871e+01   1.166794984044289e+02    
1.016300000000000e+10    -1.974665963800908e+01   1.154051565361102e+02    
1.016400000000000e+10    -1.992388334630841e+01   1.142741774955552e+02    
1.016500000000000e+10    -2.017849634624024e+01   1.132488993655680e+02    
1.016600000000000e+10    -2.042923859017633e+01   1.123207855213869e+02    
1.016700000000000e+10    -2.074147528461241e+01   1.116141392589422e+02    
1.016800000000000e+10    -2.103770082876114e+01   1.110160389570425e+02    
1.016900000000000e+10    -2.134473093554214e+01   1.106810486994767e+02    
1.017000000000000e+10    -2.163926782566399e+01   1.107850232991088e+02    
1.017100000000000e+10    -2.195195288132947e+01   1.113808381320749e+02    
1.017200000000000e+10    -2.230958778186971e+01   1.117144235254134e+02    
1.017300000000000e+10    -2.261702618102481e+01   1.129053517956232e+02    
1.017400000000000e+10    -2.294874756506108e+01   1.142702778479037e+02    
1.017500000000000e+10    -2.316563445115630e+01   1.162776350661646e+02    
1.017600000000000e+10    -2.346200267538985e+01   1.179261925123673e+02    
1.017700000000000e+10    -2.358357689488671e+01   1.202542435816904e+02    
1.017800000000000e+10    -2.367160890379653e+01   1.224406757492597e+02    
1.017900000000000e+10    -2.372914777663362e+01   1.251126356085956e+02    
1.018000000000000e+10    -2.365055012283754e+01   1.277820790863450e+02    
1.018100000000000e+10    -2.350500368805482e+01   1.298968205749634e+02    
1.018200000000000e+10    -2.334807927350434e+01   1.318927841839606e+02    
1.018300000000000e+10    -2.312556682898954e+01   1.338754547185251e+02    
1.018400000000000e+10    -2.280051291299805e+01   1.349487183863967e+02    
1.018500000000000e+10    -2.252666882792351e+01   1.361393575271030e+02    
1.018600000000000e+10    -2.219366261330856e+01   1.371545400135064e+02    
1.018700000000000e+10    -2.189802383046349e+01   1.373353312386568e+02    
1.018800000000000e+10    -2.159439601432652e+01   1.371160881246214e+02    
1.018900000000000e+10    -2.128816789533150e+01   1.370117979330610e+02    
1.019000000000000e+10    -2.099976810303881e+01   1.366539328147510e+02    
1.019100000000000e+10    -2.075532998289905e+01   1.359622442778272e+02    
1.019200000000000e+10    -2.052514866005165e+01   1.350483027694435e+02    
1.019300000000000e+10    -2.027113244465779e+01   1.340632863851070e+02    
1.019400000000000e+10    -2.009326175018955e+01   1.328681889850143e+02    
1.019500000000000e+10    -1.991963131532927e+01   1.315608438364317e+02    
1.019600000000000e+10    -1.976104271988624e+01   1.303696247742441e+02    
1.019700000000000e+10    -1.964537927490638e+01   1.287034595460076e+02    
1.019800000000000e+10    -1.958097681232871e+01   1.271773604421073e+02    
1.019900000000000e+10    -1.948639191477274e+01   1.256358926101881e+02    
1.020000000000000e+10    -1.941516680811712e+01   1.242322959993386e+02    
1.020100000000000e+10    -1.940347879494729e+01   1.225623413659716e+02    
1.020200000000000e+10    -1.940584317097930e+01   1.210050441255626e+02    
1.020300000000000e+10    -1.941558160102095e+01   1.191060089651151e+02    
1.020400000000000e+10    -1.949037923274046e+01   1.177751828830631e+02    
1.020500000000000e+10    -1.951003280045423e+01   1.159918666880988e+02    
1.020600000000000e+10    -1.966065053345825e+01   1.145655382944595e+02    
1.020700000000000e+10    -1.973700010670111e+01   1.130591206999455e+02    
1.020800000000000e+10    -1.989628143631374e+01   1.117214956718543e+02    
1.020900000000000e+10    -2.007550769097190e+01   1.105394069972475e+02    
1.021000000000000e+10    -2.025733750956222e+01   1.094570196402165e+02    
1.021100000000000e+10    -2.046258540322532e+01   1.084564223364776e+02    
1.021200000000000e+10    -2.067323264099489e+01   1.074699136154982e+02    
1.021300000000000e+10    -2.100370489619129e+01   1.068754160528186e+02    
1.021400000000000e+10    -2.124668305951716e+01   1.063689748108875e+02    
1.021500000000000e+10    -2.159086193107650e+01   1.063299419931350e+02    
1.021600000000000e+10    -2.184382937305843e+01   1.065120530516718e+02    
1.021700000000000e+10    -2.217010780190883e+01   1.065968881192937e+02    
1.021800000000000e+10    -2.245723509487226e+01   1.071669999972850e+02    
1.021900000000000e+10    -2.280268409885606e+01   1.080489243562965e+02    
1.022000000000000e+10    -2.308014436100708e+01   1.093079009174096e+02    
1.022100000000000e+10    -2.339697764313174e+01   1.113776253130460e+02    
1.022200000000000e+10    -2.357965333794538e+01   1.133904842085153e+02    
1.022300000000000e+10    -2.376256813026349e+01   1.157630954618071e+02    
1.022400000000000e+10    -2.379234759723118e+01   1.183736459854707e+02    
1.022500000000000e+10    -2.388564954131341e+01   1.206950312185207e+02    
1.022600000000000e+10    -2.377658888258487e+01   1.229760665392482e+02    
1.022700000000000e+10    -2.368509221575726e+01   1.256254061065583e+02    
1.022800000000000e+10    -2.352494051771169e+01   1.273251000555179e+02    
1.022900000000000e+10    -2.332825154135271e+01   1.296414537213045e+02    
1.023000000000000e+10    -2.303788468378872e+01   1.308633679682187e+02    
1.023100000000000e+10    -2.280039419801744e+01   1.324690195142676e+02    
1.023200000000000e+10    -2.245981896102430e+01   1.330165248921518e+02    
1.023300000000000e+10    -2.218836026457624e+01   1.338296794735757e+02    
1.023400000000000e+10    -2.187589177537612e+01   1.338790609750719e+02    
1.023500000000000e+10    -2.160236350687651e+01   1.339600202520614e+02    
1.023600000000000e+10    -2.130860435846066e+01   1.335944757486072e+02    
1.023700000000000e+10    -2.106707532496542e+01   1.328722224990663e+02    
1.023800000000000e+10    -2.083934888120048e+01   1.322462765482267e+02    
1.023900000000000e+10    -2.065193103666107e+01   1.313149468252501e+02    
1.024000000000000e+10    -2.044277745951917e+01   1.300169488510195e+02    
1.024100000000000e+10    -2.027537276613270e+01   1.290957479554276e+02    
1.024200000000000e+10    -2.014100477352029e+01   1.279918197822013e+02    
1.024300000000000e+10    -2.001990755892110e+01   1.264564228311190e+02    
1.024400000000000e+10    -1.992841443979062e+01   1.250296161929833e+02    
1.024500000000000e+10    -1.985342007824831e+01   1.235836569587824e+02    
1.024600000000000e+10    -1.981411042300532e+01   1.222615383040034e+02    
1.024700000000000e+10    -1.980974492068116e+01   1.205120568333868e+02    
1.024800000000000e+10    -1.975972807471673e+01   1.189973578443624e+02    
1.024900000000000e+10    -1.983784371420023e+01   1.175876755575534e+02    
1.025000000000000e+10    -1.989131614237141e+01   1.159075145908569e+02    
1.025100000000000e+10    -1.996427704177225e+01   1.142454429326403e+02    
1.025200000000000e+10    -2.004675974067806e+01   1.128969640641867e+02    
1.025300000000000e+10    -2.018298974541830e+01   1.115448217555851e+02    
1.025400000000000e+10    -2.035824985744837e+01   1.101387189124886e+02    
1.025500000000000e+10    -2.055344649841803e+01   1.088160908762269e+02    
1.025600000000000e+10    -2.073075161837945e+01   1.075074199973093e+02    
