[Version] 2.0
! Rohde & Schwarz Vector Network Analyzer
! Rohde-Schwarz,ZNL20-2Port,1323001220200009,1.71.1.10-23.02.1.238
! 
! Port Assignments:
! Nominal Port -> Actual Test Port
! --------------------------------
!   1 -> 1

! Created: GMT 2024-09-04 12:03:28

# Hz S DB R 50

[Number of Ports] 1
[Number of Frequencies] 2001

[Network Data] 
! freq[Hz]               S11[mag dB]              S11[ang]                 
1.000000000000000e+10    -2.105656159425694e+01   1.475877725788655e+02    
1.000100000000000e+10    -2.081033809430697e+01   1.492118640034130e+02    
1.000200000000000e+10    -2.064549496976831e+01   1.499224454641993e+02    
1.000300000000000e+10    -2.040437360723643e+01   1.505827702582407e+02    
1.000400000000000e+10    -2.016562681630245e+01   1.513337390592191e+02    
1.000500000000000e+10    -1.989245578664703e+01   1.518198053855565e+02    
1.000600000000000e+10    -1.965650018478544e+01   1.513983738334909e+02    
1.000700000000000e+10    -1.942471901152124e+01   1.516160678544965e+02    
1.000800000000000e+10    -1.916562834189101e+01   1.508058958636562e+02    
1.000900000000000e+10    -1.901850288622973e+01   1.504378214657580e+02    
1.001000000000000e+10    -1.876800849233610e+01   1.497480775021778e+02    
1.001100000000000e+10    -1.859600729287115e+01   1.486398660948613e+02    
1.001200000000000e+10    -1.843924093122516e+01   1.478510458474385e+02    
1.001300000000000e+10    -1.829149519223869e+01   1.466786022752218e+02    
1.001400000000000e+10    -1.818966377020043e+01   1.452259051698573e+02    
1.001500000000000e+10    -1.808633634679009e+01   1.441620075072734e+02    
1.001600000000000e+10    -1.800192383218055e+01   1.424639287185279e+02    
1.001700000000000e+10    -1.795160315040188e+01   1.412546022709574e+02    
1.001800000000000e+10    -1.790667662749208e+01   1.397826456724297e+02    
1.001900000000000e+10    -1.789906933574268e+01   1.383688925840038e+02    
1.002000000000000e+10    -1.792437066260837e+01   1.369609967038305e+02    
1.002100000000000e+10    -1.796607120499707e+01   1.354393282623596e+02    
1.002200000000000e+10    -1.801891568367381e+01   1.341880829569731e+02    
1.002300000000000e+10    -1.809821090524872e+01   1.327508316802579e+02    
1.002400000000000e+10    -1.820083073162689e+01   1.316507373735028e+02    
1.002500000000000e+10    -1.833537187828816e+01   1.301329418578113e+02    
1.002600000000000e+10    -1.847223418071724e+01   1.291254628870298e+02    
1.002700000000000e+10    -1.867329497224016e+01   1.281383181876001e+02    
1.002800000000000e+10    -1.885253131604040e+01   1.270963084573638e+02    
1.002900000000000e+10    -1.905822159007913e+01   1.263474724275744e+02    
1.003000000000000e+10    -1.928063885545755e+01   1.257939900141102e+02    
1.003100000000000e+10    -1.952785475078615e+01   1.254118893716831e+02    
1.003200000000000e+10    -1.979535585089799e+01   1.251728157080997e+02    
1.003300000000000e+10    -2.001933409486170e+01   1.251278050846683e+02    
1.003400000000000e+10    -2.033319015161937e+01   1.256031502535559e+02    
1.003500000000000e+10    -2.060745455906570e+01   1.258055500088362e+02    
1.003600000000000e+10    -2.084058932251857e+01   1.267230514103192e+02    
1.003700000000000e+10    -2.110538812761653e+01   1.279252905109462e+02    
1.003800000000000e+10    -2.130279670754713e+01   1.292208479113660e+02    
1.003900000000000e+10    -2.146729252326886e+01   1.312749606369157e+02    
1.004000000000000e+10    -2.168887382062780e+01   1.330062810915417e+02    
1.004100000000000e+10    -2.175325506161725e+01   1.350742388446133e+02    
1.004200000000000e+10    -2.177765799754739e+01   1.371122388337931e+02    
1.004300000000000e+10    -2.175474516960655e+01   1.392022252029489e+02    
1.004400000000000e+10    -2.165726408522715e+01   1.414916217930334e+02    
1.004500000000000e+10    -2.148667256591218e+01   1.432290015948041e+02    
1.004600000000000e+10    -2.135325340288796e+01   1.449311431981715e+02    
1.004700000000000e+10    -2.106445890519905e+01   1.464305006973250e+02    
1.004800000000000e+10    -2.080869976306234e+01   1.476278205381574e+02    
1.004900000000000e+10    -2.054637770824208e+01   1.482713559071666e+02    
1.005000000000000e+10    -2.028264929152940e+01   1.485166911321261e+02    
1.005100000000000e+10    -2.007076610472313e+01   1.487235067644622e+02    
1.005200000000000e+10    -1.978390401742244e+01   1.486764743421103e+02    
1.005300000000000e+10    -1.951146947052976e+01   1.483753280582326e+02    
1.005400000000000e+10    -1.926173782363772e+01   1.480096928664287e+02    
1.005500000000000e+10    -1.905197419766507e+01   1.470871433657746e+02    
1.005600000000000e+10    -1.886705302992454e+01   1.461634447128472e+02    
1.005700000000000e+10    -1.867554838864374e+01   1.452686056308476e+02    
1.005800000000000e+10    -1.855054747851727e+01   1.439704253924790e+02    
1.005900000000000e+10    -1.840614078614941e+01   1.428966921176383e+02    
1.006000000000000e+10    -1.829909969313891e+01   1.415628292395801e+02    
1.006100000000000e+10    -1.821492955123485e+01   1.400667716991611e+02    
1.006200000000000e+10    -1.817015724125732e+01   1.386678070140546e+02    
1.006300000000000e+10    -1.813821877620028e+01   1.371529538772876e+02    
1.006400000000000e+10    -1.811763203016370e+01   1.354805223591127e+02    
1.006500000000000e+10    -1.814210829286768e+01   1.342079955374996e+02    
1.006600000000000e+10    -1.816654270704701e+01   1.325261641161264e+02    
1.006700000000000e+10    -1.822239578985885e+01   1.309985058315414e+02    
1.006800000000000e+10    -1.829273105687849e+01   1.294388906338507e+02    
1.006900000000000e+10    -1.844433335643525e+01   1.281253500109560e+02    
1.007000000000000e+10    -1.856862176780599e+01   1.266866977809862e+02    
1.007100000000000e+10    -1.872492774195443e+01   1.253805545953548e+02    
1.007200000000000e+10    -1.888253988516350e+01   1.242186481365110e+02    
1.007300000000000e+10    -1.910758668018054e+01   1.228289149493898e+02    
1.007400000000000e+10    -1.933696589400333e+01   1.220765156208938e+02    
1.007500000000000e+10    -1.955972943967679e+01   1.210728585813673e+02    
1.007600000000000e+10    -1.981666940810782e+01   1.205613967617481e+02    
1.007700000000000e+10    -2.010798921963643e+01   1.199004518693485e+02    
1.007800000000000e+10    -2.044338008290588e+01   1.196809297800962e+02    
1.007900000000000e+10    -2.075955430624278e+01   1.196943874287186e+02    
1.008000000000000e+10    -2.106121722175251e+01   1.198424215116212e+02    
1.008100000000000e+10    -2.137028705909602e+01   1.208395231392171e+02    
1.008200000000000e+10    -2.163716897480640e+01   1.215501885802602e+02    
1.008300000000000e+10    -2.193719768114078e+01   1.226460664735819e+02    
1.008400000000000e+10    -2.217703946752076e+01   1.245607176254452e+02    
1.008500000000000e+10    -2.239188930174681e+01   1.263738995975729e+02    
1.008600000000000e+10    -2.256838383431607e+01   1.285510428086662e+02    
1.008700000000000e+10    -2.267788131792888e+01   1.306568022485102e+02    
1.008800000000000e+10    -2.262272401145113e+01   1.334457941553470e+02    
1.008900000000000e+10    -2.262116487070484e+01   1.355994499659616e+02    
1.009000000000000e+10    -2.250820867443247e+01   1.380732289356376e+02    
1.009100000000000e+10    -2.233263699864165e+01   1.400758854509480e+02    
1.009200000000000e+10    -2.207501813616675e+01   1.414716455382235e+02    
1.009300000000000e+10    -2.180620557573840e+01   1.427570930851469e+02    
1.009400000000000e+10    -2.150893269251150e+01   1.440074224418493e+02    
1.009500000000000e+10    -2.120828139821386e+01   1.446124681295233e+02    
1.009600000000000e+10    -2.095186903278282e+01   1.450180461018441e+02    
1.009700000000000e+10    -2.064588205659910e+01   1.450650429334010e+02    
1.009800000000000e+10    -2.033979833394450e+01   1.446667251691539e+02    
1.009900000000000e+10    -2.007053247846617e+01   1.440358385233756e+02    
1.010000000000000e+10    -1.982693344826772e+01   1.435061688447784e+02    
1.010100000000000e+10    -1.958553992272957e+01   1.424313827213589e+02    
1.010200000000000e+10    -1.937320341198276e+01   1.415342301737869e+02    
1.010300000000000e+10    -1.916959069094815e+01   1.404250946596592e+02    
1.010400000000000e+10    -1.906281453077817e+01   1.391648237976779e+02    
1.010500000000000e+10    -1.888892018532109e+01   1.376673854067168e+02    
1.010600000000000e+10    -1.880638049258657e+01   1.361633609827344e+02    
1.010700000000000e+10    -1.867665726488662e+01   1.348285122024118e+02    
1.010800000000000e+10    -1.861621755764397e+01   1.329265470425249e+02    
1.010900000000000e+10    -1.856179254681106e+01   1.315259333675195e+02    
1.011000000000000e+10    -1.857041053351180e+01   1.299285665161813e+02    
1.011100000000000e+10    -1.858867719100421e+01   1.285564308339747e+02    
1.011200000000000e+10    -1.859185461011838e+01   1.268739523168993e+02    
1.011300000000000e+10    -1.865573304043871e+01   1.256897559260334e+02    
1.011400000000000e+10    -1.872594209339206e+01   1.238143019745777e+02    
1.011500000000000e+10    -1.886017649287660e+01   1.225082118740632e+02    
1.011600000000000e+10    -1.898232862853093e+01   1.208939797034327e+02    
1.011700000000000e+10    -1.911487277148620e+01   1.196936285552453e+02    
1.011800000000000e+10    -1.928606511899126e+01   1.182771893527797e+02    
1.011900000000000e+10    -1.951188080650644e+01   1.174337042617447e+02    
1.012000000000000e+10    -1.975996249830930e+01   1.165008291631928e+02    
1.012100000000000e+10    -1.994478865027656e+01   1.157362665201390e+02    
1.012200000000000e+10    -2.025122245833062e+01   1.151646421788297e+02    
1.012300000000000e+10    -2.051558748286089e+01   1.148069668321963e+02    
1.012400000000000e+10    -2.080050318962436e+01   1.145821370503245e+02    
1.012500000000000e+10    -2.113924381958894e+01   1.145966171437008e+02    
1.012600000000000e+10    -2.144643234769733e+01   1.150505276643936e+02    
1.012700000000000e+10    -2.175275715450843e+01   1.160734112672482e+02    
1.012800000000000e+10    -2.203775930605038e+01   1.173362209443439e+02    
1.012900000000000e+10    -2.230425214806671e+01   1.189075811418588e+02    
1.013000000000000e+10    -2.253474025884638e+01   1.204804869048885e+02    
1.013100000000000e+10    -2.272881304085990e+01   1.226955887620959e+02    
1.013200000000000e+10    -2.282544151227746e+01   1.249809946926028e+02    
1.013300000000000e+10    -2.286374847269636e+01   1.275025335847949e+02    
1.013400000000000e+10    -2.291641351410565e+01   1.300898811733675e+02    
1.013500000000000e+10    -2.281455174812676e+01   1.325840552480975e+02    
1.013600000000000e+10    -2.266494071816734e+01   1.347681186018197e+02    
1.013700000000000e+10    -2.251135253526355e+01   1.369416305698910e+02    
1.013800000000000e+10    -2.223432951334522e+01   1.385535978995034e+02    
1.013900000000000e+10    -2.196230164078759e+01   1.399373603662545e+02    
1.014000000000000e+10    -2.165299990725654e+01   1.406117751641793e+02    
1.014100000000000e+10    -2.135616747365733e+01   1.412473270615259e+02    
1.014200000000000e+10    -2.107128866042144e+01   1.416759096873687e+02    
1.014300000000000e+10    -2.079588937683339e+01   1.415285199315005e+02    
1.014400000000000e+10    -2.052413241290356e+01   1.412869900250765e+02    
1.014500000000000e+10    -2.025081147890189e+01   1.408181831584106e+02    
1.014600000000000e+10    -2.000270415542572e+01   1.401706801051752e+02    
1.014700000000000e+10    -1.984565807552372e+01   1.390767289364155e+02    
1.014800000000000e+10    -1.958330262471875e+01   1.379358715203701e+02    
1.014900000000000e+10    -1.944519925602208e+01   1.370348813024581e+02    
1.015000000000000e+10    -1.928825719036596e+01   1.356486488631976e+02    
1.015100000000000e+10    -1.916441916418792e+01   1.344175850962967e+02    
1.015200000000000e+10    -1.907033713023385e+01   1.328689839946396e+02    
1.015300000000000e+10    -1.900863815383495e+01   1.314150859335254e+02    
1.015400000000000e+10    -1.895799213535569e+01   1.297722009674747e+02    
1.015500000000000e+10    -1.890798222911857e+01   1.281496541513744e+02    
1.015600000000000e+10    -1.891009219284647e+01   1.267390128100477e+02    
1.015700000000000e+10    -1.896719024328677e+01   1.248070787314325e+02    
1.015800000000000e+10    -1.901039170292486e+01   1.237020837805942e+02    
1.015900000000000e+10    -1.908952253053305e+01   1.219697112742129e+02    
1.016000000000000e+10    -1.921533639742319e+01   1.205009143398709e+02    
1.016100000000000e+10    -1.931844600715596e+01   1.190183373088594e+02    
1.016200000000000e+10    -1.945918769281945e+01   1.177040118484901e+02    
1.016300000000000e+10    -1.966992619338727e+01   1.162564616423888e+02    
1.016400000000000e+10    -1.982347966316440e+01   1.149820629606709e+02    
1.016500000000000e+10    -2.009035570616714e+01   1.139988059221045e+02    
1.016600000000000e+10    -2.029913881739505e+01   1.127646958073553e+02    
1.016700000000000e+10    -2.058330140584439e+01   1.120907793436142e+02    
1.016800000000000e+10    -2.084887980956838e+01   1.113949035289055e+02    
1.016900000000000e+10    -2.116620531887247e+01   1.110760806724058e+02    
1.017000000000000e+10    -2.146621170292468e+01   1.108871158345003e+02    
1.017100000000000e+10    -2.178144397805038e+01   1.113108865930935e+02    
1.017200000000000e+10    -2.214269287493090e+01   1.114867990511309e+02    
1.017300000000000e+10    -2.240432915614594e+01   1.122415367341629e+02    
1.017400000000000e+10    -2.276201812380693e+01   1.135810997798247e+02    
1.017500000000000e+10    -2.303875800924526e+01   1.151146775323601e+02    
1.017600000000000e+10    -2.327375137065388e+01   1.167496426145120e+02    
1.017700000000000e+10    -2.341957569021248e+01   1.188092937613086e+02    
1.017800000000000e+10    -2.358833495145496e+01   1.211016162760094e+02    
1.017900000000000e+10    -2.362549765562882e+01   1.236618979744034e+02    
1.018000000000000e+10    -2.366756652042479e+01   1.261229028098456e+02    
1.018100000000000e+10    -2.359048045359190e+01   1.284975703651168e+02    
1.018200000000000e+10    -2.340106939199918e+01   1.306082779382694e+02    
1.018300000000000e+10    -2.324992718657914e+01   1.325918692552545e+02    
1.018400000000000e+10    -2.296597908728909e+01   1.341247150922464e+02    
1.018500000000000e+10    -2.268520668720225e+01   1.352568809129011e+02    
1.018600000000000e+10    -2.237943567574192e+01   1.364213772031450e+02    
1.018700000000000e+10    -2.208962387907025e+01   1.370841235639520e+02    
1.018800000000000e+10    -2.177003767800835e+01   1.371012813963491e+02    
1.018900000000000e+10    -2.145465496912454e+01   1.370014739992083e+02    
1.019000000000000e+10    -2.114572323628585e+01   1.365870730293587e+02    
1.019100000000000e+10    -2.092593342057873e+01   1.361540225307710e+02    
1.019200000000000e+10    -2.067449184346107e+01   1.353217959540337e+02    
1.019300000000000e+10    -2.040422626337238e+01   1.345315345215443e+02    
1.019400000000000e+10    -2.021541016596453e+01   1.333699492570912e+02    
1.019500000000000e+10    -2.001020934562596e+01   1.320803052592803e+02    
1.019600000000000e+10    -1.987210098194504e+01   1.310397762356897e+02    
1.019700000000000e+10    -1.971702667319240e+01   1.295426468696823e+02    
1.019800000000000e+10    -1.963101615760899e+01   1.279857248533901e+02    
1.019900000000000e+10    -1.953674284833584e+01   1.263883508437305e+02    
1.020000000000000e+10    -1.947755463709709e+01   1.250279574406051e+02    
1.020100000000000e+10    -1.942310672134487e+01   1.234345658703781e+02    
1.020200000000000e+10    -1.942147266102844e+01   1.219185315481646e+02    
1.020300000000000e+10    -1.942419493970119e+01   1.200545527174136e+02    
1.020400000000000e+10    -1.947302707880039e+01   1.186788522125691e+02    
1.020500000000000e+10    -1.949483255982815e+01   1.170881589643856e+02    
1.020600000000000e+10    -1.962006557153031e+01   1.157522968186447e+02    
1.020700000000000e+10    -1.969668049094719e+01   1.140110395764112e+02    
1.020800000000000e+10    -1.980947943945876e+01   1.126349419089167e+02    
1.020900000000000e+10    -1.998259603175537e+01   1.114606908550272e+02    
1.021000000000000e+10    -2.014961475229849e+01   1.103609345144847e+02    
1.021100000000000e+10    -2.035784138979393e+01   1.093025116498656e+02    
1.021200000000000e+10    -2.058791665264238e+01   1.080338575271215e+02    
1.021300000000000e+10    -2.083731552846471e+01   1.074808545777988e+02    
1.021400000000000e+10    -2.107590278304566e+01   1.066669926182975e+02    
1.021500000000000e+10    -2.138210489713593e+01   1.067132819888597e+02    
1.021600000000000e+10    -2.163569342757928e+01   1.067212102895847e+02    
1.021700000000000e+10    -2.197187788858189e+01   1.066224429801381e+02    
1.021800000000000e+10    -2.227372227224543e+01   1.069674119283283e+02    
1.021900000000000e+10    -2.262918948691915e+01   1.077949045108108e+02    
1.022000000000000e+10    -2.292408827718496e+01   1.088486966861294e+02    
1.022100000000000e+10    -2.322757134034300e+01   1.105248584297572e+02    
1.022200000000000e+10    -2.340941673802295e+01   1.120927077384482e+02    
1.022300000000000e+10    -2.361530226482857e+01   1.141243875209681e+02    
1.022400000000000e+10    -2.374214974517939e+01   1.167921746517032e+02    
1.022500000000000e+10    -2.381211564289195e+01   1.190711506141006e+02    
1.022600000000000e+10    -2.381339296188616e+01   1.214768002734235e+02    
1.022700000000000e+10    -2.375080256456152e+01   1.241311244269091e+02    
1.022800000000000e+10    -2.362424109108288e+01   1.260537178892175e+02    
1.022900000000000e+10    -2.343534229352946e+01   1.284991379907217e+02    
1.023000000000000e+10    -2.317944781899293e+01   1.301740560461258e+02    
1.023100000000000e+10    -2.295290819048307e+01   1.316665632755208e+02    
1.023200000000000e+10    -2.264211050219255e+01   1.324214298005131e+02    
1.023300000000000e+10    -2.238816183012874e+01   1.335946865326020e+02    
1.023400000000000e+10    -2.208211716442036e+01   1.338924340822818e+02    
1.023500000000000e+10    -2.178658114411053e+01   1.339992724679314e+02    
1.023600000000000e+10    -2.150177473068021e+01   1.335596792031746e+02    
1.023700000000000e+10    -2.125967143623139e+01   1.333188860396408e+02    
1.023800000000000e+10    -2.099543914640241e+01   1.328069093928678e+02    
1.023900000000000e+10    -2.077779688587744e+01   1.318701498152243e+02    
1.024000000000000e+10    -2.058461107412385e+01   1.308538689089324e+02    
1.024100000000000e+10    -2.036615109265500e+01   1.298506177887545e+02    
1.024200000000000e+10    -2.024494811290348e+01   1.285531670040234e+02    
1.024300000000000e+10    -2.013674319703020e+01   1.274365028890497e+02    
1.024400000000000e+10    -2.001348226629762e+01   1.259367758724925e+02    
1.024500000000000e+10    -1.992722255490472e+01   1.243977746430912e+02    
1.024600000000000e+10    -1.989498480938263e+01   1.232376675758371e+02    
1.024700000000000e+10    -1.984278826646919e+01   1.213925399110826e+02    
1.024800000000000e+10    -1.981321107352608e+01   1.199434222701602e+02    
1.024900000000000e+10    -1.983320033478663e+01   1.185245901297608e+02    
1.025000000000000e+10    -1.986692563527264e+01   1.170116811519016e+02    
1.025100000000000e+10    -1.993133293238671e+01   1.151298984616169e+02    
1.025200000000000e+10    -2.001656920633158e+01   1.138509799722034e+02    
1.025300000000000e+10    -2.013160199853532e+01   1.124323355128190e+02    
1.025400000000000e+10    -2.029035975457505e+01   1.110654021962143e+02    
1.025500000000000e+10    -2.042862398971611e+01   1.096158950671871e+02    
1.025600000000000e+10    -2.060538237176809e+01   1.083747147932858e+02    
