[Version] 2.0
! Rohde & Schwarz Vector Network Analyzer
! Rohde-Schwarz,ZNL20-2Port,1323001220200009,1.71.1.10-23.02.1.238
! 
! Port Assignments:
! Nominal Port -> Actual Test Port
! --------------------------------
!   1 -> 1

! Created: GMT 2024-09-04 11:58:18

# Hz S DB R 50

[Number of Ports] 1
[Number of Frequencies] 2001

[Network Data] 
! freq[Hz]               S11[mag dB]              S11[ang]                 
1.000000000000000e+10    -1.999882687345126e+01   1.502324265209914e+02    
1.000100000000000e+10    -1.976043378442873e+01   1.503659896126814e+02    
1.000200000000000e+10    -1.956146257285375e+01   1.501279685791412e+02    
1.000300000000000e+10    -1.935161374117863e+01   1.501050238389901e+02    
1.000400000000000e+10    -1.912524913089528e+01   1.494783891059536e+02    
1.000500000000000e+10    -1.893805380353852e+01   1.491649901652178e+02    
1.000600000000000e+10    -1.877257694391091e+01   1.481939090473844e+02    
1.000700000000000e+10    -1.861697495385603e+01   1.475496763963302e+02    
1.000800000000000e+10    -1.844326983592854e+01   1.465765849540960e+02    
1.000900000000000e+10    -1.836250277966770e+01   1.454427325826115e+02    
1.001000000000000e+10    -1.822876742631919e+01   1.444238958864106e+02    
1.001100000000000e+10    -1.814209013363122e+01   1.431755999278780e+02    
1.001200000000000e+10    -1.808472438458933e+01   1.418162102665671e+02    
1.001300000000000e+10    -1.803640283894342e+01   1.406871873150281e+02    
1.001400000000000e+10    -1.802188455708693e+01   1.390970965506826e+02    
1.001500000000000e+10    -1.799509618540860e+01   1.381364490824505e+02    
1.001600000000000e+10    -1.802827516220048e+01   1.366372465321381e+02    
1.001700000000000e+10    -1.805383697119785e+01   1.351959684935078e+02    
1.001800000000000e+10    -1.813049883324297e+01   1.340418897696870e+02    
1.001900000000000e+10    -1.819807027807141e+01   1.325915477900679e+02    
1.002000000000000e+10    -1.831037168540148e+01   1.313102703086810e+02    
1.002100000000000e+10    -1.844990681185465e+01   1.301947527161294e+02    
1.002200000000000e+10    -1.858222511391469e+01   1.291996012297145e+02    
1.002300000000000e+10    -1.872364605943441e+01   1.282547772958963e+02    
1.002400000000000e+10    -1.892058940918201e+01   1.276067786221393e+02    
1.002500000000000e+10    -1.910195917075289e+01   1.268241422842393e+02    
1.002600000000000e+10    -1.934427122478968e+01   1.261218847175517e+02    
1.002700000000000e+10    -1.955724971874695e+01   1.256366848175606e+02    
1.002800000000000e+10    -1.981890439564297e+01   1.257843572253163e+02    
1.002900000000000e+10    -2.007601209632156e+01   1.257204985268130e+02    
1.003000000000000e+10    -2.029491211842842e+01   1.261364619000199e+02    
1.003100000000000e+10    -2.051856622612889e+01   1.266186167502195e+02    
1.003200000000000e+10    -2.076302531197015e+01   1.274983625440215e+02    
1.003300000000000e+10    -2.097737520996619e+01   1.283388768613588e+02    
1.003400000000000e+10    -2.117263582967146e+01   1.298775204363982e+02    
1.003500000000000e+10    -2.132801433184733e+01   1.313014073111021e+02    
1.003600000000000e+10    -2.143443578983554e+01   1.330577400680800e+02    
1.003700000000000e+10    -2.152311141130886e+01   1.349836580170815e+02    
1.003800000000000e+10    -2.155529164968381e+01   1.366954903208851e+02    
1.003900000000000e+10    -2.151564489637585e+01   1.388305422922593e+02    
1.004000000000000e+10    -2.144043058679128e+01   1.403835988298472e+02    
1.004100000000000e+10    -2.129772262619793e+01   1.424779694196349e+02    
1.004200000000000e+10    -2.115943762933831e+01   1.436599089091659e+02    
1.004300000000000e+10    -2.092448127148418e+01   1.448870361260572e+02    
1.004400000000000e+10    -2.074296654977110e+01   1.461081249115783e+02    
1.004500000000000e+10    -2.048654971349757e+01   1.467056840830146e+02    
1.004600000000000e+10    -2.023034594966650e+01   1.471770264484761e+02    
1.004700000000000e+10    -1.995678540223170e+01   1.473703603354968e+02    
1.004800000000000e+10    -1.973496211590003e+01   1.475004447662252e+02    
1.004900000000000e+10    -1.945510151339823e+01   1.468690735121748e+02    
1.005000000000000e+10    -1.927520703860552e+01   1.464298693826476e+02    
1.005100000000000e+10    -1.907569637722071e+01   1.459163415355834e+02    
1.005200000000000e+10    -1.885084655017478e+01   1.451641771514259e+02    
1.005300000000000e+10    -1.872061154884224e+01   1.442100680817983e+02    
1.005400000000000e+10    -1.853886637370767e+01   1.430834680477778e+02    
1.005500000000000e+10    -1.841377777370040e+01   1.419708277569467e+02    
1.005600000000000e+10    -1.832781687308770e+01   1.406566161619391e+02    
1.005700000000000e+10    -1.823854145049134e+01   1.392308362942267e+02    
1.005800000000000e+10    -1.820528796600238e+01   1.379237030649618e+02    
1.005900000000000e+10    -1.816408697384350e+01   1.366014386330519e+02    
1.006000000000000e+10    -1.814256108538943e+01   1.351156639773369e+02    
1.006100000000000e+10    -1.816414853491271e+01   1.336287956343554e+02    
1.006200000000000e+10    -1.820275285906692e+01   1.322342102600552e+02    
1.006300000000000e+10    -1.826538433525624e+01   1.307978760737986e+02    
1.006400000000000e+10    -1.834843479989858e+01   1.293467242894862e+02    
1.006500000000000e+10    -1.845679953465074e+01   1.281149057128313e+02    
1.006600000000000e+10    -1.858083399378619e+01   1.266201787195301e+02    
1.006700000000000e+10    -1.872479583502615e+01   1.252460451993702e+02    
1.006800000000000e+10    -1.887375505929604e+01   1.242754713101658e+02    
1.006900000000000e+10    -1.910626307902684e+01   1.230496195772514e+02    
1.007000000000000e+10    -1.929787854475061e+01   1.223426983110218e+02    
1.007100000000000e+10    -1.954782278192236e+01   1.216018310359777e+02    
1.007200000000000e+10    -1.977967922227206e+01   1.210914381572834e+02    
1.007300000000000e+10    -2.006439121832433e+01   1.204051900196969e+02    
1.007400000000000e+10    -2.034287217433621e+01   1.203563055050720e+02    
1.007500000000000e+10    -2.062591797572411e+01   1.201557456282184e+02    
1.007600000000000e+10    -2.094052835211200e+01   1.207959212363227e+02    
1.007700000000000e+10    -2.121403159887086e+01   1.212594337906095e+02    
1.007800000000000e+10    -2.151442116464228e+01   1.221695978478768e+02    
1.007900000000000e+10    -2.180269920875575e+01   1.232603295216904e+02    
1.008000000000000e+10    -2.201523873864729e+01   1.248736371684642e+02    
1.008100000000000e+10    -2.218027957903147e+01   1.267885293658472e+02    
1.008200000000000e+10    -2.230702876694359e+01   1.287971646838278e+02    
1.008300000000000e+10    -2.239007871195246e+01   1.308169715139983e+02    
1.008400000000000e+10    -2.238285212214750e+01   1.331675649030618e+02    
1.008500000000000e+10    -2.235571763397791e+01   1.351970608438735e+02    
1.008600000000000e+10    -2.223396611821665e+01   1.372001918868550e+02    
1.008700000000000e+10    -2.209438730401919e+01   1.389607144766008e+02    
1.008800000000000e+10    -2.184857293099059e+01   1.407020841556386e+02    
1.008900000000000e+10    -2.163708810832549e+01   1.418296545513172e+02    
1.009000000000000e+10    -2.136497651991445e+01   1.428031645135825e+02    
1.009100000000000e+10    -2.109163487753700e+01   1.436752239984345e+02    
1.009200000000000e+10    -2.080219504158054e+01   1.437234721517638e+02    
1.009300000000000e+10    -2.052491117562255e+01   1.438086588424899e+02    
1.009400000000000e+10    -2.026766396604109e+01   1.433925195281391e+02    
1.009500000000000e+10    -1.999994207696060e+01   1.430969588001853e+02    
1.009600000000000e+10    -1.977923150239285e+01   1.424704023469908e+02    
1.009700000000000e+10    -1.955564809997815e+01   1.416057204458558e+02    
1.009800000000000e+10    -1.936677828835752e+01   1.403416997690036e+02    
1.009900000000000e+10    -1.916613900223972e+01   1.393805210935928e+02    
1.010000000000000e+10    -1.902053834412242e+01   1.381761343579826e+02    
1.010100000000000e+10    -1.887540510050047e+01   1.367748065667743e+02    
1.010200000000000e+10    -1.875856241205461e+01   1.352525519257744e+02    
1.010300000000000e+10    -1.867990624791002e+01   1.339037579190384e+02    
1.010400000000000e+10    -1.861779805772094e+01   1.324528621821073e+02    
1.010500000000000e+10    -1.859117333161074e+01   1.308172867733929e+02    
1.010600000000000e+10    -1.860634489880034e+01   1.292834467891404e+02    
1.010700000000000e+10    -1.858829419056668e+01   1.278294532945574e+02    
1.010800000000000e+10    -1.863410920329278e+01   1.261387622573626e+02    
1.010900000000000e+10    -1.869047501018575e+01   1.246678511976529e+02    
1.011000000000000e+10    -1.878226612994587e+01   1.232203300637070e+02    
1.011100000000000e+10    -1.888142293116697e+01   1.220559568326670e+02    
1.011200000000000e+10    -1.901547235153342e+01   1.206423543514002e+02    
1.011300000000000e+10    -1.917251237009624e+01   1.195397204850156e+02    
1.011400000000000e+10    -1.935428372559101e+01   1.182461781094823e+02    
1.011500000000000e+10    -1.955230832006869e+01   1.172341570954815e+02    
1.011600000000000e+10    -1.978640828107729e+01   1.162373551971355e+02    
1.011700000000000e+10    -1.997990272154285e+01   1.156053336151927e+02    
1.011800000000000e+10    -2.027859154183073e+01   1.151057543312205e+02    
1.011900000000000e+10    -2.052885422369437e+01   1.147934180733480e+02    
1.012000000000000e+10    -2.086797660318406e+01   1.149148678274303e+02    
1.012100000000000e+10    -2.111867806799055e+01   1.153622919253831e+02    
1.012200000000000e+10    -2.145301199621568e+01   1.156181931966965e+02    
1.012300000000000e+10    -2.174440018608303e+01   1.165340150941063e+02    
1.012400000000000e+10    -2.197001663953827e+01   1.176602806262093e+02    
1.012500000000000e+10    -2.223813420937462e+01   1.193495641344001e+02    
1.012600000000000e+10    -2.244934177261803e+01   1.208628384946958e+02    
1.012700000000000e+10    -2.256733446366087e+01   1.232527885649652e+02    
1.012800000000000e+10    -2.268504912660151e+01   1.255124509098996e+02    
1.012900000000000e+10    -2.273701883420258e+01   1.279231835934385e+02    
1.013000000000000e+10    -2.267261187770850e+01   1.303069108195465e+02    
1.013100000000000e+10    -2.256187887702550e+01   1.325104521699306e+02    
1.013200000000000e+10    -2.238947462745064e+01   1.345404051825535e+02    
1.013300000000000e+10    -2.218004888322838e+01   1.363715857419684e+02    
1.013400000000000e+10    -2.196729064074810e+01   1.379840052736753e+02    
1.013500000000000e+10    -2.167391357653081e+01   1.390375222703975e+02    
1.013600000000000e+10    -2.139397657207927e+01   1.398820724695427e+02    
1.013700000000000e+10    -2.113704995890848e+01   1.404783142479017e+02    
1.013800000000000e+10    -2.084093704471350e+01   1.405590327394090e+02    
1.013900000000000e+10    -2.057014894840689e+01   1.406417367593647e+02    
1.014000000000000e+10    -2.032480600779701e+01   1.401696231599957e+02    
1.014100000000000e+10    -2.005305643056050e+01   1.395208660457422e+02    
1.014200000000000e+10    -1.987014732131142e+01   1.388599341934355e+02    
1.014300000000000e+10    -1.959114126078062e+01   1.379734238586570e+02    
1.014400000000000e+10    -1.948173343883872e+01   1.368337304997490e+02    
1.014500000000000e+10    -1.927600546177205e+01   1.357219695403056e+02    
1.014600000000000e+10    -1.919284390032393e+01   1.344248641805486e+02    
1.014700000000000e+10    -1.907096168251555e+01   1.329744700765434e+02    
1.014800000000000e+10    -1.897163737655825e+01   1.315336700927338e+02    
1.014900000000000e+10    -1.894890934447566e+01   1.303197069337552e+02    
1.015000000000000e+10    -1.889349634709027e+01   1.286880448618040e+02    
1.015100000000000e+10    -1.887993296736846e+01   1.271271783073478e+02    
1.015200000000000e+10    -1.889907699717856e+01   1.256043624710733e+02    
1.015300000000000e+10    -1.892960043668328e+01   1.241442344480866e+02    
1.015400000000000e+10    -1.902263759708521e+01   1.225860664574318e+02    
1.015500000000000e+10    -1.907180073459059e+01   1.209526369257289e+02    
1.015600000000000e+10    -1.919256825850618e+01   1.195802741954777e+02    
1.015700000000000e+10    -1.934210103227287e+01   1.180956794764008e+02    
1.015800000000000e+10    -1.953080675185422e+01   1.169013291479160e+02    
1.015900000000000e+10    -1.969905581251827e+01   1.156367801323906e+02    
1.016000000000000e+10    -1.991771208698367e+01   1.146757402886221e+02    
1.016100000000000e+10    -2.012001597156684e+01   1.136595112702013e+02    
1.016200000000000e+10    -2.039727009010181e+01   1.128458499092104e+02    
1.016300000000000e+10    -2.066959725617589e+01   1.121857233551497e+02    
1.016400000000000e+10    -2.095039200274897e+01   1.116548000895723e+02    
1.016500000000000e+10    -2.128498177249620e+01   1.115655506389295e+02    
1.016600000000000e+10    -2.158198407860366e+01   1.116915209243688e+02    
1.016700000000000e+10    -2.192435372499992e+01   1.120470702366310e+02    
1.016800000000000e+10    -2.222377359503042e+01   1.124882427991853e+02    
1.016900000000000e+10    -2.250341956313633e+01   1.135357831517591e+02    
1.017000000000000e+10    -2.274196606641420e+01   1.151188130314508e+02    
1.017100000000000e+10    -2.298773105796173e+01   1.170380034839758e+02    
1.017200000000000e+10    -2.319351749154938e+01   1.189400347241064e+02    
1.017300000000000e+10    -2.334535619723762e+01   1.210540465798245e+02    
1.017400000000000e+10    -2.339292192981532e+01   1.232726591829493e+02    
1.017500000000000e+10    -2.339230443899218e+01   1.257702948055777e+02    
1.017600000000000e+10    -2.337599971820244e+01   1.281256024686999e+02    
1.017700000000000e+10    -2.320767491388631e+01   1.300611137651781e+02    
1.017800000000000e+10    -2.302587455086554e+01   1.321511992353952e+02    
1.017900000000000e+10    -2.280146525794056e+01   1.333005672350797e+02    
1.018000000000000e+10    -2.255786701885060e+01   1.345882189208471e+02    
1.018100000000000e+10    -2.227923396820742e+01   1.355546378711990e+02    
1.018200000000000e+10    -2.197471214823132e+01   1.359503260280795e+02    
1.018300000000000e+10    -2.170371672435618e+01   1.363356089390767e+02    
1.018400000000000e+10    -2.140844592679841e+01   1.364014849336225e+02    
1.018500000000000e+10    -2.114062103346198e+01   1.359683488264101e+02    
1.018600000000000e+10    -2.083381695877888e+01   1.355319967563753e+02    
1.018700000000000e+10    -2.062104344184100e+01   1.348675522223747e+02    
1.018800000000000e+10    -2.038866545140257e+01   1.339885657813968e+02    
1.018900000000000e+10    -2.021709207433198e+01   1.327789111664183e+02    
1.019000000000000e+10    -2.004332268253400e+01   1.316066173634134e+02    
1.019100000000000e+10    -1.989532248822762e+01   1.304486124711175e+02    
1.019200000000000e+10    -1.973595229260051e+01   1.290311430352013e+02    
1.019300000000000e+10    -1.962043379140859e+01   1.276026789524488e+02    
1.019400000000000e+10    -1.955431855906476e+01   1.260520734274877e+02    
1.019500000000000e+10    -1.949957856137491e+01   1.244541580519227e+02    
1.019600000000000e+10    -1.946903770513152e+01   1.231266536987646e+02    
1.019700000000000e+10    -1.945117141562850e+01   1.214464614401835e+02    
1.019800000000000e+10    -1.946799401624579e+01   1.198991914172461e+02    
1.019900000000000e+10    -1.951112208358282e+01   1.183920941031805e+02    
1.020000000000000e+10    -1.954534332185325e+01   1.169547938930560e+02    
1.020100000000000e+10    -1.963748042768879e+01   1.153335146607932e+02    
1.020200000000000e+10    -1.976190128214741e+01   1.138884291250739e+02    
1.020300000000000e+10    -1.987231175396050e+01   1.125375865899964e+02    
1.020400000000000e+10    -2.003233649491688e+01   1.115490011245507e+02    
1.020500000000000e+10    -2.020260628622502e+01   1.102486211195750e+02    
1.020600000000000e+10    -2.041763433261755e+01   1.093465580763497e+02    
1.020700000000000e+10    -2.060959247883016e+01   1.082843644212886e+02    
1.020800000000000e+10    -2.083798697195683e+01   1.075253050809278e+02    
1.020900000000000e+10    -2.110020704082223e+01   1.073252015678624e+02    
1.021000000000000e+10    -2.138019902997281e+01   1.070353739832356e+02    
1.021100000000000e+10    -2.166780763881203e+01   1.070511477933215e+02    
1.021200000000000e+10    -2.191712667443028e+01   1.068651692451252e+02    
1.021300000000000e+10    -2.224396680438676e+01   1.078206917881707e+02    
1.021400000000000e+10    -2.251595288952146e+01   1.085914950652824e+02    
1.021500000000000e+10    -2.276007841947425e+01   1.100877493718782e+02    
1.021600000000000e+10    -2.300352655554325e+01   1.116176389790355e+02    
1.021700000000000e+10    -2.321125488726704e+01   1.132229032646435e+02    
1.021800000000000e+10    -2.333387492225215e+01   1.152187165261054e+02    
1.021900000000000e+10    -2.346896715119600e+01   1.171042719665734e+02    
1.022000000000000e+10    -2.347876509173294e+01   1.195451915406657e+02    
1.022100000000000e+10    -2.349742919191721e+01   1.220234178014709e+02    
1.022200000000000e+10    -2.338277043659529e+01   1.238670568021332e+02    
1.022300000000000e+10    -2.320944242394154e+01   1.259831294924703e+02    
1.022400000000000e+10    -2.304845490055497e+01   1.278331436089112e+02    
1.022500000000000e+10    -2.283806609204753e+01   1.289855217208984e+02    
1.022600000000000e+10    -2.254367174446526e+01   1.302041125651834e+02    
1.022700000000000e+10    -2.230077253659928e+01   1.310601577878617e+02    
1.022800000000000e+10    -2.202650042220823e+01   1.313849181147365e+02    
1.022900000000000e+10    -2.181267318153760e+01   1.320114477459811e+02    
1.023000000000000e+10    -2.151756186986820e+01   1.318183498284611e+02    
1.023100000000000e+10    -2.131090425775494e+01   1.318001742167066e+02    
1.023200000000000e+10    -2.102452810809665e+01   1.311109683599531e+02    
1.023300000000000e+10    -2.084719233274135e+01   1.306259132840113e+02    
1.023400000000000e+10    -2.061293121171849e+01   1.298105248794495e+02    
1.023500000000000e+10    -2.047170398829267e+01   1.291625300305954e+02    
1.023600000000000e+10    -2.031215974592901e+01   1.278333079222789e+02    
1.023700000000000e+10    -2.014682826335726e+01   1.268451389730377e+02    
1.023800000000000e+10    -2.004418592557972e+01   1.255179902157660e+02    
1.023900000000000e+10    -1.997816833655021e+01   1.242446220744069e+02    
1.024000000000000e+10    -1.989806958659421e+01   1.227037088506138e+02    
1.024100000000000e+10    -1.986147524460749e+01   1.215537350713117e+02    
1.024200000000000e+10    -1.984764655284301e+01   1.200681915334954e+02    
1.024300000000000e+10    -1.987484942920798e+01   1.184994606752793e+02    
1.024400000000000e+10    -1.991605694545137e+01   1.171760444191127e+02    
1.024500000000000e+10    -1.994278632668082e+01   1.157310757613607e+02    
1.024600000000000e+10    -2.004354058732392e+01   1.146179377094755e+02    
1.024700000000000e+10    -2.012793117205527e+01   1.130843571590610e+02    
1.024800000000000e+10    -2.021733909165111e+01   1.121079870192293e+02    
1.024900000000000e+10    -2.039693588646820e+01   1.108214758448957e+02    
1.025000000000000e+10    -2.059496580285214e+01   1.094233366129159e+02    
1.025100000000000e+10    -2.073573497689678e+01   1.083657140006384e+02    
1.025200000000000e+10    -2.094739621554078e+01   1.076743760949757e+02    
1.025300000000000e+10    -2.121220240934158e+01   1.070115698104421e+02    
1.025400000000000e+10    -2.148571948742452e+01   1.066816769711273e+02    
1.025500000000000e+10    -2.171987097562157e+01   1.059589339632841e+02    
1.025600000000000e+10    -2.199853417260985e+01   1.059335737826255e+02    
