[Version] 2.0
! Rohde & Schwarz Vector Network Analyzer
! Rohde-Schwarz,ZNL20-2Port,1323001220200009,1.71.1.10-23.02.1.238
! 
! Port Assignments:
! Nominal Port -> Actual Test Port
! --------------------------------
!   1 -> 1

! Created: GMT 2024-09-04 11:58:33

# Hz S DB R 50

[Number of Ports] 1
[Number of Frequencies] 2001

[Network Data] 
! freq[Hz]               S11[mag dB]              S11[ang]                 
1.000000000000000e+10    -2.005740717512705e+01   1.501869506578707e+02    
1.000100000000000e+10    -1.982675699226337e+01   1.503875539644112e+02    
1.000200000000000e+10    -1.960829947236770e+01   1.504754597140725e+02    
1.000300000000000e+10    -1.943278050585694e+01   1.502943229121593e+02    
1.000400000000000e+10    -1.920279559524699e+01   1.498212578769860e+02    
1.000500000000000e+10    -1.899207551962367e+01   1.495354892707231e+02    
1.000600000000000e+10    -1.882081375524971e+01   1.486363507789104e+02    
1.000700000000000e+10    -1.863877665355718e+01   1.480601011503778e+02    
1.000800000000000e+10    -1.847719688328250e+01   1.468360978847103e+02    
1.000900000000000e+10    -1.840885683164109e+01   1.458959601638113e+02    
1.001000000000000e+10    -1.825876474712569e+01   1.447266199006317e+02    
1.001100000000000e+10    -1.816295185743618e+01   1.436002669185070e+02    
1.001200000000000e+10    -1.808527158059526e+01   1.423806359736727e+02    
1.001300000000000e+10    -1.805010603924311e+01   1.410215366608869e+02    
1.001400000000000e+10    -1.799886842176553e+01   1.394934947819872e+02    
1.001500000000000e+10    -1.800751584140634e+01   1.384945816848524e+02    
1.001600000000000e+10    -1.799707842608485e+01   1.369323622216274e+02    
1.001700000000000e+10    -1.803272251988960e+01   1.355765295858683e+02    
1.001800000000000e+10    -1.808770507692782e+01   1.343419948775878e+02    
1.001900000000000e+10    -1.815796475534736e+01   1.330025257043993e+02    
1.002000000000000e+10    -1.826251277996507e+01   1.315016388202457e+02    
1.002100000000000e+10    -1.839518668790625e+01   1.303835404945952e+02    
1.002200000000000e+10    -1.851150443965583e+01   1.296206751924873e+02    
1.002300000000000e+10    -1.867216818316715e+01   1.283128233148794e+02    
1.002400000000000e+10    -1.884692268860496e+01   1.277019756890071e+02    
1.002500000000000e+10    -1.905162671595085e+01   1.267905460850640e+02    
1.002600000000000e+10    -1.927495838678131e+01   1.263609175578790e+02    
1.002700000000000e+10    -1.948684688342649e+01   1.257012775422203e+02    
1.002800000000000e+10    -1.971665417397615e+01   1.257672625118444e+02    
1.002900000000000e+10    -1.998166895403137e+01   1.256147016896354e+02    
1.003000000000000e+10    -2.025012044207681e+01   1.258541905165696e+02    
1.003100000000000e+10    -2.048215228012275e+01   1.263916374659864e+02    
1.003200000000000e+10    -2.071815448883691e+01   1.271063533209443e+02    
1.003300000000000e+10    -2.094543149168224e+01   1.280301446787636e+02    
1.003400000000000e+10    -2.114355205231583e+01   1.294333126020957e+02    
1.003500000000000e+10    -2.133803938959328e+01   1.306929644434460e+02    
1.003600000000000e+10    -2.144270249615826e+01   1.323641121509294e+02    
1.003700000000000e+10    -2.152882707385914e+01   1.342423952039259e+02    
1.003800000000000e+10    -2.157681624994747e+01   1.362030472828071e+02    
1.003900000000000e+10    -2.154184504895958e+01   1.384343881345945e+02    
1.004000000000000e+10    -2.150677018076680e+01   1.399677638479598e+02    
1.004100000000000e+10    -2.140456920415035e+01   1.420514857778944e+02    
1.004200000000000e+10    -2.124457360492698e+01   1.435453490120584e+02    
1.004300000000000e+10    -2.104561545278753e+01   1.448678568446811e+02    
1.004400000000000e+10    -2.079426577324217e+01   1.460612897946795e+02    
1.004500000000000e+10    -2.057011272970902e+01   1.466981252738395e+02    
1.004600000000000e+10    -2.032574315616593e+01   1.470529505116180e+02    
1.004700000000000e+10    -2.001414667726634e+01   1.474912163107221e+02    
1.004800000000000e+10    -1.980224629884425e+01   1.477083161884763e+02    
1.004900000000000e+10    -1.956775258857763e+01   1.471919610618469e+02    
1.005000000000000e+10    -1.931950203883119e+01   1.467295183431754e+02    
1.005100000000000e+10    -1.912489679549727e+01   1.460774033133890e+02    
1.005200000000000e+10    -1.894868120934114e+01   1.455210147403538e+02    
1.005300000000000e+10    -1.875784167374182e+01   1.445080690107651e+02    
1.005400000000000e+10    -1.859453531218990e+01   1.435156012146536e+02    
1.005500000000000e+10    -1.842134520636267e+01   1.422487752197305e+02    
1.005600000000000e+10    -1.834376643870943e+01   1.409878007854136e+02    
1.005700000000000e+10    -1.825953710572114e+01   1.397930387412082e+02    
1.005800000000000e+10    -1.819735615335710e+01   1.381847784517484e+02    
1.005900000000000e+10    -1.812396947232343e+01   1.369914871309714e+02    
1.006000000000000e+10    -1.813779838462711e+01   1.355513995555898e+02    
1.006100000000000e+10    -1.814358749058425e+01   1.340061341400653e+02    
1.006200000000000e+10    -1.818734669920217e+01   1.325162074839677e+02    
1.006300000000000e+10    -1.825389229905572e+01   1.311001638054392e+02    
1.006400000000000e+10    -1.829324231533808e+01   1.296850633149223e+02    
1.006500000000000e+10    -1.842082028702603e+01   1.283322438519635e+02    
1.006600000000000e+10    -1.851917614213131e+01   1.270181610112682e+02    
1.006700000000000e+10    -1.868055324888258e+01   1.255216038681597e+02    
1.006800000000000e+10    -1.880639451148876e+01   1.245306661040409e+02    
1.006900000000000e+10    -1.900821996211634e+01   1.233344582686728e+02    
1.007000000000000e+10    -1.924179702047500e+01   1.225282299987866e+02    
1.007100000000000e+10    -1.949918840994192e+01   1.215777899170558e+02    
1.007200000000000e+10    -1.970518020595555e+01   1.211456687321496e+02    
1.007300000000000e+10    -1.996612101090911e+01   1.202967537522123e+02    
1.007400000000000e+10    -2.026155491134994e+01   1.200771503812732e+02    
1.007500000000000e+10    -2.054911965950474e+01   1.200833413957647e+02    
1.007600000000000e+10    -2.083753736066280e+01   1.204982981020279e+02    
1.007700000000000e+10    -2.116638728910114e+01   1.210725455110380e+02    
1.007800000000000e+10    -2.147021436301240e+01   1.217461143317993e+02    
1.007900000000000e+10    -2.175229910682266e+01   1.227003244047502e+02    
1.008000000000000e+10    -2.200014450658892e+01   1.241946973547091e+02    
1.008100000000000e+10    -2.215087241249848e+01   1.261879387662981e+02    
1.008200000000000e+10    -2.230289154044124e+01   1.281011123354314e+02    
1.008300000000000e+10    -2.239419398640221e+01   1.300435407268146e+02    
1.008400000000000e+10    -2.243941569824363e+01   1.326115413232351e+02    
1.008500000000000e+10    -2.243254747661908e+01   1.345788829246264e+02    
1.008600000000000e+10    -2.230237482584115e+01   1.367300121459010e+02    
1.008700000000000e+10    -2.216802728952425e+01   1.386408022824025e+02    
1.008800000000000e+10    -2.191478872121483e+01   1.403819379492814e+02    
1.008900000000000e+10    -2.171743364571132e+01   1.415156093005599e+02    
1.009000000000000e+10    -2.148374964143184e+01   1.429290661417762e+02    
1.009100000000000e+10    -2.118368527069400e+01   1.436267334227721e+02    
1.009200000000000e+10    -2.089114736217143e+01   1.439856281270704e+02    
1.009300000000000e+10    -2.063469875720095e+01   1.438995467165960e+02    
1.009400000000000e+10    -2.034423180156035e+01   1.437694178956672e+02    
1.009500000000000e+10    -2.008494670110478e+01   1.435865286710194e+02    
1.009600000000000e+10    -1.983743461699389e+01   1.427476274208260e+02    
1.009700000000000e+10    -1.960540217761170e+01   1.417943075489455e+02    
1.009800000000000e+10    -1.940644264273784e+01   1.407612868183004e+02    
1.009900000000000e+10    -1.921291284275200e+01   1.396594525334204e+02    
1.010000000000000e+10    -1.904884230670864e+01   1.386177241593045e+02    
1.010100000000000e+10    -1.889535371596057e+01   1.373452132816415e+02    
1.010200000000000e+10    -1.879381036924676e+01   1.358441619018189e+02    
1.010300000000000e+10    -1.869910753145600e+01   1.345334061660712e+02    
1.010400000000000e+10    -1.863185485177552e+01   1.328822098339612e+02    
1.010500000000000e+10    -1.855959727147068e+01   1.313255206812161e+02    
1.010600000000000e+10    -1.860013620396986e+01   1.295950609915704e+02    
1.010700000000000e+10    -1.856462235427896e+01   1.282825268615847e+02    
1.010800000000000e+10    -1.858344326031683e+01   1.264611622552262e+02    
1.010900000000000e+10    -1.864236719986181e+01   1.252496956944128e+02    
1.011000000000000e+10    -1.876646377858021e+01   1.236164548544898e+02    
1.011100000000000e+10    -1.882821203781110e+01   1.223386394848758e+02    
1.011200000000000e+10    -1.895727262033348e+01   1.209395859356543e+02    
1.011300000000000e+10    -1.910263399654198e+01   1.197259076108325e+02    
1.011400000000000e+10    -1.927493678889483e+01   1.184446819330801e+02    
1.011500000000000e+10    -1.947546186723221e+01   1.174616015432741e+02    
1.011600000000000e+10    -1.966185842776301e+01   1.163402192768449e+02    
1.011700000000000e+10    -1.989796821815102e+01   1.157063591048851e+02    
1.011800000000000e+10    -2.017064227910105e+01   1.150378482358997e+02    
1.011900000000000e+10    -2.042760387699575e+01   1.146292887215786e+02    
1.012000000000000e+10    -2.076875433574759e+01   1.147017753269653e+02    
1.012100000000000e+10    -2.099198827392437e+01   1.148124921389207e+02    
1.012200000000000e+10    -2.134412236669356e+01   1.152921807534099e+02    
1.012300000000000e+10    -2.164893478374993e+01   1.159422922442445e+02    
1.012400000000000e+10    -2.190573214821550e+01   1.170378963327322e+02    
1.012500000000000e+10    -2.218070552609203e+01   1.185708091455402e+02    
1.012600000000000e+10    -2.240906800146339e+01   1.202748042712042e+02    
1.012700000000000e+10    -2.253909218683884e+01   1.224207034721050e+02    
1.012800000000000e+10    -2.266481667258293e+01   1.246792840422089e+02    
1.012900000000000e+10    -2.276423934237880e+01   1.272818843343049e+02    
1.013000000000000e+10    -2.275144172772765e+01   1.291161184457467e+02    
1.013100000000000e+10    -2.266363429000006e+01   1.318269079926111e+02    
1.013200000000000e+10    -2.248545802204454e+01   1.338048423280633e+02    
1.013300000000000e+10    -2.228457918402103e+01   1.359873905747053e+02    
1.013400000000000e+10    -2.206700091555505e+01   1.374708904073833e+02    
1.013500000000000e+10    -2.181326426634469e+01   1.389044273048640e+02    
1.013600000000000e+10    -2.152105820172598e+01   1.399160002859333e+02    
1.013700000000000e+10    -2.123783136830282e+01   1.403223545335767e+02    
1.013800000000000e+10    -2.095177136564411e+01   1.407644958532738e+02    
1.013900000000000e+10    -2.065337060139793e+01   1.407171091800823e+02    
1.014000000000000e+10    -2.040017702785846e+01   1.404529596206019e+02    
1.014100000000000e+10    -2.012877613248479e+01   1.397408529715827e+02    
1.014200000000000e+10    -1.991731319127173e+01   1.393765429888481e+02    
1.014300000000000e+10    -1.971203871306289e+01   1.382678238787264e+02    
1.014400000000000e+10    -1.949551439606778e+01   1.373698275557935e+02    
1.014500000000000e+10    -1.932038511819587e+01   1.360093536365069e+02    
1.014600000000000e+10    -1.923824631156805e+01   1.350669697968681e+02    
1.014700000000000e+10    -1.910097612871324e+01   1.335158808903257e+02    
1.014800000000000e+10    -1.895683439112101e+01   1.321455310746035e+02    
1.014900000000000e+10    -1.892082318539224e+01   1.307553706878871e+02    
1.015000000000000e+10    -1.887551214753561e+01   1.292228432122712e+02    
1.015100000000000e+10    -1.887561424610753e+01   1.278059141449611e+02    
1.015200000000000e+10    -1.886847547102241e+01   1.261680407115558e+02    
1.015300000000000e+10    -1.890922137820515e+01   1.246073724574548e+02    
1.015400000000000e+10    -1.898526468050036e+01   1.232232728979950e+02    
1.015500000000000e+10    -1.903073401918381e+01   1.216272639478234e+02    
1.015600000000000e+10    -1.912082565981486e+01   1.199802402749736e+02    
1.015700000000000e+10    -1.930130998663055e+01   1.185489116039405e+02    
1.015800000000000e+10    -1.943738137871192e+01   1.174232342307388e+02    
1.015900000000000e+10    -1.961255824973399e+01   1.159543741759407e+02    
1.016000000000000e+10    -1.980531703893039e+01   1.149644005363717e+02    
1.016100000000000e+10    -2.003607927703840e+01   1.139206827142351e+02    
1.016200000000000e+10    -2.031785374018440e+01   1.129492815741286e+02    
1.016300000000000e+10    -2.058582333119980e+01   1.122487395926443e+02    
1.016400000000000e+10    -2.083119963215328e+01   1.114528406074114e+02    
1.016500000000000e+10    -2.116124056439693e+01   1.114661372745704e+02    
1.016600000000000e+10    -2.145577207283340e+01   1.114321387471681e+02    
1.016700000000000e+10    -2.178395127109311e+01   1.116624057524139e+02    
1.016800000000000e+10    -2.212363769850732e+01   1.122339902345680e+02    
1.016900000000000e+10    -2.242695405921172e+01   1.131507960642816e+02    
1.017000000000000e+10    -2.268917557401955e+01   1.142561108432942e+02    
1.017100000000000e+10    -2.296990897151529e+01   1.162160786103872e+02    
1.017200000000000e+10    -2.317453998473326e+01   1.177900597706943e+02    
1.017300000000000e+10    -2.331172680853270e+01   1.199388382422968e+02    
1.017400000000000e+10    -2.343330403268894e+01   1.222604591154182e+02    
1.017500000000000e+10    -2.344449118443270e+01   1.247873209853643e+02    
1.017600000000000e+10    -2.345862887909497e+01   1.271481437491210e+02    
1.017700000000000e+10    -2.328301191569979e+01   1.292864813453018e+02    
1.017800000000000e+10    -2.313292702916396e+01   1.314996991421668e+02    
1.017900000000000e+10    -2.294735734094559e+01   1.328658202298735e+02    
1.018000000000000e+10    -2.269457206251257e+01   1.342136318815610e+02    
1.018100000000000e+10    -2.239511956650236e+01   1.354166645259415e+02    
1.018200000000000e+10    -2.212048523477865e+01   1.357904434595537e+02    
1.018300000000000e+10    -2.185850390593755e+01   1.364078363271639e+02    
1.018400000000000e+10    -2.151263005793383e+01   1.364087286773481e+02    
1.018500000000000e+10    -2.126730192940972e+01   1.362395435454690e+02    
1.018600000000000e+10    -2.096269112295280e+01   1.359144217194826e+02    
1.018700000000000e+10    -2.073323431020443e+01   1.351089982343311e+02    
1.018800000000000e+10    -2.045924467044971e+01   1.343906777920790e+02    
1.018900000000000e+10    -2.030122453362996e+01   1.332529122104909e+02    
1.019000000000000e+10    -2.010318216975620e+01   1.321021121762628e+02    
1.019100000000000e+10    -1.994892696061900e+01   1.311252379257427e+02    
1.019200000000000e+10    -1.980821015789137e+01   1.294852437038413e+02    
1.019300000000000e+10    -1.965684649729094e+01   1.281795623905047e+02    
1.019400000000000e+10    -1.958491468277593e+01   1.266310744810062e+02    
1.019500000000000e+10    -1.948576111150146e+01   1.251241430358894e+02    
1.019600000000000e+10    -1.944652655068991e+01   1.237547938575906e+02    
1.019700000000000e+10    -1.944215327015776e+01   1.221118489093332e+02    
1.019800000000000e+10    -1.942564779845820e+01   1.204247650991455e+02    
1.019900000000000e+10    -1.949099575654205e+01   1.190025426101271e+02    
1.020000000000000e+10    -1.949689882130251e+01   1.174465962553741e+02    
1.020100000000000e+10    -1.958720625252015e+01   1.158832720817251e+02    
1.020200000000000e+10    -1.967919278388034e+01   1.145271180699077e+02    
1.020300000000000e+10    -1.980071944071013e+01   1.131573974523886e+02    
1.020400000000000e+10    -1.995248125459928e+01   1.117279813978544e+02    
1.020500000000000e+10    -2.011397972877049e+01   1.105669267597110e+02    
1.020600000000000e+10    -2.032742913444421e+01   1.097798607069495e+02    
1.020700000000000e+10    -2.050583602931544e+01   1.086738465679615e+02    
1.020800000000000e+10    -2.071982355177762e+01   1.077650655351421e+02    
1.020900000000000e+10    -2.100957144033664e+01   1.071659560851303e+02    
1.021000000000000e+10    -2.126783515607873e+01   1.069214476987027e+02    
1.021100000000000e+10    -2.152425532757002e+01   1.067197985192590e+02    
1.021200000000000e+10    -2.183751010253563e+01   1.066168872361621e+02    
1.021300000000000e+10    -2.212248554640809e+01   1.073573561609351e+02    
1.021400000000000e+10    -2.241239859283137e+01   1.079752546426312e+02    
1.021500000000000e+10    -2.269181668240515e+01   1.091550609167425e+02    
1.021600000000000e+10    -2.291286047869239e+01   1.106418254863658e+02    
1.021700000000000e+10    -2.314281468024917e+01   1.120283921754122e+02    
1.021800000000000e+10    -2.331320768145573e+01   1.139645231792093e+02    
1.021900000000000e+10    -2.347283894483713e+01   1.162324736137941e+02    
1.022000000000000e+10    -2.350216891506691e+01   1.183062905957966e+02    
1.022100000000000e+10    -2.354494407531801e+01   1.209661558283826e+02    
1.022200000000000e+10    -2.346448357672719e+01   1.229860199287986e+02    
1.022300000000000e+10    -2.333907449567045e+01   1.249944846606686e+02    
1.022400000000000e+10    -2.316697134003344e+01   1.272950696139470e+02    
1.022500000000000e+10    -2.297875779519238e+01   1.287192189938384e+02    
1.022600000000000e+10    -2.271939520141963e+01   1.298900734697931e+02    
1.022700000000000e+10    -2.244737945028764e+01   1.311368718460403e+02    
1.022800000000000e+10    -2.220938264851842e+01   1.314006527810314e+02    
1.022900000000000e+10    -2.192376251015236e+01   1.322106257578883e+02    
1.023000000000000e+10    -2.163346708837266e+01   1.320891870711643e+02    
1.023100000000000e+10    -2.141643886810754e+01   1.321199648447857e+02    
1.023200000000000e+10    -2.115748224409032e+01   1.315503532488712e+02    
1.023300000000000e+10    -2.091903695666372e+01   1.313978336526958e+02    
1.023400000000000e+10    -2.070062396949141e+01   1.305501114806823e+02    
1.023500000000000e+10    -2.053270751108346e+01   1.295676988814762e+02    
1.023600000000000e+10    -2.036916617621332e+01   1.284533782193694e+02    
1.023700000000000e+10    -2.020775227628320e+01   1.274814981212441e+02    
1.023800000000000e+10    -2.004790792883984e+01   1.262518480746447e+02    
1.023900000000000e+10    -1.997735248885055e+01   1.248101993956623e+02    
1.024000000000000e+10    -1.989795365733260e+01   1.234642797630179e+02    
1.024100000000000e+10    -1.984013027366215e+01   1.222145912201447e+02    
1.024200000000000e+10    -1.982985688297699e+01   1.208598244934203e+02    
1.024300000000000e+10    -1.984655798269198e+01   1.193096017919086e+02    
1.024400000000000e+10    -1.987144758151799e+01   1.177933799693430e+02    
1.024500000000000e+10    -1.991815924147883e+01   1.164714015583385e+02    
1.024600000000000e+10    -1.996448087350784e+01   1.152009242165744e+02    
1.024700000000000e+10    -2.006757331442586e+01   1.137356134387857e+02    
1.024800000000000e+10    -2.013062467657739e+01   1.124200666203111e+02    
1.024900000000000e+10    -2.029110183200324e+01   1.112523741237132e+02    
1.025000000000000e+10    -2.049170116545392e+01   1.101123900657157e+02    
1.025100000000000e+10    -2.064343328803618e+01   1.086575707640834e+02    
1.025200000000000e+10    -2.084423897157984e+01   1.080210613914565e+02    
1.025300000000000e+10    -2.109050591515162e+01   1.070596228881950e+02    
1.025400000000000e+10    -2.135261215991713e+01   1.063811460909118e+02    
1.025500000000000e+10    -2.160766077679536e+01   1.056102436456381e+02    
1.025600000000000e+10    -2.187736861469044e+01   1.056477209510276e+02    
