[Version] 2.0
! Rohde & Schwarz Vector Network Analyzer
! Rohde-Schwarz,ZNL20-2Port,1323001220200009,1.71.1.10-23.02.1.238
! 
! Port Assignments:
! Nominal Port -> Actual Test Port
! --------------------------------
!   1 -> 1

! Created: GMT 2024-09-04 11:58:51

# Hz S DB R 50

[Number of Ports] 1
[Number of Frequencies] 2001

[Network Data] 
! freq[Hz]               S11[mag dB]              S11[ang]                 
1.000000000000000e+10    -2.017293756874128e+01   1.501679151396121e+02    
1.000100000000000e+10    -1.990268102186045e+01   1.506513593500451e+02    
1.000200000000000e+10    -1.972971915544101e+01   1.505978487501874e+02    
1.000300000000000e+10    -1.948480580169629e+01   1.505142313610753e+02    
1.000400000000000e+10    -1.928024172858039e+01   1.502142103644761e+02    
1.000500000000000e+10    -1.905674734096375e+01   1.498932191773150e+02    
1.000600000000000e+10    -1.886484059976514e+01   1.489574575644889e+02    
1.000700000000000e+10    -1.868501813253869e+01   1.483506399495449e+02    
1.000800000000000e+10    -1.851446751085353e+01   1.473154588507482e+02    
1.000900000000000e+10    -1.840305561801354e+01   1.463662624239778e+02    
1.001000000000000e+10    -1.826392517041184e+01   1.453258523961262e+02    
1.001100000000000e+10    -1.819249659871562e+01   1.439847173146322e+02    
1.001200000000000e+10    -1.810806357234021e+01   1.427606046991091e+02    
1.001300000000000e+10    -1.802629381618647e+01   1.415455948407997e+02    
1.001400000000000e+10    -1.800063043460629e+01   1.401341888761263e+02    
1.001500000000000e+10    -1.797715177607182e+01   1.389320116625928e+02    
1.001600000000000e+10    -1.798917430571879e+01   1.374317270790383e+02    
1.001700000000000e+10    -1.799455808526521e+01   1.360747168353058e+02    
1.001800000000000e+10    -1.803887920871262e+01   1.347382248401734e+02    
1.001900000000000e+10    -1.811528613884449e+01   1.333309006233657e+02    
1.002000000000000e+10    -1.818554936586107e+01   1.318747633362663e+02    
1.002100000000000e+10    -1.834046481561959e+01   1.306917919157403e+02    
1.002200000000000e+10    -1.845831318777832e+01   1.297270463067452e+02    
1.002300000000000e+10    -1.859887227826746e+01   1.285605625294039e+02    
1.002400000000000e+10    -1.876469823549609e+01   1.278293972961871e+02    
1.002500000000000e+10    -1.897123056397336e+01   1.270334654560841e+02    
1.002600000000000e+10    -1.917547719330398e+01   1.262545140743514e+02    
1.002700000000000e+10    -1.942811582099479e+01   1.255801830771746e+02    
1.002800000000000e+10    -1.965006158731550e+01   1.255297471148058e+02    
1.002900000000000e+10    -1.990638303576639e+01   1.254064932891529e+02    
1.003000000000000e+10    -2.015836649752404e+01   1.256496469719119e+02    
1.003100000000000e+10    -2.039244598035275e+01   1.259503088876100e+02    
1.003200000000000e+10    -2.066731905975179e+01   1.266250597521252e+02    
1.003300000000000e+10    -2.088586677114292e+01   1.275982340036515e+02    
1.003400000000000e+10    -2.111002893949878e+01   1.288206815626264e+02    
1.003500000000000e+10    -2.132417483570159e+01   1.300456408932512e+02    
1.003600000000000e+10    -2.143384939777709e+01   1.317851962987313e+02    
1.003700000000000e+10    -2.156647976879019e+01   1.338053857692195e+02    
1.003800000000000e+10    -2.161129220888054e+01   1.355287387125028e+02    
1.003900000000000e+10    -2.159755839410365e+01   1.377886538309232e+02    
1.004000000000000e+10    -2.158139827603597e+01   1.395825505764023e+02    
1.004100000000000e+10    -2.147370727983706e+01   1.417569125385819e+02    
1.004200000000000e+10    -2.132077104528475e+01   1.429343378214568e+02    
1.004300000000000e+10    -2.110863147496562e+01   1.444397793052202e+02    
1.004400000000000e+10    -2.090250676702164e+01   1.458997539264412e+02    
1.004500000000000e+10    -2.062765690839925e+01   1.466571281702594e+02    
1.004600000000000e+10    -2.041581085691059e+01   1.473315393997100e+02    
1.004700000000000e+10    -2.012466251506742e+01   1.478317447392035e+02    
1.004800000000000e+10    -1.989267549908957e+01   1.477472024725799e+02    
1.004900000000000e+10    -1.962668440234525e+01   1.474840034295164e+02    
1.005000000000000e+10    -1.939706322758700e+01   1.470305187353585e+02    
1.005100000000000e+10    -1.919829817845361e+01   1.466985425783031e+02    
1.005200000000000e+10    -1.897291402630823e+01   1.459321855266377e+02    
1.005300000000000e+10    -1.880919040674836e+01   1.450736653528399e+02    
1.005400000000000e+10    -1.861078212303617e+01   1.438610295752468e+02    
1.005500000000000e+10    -1.845852300841634e+01   1.428069723705906e+02    
1.005600000000000e+10    -1.837965714713195e+01   1.414754188395740e+02    
1.005700000000000e+10    -1.827000781546240e+01   1.403500879452955e+02    
1.005800000000000e+10    -1.821934816673817e+01   1.388314167160039e+02    
1.005900000000000e+10    -1.816265760530781e+01   1.375408701226500e+02    
1.006000000000000e+10    -1.812037979484241e+01   1.361017288889452e+02    
1.006100000000000e+10    -1.814007679992246e+01   1.345140799223112e+02    
1.006200000000000e+10    -1.815463013257736e+01   1.331393116073116e+02    
1.006300000000000e+10    -1.821092261617538e+01   1.317700095388147e+02    
1.006400000000000e+10    -1.827495619817674e+01   1.301733245518154e+02    
1.006500000000000e+10    -1.834397399650658e+01   1.289413469510016e+02    
1.006600000000000e+10    -1.845423727142033e+01   1.273879419866650e+02    
1.006700000000000e+10    -1.860774242283539e+01   1.257645316955157e+02    
1.006800000000000e+10    -1.872750496134336e+01   1.248090271082163e+02    
1.006900000000000e+10    -1.896068387022630e+01   1.237172355994544e+02    
1.007000000000000e+10    -1.916186500614497e+01   1.227219232980442e+02    
1.007100000000000e+10    -1.937689823487021e+01   1.218288539864671e+02    
1.007200000000000e+10    -1.961430373567772e+01   1.211732998525784e+02    
1.007300000000000e+10    -1.989977336160870e+01   1.203358132379341e+02    
1.007400000000000e+10    -2.018419854856683e+01   1.202217736497214e+02    
1.007500000000000e+10    -2.046765048107902e+01   1.199073630855211e+02    
1.007600000000000e+10    -2.076254028748252e+01   1.204093690570683e+02    
1.007700000000000e+10    -2.107440860371165e+01   1.205116349034749e+02    
1.007800000000000e+10    -2.139526976857029e+01   1.213561173294460e+02    
1.007900000000000e+10    -2.169172066669435e+01   1.222963843946877e+02    
1.008000000000000e+10    -2.190654903730511e+01   1.234846974392566e+02    
1.008100000000000e+10    -2.212645188375519e+01   1.256385950363733e+02    
1.008200000000000e+10    -2.229349589575509e+01   1.273753644087061e+02    
1.008300000000000e+10    -2.240303031440188e+01   1.291877884858033e+02    
1.008400000000000e+10    -2.243977465636631e+01   1.315366892410563e+02    
1.008500000000000e+10    -2.247569621912355e+01   1.339922366938292e+02    
1.008600000000000e+10    -2.237709923650393e+01   1.363102691107235e+02    
1.008700000000000e+10    -2.225500281905271e+01   1.382251496287734e+02    
1.008800000000000e+10    -2.206431318348872e+01   1.400930688119176e+02    
1.008900000000000e+10    -2.185427022231750e+01   1.411148614599655e+02    
1.009000000000000e+10    -2.157394221349158e+01   1.425186688236884e+02    
1.009100000000000e+10    -2.129283846978576e+01   1.434737325083312e+02    
1.009200000000000e+10    -2.101879829484720e+01   1.439145304752547e+02    
1.009300000000000e+10    -2.071366776958151e+01   1.439957762591392e+02    
1.009400000000000e+10    -2.044174038316765e+01   1.440623326174268e+02    
1.009500000000000e+10    -2.014890532267712e+01   1.436700157040778e+02    
1.009600000000000e+10    -1.991420764701193e+01   1.432517164481257e+02    
1.009700000000000e+10    -1.968501825373063e+01   1.424115866017836e+02    
1.009800000000000e+10    -1.945879084384991e+01   1.412044586912559e+02    
1.009900000000000e+10    -1.927330762085471e+01   1.403547648721853e+02    
1.010000000000000e+10    -1.909172940351320e+01   1.392611235209104e+02    
1.010100000000000e+10    -1.895596548723904e+01   1.377527827457517e+02    
1.010200000000000e+10    -1.880574075864359e+01   1.364292267958373e+02    
1.010300000000000e+10    -1.870845765734135e+01   1.349192565549019e+02    
1.010400000000000e+10    -1.864070572375423e+01   1.335788084466006e+02    
1.010500000000000e+10    -1.858434887586584e+01   1.318388715549002e+02    
1.010600000000000e+10    -1.858945518377203e+01   1.302256000846698e+02    
1.010700000000000e+10    -1.853976866364257e+01   1.288632656085324e+02    
1.010800000000000e+10    -1.857044813633616e+01   1.271099529119485e+02    
1.010900000000000e+10    -1.862551035438160e+01   1.257742857216489e+02    
1.011000000000000e+10    -1.869865231041436e+01   1.241066267736704e+02    
1.011100000000000e+10    -1.878725548581672e+01   1.228811208539558e+02    
1.011200000000000e+10    -1.889171563089475e+01   1.213929748558680e+02    
1.011300000000000e+10    -1.904876057499568e+01   1.200282122497908e+02    
1.011400000000000e+10    -1.920275453631481e+01   1.188212071505325e+02    
1.011500000000000e+10    -1.937623886911484e+01   1.175846919874879e+02    
1.011600000000000e+10    -1.959379209490932e+01   1.166157429758840e+02    
1.011700000000000e+10    -1.977405292670881e+01   1.158519816549847e+02    
1.011800000000000e+10    -2.006308788760720e+01   1.151256560658632e+02    
1.011900000000000e+10    -2.032828626803004e+01   1.148059661304524e+02    
1.012000000000000e+10    -2.065328076295379e+01   1.146441583361336e+02    
1.012100000000000e+10    -2.089677482507467e+01   1.147539559048612e+02    
1.012200000000000e+10    -2.126827346225497e+01   1.149772642042312e+02    
1.012300000000000e+10    -2.154665707734200e+01   1.157055650013703e+02    
1.012400000000000e+10    -2.182678765247886e+01   1.165571657102286e+02    
1.012500000000000e+10    -2.211350801848069e+01   1.178087096988653e+02    
1.012600000000000e+10    -2.233149523715683e+01   1.194784041376267e+02    
1.012700000000000e+10    -2.256494961362301e+01   1.217352517697275e+02    
1.012800000000000e+10    -2.268621438346739e+01   1.238374039337640e+02    
1.012900000000000e+10    -2.277475995243552e+01   1.262599244405803e+02    
1.013000000000000e+10    -2.278918775821981e+01   1.285422789498039e+02    
1.013100000000000e+10    -2.272323482154057e+01   1.308781408240270e+02    
1.013200000000000e+10    -2.258952862529471e+01   1.333049657993266e+02    
1.013300000000000e+10    -2.236479008035582e+01   1.353341938393008e+02    
1.013400000000000e+10    -2.219313669498104e+01   1.372866393634027e+02    
1.013500000000000e+10    -2.192539880804935e+01   1.385422270122654e+02    
1.013600000000000e+10    -2.166398382761493e+01   1.395104596112747e+02    
1.013700000000000e+10    -2.135221407053555e+01   1.406348593995249e+02    
1.013800000000000e+10    -2.105870388710383e+01   1.408436084582530e+02    
1.013900000000000e+10    -2.073900691746280e+01   1.409821989470612e+02    
1.014000000000000e+10    -2.049854046382021e+01   1.406741381347112e+02    
1.014100000000000e+10    -2.020976789204593e+01   1.401913217464244e+02    
1.014200000000000e+10    -2.000799218416875e+01   1.397974478557798e+02    
1.014300000000000e+10    -1.973439626925217e+01   1.388197358711340e+02    
1.014400000000000e+10    -1.958177080590287e+01   1.377841723615672e+02    
1.014500000000000e+10    -1.939638935301143e+01   1.366060478394094e+02    
1.014600000000000e+10    -1.927139047012996e+01   1.356711464233773e+02    
1.014700000000000e+10    -1.913602047119375e+01   1.342645711479717e+02    
1.014800000000000e+10    -1.902720976761886e+01   1.327327501570244e+02    
1.014900000000000e+10    -1.894107915930356e+01   1.315472812740661e+02    
1.015000000000000e+10    -1.889730278806705e+01   1.299228699047811e+02    
1.015100000000000e+10    -1.887437516047049e+01   1.282753010571111e+02    
1.015200000000000e+10    -1.887150854683452e+01   1.266617104269978e+02    
1.015300000000000e+10    -1.887455899702965e+01   1.253041737697164e+02    
1.015400000000000e+10    -1.895354809613975e+01   1.236520823836851e+02    
1.015500000000000e+10    -1.897200356297497e+01   1.221803675638481e+02    
1.015600000000000e+10    -1.910364405210188e+01   1.206828452360121e+02    
1.015700000000000e+10    -1.920846515056717e+01   1.190589309236172e+02    
1.015800000000000e+10    -1.937340683241236e+01   1.178123505229052e+02    
1.015900000000000e+10    -1.954688363215904e+01   1.163937239464126e+02    
1.016000000000000e+10    -1.975822806729746e+01   1.152186619088416e+02    
1.016100000000000e+10    -1.994335503315843e+01   1.142358804113932e+02    
1.016200000000000e+10    -2.021311528097243e+01   1.131011782986008e+02    
1.016300000000000e+10    -2.046794234171927e+01   1.123785876778565e+02    
1.016400000000000e+10    -2.071597013720304e+01   1.116975718165381e+02    
1.016500000000000e+10    -2.101661956058453e+01   1.113149249443977e+02    
1.016600000000000e+10    -2.135006803243632e+01   1.113760453439945e+02    
1.016700000000000e+10    -2.167841447565875e+01   1.113386096689958e+02    
1.016800000000000e+10    -2.198344175895008e+01   1.116517490325919e+02    
1.016900000000000e+10    -2.232384826391767e+01   1.123933173101149e+02    
1.017000000000000e+10    -2.260134667953941e+01   1.138539557755413e+02    
1.017100000000000e+10    -2.290170896126012e+01   1.155497263090897e+02    
1.017200000000000e+10    -2.310881299896563e+01   1.170050489118233e+02    
1.017300000000000e+10    -2.329558427088078e+01   1.191886692614903e+02    
1.017400000000000e+10    -2.344167441785033e+01   1.215033416042296e+02    
1.017500000000000e+10    -2.350537645778474e+01   1.239015278141249e+02    
1.017600000000000e+10    -2.353289275248395e+01   1.262149728863881e+02    
1.017700000000000e+10    -2.339608048306076e+01   1.285944263571548e+02    
1.017800000000000e+10    -2.322977376226089e+01   1.305801307682883e+02    
1.017900000000000e+10    -2.306138600313457e+01   1.324267612443830e+02    
1.018000000000000e+10    -2.282166116937993e+01   1.340592686772571e+02    
1.018100000000000e+10    -2.256116116014249e+01   1.353280063509017e+02    
1.018200000000000e+10    -2.226643028601005e+01   1.357080128313156e+02    
1.018300000000000e+10    -2.197441491613113e+01   1.365368003757291e+02    
1.018400000000000e+10    -2.168350871702154e+01   1.364624080688966e+02    
1.018500000000000e+10    -2.136284927504882e+01   1.365911939964366e+02    
1.018600000000000e+10    -2.105546877641297e+01   1.363222378681915e+02    
1.018700000000000e+10    -2.083820110406762e+01   1.357056924362432e+02    
1.018800000000000e+10    -2.058404406111879e+01   1.348123678584155e+02    
1.018900000000000e+10    -2.034948515013138e+01   1.338747203286829e+02    
1.019000000000000e+10    -2.017524198302704e+01   1.326368793419339e+02    
1.019100000000000e+10    -1.999812015949632e+01   1.316084447497998e+02    
1.019200000000000e+10    -1.983407401949175e+01   1.302396397240560e+02    
1.019300000000000e+10    -1.967531469977823e+01   1.290005690041206e+02    
1.019400000000000e+10    -1.960683684943732e+01   1.274278495067721e+02    
1.019500000000000e+10    -1.949084644736452e+01   1.260356852505478e+02    
1.019600000000000e+10    -1.947928197159524e+01   1.245278488815941e+02    
1.019700000000000e+10    -1.945124714582501e+01   1.228637246998259e+02    
1.019800000000000e+10    -1.943294538899705e+01   1.212442827700631e+02    
1.019900000000000e+10    -1.942663834548660e+01   1.195172890042919e+02    
1.020000000000000e+10    -1.947335642038306e+01   1.182694667999763e+02    
1.020100000000000e+10    -1.953774361325535e+01   1.163586675521347e+02    
1.020200000000000e+10    -1.962207742273459e+01   1.149857587337645e+02    
1.020300000000000e+10    -1.972659162074014e+01   1.135397609525682e+02    
1.020400000000000e+10    -1.986348804375506e+01   1.122747262122954e+02    
1.020500000000000e+10    -2.001900077293566e+01   1.109790519498670e+02    
1.020600000000000e+10    -2.020314512700012e+01   1.099792093933191e+02    
1.020700000000000e+10    -2.039832709044266e+01   1.087142694880976e+02    
1.020800000000000e+10    -2.059112623923021e+01   1.078825293665853e+02    
1.020900000000000e+10    -2.088968260452063e+01   1.075408483624211e+02    
1.021000000000000e+10    -2.115207634741413e+01   1.068527570640283e+02    
1.021100000000000e+10    -2.139194333804926e+01   1.065551424618527e+02    
1.021200000000000e+10    -2.169681467604540e+01   1.064470741642946e+02    
1.021300000000000e+10    -2.201196995357775e+01   1.070491904655214e+02    
1.021400000000000e+10    -2.230157370654133e+01   1.074401656024692e+02    
1.021500000000000e+10    -2.260249610818129e+01   1.084959653631296e+02    
1.021600000000000e+10    -2.283045316683189e+01   1.099901929902597e+02    
1.021700000000000e+10    -2.309160534864362e+01   1.111467504854357e+02    
1.021800000000000e+10    -2.326066457037089e+01   1.129142915383913e+02    
1.021900000000000e+10    -2.345755547612491e+01   1.151536280023928e+02    
1.022000000000000e+10    -2.352829436626476e+01   1.172864030046243e+02    
1.022100000000000e+10    -2.358212772075347e+01   1.196877798261051e+02    
1.022200000000000e+10    -2.354245895926776e+01   1.221945322360171e+02    
1.022300000000000e+10    -2.346360112570301e+01   1.241764621215313e+02    
1.022400000000000e+10    -2.331181639952916e+01   1.264398579209658e+02    
1.022500000000000e+10    -2.308860133794381e+01   1.282451191451222e+02    
1.022600000000000e+10    -2.286492317043590e+01   1.294542983498373e+02    
1.022700000000000e+10    -2.259489400009416e+01   1.306827381333106e+02    
1.022800000000000e+10    -2.233914830463221e+01   1.313280211280223e+02    
1.022900000000000e+10    -2.206799836512934e+01   1.321621692540917e+02    
1.023000000000000e+10    -2.179263219329601e+01   1.323975563446415e+02    
1.023100000000000e+10    -2.157073529778886e+01   1.326093038543687e+02    
1.023200000000000e+10    -2.126155851118730e+01   1.320941612571793e+02    
1.023300000000000e+10    -2.105835260284869e+01   1.319556246525112e+02    
1.023400000000000e+10    -2.076911273501608e+01   1.309570675758711e+02    
1.023500000000000e+10    -2.062172747237302e+01   1.303421511101604e+02    
1.023600000000000e+10    -2.042187814233263e+01   1.292924515819437e+02    
1.023700000000000e+10    -2.026132312070253e+01   1.283984079894977e+02    
1.023800000000000e+10    -2.009871654649126e+01   1.268791919895612e+02    
1.023900000000000e+10    -2.003006966672006e+01   1.257317988497258e+02    
1.024000000000000e+10    -1.991448245552450e+01   1.242632590620120e+02    
1.024100000000000e+10    -1.985687589786034e+01   1.229396982191028e+02    
1.024200000000000e+10    -1.981560071538064e+01   1.215627981865669e+02    
1.024300000000000e+10    -1.981742524833134e+01   1.200452333382087e+02    
1.024400000000000e+10    -1.984380716608492e+01   1.186732882295377e+02    
1.024500000000000e+10    -1.984500201745978e+01   1.170128687477936e+02    
1.024600000000000e+10    -1.992484046849157e+01   1.158868327794677e+02    
1.024700000000000e+10    -1.999305999038836e+01   1.142813541035578e+02    
1.024800000000000e+10    -2.008367182000627e+01   1.129156389040930e+02    
1.024900000000000e+10    -2.022657336936983e+01   1.119122048059697e+02    
1.025000000000000e+10    -2.038831253372381e+01   1.105654197024519e+02    
1.025100000000000e+10    -2.053959781034137e+01   1.090101175743063e+02    
1.025200000000000e+10    -2.071664154242756e+01   1.080816512292910e+02    
1.025300000000000e+10    -2.097043762248340e+01   1.073887901085516e+02    
1.025400000000000e+10    -2.121963912985450e+01   1.064830759590497e+02    
1.025500000000000e+10    -2.146862782938694e+01   1.059571599881935e+02    
1.025600000000000e+10    -2.172124657362206e+01   1.054409670816694e+02    
