[Version] 2.0
! Rohde & Schwarz Vector Network Analyzer
! Rohde-Schwarz,ZNL20-2Port,1323001220200009,1.71.1.10-23.02.1.238
! 
! Port Assignments:
! Nominal Port -> Actual Test Port
! --------------------------------
!   1 -> 1

! Created: GMT 2024-09-04 11:59:20

# Hz S DB R 50

[Number of Ports] 1
[Number of Frequencies] 2001

[Network Data] 
! freq[Hz]               S11[mag dB]              S11[ang]                 
1.000000000000000e+10    -2.038298624063978e+01   1.501244854491496e+02    
1.000100000000000e+10    -2.015041591451883e+01   1.506817322855955e+02    
1.000200000000000e+10    -1.991507731414970e+01   1.508111210592515e+02    
1.000300000000000e+10    -1.967782985178977e+01   1.509979516550435e+02    
1.000400000000000e+10    -1.943210856783619e+01   1.508527831824920e+02    
1.000500000000000e+10    -1.923102669240433e+01   1.506405302859226e+02    
1.000600000000000e+10    -1.900295798774638e+01   1.498825481328765e+02    
1.000700000000000e+10    -1.881068849913753e+01   1.494158068524541e+02    
1.000800000000000e+10    -1.863943694054647e+01   1.484019864721820e+02    
1.000900000000000e+10    -1.851980367923565e+01   1.474798222262875e+02    
1.001000000000000e+10    -1.831862749345896e+01   1.464277164617283e+02    
1.001100000000000e+10    -1.822090894248249e+01   1.452730563458164e+02    
1.001200000000000e+10    -1.811760945758775e+01   1.439999080882031e+02    
1.001300000000000e+10    -1.805670142019542e+01   1.426347821714494e+02    
1.001400000000000e+10    -1.799789465284987e+01   1.412751197719793e+02    
1.001500000000000e+10    -1.794320242124123e+01   1.400089004075842e+02    
1.001600000000000e+10    -1.793300510002733e+01   1.385926658238577e+02    
1.001700000000000e+10    -1.794865553691640e+01   1.371916158527299e+02    
1.001800000000000e+10    -1.795889637192726e+01   1.358404813399496e+02    
1.001900000000000e+10    -1.803357362974268e+01   1.344977064906548e+02    
1.002000000000000e+10    -1.810619281197971e+01   1.327756414105589e+02    
1.002100000000000e+10    -1.820077324167866e+01   1.317275098112001e+02    
1.002200000000000e+10    -1.831083801512738e+01   1.306813967727786e+02    
1.002300000000000e+10    -1.845547049930445e+01   1.292852971923310e+02    
1.002400000000000e+10    -1.859168327927521e+01   1.284661064926349e+02    
1.002500000000000e+10    -1.877788568938523e+01   1.274322498162336e+02    
1.002600000000000e+10    -1.900818212345262e+01   1.266151656525025e+02    
1.002700000000000e+10    -1.920428538840630e+01   1.259763250020507e+02    
1.002800000000000e+10    -1.946639339003880e+01   1.256640352742172e+02    
1.002900000000000e+10    -1.972626279040655e+01   1.252245742054093e+02    
1.003000000000000e+10    -1.995836818242257e+01   1.253169276928071e+02    
1.003100000000000e+10    -2.020005498588571e+01   1.256313536386131e+02    
1.003200000000000e+10    -2.044858701364402e+01   1.258030675239498e+02    
1.003300000000000e+10    -2.074118388267133e+01   1.264862601169601e+02    
1.003400000000000e+10    -2.096334448554511e+01   1.276947717322411e+02    
1.003500000000000e+10    -2.119855975616062e+01   1.287188050956881e+02    
1.003600000000000e+10    -2.136107755204187e+01   1.302574799780207e+02    
1.003700000000000e+10    -2.153784854214631e+01   1.322355621545934e+02    
1.003800000000000e+10    -2.161020128372060e+01   1.339910607836969e+02    
1.003900000000000e+10    -2.165723450513822e+01   1.362578259926309e+02    
1.004000000000000e+10    -2.167663261216270e+01   1.381191797130235e+02    
1.004100000000000e+10    -2.160637573698821e+01   1.403135185796262e+02    
1.004200000000000e+10    -2.150975703797808e+01   1.419222271897671e+02    
1.004300000000000e+10    -2.134553241118285e+01   1.437151262886929e+02    
1.004400000000000e+10    -2.113777087206571e+01   1.453714605616003e+02    
1.004500000000000e+10    -2.084968747329990e+01   1.462706029816939e+02    
1.004600000000000e+10    -2.063649871120857e+01   1.471560142684851e+02    
1.004700000000000e+10    -2.038942918122923e+01   1.478969811960698e+02    
1.004800000000000e+10    -2.010856629428211e+01   1.480148709495889e+02    
1.004900000000000e+10    -1.980917906969776e+01   1.481091035965295e+02    
1.005000000000000e+10    -1.957314648713617e+01   1.480267349464949e+02    
1.005100000000000e+10    -1.937535422103934e+01   1.472216515401986e+02    
1.005200000000000e+10    -1.912406137682874e+01   1.468978652564625e+02    
1.005300000000000e+10    -1.891375132877944e+01   1.459754242214618e+02    
1.005400000000000e+10    -1.871106896967746e+01   1.451241501262648e+02    
1.005500000000000e+10    -1.855533410979902e+01   1.440314285548686e+02    
1.005600000000000e+10    -1.843511433669322e+01   1.427553171287545e+02    
1.005700000000000e+10    -1.830958055979334e+01   1.415934406984808e+02    
1.005800000000000e+10    -1.822697833633039e+01   1.401793446467400e+02    
1.005900000000000e+10    -1.817160372738384e+01   1.388737363150745e+02    
1.006000000000000e+10    -1.810973931246157e+01   1.372507635190777e+02    
1.006100000000000e+10    -1.809204085194940e+01   1.359316653930167e+02    
1.006200000000000e+10    -1.813744332785225e+01   1.342656034672725e+02    
1.006300000000000e+10    -1.816973126409804e+01   1.328637394168507e+02    
1.006400000000000e+10    -1.819724297327628e+01   1.313478446442836e+02    
1.006500000000000e+10    -1.825588950911530e+01   1.298670581088426e+02    
1.006600000000000e+10    -1.834669289380951e+01   1.283118764122452e+02    
1.006700000000000e+10    -1.846952167717512e+01   1.268410652652246e+02    
1.006800000000000e+10    -1.860465280245780e+01   1.257904201951757e+02    
1.006900000000000e+10    -1.880663869738084e+01   1.242740116993511e+02    
1.007000000000000e+10    -1.898720031858186e+01   1.234328370934179e+02    
1.007100000000000e+10    -1.920303968896481e+01   1.222880246340858e+02    
1.007200000000000e+10    -1.942135399234374e+01   1.214549068841135e+02    
1.007300000000000e+10    -1.968513301453409e+01   1.205919946007392e+02    
1.007400000000000e+10    -1.996783527741263e+01   1.202218268066872e+02    
1.007500000000000e+10    -2.024564211643308e+01   1.197065820973081e+02    
1.007600000000000e+10    -2.053844601179039e+01   1.197585205854749e+02    
1.007700000000000e+10    -2.085885353042030e+01   1.199246002746294e+02    
1.007800000000000e+10    -2.119877226051581e+01   1.203478465512109e+02    
1.007900000000000e+10    -2.151803239978006e+01   1.211074039511195e+02    
1.008000000000000e+10    -2.179652132758308e+01   1.222923097186660e+02    
1.008100000000000e+10    -2.199137531112253e+01   1.238409412741882e+02    
1.008200000000000e+10    -2.223738808861548e+01   1.258138063733685e+02    
1.008300000000000e+10    -2.238451419630188e+01   1.274390825671764e+02    
1.008400000000000e+10    -2.249558192098817e+01   1.299384018728461e+02    
1.008500000000000e+10    -2.256029513481238e+01   1.322587284041081e+02    
1.008600000000000e+10    -2.254896617888680e+01   1.342149473612128e+02    
1.008700000000000e+10    -2.243166482514628e+01   1.364678542954554e+02    
1.008800000000000e+10    -2.226793538007748e+01   1.389793859734813e+02    
1.008900000000000e+10    -2.208985142715307e+01   1.404934002671810e+02    
1.009000000000000e+10    -2.186573629873700e+01   1.420544721095547e+02    
1.009100000000000e+10    -2.152718904770993e+01   1.432789079555014e+02    
1.009200000000000e+10    -2.128488774617266e+01   1.438134385907747e+02    
1.009300000000000e+10    -2.101444221489297e+01   1.442045371618050e+02    
1.009400000000000e+10    -2.067004262876434e+01   1.445051736091096e+02    
1.009500000000000e+10    -2.038328453944440e+01   1.443844975841911e+02    
1.009600000000000e+10    -2.014163295261010e+01   1.439044526360467e+02    
1.009700000000000e+10    -1.987422992907182e+01   1.432922425475716e+02    
1.009800000000000e+10    -1.963337500965810e+01   1.424889970275463e+02    
1.009900000000000e+10    -1.939708913218975e+01   1.415106424681687e+02    
1.010000000000000e+10    -1.920925599253267e+01   1.404791117184726e+02    
1.010100000000000e+10    -1.901725411568443e+01   1.391721447506766e+02    
1.010200000000000e+10    -1.886922712262483e+01   1.377758873462254e+02    
1.010300000000000e+10    -1.876089410531449e+01   1.362858342316917e+02    
1.010400000000000e+10    -1.865059948968426e+01   1.349642217769249e+02    
1.010500000000000e+10    -1.857306261197121e+01   1.333384055804515e+02    
1.010600000000000e+10    -1.856483508283995e+01   1.316386978865532e+02    
1.010700000000000e+10    -1.851037027734640e+01   1.302435047782067e+02    
1.010800000000000e+10    -1.850943434626608e+01   1.284853022212845e+02    
1.010900000000000e+10    -1.853162792733303e+01   1.270781548189293e+02    
1.011000000000000e+10    -1.861851296411569e+01   1.252520991953683e+02    
1.011100000000000e+10    -1.868035954291934e+01   1.240447306587918e+02    
1.011200000000000e+10    -1.876448953187885e+01   1.225162379193241e+02    
1.011300000000000e+10    -1.890641897520666e+01   1.213693909732798e+02    
1.011400000000000e+10    -1.906024129020881e+01   1.195505105782040e+02    
1.011500000000000e+10    -1.923603749607809e+01   1.185315333426184e+02    
1.011600000000000e+10    -1.939373037485173e+01   1.172737297766931e+02    
1.011700000000000e+10    -1.958009955431364e+01   1.163824282538633e+02    
1.011800000000000e+10    -1.986098822574569e+01   1.155540983481201e+02    
1.011900000000000e+10    -2.010676529971408e+01   1.149957737718296e+02    
1.012000000000000e+10    -2.039516447619823e+01   1.145406098500682e+02    
1.012100000000000e+10    -2.065230527316626e+01   1.145692647397196e+02    
1.012200000000000e+10    -2.102892696753118e+01   1.143229730233988e+02    
1.012300000000000e+10    -2.135671797789973e+01   1.148210938750192e+02    
1.012400000000000e+10    -2.161393174682772e+01   1.156988841042197e+02    
1.012500000000000e+10    -2.194051785002837e+01   1.164924217783029e+02    
1.012600000000000e+10    -2.220500198264773e+01   1.178246016454644e+02    
1.012700000000000e+10    -2.242112699602033e+01   1.197704865087721e+02    
1.012800000000000e+10    -2.261336760682306e+01   1.219291202032867e+02    
1.012900000000000e+10    -2.275237522760741e+01   1.242161377662631e+02    
1.013000000000000e+10    -2.284787441331911e+01   1.266630230509502e+02    
1.013100000000000e+10    -2.285879725625452e+01   1.290682394488881e+02    
1.013200000000000e+10    -2.275465682778513e+01   1.318822013539953e+02    
1.013300000000000e+10    -2.258354613107638e+01   1.338603276119895e+02    
1.013400000000000e+10    -2.244803713774749e+01   1.358580259115837e+02    
1.013500000000000e+10    -2.217214537934395e+01   1.376288804478545e+02    
1.013600000000000e+10    -2.194711936977826e+01   1.390866061294211e+02    
1.013700000000000e+10    -2.165762633206523e+01   1.400315714278637e+02    
1.013800000000000e+10    -2.135200580403652e+01   1.410219735923240e+02    
1.013900000000000e+10    -2.102140406086198e+01   1.410891223670187e+02    
1.014000000000000e+10    -2.077004533544371e+01   1.412744381467764e+02    
1.014100000000000e+10    -2.046087280471468e+01   1.411378947732667e+02    
1.014200000000000e+10    -2.022716852162090e+01   1.406009532318981e+02    
1.014300000000000e+10    -1.995908171539887e+01   1.398769418827312e+02    
1.014400000000000e+10    -1.974094426053347e+01   1.390619933754268e+02    
1.014500000000000e+10    -1.950964257411911e+01   1.380868069410376e+02    
1.014600000000000e+10    -1.936795703126286e+01   1.370154155777419e+02    
1.014700000000000e+10    -1.924128589825699e+01   1.355863338182237e+02    
1.014800000000000e+10    -1.907829984918158e+01   1.341973925189532e+02    
1.014900000000000e+10    -1.901137854784390e+01   1.329601412271546e+02    
1.015000000000000e+10    -1.892873385354035e+01   1.313947618114115e+02    
1.015100000000000e+10    -1.889403069914679e+01   1.298607011258708e+02    
1.015200000000000e+10    -1.885955324189976e+01   1.283045823044335e+02    
1.015300000000000e+10    -1.883157901231491e+01   1.267153643705192e+02    
1.015400000000000e+10    -1.889550211405519e+01   1.250783532173347e+02    
1.015500000000000e+10    -1.890903187346033e+01   1.233977365597103e+02    
1.015600000000000e+10    -1.898227574195261e+01   1.220897451122987e+02    
1.015700000000000e+10    -1.911346709410318e+01   1.202488025806496e+02    
1.015800000000000e+10    -1.921584515750013e+01   1.190204739468297e+02    
1.015900000000000e+10    -1.937427383094647e+01   1.176352808024051e+02    
1.016000000000000e+10    -1.955601145063615e+01   1.163496835949286e+02    
1.016100000000000e+10    -1.975383102772364e+01   1.149777310796722e+02    
1.016200000000000e+10    -1.997827616216759e+01   1.138432507748040e+02    
1.016300000000000e+10    -2.023323904311335e+01   1.127583857698075e+02    
1.016400000000000e+10    -2.046467820564587e+01   1.119197925485485e+02    
1.016500000000000e+10    -2.078726229885133e+01   1.114053735365595e+02    
1.016600000000000e+10    -2.106142390738299e+01   1.110854962143645e+02    
1.016700000000000e+10    -2.143426582766446e+01   1.108990864826620e+02    
1.016800000000000e+10    -2.173757178572602e+01   1.110107878888844e+02    
1.016900000000000e+10    -2.208602645536454e+01   1.116022285409196e+02    
1.017000000000000e+10    -2.236611902677481e+01   1.122538358264474e+02    
1.017100000000000e+10    -2.269061053835009e+01   1.137636406878606e+02    
1.017200000000000e+10    -2.297693414067337e+01   1.150520241931349e+02    
1.017300000000000e+10    -2.319832895296924e+01   1.168397424136554e+02    
1.017400000000000e+10    -2.339569938585193e+01   1.187135030388470e+02    
1.017500000000000e+10    -2.350624948520468e+01   1.215555132565303e+02    
1.017600000000000e+10    -2.362469316311790e+01   1.239212091155568e+02    
1.017700000000000e+10    -2.360280673478521e+01   1.261506777156153e+02    
1.017800000000000e+10    -2.348544259487101e+01   1.287793746267630e+02    
1.017900000000000e+10    -2.334700402907877e+01   1.307767651548450e+02    
1.018000000000000e+10    -2.314752266342923e+01   1.328541216540746e+02    
1.018100000000000e+10    -2.287354131852172e+01   1.343712550658979e+02    
1.018200000000000e+10    -2.259306465275009e+01   1.354070677487624e+02    
1.018300000000000e+10    -2.235760286340970e+01   1.364999175935775e+02    
1.018400000000000e+10    -2.198035358463974e+01   1.368647484328426e+02    
1.018500000000000e+10    -2.166969895899642e+01   1.371221236380814e+02    
1.018600000000000e+10    -2.136117060829245e+01   1.370472862203169e+02    
1.018700000000000e+10    -2.112073733721374e+01   1.365793881157214e+02    
1.018800000000000e+10    -2.081988868693653e+01   1.359757895613583e+02    
1.018900000000000e+10    -2.058412141095074e+01   1.351345399480973e+02    
1.019000000000000e+10    -2.035776002498030e+01   1.342735914007057e+02    
1.019100000000000e+10    -2.017975717518709e+01   1.331723394093122e+02    
1.019200000000000e+10    -1.999174405423126e+01   1.317703003704806e+02    
1.019300000000000e+10    -1.981104788128714e+01   1.304658298168923e+02    
1.019400000000000e+10    -1.969531533270919e+01   1.290701528508266e+02    
1.019500000000000e+10    -1.957779159567222e+01   1.276308363712556e+02    
1.019600000000000e+10    -1.951573318004409e+01   1.260529285221505e+02    
1.019700000000000e+10    -1.944499072063700e+01   1.244232443094839e+02    
1.019800000000000e+10    -1.942090542127533e+01   1.229421089727408e+02    
1.019900000000000e+10    -1.938917841047533e+01   1.211045547555986e+02    
1.020000000000000e+10    -1.941605670730450e+01   1.197008914239780e+02    
1.020100000000000e+10    -1.943173017200645e+01   1.181448608859564e+02    
1.020200000000000e+10    -1.949222297385459e+01   1.165634558332148e+02    
1.020300000000000e+10    -1.960165383833100e+01   1.149405605188144e+02    
1.020400000000000e+10    -1.971961505049192e+01   1.135389155333382e+02    
1.020500000000000e+10    -1.980912941653845e+01   1.120492973662123e+02    
1.020600000000000e+10    -1.999158684904484e+01   1.110047355546879e+02    
1.020700000000000e+10    -2.017038186292094e+01   1.096702236406168e+02    
1.020800000000000e+10    -2.035733704608910e+01   1.086893447924870e+02    
1.020900000000000e+10    -2.060673996819822e+01   1.078457520039412e+02    
1.021000000000000e+10    -2.082891519969112e+01   1.072052146605490e+02    
1.021100000000000e+10    -2.110345452418744e+01   1.065402624925870e+02    
1.021200000000000e+10    -2.138200431851010e+01   1.061286754001636e+02    
1.021300000000000e+10    -2.174256965358569e+01   1.062295008732701e+02    
1.021400000000000e+10    -2.199208875666584e+01   1.061495972625774e+02    
1.021500000000000e+10    -2.234839761797551e+01   1.070897749824541e+02    
1.021600000000000e+10    -2.259223729374551e+01   1.081085307775480e+02    
1.021700000000000e+10    -2.288185796350115e+01   1.092921584142471e+02    
1.021800000000000e+10    -2.315981059787692e+01   1.107665180554767e+02    
1.021900000000000e+10    -2.338086738262333e+01   1.125403956005637e+02    
1.022000000000000e+10    -2.352478924108637e+01   1.145466519886922e+02    
1.022100000000000e+10    -2.365227350333286e+01   1.174383954456014e+02    
1.022200000000000e+10    -2.371276358512221e+01   1.196327677399958e+02    
1.022300000000000e+10    -2.364873664118914e+01   1.218741932246846e+02    
1.022400000000000e+10    -2.356632273927209e+01   1.242174701008711e+02    
1.022500000000000e+10    -2.342530074824307e+01   1.266382360111002e+02    
1.022600000000000e+10    -2.316621015433638e+01   1.283118103836340e+02    
1.022700000000000e+10    -2.295769098483427e+01   1.299889222097695e+02    
1.022800000000000e+10    -2.269760535080329e+01   1.308580056917824e+02    
1.022900000000000e+10    -2.243958290422100e+01   1.321546713309666e+02    
1.023000000000000e+10    -2.213794357127768e+01   1.327016363356127e+02    
1.023100000000000e+10    -2.187935070515297e+01   1.331092046998634e+02    
1.023200000000000e+10    -2.156697807994218e+01   1.328411362121829e+02    
1.023300000000000e+10    -2.131189494317529e+01   1.328023233600235e+02    
1.023400000000000e+10    -2.102057170118291e+01   1.320840200867034e+02    
1.023500000000000e+10    -2.085455456298265e+01   1.316291182849853e+02    
1.023600000000000e+10    -2.062294276840340e+01   1.307633801433956e+02    
1.023700000000000e+10    -2.044737324226978e+01   1.298406776243947e+02    
1.023800000000000e+10    -2.024638592005180e+01   1.287272271612673e+02    
1.023900000000000e+10    -2.012926626875299e+01   1.274778064356672e+02    
1.024000000000000e+10    -1.998102829755523e+01   1.259870349751807e+02    
1.024100000000000e+10    -1.988650020474763e+01   1.248781702975760e+02    
1.024200000000000e+10    -1.983908935191803e+01   1.234469368609474e+02    
1.024300000000000e+10    -1.980921764839576e+01   1.218229503948912e+02    
1.024400000000000e+10    -1.977675809924903e+01   1.204343379226978e+02    
1.024500000000000e+10    -1.977504181879990e+01   1.189335930843170e+02    
1.024600000000000e+10    -1.981868196066855e+01   1.176216812734809e+02    
1.024700000000000e+10    -1.986534582102739e+01   1.161003516052186e+02    
1.024800000000000e+10    -1.987982786557129e+01   1.145344612294313e+02    
1.024900000000000e+10    -2.002408163492031e+01   1.133824083561638e+02    
1.025000000000000e+10    -2.017722927429900e+01   1.117222423415867e+02    
1.025100000000000e+10    -2.031548158315103e+01   1.102657291595636e+02    
1.025200000000000e+10    -2.045161284826461e+01   1.092301020042477e+02    
1.025300000000000e+10    -2.068078937613617e+01   1.083201504197019e+02    
1.025400000000000e+10    -2.090456756617459e+01   1.069276637581434e+02    
1.025500000000000e+10    -2.114428816083667e+01   1.061060546049219e+02    
1.025600000000000e+10    -2.140618160798599e+01   1.054691928906289e+02    
