[Version] 2.0
! Rohde & Schwarz Vector Network Analyzer
! Rohde-Schwarz,ZNL20-2Port,1323001220200009,1.71.1.10-23.02.1.238
! 
! Port Assignments:
! Nominal Port -> Actual Test Port
! --------------------------------
!   1 -> 1

! Created: GMT 2024-09-04 12:00:10

# Hz S DB R 50

[Number of Ports] 1
[Number of Frequencies] 2001

[Network Data] 
! freq[Hz]               S11[mag dB]              S11[ang]                 
1.000000000000000e+10    -2.072471975199158e+01   1.494593739378017e+02    
1.000100000000000e+10    -2.048939378433200e+01   1.503026961335610e+02    
1.000200000000000e+10    -2.025240892724626e+01   1.509724287267771e+02    
1.000300000000000e+10    -2.003693055265439e+01   1.510675459765846e+02    
1.000400000000000e+10    -1.976880986096436e+01   1.514105904781670e+02    
1.000500000000000e+10    -1.950948181098391e+01   1.513441034468817e+02    
1.000600000000000e+10    -1.929792941661475e+01   1.510886138877046e+02    
1.000700000000000e+10    -1.908120658138187e+01   1.506938714016758e+02    
1.000800000000000e+10    -1.882320324874477e+01   1.498878058189578e+02    
1.000900000000000e+10    -1.869867311127160e+01   1.490299527877967e+02    
1.001000000000000e+10    -1.850722310717929e+01   1.479812788607236e+02    
1.001100000000000e+10    -1.836916285413741e+01   1.467978969009305e+02    
1.001200000000000e+10    -1.824310657485452e+01   1.457296464364008e+02    
1.001300000000000e+10    -1.812680823457905e+01   1.444190694027950e+02    
1.001400000000000e+10    -1.805565448266405e+01   1.429933385762922e+02    
1.001500000000000e+10    -1.796042430288662e+01   1.417819205026321e+02    
1.001600000000000e+10    -1.792739241147136e+01   1.402683060801064e+02    
1.001700000000000e+10    -1.792649374886476e+01   1.388448083515703e+02    
1.001800000000000e+10    -1.792841091180375e+01   1.373835358585858e+02    
1.001900000000000e+10    -1.793476697677921e+01   1.360041268320983e+02    
1.002000000000000e+10    -1.798759987784038e+01   1.343418084686953e+02    
1.002100000000000e+10    -1.807262353713973e+01   1.330074791442208e+02    
1.002200000000000e+10    -1.814127804208154e+01   1.319008158835388e+02    
1.002300000000000e+10    -1.826197651890326e+01   1.305552654940261e+02    
1.002400000000000e+10    -1.839864481948492e+01   1.294158520614746e+02    
1.002500000000000e+10    -1.856724097677503e+01   1.282859403290135e+02    
1.002600000000000e+10    -1.875491497630462e+01   1.272999286457534e+02    
1.002700000000000e+10    -1.895206626312319e+01   1.262544442840640e+02    
1.002800000000000e+10    -1.918090870373756e+01   1.258956831269029e+02    
1.002900000000000e+10    -1.941840372770156e+01   1.250101487265050e+02    
1.003000000000000e+10    -1.966791211915250e+01   1.248732524373755e+02    
1.003100000000000e+10    -1.991100466448785e+01   1.249902763673528e+02    
1.003200000000000e+10    -2.018426497461896e+01   1.248645890172537e+02    
1.003300000000000e+10    -2.043069846131182e+01   1.250536401671995e+02    
1.003400000000000e+10    -2.072359326756798e+01   1.259618766450267e+02    
1.003500000000000e+10    -2.102511014347780e+01   1.269960783224898e+02    
1.003600000000000e+10    -2.116266472677150e+01   1.282493835324049e+02    
1.003700000000000e+10    -2.142334526999975e+01   1.299949805578538e+02    
1.003800000000000e+10    -2.157950595502294e+01   1.316203403694285e+02    
1.003900000000000e+10    -2.169403666853892e+01   1.338460784843315e+02    
1.004000000000000e+10    -2.178109607823323e+01   1.357396497792501e+02    
1.004100000000000e+10    -2.178215087410294e+01   1.383356458286598e+02    
1.004200000000000e+10    -2.172726011711211e+01   1.401185277539625e+02    
1.004300000000000e+10    -2.159837540825253e+01   1.419092912914102e+02    
1.004400000000000e+10    -2.144110467213619e+01   1.438929367839350e+02    
1.004500000000000e+10    -2.121653348879762e+01   1.453666820372984e+02    
1.004600000000000e+10    -2.101152132341616e+01   1.466108072761461e+02    
1.004700000000000e+10    -2.071083262959180e+01   1.474537320433050e+02    
1.004800000000000e+10    -2.040887330897622e+01   1.482352577492675e+02    
1.004900000000000e+10    -2.014238187139165e+01   1.484456133328459e+02    
1.005000000000000e+10    -1.988093021137613e+01   1.484160640352776e+02    
1.005100000000000e+10    -1.963291524614778e+01   1.484228763995144e+02    
1.005200000000000e+10    -1.938727269398856e+01   1.480237327994728e+02    
1.005300000000000e+10    -1.915121465267605e+01   1.476412047420046e+02    
1.005400000000000e+10    -1.892789948062815e+01   1.466896157887363e+02    
1.005500000000000e+10    -1.872559075243545e+01   1.456503891767483e+02    
1.005600000000000e+10    -1.858857701917592e+01   1.443745340557918e+02    
1.005700000000000e+10    -1.840113723489082e+01   1.432685622109260e+02    
1.005800000000000e+10    -1.832143617687165e+01   1.419487002735440e+02    
1.005900000000000e+10    -1.823100329486326e+01   1.406450358723478e+02    
1.006000000000000e+10    -1.812934121759760e+01   1.393376709289386e+02    
1.006100000000000e+10    -1.809440017705145e+01   1.377187631863458e+02    
1.006200000000000e+10    -1.808557153182165e+01   1.361452349738513e+02    
1.006300000000000e+10    -1.811087130394258e+01   1.346611533821994e+02    
1.006400000000000e+10    -1.811584607557968e+01   1.332157705060135e+02    
1.006500000000000e+10    -1.816825540235472e+01   1.316757705580546e+02    
1.006600000000000e+10    -1.823790752734858e+01   1.302610349594971e+02    
1.006700000000000e+10    -1.832404408360352e+01   1.285352428308301e+02    
1.006800000000000e+10    -1.841715331627137e+01   1.273076619291271e+02    
1.006900000000000e+10    -1.858968497943941e+01   1.258034021911000e+02    
1.007000000000000e+10    -1.875678602803907e+01   1.245996876512189e+02    
1.007100000000000e+10    -1.896079806117007e+01   1.233923930703850e+02    
1.007200000000000e+10    -1.914928512606429e+01   1.223149785055629e+02    
1.007300000000000e+10    -1.939110255862402e+01   1.212198920202716e+02    
1.007400000000000e+10    -1.967541689029152e+01   1.205286488173594e+02    
1.007500000000000e+10    -1.993119230353525e+01   1.198250357883914e+02    
1.007600000000000e+10    -2.022166927124129e+01   1.196214640761044e+02    
1.007700000000000e+10    -2.051454561374832e+01   1.194700276570515e+02    
1.007800000000000e+10    -2.085947316892355e+01   1.195349238398408e+02    
1.007900000000000e+10    -2.121737703834247e+01   1.196248478703671e+02    
1.008000000000000e+10    -2.150989534302674e+01   1.204884453134369e+02    
1.008100000000000e+10    -2.177397486191752e+01   1.220256368801861e+02    
1.008200000000000e+10    -2.204678900451085e+01   1.236328010188980e+02    
1.008300000000000e+10    -2.233666134440622e+01   1.249237426832229e+02    
1.008400000000000e+10    -2.247672594119652e+01   1.273106834470256e+02    
1.008500000000000e+10    -2.261070004085500e+01   1.294015372174329e+02    
1.008600000000000e+10    -2.267131447086605e+01   1.319442134668837e+02    
1.008700000000000e+10    -2.266888003160506e+01   1.342990431656931e+02    
1.008800000000000e+10    -2.257247984340383e+01   1.368353703423662e+02    
1.008900000000000e+10    -2.244680263722741e+01   1.386846451381122e+02    
1.009000000000000e+10    -2.224262261531149e+01   1.408547357537263e+02    
1.009100000000000e+10    -2.195350836227157e+01   1.424774300504383e+02    
1.009200000000000e+10    -2.169359107174362e+01   1.436915604258242e+02    
1.009300000000000e+10    -2.137114545251679e+01   1.443413894220345e+02    
1.009400000000000e+10    -2.104183530967122e+01   1.447160458341253e+02    
1.009500000000000e+10    -2.075387905508647e+01   1.453519577128731e+02    
1.009600000000000e+10    -2.048331663683736e+01   1.451474062412938e+02    
1.009700000000000e+10    -2.019369023541271e+01   1.446293612161041e+02    
1.009800000000000e+10    -1.991090331974673e+01   1.438819540518521e+02    
1.009900000000000e+10    -1.967309854930267e+01   1.430935936257764e+02    
1.010000000000000e+10    -1.944952649325653e+01   1.422087060210324e+02    
1.010100000000000e+10    -1.923757481284419e+01   1.410331860086224e+02    
1.010200000000000e+10    -1.905395861726020e+01   1.395646769745247e+02    
1.010300000000000e+10    -1.889735908510353e+01   1.383488073779079e+02    
1.010400000000000e+10    -1.878733321674522e+01   1.368848673102818e+02    
1.010500000000000e+10    -1.866709519253100e+01   1.354406119189207e+02    
1.010600000000000e+10    -1.862631020464281e+01   1.337068621299551e+02    
1.010700000000000e+10    -1.855611208897969e+01   1.323777853325575e+02    
1.010800000000000e+10    -1.853449827433041e+01   1.305560737422018e+02    
1.010900000000000e+10    -1.852337145560919e+01   1.290701406251422e+02    
1.011000000000000e+10    -1.856382921304314e+01   1.273220378568644e+02    
1.011100000000000e+10    -1.859850064242863e+01   1.260024187012011e+02    
1.011200000000000e+10    -1.865357186557726e+01   1.242461532137526e+02    
1.011300000000000e+10    -1.874741133756643e+01   1.228922881573424e+02    
1.011400000000000e+10    -1.887827432402568e+01   1.212976701972582e+02    
1.011500000000000e+10    -1.901861495947859e+01   1.200395162395719e+02    
1.011600000000000e+10    -1.918740326012008e+01   1.185934283297888e+02    
1.011700000000000e+10    -1.937320636313063e+01   1.172912635510353e+02    
1.011800000000000e+10    -1.957274160029833e+01   1.164076977882434e+02    
1.011900000000000e+10    -1.982759118605767e+01   1.153447829559064e+02    
1.012000000000000e+10    -2.009928416659042e+01   1.150294369700168e+02    
1.012100000000000e+10    -2.034407140632620e+01   1.144336930073490e+02    
1.012200000000000e+10    -2.067832660128389e+01   1.141661026479724e+02    
1.012300000000000e+10    -2.098760046465377e+01   1.140497273733979e+02    
1.012400000000000e+10    -2.128623030222360e+01   1.144239291520923e+02    
1.012500000000000e+10    -2.162391605416570e+01   1.150626259631139e+02    
1.012600000000000e+10    -2.192897375333876e+01   1.157454904971903e+02    
1.012700000000000e+10    -2.221172479443142e+01   1.173638416416528e+02    
1.012800000000000e+10    -2.246900049764564e+01   1.189955912327454e+02    
1.012900000000000e+10    -2.267842273919815e+01   1.214394042984177e+02    
1.013000000000000e+10    -2.283214013145140e+01   1.234678892934806e+02    
1.013100000000000e+10    -2.292316208829654e+01   1.260617800712888e+02    
1.013200000000000e+10    -2.293454220936869e+01   1.284587260183974e+02    
1.013300000000000e+10    -2.288517826892966e+01   1.312242542600864e+02    
1.013400000000000e+10    -2.276090379781854e+01   1.336449317489001e+02    
1.013500000000000e+10    -2.257698149331976e+01   1.357549418819248e+02    
1.013600000000000e+10    -2.238343872351086e+01   1.376644259984932e+02    
1.013700000000000e+10    -2.212407414688294e+01   1.393369424784659e+02    
1.013800000000000e+10    -2.177050972201510e+01   1.404761927433409e+02    
1.013900000000000e+10    -2.149409028021316e+01   1.411086499932777e+02    
1.014000000000000e+10    -2.117290476317915e+01   1.413896957161863e+02    
1.014100000000000e+10    -2.086267572063246e+01   1.416864679971290e+02    
1.014200000000000e+10    -2.059554242785002e+01   1.416390201471655e+02    
1.014300000000000e+10    -2.027459144717315e+01   1.409418317640675e+02    
1.014400000000000e+10    -2.006176706963498e+01   1.405380965464179e+02    
1.014500000000000e+10    -1.980960992762019e+01   1.395394509617028e+02    
1.014600000000000e+10    -1.961457983204802e+01   1.386612575746219e+02    
1.014700000000000e+10    -1.945343987028360e+01   1.374033052825231e+02    
1.014800000000000e+10    -1.927442922269014e+01   1.361326870251164e+02    
1.014900000000000e+10    -1.915460457710837e+01   1.349251728561906e+02    
1.015000000000000e+10    -1.903211496035122e+01   1.333939835306047e+02    
1.015100000000000e+10    -1.897178123267458e+01   1.318520255975018e+02    
1.015200000000000e+10    -1.891788501556979e+01   1.303783587397094e+02    
1.015300000000000e+10    -1.885396598100910e+01   1.288029245959177e+02    
1.015400000000000e+10    -1.887555076170862e+01   1.271350391781460e+02    
1.015500000000000e+10    -1.883461010585336e+01   1.253852524887704e+02    
1.015600000000000e+10    -1.890522390756221e+01   1.239193398344991e+02    
1.015700000000000e+10    -1.897266970944907e+01   1.222395883456868e+02    
1.015800000000000e+10    -1.908748818226963e+01   1.208019885322569e+02    
1.015900000000000e+10    -1.918255307767232e+01   1.193254304495951e+02    
1.016000000000000e+10    -1.935020466405133e+01   1.179114053600647e+02    
1.016100000000000e+10    -1.950437680395592e+01   1.165012986526604e+02    
1.016200000000000e+10    -1.970298238675677e+01   1.151139400715718e+02    
1.016300000000000e+10    -1.992407048123494e+01   1.139103735128289e+02    
1.016400000000000e+10    -2.013909825470868e+01   1.128604085815745e+02    
1.016500000000000e+10    -2.042583066000124e+01   1.119048888137624e+02    
1.016600000000000e+10    -2.068683194507683e+01   1.112536198928549e+02    
1.016700000000000e+10    -2.102753791483114e+01   1.108392264726913e+02    
1.016800000000000e+10    -2.131502223253790e+01   1.103738576189824e+02    
1.016900000000000e+10    -2.167548553348625e+01   1.105178398805318e+02    
1.017000000000000e+10    -2.196065180011275e+01   1.108734474927967e+02    
1.017100000000000e+10    -2.231370109467291e+01   1.116873656872423e+02    
1.017200000000000e+10    -2.266411431569484e+01   1.124418374731495e+02    
1.017300000000000e+10    -2.294300615774389e+01   1.140959385686482e+02    
1.017400000000000e+10    -2.325406242630546e+01   1.158263196408517e+02    
1.017500000000000e+10    -2.343659989599620e+01   1.180296878216317e+02    
1.017600000000000e+10    -2.360050146573935e+01   1.204914916384108e+02    
1.017700000000000e+10    -2.365857530032296e+01   1.227064888507297e+02    
1.017800000000000e+10    -2.366884935435990e+01   1.254299919763664e+02    
1.017900000000000e+10    -2.362954002783428e+01   1.279103676000174e+02    
1.018000000000000e+10    -2.349849920118322e+01   1.302769895397093e+02    
1.018100000000000e+10    -2.330656813470016e+01   1.322111099644920e+02    
1.018200000000000e+10    -2.301522308875259e+01   1.338993567340022e+02    
1.018300000000000e+10    -2.278637330499896e+01   1.353629685618288e+02    
1.018400000000000e+10    -2.248250373463703e+01   1.364878652997999e+02    
1.018500000000000e+10    -2.213150393919051e+01   1.369784335333141e+02    
1.018600000000000e+10    -2.183335195483527e+01   1.376650538096051e+02    
1.018700000000000e+10    -2.153105637296997e+01   1.374142010927621e+02    
1.018800000000000e+10    -2.123072758638556e+01   1.370551081845247e+02    
1.018900000000000e+10    -2.095574941039983e+01   1.364671708070588e+02    
1.019000000000000e+10    -2.066124830689417e+01   1.357588037813749e+02    
1.019100000000000e+10    -2.045665031941086e+01   1.349722172823901e+02    
1.019200000000000e+10    -2.026988620175183e+01   1.336438519958635e+02    
1.019300000000000e+10    -2.002930743284370e+01   1.325742206952332e+02    
1.019400000000000e+10    -1.987714888652923e+01   1.313049637716792e+02    
1.019500000000000e+10    -1.970741429906258e+01   1.298343038630513e+02    
1.019600000000000e+10    -1.961878203730230e+01   1.284969746010722e+02    
1.019700000000000e+10    -1.950311911853437e+01   1.268517294118369e+02    
1.019800000000000e+10    -1.944696575641917e+01   1.254264051147469e+02    
1.019900000000000e+10    -1.939384291463681e+01   1.236042318208283e+02    
1.020000000000000e+10    -1.935648360513780e+01   1.221623960664121e+02    
1.020100000000000e+10    -1.937788536634693e+01   1.205302447678885e+02    
1.020200000000000e+10    -1.941537185616969e+01   1.188066164333711e+02    
1.020300000000000e+10    -1.945802084495535e+01   1.172755067688097e+02    
1.020400000000000e+10    -1.954201318287392e+01   1.156735724860881e+02    
1.020500000000000e+10    -1.963617224249408e+01   1.142299763190809e+02    
1.020600000000000e+10    -1.976012846148256e+01   1.127996398371967e+02    
1.020700000000000e+10    -1.988801392659392e+01   1.112766297605685e+02    
1.020800000000000e+10    -2.004929847001493e+01   1.100452149676421e+02    
1.020900000000000e+10    -2.026187049724660e+01   1.090412200791901e+02    
1.021000000000000e+10    -2.049740242087846e+01   1.080837084847157e+02    
1.021100000000000e+10    -2.070664296093936e+01   1.072392212736252e+02    
1.021200000000000e+10    -2.100271058398999e+01   1.063980673880407e+02    
1.021300000000000e+10    -2.128585106494875e+01   1.061255701129581e+02    
1.021400000000000e+10    -2.161618829731784e+01   1.056893388342316e+02    
1.021500000000000e+10    -2.191883676381617e+01   1.062587423555562e+02    
1.021600000000000e+10    -2.219725630665666e+01   1.068108587078978e+02    
1.021700000000000e+10    -2.254975296722533e+01   1.071215255843012e+02    
1.021800000000000e+10    -2.281426071105549e+01   1.083423723922420e+02    
1.021900000000000e+10    -2.314345398663265e+01   1.096121346877768e+02    
1.022000000000000e+10    -2.332934388758611e+01   1.111124491020628e+02    
1.022100000000000e+10    -2.359111853220386e+01   1.138142336183432e+02    
1.022200000000000e+10    -2.376442043153835e+01   1.158560233656909e+02    
1.022300000000000e+10    -2.380999037862404e+01   1.183768474084555e+02    
1.022400000000000e+10    -2.381674767644969e+01   1.211998949130897e+02    
1.022500000000000e+10    -2.377475919905388e+01   1.235424751351570e+02    
1.022600000000000e+10    -2.364188620397398e+01   1.258026366594992e+02    
1.022700000000000e+10    -2.343201390391967e+01   1.278831855713941e+02    
1.022800000000000e+10    -2.320809923159732e+01   1.296535132091225e+02    
1.022900000000000e+10    -2.294980521015511e+01   1.312853304960575e+02    
1.023000000000000e+10    -2.266222367374582e+01   1.321247833300908e+02    
1.023100000000000e+10    -2.238590844301020e+01   1.331897624258163e+02    
1.023200000000000e+10    -2.207733267636720e+01   1.334874128846290e+02    
1.023300000000000e+10    -2.177892427689866e+01   1.339132875175601e+02    
1.023400000000000e+10    -2.148899177217928e+01   1.335498327679258e+02    
1.023500000000000e+10    -2.123936646941740e+01   1.330812021366295e+02    
1.023600000000000e+10    -2.098412766011612e+01   1.326329425197431e+02    
1.023700000000000e+10    -2.075916906165927e+01   1.316117149751458e+02    
1.023800000000000e+10    -2.055983740506310e+01   1.311014852133169e+02    
1.023900000000000e+10    -2.035373429402252e+01   1.298168250721418e+02    
1.024000000000000e+10    -2.018216436503499e+01   1.284788768944514e+02    
1.024100000000000e+10    -2.006709251539412e+01   1.273413489372008e+02    
1.024200000000000e+10    -1.994448011416257e+01   1.259767020350589e+02    
1.024300000000000e+10    -1.990624592114314e+01   1.244988062970687e+02    
1.024400000000000e+10    -1.982490305153886e+01   1.228992235972987e+02    
1.024500000000000e+10    -1.976895272449617e+01   1.214394905939645e+02    
1.024600000000000e+10    -1.975610631986132e+01   1.200699098722462e+02    
1.024700000000000e+10    -1.977976940945804e+01   1.184476652225447e+02    
1.024800000000000e+10    -1.979982987203524e+01   1.168103233462586e+02    
1.024900000000000e+10    -1.986437578878624e+01   1.154276386411047e+02    
1.025000000000000e+10    -1.998289462878127e+01   1.139277876444838e+02    
1.025100000000000e+10    -2.005317129188625e+01   1.121849332682686e+02    
1.025200000000000e+10    -2.018468636991868e+01   1.108665917399459e+02    
1.025300000000000e+10    -2.036487069655847e+01   1.097244560508356e+02    
1.025400000000000e+10    -2.058686639239765e+01   1.084206634507480e+02    
1.025500000000000e+10    -2.077127176173450e+01   1.070838838036708e+02    
1.025600000000000e+10    -2.101926336816857e+01   1.060186723253716e+02    
