[Version] 2.0
! Rohde & Schwarz Vector Network Analyzer
! Rohde-Schwarz,ZNL20-2Port,1323001220200009,1.71.1.10-23.02.1.238
! 
! Port Assignments:
! Nominal Port -> Actual Test Port
! --------------------------------
!   1 -> 1

! Created: GMT 2024-09-04 10:28:45

# Hz S DB R 50

[Number of Ports] 1
[Number of Frequencies] 2001

[Network Data] 
! freq[Hz]               S11[mag dB]              S11[ang]                 
1.000000000000000e+10    -1.816787493046139e+01   -1.019597751947749e+02   
1.000100000000000e+10    -1.820018308215343e+01   -1.021959349072312e+02   
1.000200000000000e+10    -1.824490549927196e+01   -1.021826212599746e+02   
1.000300000000000e+10    -1.827517013538913e+01   -1.022238206659193e+02   
1.000400000000000e+10    -1.831786426634492e+01   -1.023739789500767e+02   
1.000500000000000e+10    -1.833253670008868e+01   -1.024509980704573e+02   
1.000600000000000e+10    -1.839335780089083e+01   -1.024286757408675e+02   
1.000700000000000e+10    -1.838973196339181e+01   -1.024707648594825e+02   
1.000800000000000e+10    -1.844969923511090e+01   -1.024976042228650e+02   
1.000900000000000e+10    -1.845190868170384e+01   -1.021409958088241e+02   
1.001000000000000e+10    -1.848190611865708e+01   -1.022776584914967e+02   
1.001100000000000e+10    -1.850499130662310e+01   -1.020515896370579e+02   
1.001200000000000e+10    -1.851628402375892e+01   -1.019622442129381e+02   
1.001300000000000e+10    -1.852305985748463e+01   -1.018008490412638e+02   
1.001400000000000e+10    -1.854701236077555e+01   -1.015942470886701e+02   
1.001500000000000e+10    -1.852188677496842e+01   -1.016129197535174e+02   
1.001600000000000e+10    -1.853311682648447e+01   -1.013653111611250e+02   
1.001700000000000e+10    -1.852756232319879e+01   -1.012150457316997e+02   
1.001800000000000e+10    -1.850661281268660e+01   -1.010912771066535e+02   
1.001900000000000e+10    -1.848688930737229e+01   -1.010275024873364e+02   
1.002000000000000e+10    -1.847646686314071e+01   -1.007932975004154e+02   
1.002100000000000e+10    -1.844176057073819e+01   -1.006839651609624e+02   
1.002200000000000e+10    -1.839277069519591e+01   -1.007211931087807e+02   
1.002300000000000e+10    -1.836857416853089e+01   -1.006737207662098e+02   
1.002400000000000e+10    -1.832534128618259e+01   -1.008493967487583e+02   
1.002500000000000e+10    -1.828616229817934e+01   -1.008149134049617e+02   
1.002600000000000e+10    -1.823970616229509e+01   -1.008444031003289e+02   
1.002700000000000e+10    -1.820280276775291e+01   -1.008812989488101e+02   
1.002800000000000e+10    -1.814184581667931e+01   -1.011026964513341e+02   
1.002900000000000e+10    -1.811549142555466e+01   -1.011920247674535e+02   
1.003000000000000e+10    -1.807616708022213e+01   -1.014542403730370e+02   
1.003100000000000e+10    -1.803112384410951e+01   -1.017655265568794e+02   
1.003200000000000e+10    -1.801082009479944e+01   -1.019092136208444e+02   
1.003300000000000e+10    -1.800131790573584e+01   -1.021902396610750e+02   
1.003400000000000e+10    -1.795295297832024e+01   -1.025245567887870e+02   
1.003500000000000e+10    -1.794075359278811e+01   -1.027143686183017e+02   
1.003600000000000e+10    -1.794135754963001e+01   -1.030705972277513e+02   
1.003700000000000e+10    -1.791249157899801e+01   -1.033880747081323e+02   
1.003800000000000e+10    -1.792265224757328e+01   -1.036391160274763e+02   
1.003900000000000e+10    -1.790221838355963e+01   -1.040687897938431e+02   
1.004000000000000e+10    -1.792601650039742e+01   -1.041246406464020e+02   
1.004100000000000e+10    -1.790597672648876e+01   -1.044464004033281e+02   
1.004200000000000e+10    -1.794787669755136e+01   -1.045689572154919e+02   
1.004300000000000e+10    -1.795550605155905e+01   -1.049492146483618e+02   
1.004400000000000e+10    -1.796165294155080e+01   -1.052149563369846e+02   
1.004500000000000e+10    -1.801156611492263e+01   -1.053901462397836e+02   
1.004600000000000e+10    -1.802749314250835e+01   -1.054310331255151e+02   
1.004700000000000e+10    -1.804892588240342e+01   -1.057335762024008e+02   
1.004800000000000e+10    -1.808112317211937e+01   -1.058340803464674e+02   
1.004900000000000e+10    -1.813867369649192e+01   -1.059089862902479e+02   
1.005000000000000e+10    -1.817816612355772e+01   -1.059037194057014e+02   
1.005100000000000e+10    -1.818941634074948e+01   -1.057673842609253e+02   
1.005200000000000e+10    -1.821239339881991e+01   -1.057665306832901e+02   
1.005300000000000e+10    -1.824217274779356e+01   -1.057825582086651e+02   
1.005400000000000e+10    -1.828140857850912e+01   -1.057193699644175e+02   
1.005500000000000e+10    -1.830072057435530e+01   -1.056847026803258e+02   
1.005600000000000e+10    -1.832943250090711e+01   -1.053415367321093e+02   
1.005700000000000e+10    -1.835605803790903e+01   -1.052489915466429e+02   
1.005800000000000e+10    -1.835586292059003e+01   -1.048587643417764e+02   
1.005900000000000e+10    -1.835539817672051e+01   -1.048045769183437e+02   
1.006000000000000e+10    -1.835215525879252e+01   -1.046231233987055e+02   
1.006100000000000e+10    -1.835844158006514e+01   -1.043685268278656e+02   
1.006200000000000e+10    -1.835210075005415e+01   -1.040468464206263e+02   
1.006300000000000e+10    -1.831663374790784e+01   -1.037315889330221e+02   
1.006400000000000e+10    -1.831430870177450e+01   -1.036037974280524e+02   
1.006500000000000e+10    -1.828039504732721e+01   -1.035268366067335e+02   
1.006600000000000e+10    -1.826067058002178e+01   -1.033349584730819e+02   
1.006700000000000e+10    -1.824261177226435e+01   -1.031113030721982e+02   
1.006800000000000e+10    -1.820904058851776e+01   -1.032975767172812e+02   
1.006900000000000e+10    -1.815732766355384e+01   -1.029957704136895e+02   
1.007000000000000e+10    -1.811516964777682e+01   -1.030022115585434e+02   
1.007100000000000e+10    -1.807305372510953e+01   -1.029686802429486e+02   
1.007200000000000e+10    -1.803931176351361e+01   -1.031680401420875e+02   
1.007300000000000e+10    -1.799912085432464e+01   -1.031029339290482e+02   
1.007400000000000e+10    -1.795711798931458e+01   -1.032378246558389e+02   
1.007500000000000e+10    -1.793631053592440e+01   -1.033757158500236e+02   
1.007600000000000e+10    -1.788784194995010e+01   -1.036237479054697e+02   
1.007700000000000e+10    -1.786478807806079e+01   -1.037211095696283e+02   
1.007800000000000e+10    -1.783021621549725e+01   -1.039112397496580e+02   
1.007900000000000e+10    -1.780675984856300e+01   -1.039931815350868e+02   
1.008000000000000e+10    -1.779462284654304e+01   -1.042991210751041e+02   
1.008100000000000e+10    -1.777973709016724e+01   -1.048441941646361e+02   
1.008200000000000e+10    -1.777269433193288e+01   -1.051036889831132e+02   
1.008300000000000e+10    -1.778825608869292e+01   -1.052482980031718e+02   
1.008400000000000e+10    -1.778040096044253e+01   -1.056688962064752e+02   
1.008500000000000e+10    -1.778106452130481e+01   -1.059013026650161e+02   
1.008600000000000e+10    -1.779749900472236e+01   -1.061706671155928e+02   
1.008700000000000e+10    -1.781794489617521e+01   -1.064283195094145e+02   
1.008800000000000e+10    -1.783344412790216e+01   -1.068244125704880e+02   
1.008900000000000e+10    -1.787124527729046e+01   -1.068919938823341e+02   
1.009000000000000e+10    -1.788365840727586e+01   -1.071728647444748e+02   
1.009100000000000e+10    -1.791374874214407e+01   -1.074511854236221e+02   
1.009200000000000e+10    -1.795603177184329e+01   -1.075210560894448e+02   
1.009300000000000e+10    -1.800340028831354e+01   -1.076746330955713e+02   
1.009400000000000e+10    -1.804265654321490e+01   -1.078664777398749e+02   
1.009500000000000e+10    -1.807611563948914e+01   -1.079639388475827e+02   
1.009600000000000e+10    -1.811192945195213e+01   -1.078482938996553e+02   
1.009700000000000e+10    -1.815326132392707e+01   -1.079120815899597e+02   
1.009800000000000e+10    -1.820621383948754e+01   -1.078458580086506e+02   
1.009900000000000e+10    -1.823834719432795e+01   -1.078001480887223e+02   
1.010000000000000e+10    -1.825623527485515e+01   -1.077792120931036e+02   
1.010100000000000e+10    -1.828734730049185e+01   -1.075782164507475e+02   
1.010200000000000e+10    -1.832122551990604e+01   -1.074530840683321e+02   
1.010300000000000e+10    -1.833544531057875e+01   -1.073354119248332e+02   
1.010400000000000e+10    -1.833878272414599e+01   -1.071059706018038e+02   
1.010500000000000e+10    -1.835119592809834e+01   -1.070115510058296e+02   
1.010600000000000e+10    -1.834396045058634e+01   -1.065693393872348e+02   
1.010700000000000e+10    -1.834026125801791e+01   -1.067001967118189e+02   
1.010800000000000e+10    -1.835128850559008e+01   -1.063422120214901e+02   
1.010900000000000e+10    -1.831223444975400e+01   -1.062310399329112e+02   
1.011000000000000e+10    -1.828931134567042e+01   -1.059287552547614e+02   
1.011100000000000e+10    -1.823684995257229e+01   -1.059362284614043e+02   
1.011200000000000e+10    -1.822679091743585e+01   -1.058306805685883e+02   
1.011300000000000e+10    -1.816697902576789e+01   -1.058024762727013e+02   
1.011400000000000e+10    -1.815325571208811e+01   -1.056514749715662e+02   
1.011500000000000e+10    -1.810236796354523e+01   -1.056711446895660e+02   
1.011600000000000e+10    -1.808258383161362e+01   -1.056402730526359e+02   
1.011700000000000e+10    -1.805358171538904e+01   -1.057928030710929e+02   
1.011800000000000e+10    -1.800168701651055e+01   -1.058467501142426e+02   
1.011900000000000e+10    -1.795613905386377e+01   -1.059745106698307e+02   
1.012000000000000e+10    -1.789992084615367e+01   -1.060927859331838e+02   
1.012100000000000e+10    -1.787934897234402e+01   -1.063874614939117e+02   
1.012200000000000e+10    -1.783539770162684e+01   -1.064037549615233e+02   
1.012300000000000e+10    -1.781127531030749e+01   -1.066717542662783e+02   
1.012400000000000e+10    -1.779859297255479e+01   -1.069531220545224e+02   
1.012500000000000e+10    -1.777311961223536e+01   -1.071648863677341e+02   
1.012600000000000e+10    -1.776861496962664e+01   -1.074157005798012e+02   
1.012700000000000e+10    -1.774842498435789e+01   -1.078251466130517e+02   
1.012800000000000e+10    -1.774206532203186e+01   -1.080012463343005e+02   
1.012900000000000e+10    -1.773511671599581e+01   -1.083615570518958e+02   
1.013000000000000e+10    -1.775255583610801e+01   -1.085348067386229e+02   
1.013100000000000e+10    -1.775981305740205e+01   -1.088665767174678e+02   
1.013200000000000e+10    -1.777999806505333e+01   -1.091721195358354e+02   
1.013300000000000e+10    -1.780227272529494e+01   -1.094938940234193e+02   
1.013400000000000e+10    -1.781085624623057e+01   -1.096068621378627e+02   
1.013500000000000e+10    -1.784213610489309e+01   -1.098705812422465e+02   
1.013600000000000e+10    -1.787329406571077e+01   -1.099568627511195e+02   
1.013700000000000e+10    -1.789692906359331e+01   -1.100879812758335e+02   
1.013800000000000e+10    -1.793162123675620e+01   -1.102518869953920e+02   
1.013900000000000e+10    -1.797085324200533e+01   -1.103624225007240e+02   
1.014000000000000e+10    -1.800845527104473e+01   -1.102880224070590e+02   
1.014100000000000e+10    -1.805804731812811e+01   -1.104029086182133e+02   
1.014200000000000e+10    -1.808078460899780e+01   -1.103020417133272e+02   
1.014300000000000e+10    -1.812847965072033e+01   -1.102541190219530e+02   
1.014400000000000e+10    -1.815718442609900e+01   -1.101162256090958e+02   
1.014500000000000e+10    -1.818910766129836e+01   -1.101275304092541e+02   
1.014600000000000e+10    -1.820470728536969e+01   -1.098755872614036e+02   
1.014700000000000e+10    -1.822937897528380e+01   -1.096111430312970e+02   
1.014800000000000e+10    -1.826522047323611e+01   -1.095375582098639e+02   
1.014900000000000e+10    -1.825663676420503e+01   -1.093266160343559e+02   
1.015000000000000e+10    -1.826902711925080e+01   -1.091355812328635e+02   
1.015100000000000e+10    -1.827033165933569e+01   -1.088918484490411e+02   
1.015200000000000e+10    -1.826114644416507e+01   -1.086230174378830e+02   
1.015300000000000e+10    -1.825461363546636e+01   -1.085522104922681e+02   
1.015400000000000e+10    -1.823426386955707e+01   -1.082460641868497e+02   
1.015500000000000e+10    -1.824652471587252e+01   -1.082518506490274e+02   
1.015600000000000e+10    -1.821034322333643e+01   -1.080376655966206e+02   
1.015700000000000e+10    -1.817803526220362e+01   -1.077750222733607e+02   
1.015800000000000e+10    -1.814057674736198e+01   -1.077985681323659e+02   
1.015900000000000e+10    -1.810895117837426e+01   -1.076895504173385e+02   
1.016000000000000e+10    -1.806407505826406e+01   -1.076894149002667e+02   
1.016100000000000e+10    -1.803809632961417e+01   -1.077276886327566e+02   
1.016200000000000e+10    -1.799803866880568e+01   -1.076154653403554e+02   
1.016300000000000e+10    -1.795969576730251e+01   -1.076976174173342e+02   
1.016400000000000e+10    -1.794828122139572e+01   -1.078807451785783e+02   
1.016500000000000e+10    -1.789366259473082e+01   -1.079304865774829e+02   
1.016600000000000e+10    -1.787559695677125e+01   -1.082121793043472e+02   
1.016700000000000e+10    -1.783028213811388e+01   -1.083442638411900e+02   
1.016800000000000e+10    -1.780392508788046e+01   -1.085407958578527e+02   
1.016900000000000e+10    -1.779010244609211e+01   -1.087631009255499e+02   
1.017000000000000e+10    -1.777676776453045e+01   -1.091224052409999e+02   
1.017100000000000e+10    -1.774808370564896e+01   -1.094829833637955e+02   
1.017200000000000e+10    -1.774305512460096e+01   -1.096202714103528e+02   
1.017300000000000e+10    -1.774004853887414e+01   -1.100333908409285e+02   
1.017400000000000e+10    -1.773807985179975e+01   -1.102508512961786e+02   
1.017500000000000e+10    -1.773342639205084e+01   -1.105908933823375e+02   
1.017600000000000e+10    -1.773390501858946e+01   -1.107466106462845e+02   
1.017700000000000e+10    -1.777120634157633e+01   -1.111050407411134e+02   
1.017800000000000e+10    -1.777635007083030e+01   -1.113904800171004e+02   
1.017900000000000e+10    -1.779952586799084e+01   -1.115241615310359e+02   
1.018000000000000e+10    -1.782061608914508e+01   -1.117989660684493e+02   
1.018100000000000e+10    -1.785115950898427e+01   -1.119490219504082e+02   
1.018200000000000e+10    -1.788875251724397e+01   -1.121249382353531e+02   
1.018300000000000e+10    -1.790528678377790e+01   -1.122491951979340e+02   
1.018400000000000e+10    -1.795206575561549e+01   -1.124108550889387e+02   
1.018500000000000e+10    -1.797446932875965e+01   -1.125219170792938e+02   
1.018600000000000e+10    -1.799907354057375e+01   -1.127301613394920e+02   
1.018700000000000e+10    -1.803432281382518e+01   -1.125900327146914e+02   
1.018800000000000e+10    -1.807110338085404e+01   -1.126774708199313e+02   
1.018900000000000e+10    -1.810615362461535e+01   -1.126218637636461e+02   
1.019000000000000e+10    -1.812516717117693e+01   -1.124764612507970e+02   
1.019100000000000e+10    -1.814001971032469e+01   -1.124020235152976e+02   
1.019200000000000e+10    -1.815919823375990e+01   -1.122222975783798e+02   
1.019300000000000e+10    -1.818033381951662e+01   -1.122794338014268e+02   
1.019400000000000e+10    -1.818512782493548e+01   -1.120129689156614e+02   
1.019500000000000e+10    -1.819085475654406e+01   -1.119037024937566e+02   
1.019600000000000e+10    -1.816502402259983e+01   -1.116804593394855e+02   
1.019700000000000e+10    -1.817359362393458e+01   -1.115036521679987e+02   
1.019800000000000e+10    -1.816025827146149e+01   -1.113638302936362e+02   
1.019900000000000e+10    -1.814725270757736e+01   -1.111184550547415e+02   
1.020000000000000e+10    -1.812407455699627e+01   -1.111061044747309e+02   
1.020100000000000e+10    -1.810342495706768e+01   -1.109288874651919e+02   
1.020200000000000e+10    -1.806643010834620e+01   -1.107425096742431e+02   
1.020300000000000e+10    -1.805188277130872e+01   -1.106809758796376e+02   
1.020400000000000e+10    -1.800423053089938e+01   -1.106077893498656e+02   
1.020500000000000e+10    -1.798109983279008e+01   -1.106444628130176e+02   
1.020600000000000e+10    -1.792733190081877e+01   -1.105107499470345e+02   
1.020700000000000e+10    -1.790971516559505e+01   -1.105892228011575e+02   
1.020800000000000e+10    -1.788139602354159e+01   -1.106851640279106e+02   
1.020900000000000e+10    -1.783169095731791e+01   -1.107103512304765e+02   
1.021000000000000e+10    -1.779533767227983e+01   -1.108178679123388e+02   
1.021100000000000e+10    -1.776964588988425e+01   -1.109631984287335e+02   
1.021200000000000e+10    -1.775066318694889e+01   -1.110199817672528e+02   
1.021300000000000e+10    -1.770288930246919e+01   -1.112570488061999e+02   
1.021400000000000e+10    -1.769995231156041e+01   -1.113696961671451e+02   
1.021500000000000e+10    -1.765479705157203e+01   -1.116809679052224e+02   
1.021600000000000e+10    -1.764509717153805e+01   -1.119766765844260e+02   
1.021700000000000e+10    -1.763613716654550e+01   -1.120462763190656e+02   
1.021800000000000e+10    -1.763816607777040e+01   -1.123186818489290e+02   
1.021900000000000e+10    -1.762522689174786e+01   -1.124264054564293e+02   
1.022000000000000e+10    -1.764126321662477e+01   -1.127149445197947e+02   
1.022100000000000e+10    -1.762090934560974e+01   -1.129356259047827e+02   
1.022200000000000e+10    -1.764606218523218e+01   -1.131279065294497e+02   
1.022300000000000e+10    -1.765953102762105e+01   -1.133553368771143e+02   
1.022400000000000e+10    -1.767958186439964e+01   -1.135914534667765e+02   
1.022500000000000e+10    -1.769675882100332e+01   -1.137271962086366e+02   
1.022600000000000e+10    -1.773227744739301e+01   -1.139036921847904e+02   
1.022700000000000e+10    -1.775011953712572e+01   -1.140528694951408e+02   
1.022800000000000e+10    -1.780145616972080e+01   -1.140740308638511e+02   
1.022900000000000e+10    -1.780053909359644e+01   -1.141870174329736e+02   
1.023000000000000e+10    -1.785026195254318e+01   -1.142988456122854e+02   
1.023100000000000e+10    -1.786006727342011e+01   -1.142614831174266e+02   
1.023200000000000e+10    -1.792207953239364e+01   -1.143189879368062e+02   
1.023300000000000e+10    -1.791848187155770e+01   -1.143339879346032e+02   
1.023400000000000e+10    -1.797483128546448e+01   -1.143858305567527e+02   
1.023500000000000e+10    -1.797838059887792e+01   -1.142729918537095e+02   
1.023600000000000e+10    -1.802928352834071e+01   -1.141967388751748e+02   
1.023700000000000e+10    -1.804819709833934e+01   -1.140942934593832e+02   
1.023800000000000e+10    -1.807547709058280e+01   -1.140927916718532e+02   
1.023900000000000e+10    -1.808969620883587e+01   -1.138748021637335e+02   
1.024000000000000e+10    -1.811743203108792e+01   -1.137489908647747e+02   
1.024100000000000e+10    -1.811130132549012e+01   -1.137296484060905e+02   
1.024200000000000e+10    -1.811141370081551e+01   -1.135305272662477e+02   
1.024300000000000e+10    -1.811530491928598e+01   -1.132723081389746e+02   
1.024400000000000e+10    -1.810558544424829e+01   -1.132552767916783e+02   
1.024500000000000e+10    -1.810651386737308e+01   -1.130781038881525e+02   
1.024600000000000e+10    -1.807956698125271e+01   -1.130860957725439e+02   
1.024700000000000e+10    -1.807769908100081e+01   -1.129460479804098e+02   
1.024800000000000e+10    -1.806766112494654e+01   -1.130779217492838e+02   
1.024900000000000e+10    -1.802224927663161e+01   -1.129764998454777e+02   
1.025000000000000e+10    -1.800252194877226e+01   -1.128733327100253e+02   
1.025100000000000e+10    -1.799962574850019e+01   -1.128508153663200e+02   
1.025200000000000e+10    -1.796577304680424e+01   -1.130305120651626e+02   
1.025300000000000e+10    -1.792028790997131e+01   -1.130341913604987e+02   
1.025400000000000e+10    -1.788975308836202e+01   -1.130708054218915e+02   
1.025500000000000e+10    -1.788016058433015e+01   -1.132258561586172e+02   
1.025600000000000e+10    -1.785275220324406e+01   -1.134226759388173e+02   
