[Version] 2.0
! Rohde & Schwarz Vector Network Analyzer
! Rohde-Schwarz,ZNL20-2Port,1323001220200009,1.71.1.10-23.02.1.238
! 
! Port Assignments:
! Nominal Port -> Actual Test Port
! --------------------------------
!   1 -> 1

! Created: GMT 2024-09-04 10:29:25

# Hz S DB R 50

[Number of Ports] 1
[Number of Frequencies] 2001

[Network Data] 
! freq[Hz]               S11[mag dB]              S11[ang]                 
1.000000000000000e+10    -1.815261675242014e+01   -1.019030948699747e+02   
1.000100000000000e+10    -1.818441908351828e+01   -1.021381311925450e+02   
1.000200000000000e+10    -1.822923522683227e+01   -1.021258237823283e+02   
1.000300000000000e+10    -1.826009622317107e+01   -1.021725866354911e+02   
1.000400000000000e+10    -1.830244964846229e+01   -1.023325796538811e+02   
1.000500000000000e+10    -1.831866009461450e+01   -1.024139289685157e+02   
1.000600000000000e+10    -1.837966285959394e+01   -1.023937436945861e+02   
1.000700000000000e+10    -1.837643672078514e+01   -1.024387624585541e+02   
1.000800000000000e+10    -1.843784407753068e+01   -1.024622642647495e+02   
1.000900000000000e+10    -1.843932358220682e+01   -1.021075087717984e+02   
1.001000000000000e+10    -1.847131077015520e+01   -1.022476775632543e+02   
1.001100000000000e+10    -1.849351458813838e+01   -1.020172078952295e+02   
1.001200000000000e+10    -1.850547887610520e+01   -1.019315018134209e+02   
1.001300000000000e+10    -1.851210444914100e+01   -1.017772735094994e+02   
1.001400000000000e+10    -1.853666360243194e+01   -1.015587832540578e+02   
1.001500000000000e+10    -1.851302626740333e+01   -1.015830223770066e+02   
1.001600000000000e+10    -1.852417997174707e+01   -1.013343173121804e+02   
1.001700000000000e+10    -1.851885124607691e+01   -1.011866613326382e+02   
1.001800000000000e+10    -1.849887112366682e+01   -1.010571828345995e+02   
1.001900000000000e+10    -1.847900271981850e+01   -1.009879940051045e+02   
1.002000000000000e+10    -1.846885734249440e+01   -1.007477099168216e+02   
1.002100000000000e+10    -1.843439461230257e+01   -1.006339506375625e+02   
1.002200000000000e+10    -1.838420890924718e+01   -1.006768336091735e+02   
1.002300000000000e+10    -1.836168027013539e+01   -1.006228344046141e+02   
1.002400000000000e+10    -1.831731757176121e+01   -1.007942509301650e+02   
1.002500000000000e+10    -1.827703037861874e+01   -1.007534448234426e+02   
1.002600000000000e+10    -1.823079185688871e+01   -1.007767179772529e+02   
1.002700000000000e+10    -1.819340540964765e+01   -1.008083319882285e+02   
1.002800000000000e+10    -1.813130639816816e+01   -1.010272651101265e+02   
1.002900000000000e+10    -1.810533699535027e+01   -1.011145845170824e+02   
1.003000000000000e+10    -1.806376697105692e+01   -1.013756958478791e+02   
1.003100000000000e+10    -1.801824709715489e+01   -1.016844814276817e+02   
1.003200000000000e+10    -1.799764009159967e+01   -1.018260992767526e+02   
1.003300000000000e+10    -1.798707905383155e+01   -1.021118009558555e+02   
1.003400000000000e+10    -1.793826301043693e+01   -1.024449544680001e+02   
1.003500000000000e+10    -1.792519880970170e+01   -1.026361730585824e+02   
1.003600000000000e+10    -1.792478792788179e+01   -1.029907425054316e+02   
1.003700000000000e+10    -1.789529960519160e+01   -1.033132925289564e+02   
1.003800000000000e+10    -1.790528279413598e+01   -1.035676138147919e+02   
1.003900000000000e+10    -1.788387061218201e+01   -1.039947224984311e+02   
1.004000000000000e+10    -1.790711884152811e+01   -1.040552300580863e+02   
1.004100000000000e+10    -1.788691050292693e+01   -1.043730380942256e+02   
1.004200000000000e+10    -1.792792766229762e+01   -1.044968794712905e+02   
1.004300000000000e+10    -1.793568165548119e+01   -1.048814063930123e+02   
1.004400000000000e+10    -1.794051303512982e+01   -1.051487144072094e+02   
1.004500000000000e+10    -1.799019331982301e+01   -1.053306507010263e+02   
1.004600000000000e+10    -1.800587851731187e+01   -1.053827551199873e+02   
1.004700000000000e+10    -1.802717385977288e+01   -1.056794551476756e+02   
1.004800000000000e+10    -1.806020824499363e+01   -1.057839029469319e+02   
1.004900000000000e+10    -1.811761516668998e+01   -1.058635279601401e+02   
1.005000000000000e+10    -1.815636506020229e+01   -1.058538652393048e+02   
1.005100000000000e+10    -1.816913466705105e+01   -1.057258236857352e+02   
1.005200000000000e+10    -1.819107674135613e+01   -1.057312773855998e+02   
1.005300000000000e+10    -1.822282965984917e+01   -1.057405410813675e+02   
1.005400000000000e+10    -1.826262032671141e+01   -1.056820246344977e+02   
1.005500000000000e+10    -1.828076310621320e+01   -1.056429539210353e+02   
1.005600000000000e+10    -1.831184741455516e+01   -1.052922871984747e+02   
1.005700000000000e+10    -1.833841541002281e+01   -1.052061022061231e+02   
1.005800000000000e+10    -1.833813902979409e+01   -1.048181704330004e+02   
1.005900000000000e+10    -1.834010586097340e+01   -1.047561902248142e+02   
1.006000000000000e+10    -1.833753112337953e+01   -1.045756654098624e+02   
1.006100000000000e+10    -1.834321573944428e+01   -1.043161984861092e+02   
1.006200000000000e+10    -1.833793431059682e+01   -1.039890852085683e+02   
1.006300000000000e+10    -1.830244119969812e+01   -1.036706399320004e+02   
1.006400000000000e+10    -1.829983972132075e+01   -1.035306486921515e+02   
1.006500000000000e+10    -1.826665067802265e+01   -1.034565203023867e+02   
1.006600000000000e+10    -1.824740932474058e+01   -1.032559599058348e+02   
1.006700000000000e+10    -1.822950293365127e+01   -1.030190558089704e+02   
1.006800000000000e+10    -1.819596872208457e+01   -1.031986741737019e+02   
1.006900000000000e+10    -1.814488423100414e+01   -1.028935279354829e+02   
1.007000000000000e+10    -1.810159547677683e+01   -1.028952617155884e+02   
1.007100000000000e+10    -1.805890584817653e+01   -1.028593798639937e+02   
1.007200000000000e+10    -1.802494715334528e+01   -1.030496052550123e+02   
1.007300000000000e+10    -1.798506049373388e+01   -1.029863631816894e+02   
1.007400000000000e+10    -1.794222051575936e+01   -1.031117680670119e+02   
1.007500000000000e+10    -1.792025298831913e+01   -1.032514100551408e+02   
1.007600000000000e+10    -1.787266638001334e+01   -1.034962489521841e+02   
1.007700000000000e+10    -1.784799704892262e+01   -1.035838942901051e+02   
1.007800000000000e+10    -1.781319317219345e+01   -1.037755733973857e+02   
1.007900000000000e+10    -1.778918676715596e+01   -1.038542727734177e+02   
1.008000000000000e+10    -1.777686434584190e+01   -1.041603450596983e+02   
1.008100000000000e+10    -1.776070135964555e+01   -1.047117040560299e+02   
1.008200000000000e+10    -1.775363724025542e+01   -1.049707529155858e+02   
1.008300000000000e+10    -1.776857006160134e+01   -1.051129279865780e+02   
1.008400000000000e+10    -1.776046158475059e+01   -1.055394882959687e+02   
1.008500000000000e+10    -1.776171671467906e+01   -1.057726274910762e+02   
1.008600000000000e+10    -1.777669941043623e+01   -1.060439080072407e+02   
1.008700000000000e+10    -1.779764818395843e+01   -1.063082432046824e+02   
1.008800000000000e+10    -1.781256485040269e+01   -1.067034929171504e+02   
1.008900000000000e+10    -1.785044071062502e+01   -1.067774234351401e+02   
1.009000000000000e+10    -1.786198985304355e+01   -1.070593062826401e+02   
1.009100000000000e+10    -1.789266183046432e+01   -1.073407338515908e+02   
1.009200000000000e+10    -1.793512524398793e+01   -1.074100716168119e+02   
1.009300000000000e+10    -1.798215286535991e+01   -1.075751018956057e+02   
1.009400000000000e+10    -1.802353762140417e+01   -1.077659053273691e+02   
1.009500000000000e+10    -1.805653135386535e+01   -1.078705802949839e+02   
1.009600000000000e+10    -1.809313281465005e+01   -1.077574741428656e+02   
1.009700000000000e+10    -1.813516831566542e+01   -1.078239318505177e+02   
1.009800000000000e+10    -1.818888696072706e+01   -1.077593200688457e+02   
1.009900000000000e+10    -1.822147085650274e+01   -1.077206350896450e+02   
1.010000000000000e+10    -1.824101922997913e+01   -1.077041978525824e+02   
1.010100000000000e+10    -1.827198023170156e+01   -1.074976377145466e+02   
1.010200000000000e+10    -1.830788402278761e+01   -1.073759683683336e+02   
1.010300000000000e+10    -1.832269634880196e+01   -1.072574963078430e+02   
1.010400000000000e+10    -1.832811919244606e+01   -1.070218729650094e+02   
1.010500000000000e+10    -1.834042491875589e+01   -1.069253306166302e+02   
1.010600000000000e+10    -1.833385698930843e+01   -1.064798518357020e+02   
1.010700000000000e+10    -1.833154522201415e+01   -1.066118732403047e+02   
1.010800000000000e+10    -1.834165689198326e+01   -1.062444418019797e+02   
1.010900000000000e+10    -1.830406364044929e+01   -1.061263879470395e+02   
1.011000000000000e+10    -1.828020198878300e+01   -1.058179266843144e+02   
1.011100000000000e+10    -1.822841539956597e+01   -1.058230701203379e+02   
1.011200000000000e+10    -1.821948636564886e+01   -1.057137455431393e+02   
1.011300000000000e+10    -1.815881205875410e+01   -1.056784103545381e+02   
1.011400000000000e+10    -1.814400202144385e+01   -1.055317663009198e+02   
1.011500000000000e+10    -1.809271614722988e+01   -1.055457348555988e+02   
1.011600000000000e+10    -1.807328976564260e+01   -1.055054177241250e+02   
1.011700000000000e+10    -1.804450103453101e+01   -1.056596869478149e+02   
1.011800000000000e+10    -1.799096115283621e+01   -1.057047329601911e+02   
1.011900000000000e+10    -1.794579825721996e+01   -1.058346023395351e+02   
1.012000000000000e+10    -1.788818809763134e+01   -1.059510872089946e+02   
1.012100000000000e+10    -1.786643099723279e+01   -1.062411693870417e+02   
1.012200000000000e+10    -1.782224088569470e+01   -1.062571571048835e+02   
1.012300000000000e+10    -1.779800283773793e+01   -1.065259458798341e+02   
1.012400000000000e+10    -1.778473921701058e+01   -1.068131171326459e+02   
1.012500000000000e+10    -1.775799395903164e+01   -1.070193975398760e+02   
1.012600000000000e+10    -1.775351871258985e+01   -1.072723320284192e+02   
1.012700000000000e+10    -1.773257941368096e+01   -1.076864038616156e+02   
1.012800000000000e+10    -1.772506030604480e+01   -1.078561218905205e+02   
1.012900000000000e+10    -1.771786711874617e+01   -1.082218611637792e+02   
1.013000000000000e+10    -1.773468945195333e+01   -1.083982231625078e+02   
1.013100000000000e+10    -1.774056020098327e+01   -1.087370940935929e+02   
1.013200000000000e+10    -1.776084722118458e+01   -1.090437002513579e+02   
1.013300000000000e+10    -1.778257667600408e+01   -1.093771478009654e+02   
1.013400000000000e+10    -1.779025687235408e+01   -1.094863123651507e+02   
1.013500000000000e+10    -1.782203526119043e+01   -1.097576907540894e+02   
1.013600000000000e+10    -1.785306571779343e+01   -1.098562334769355e+02   
1.013700000000000e+10    -1.787673437060275e+01   -1.099881794662011e+02   
1.013800000000000e+10    -1.791073413085124e+01   -1.101539703648658e+02   
1.013900000000000e+10    -1.795162217792438e+01   -1.102722786555265e+02   
1.014000000000000e+10    -1.798925665215740e+01   -1.102079315965262e+02   
1.014100000000000e+10    -1.803883943622202e+01   -1.103178722081621e+02   
1.014200000000000e+10    -1.806277468095659e+01   -1.102195215993079e+02   
1.014300000000000e+10    -1.811082368052845e+01   -1.101775633001785e+02   
1.014400000000000e+10    -1.813994548201767e+01   -1.100384887733275e+02   
1.014500000000000e+10    -1.817328645738308e+01   -1.100525899409724e+02   
1.014600000000000e+10    -1.818765996536952e+01   -1.098062382711258e+02   
1.014700000000000e+10    -1.821453790677472e+01   -1.095373923130810e+02   
1.014800000000000e+10    -1.825047079547624e+01   -1.094580092848061e+02   
1.014900000000000e+10    -1.824281976106698e+01   -1.092441548235550e+02   
1.015000000000000e+10    -1.825609391003689e+01   -1.090551482191412e+02   
1.015100000000000e+10    -1.825765760138712e+01   -1.088059058007530e+02   
1.015200000000000e+10    -1.824902120271540e+01   -1.085388052371144e+02   
1.015300000000000e+10    -1.824316099293538e+01   -1.084534917852205e+02   
1.015400000000000e+10    -1.822245101568386e+01   -1.081454948821727e+02   
1.015500000000000e+10    -1.823558114732616e+01   -1.081513655031045e+02   
1.015600000000000e+10    -1.819887985177481e+01   -1.079277191895836e+02   
1.015700000000000e+10    -1.816687659899271e+01   -1.076598802230738e+02   
1.015800000000000e+10    -1.813041172313753e+01   -1.076722482390944e+02   
1.015900000000000e+10    -1.809795002394036e+01   -1.075631893314277e+02   
1.016000000000000e+10    -1.805278149270925e+01   -1.075582586061282e+02   
1.016100000000000e+10    -1.802654501173306e+01   -1.075905604515364e+02   
1.016200000000000e+10    -1.798565150017457e+01   -1.074769263608956e+02   
1.016300000000000e+10    -1.794685785724802e+01   -1.075518858030562e+02   
1.016400000000000e+10    -1.793423427986368e+01   -1.077293704555328e+02   
1.016500000000000e+10    -1.787904078556996e+01   -1.077766322698374e+02   
1.016600000000000e+10    -1.786074927681796e+01   -1.080587517211672e+02   
1.016700000000000e+10    -1.781452723207912e+01   -1.081833795310793e+02   
1.016800000000000e+10    -1.778847435495338e+01   -1.083757066254094e+02   
1.016900000000000e+10    -1.777358381600439e+01   -1.085944197617997e+02   
1.017000000000000e+10    -1.775929773676063e+01   -1.089483976461890e+02   
1.017100000000000e+10    -1.772928732975008e+01   -1.093127509450886e+02   
1.017200000000000e+10    -1.772324254677037e+01   -1.094489158796752e+02   
1.017300000000000e+10    -1.771933399108936e+01   -1.098637481499203e+02   
1.017400000000000e+10    -1.771676825965206e+01   -1.100859407057743e+02   
1.017500000000000e+10    -1.771053419335351e+01   -1.104327851759601e+02   
1.017600000000000e+10    -1.771097431566365e+01   -1.105913212555308e+02   
1.017700000000000e+10    -1.774842077242616e+01   -1.109484999917401e+02   
1.017800000000000e+10    -1.775347041748482e+01   -1.112376132883428e+02   
1.017900000000000e+10    -1.777575227911570e+01   -1.113782996345640e+02   
1.018000000000000e+10    -1.779625319613992e+01   -1.116551506078559e+02   
1.018100000000000e+10    -1.782807898726748e+01   -1.118116725131050e+02   
1.018200000000000e+10    -1.786673761246454e+01   -1.119909254228274e+02   
1.018300000000000e+10    -1.788297025387250e+01   -1.121195239044439e+02   
1.018400000000000e+10    -1.792998589487355e+01   -1.122847058758831e+02   
1.018500000000000e+10    -1.795297012588805e+01   -1.123987488810883e+02   
1.018600000000000e+10    -1.797811678182422e+01   -1.126085759953736e+02   
1.018700000000000e+10    -1.801361301719079e+01   -1.124759014629916e+02   
1.018800000000000e+10    -1.805157758360173e+01   -1.125621867884732e+02   
1.018900000000000e+10    -1.808802733782462e+01   -1.125084531140681e+02   
1.019000000000000e+10    -1.810701838892100e+01   -1.123625078588385e+02   
1.019100000000000e+10    -1.812290549345555e+01   -1.122892441576819e+02   
1.019200000000000e+10    -1.814395096009421e+01   -1.121061225440920e+02   
1.019300000000000e+10    -1.816465196390200e+01   -1.121593639945962e+02   
1.019400000000000e+10    -1.817048417781038e+01   -1.118958760872274e+02   
1.019500000000000e+10    -1.817664556547785e+01   -1.117821057243079e+02   
1.019600000000000e+10    -1.815219706306999e+01   -1.115521262865205e+02   
1.019700000000000e+10    -1.816113761853933e+01   -1.113805334654891e+02   
1.019800000000000e+10    -1.814912609188220e+01   -1.112359574868529e+02   
1.019900000000000e+10    -1.813614234544219e+01   -1.109841098882402e+02   
1.020000000000000e+10    -1.811426225298052e+01   -1.109612490713359e+02   
1.020100000000000e+10    -1.809401660695655e+01   -1.107861982577171e+02   
1.020200000000000e+10    -1.805702210482516e+01   -1.105928261084662e+02   
1.020300000000000e+10    -1.804289685662530e+01   -1.105247948404322e+02   
1.020400000000000e+10    -1.799557315102465e+01   -1.104442135248720e+02   
1.020500000000000e+10    -1.797328679212189e+01   -1.104658600614843e+02   
1.020600000000000e+10    -1.791827078212501e+01   -1.103296260211188e+02   
1.020700000000000e+10    -1.790062088416980e+01   -1.104075707243400e+02   
1.020800000000000e+10    -1.787310488094791e+01   -1.104982570512455e+02   
1.020900000000000e+10    -1.782150174929676e+01   -1.105177284982896e+02   
1.021000000000000e+10    -1.778426783181875e+01   -1.106157085122698e+02   
1.021100000000000e+10    -1.775864523909762e+01   -1.107622171191284e+02   
1.021200000000000e+10    -1.773809728179802e+01   -1.108198078363000e+02   
1.021300000000000e+10    -1.769037160212096e+01   -1.110533873256518e+02   
1.021400000000000e+10    -1.768659063148067e+01   -1.111648473463577e+02   
1.021500000000000e+10    -1.764037600348836e+01   -1.114802922805873e+02   
1.021600000000000e+10    -1.763021906899333e+01   -1.117706444249153e+02   
1.021700000000000e+10    -1.762016326579332e+01   -1.118463530117660e+02   
1.021800000000000e+10    -1.762117973584009e+01   -1.121281578299526e+02   
1.021900000000000e+10    -1.760805637553669e+01   -1.122383654451532e+02   
1.022000000000000e+10    -1.762385271697335e+01   -1.125259326856268e+02   
1.022100000000000e+10    -1.760261334974544e+01   -1.127538724935130e+02   
1.022200000000000e+10    -1.762745807560182e+01   -1.129496645809837e+02   
1.022300000000000e+10    -1.764161593285946e+01   -1.131880412934289e+02   
1.022400000000000e+10    -1.766224033185816e+01   -1.134256599917735e+02   
1.022500000000000e+10    -1.767805018759131e+01   -1.135668043850523e+02   
1.022600000000000e+10    -1.771495739630741e+01   -1.137541602342763e+02   
1.022700000000000e+10    -1.773109052684218e+01   -1.139017557673993e+02   
1.022800000000000e+10    -1.778321615924705e+01   -1.139293412665649e+02   
1.022900000000000e+10    -1.778287302611577e+01   -1.140519129939688e+02   
1.023000000000000e+10    -1.783335513148911e+01   -1.141711080260525e+02   
1.023100000000000e+10    -1.784394411877111e+01   -1.141383223983755e+02   
1.023200000000000e+10    -1.790605685829938e+01   -1.141989151689366e+02   
1.023300000000000e+10    -1.790392499107427e+01   -1.142187961905458e+02   
1.023400000000000e+10    -1.796131714134656e+01   -1.142710900618996e+02   
1.023500000000000e+10    -1.796564988658883e+01   -1.141678214720068e+02   
1.023600000000000e+10    -1.801654094873733e+01   -1.140895908685061e+02   
1.023700000000000e+10    -1.803838167778050e+01   -1.139862731581664e+02   
1.023800000000000e+10    -1.806589637165948e+01   -1.139935758420496e+02   
1.023900000000000e+10    -1.808146389803584e+01   -1.137695760102345e+02   
1.024000000000000e+10    -1.811009478168645e+01   -1.136400803199229e+02   
1.024100000000000e+10    -1.810483759632326e+01   -1.136202632597463e+02   
1.024200000000000e+10    -1.810470159041224e+01   -1.134127045434278e+02   
1.024300000000000e+10    -1.810982410931174e+01   -1.131552385527732e+02   
1.024400000000000e+10    -1.809939829859508e+01   -1.131304102336448e+02   
1.024500000000000e+10    -1.810226100238722e+01   -1.129485327853590e+02   
1.024600000000000e+10    -1.807523375474726e+01   -1.129510259110515e+02   
1.024700000000000e+10    -1.807300600552702e+01   -1.128079389544377e+02   
1.024800000000000e+10    -1.806353485309451e+01   -1.129311521303826e+02   
1.024900000000000e+10    -1.801816195072767e+01   -1.128241238856900e+02   
1.025000000000000e+10    -1.799776303432724e+01   -1.127099726231834e+02   
1.025100000000000e+10    -1.799515186117761e+01   -1.126806580815860e+02   
1.025200000000000e+10    -1.795905898763465e+01   -1.128574375288617e+02   
1.025300000000000e+10    -1.791414694105094e+01   -1.128563119209141e+02   
1.025400000000000e+10    -1.788172151414254e+01   -1.128911126809673e+02   
1.025500000000000e+10    -1.787181635486413e+01   -1.130339859181189e+02   
1.025600000000000e+10    -1.784485575330166e+01   -1.132324299974542e+02   
