[Version] 2.0
! Rohde & Schwarz Vector Network Analyzer
! Rohde-Schwarz,ZNL20-2Port,1323001220200009,1.71.1.10-23.02.1.238
! 
! Port Assignments:
! Nominal Port -> Actual Test Port
! --------------------------------
!   1 -> 1

! Created: GMT 2024-09-04 10:35:26

# Hz S DB R 50

[Number of Ports] 1
[Number of Frequencies] 2001

[Network Data] 
! freq[Hz]               S11[mag dB]              S11[ang]                 
1.000000000000000e+10    -1.800072517223896e+01   -1.013496047258503e+02   
1.000100000000000e+10    -1.802453022324305e+01   -1.016848758727745e+02   
1.000200000000000e+10    -1.806171058203226e+01   -1.017950714253778e+02   
1.000300000000000e+10    -1.808879565883649e+01   -1.019467795436222e+02   
1.000400000000000e+10    -1.812804818547664e+01   -1.022142246516320e+02   
1.000500000000000e+10    -1.814427340779355e+01   -1.024209309694548e+02   
1.000600000000000e+10    -1.820939935320076e+01   -1.025236897469646e+02   
1.000700000000000e+10    -1.821168595351186e+01   -1.026765637091234e+02   
1.000800000000000e+10    -1.827915484387594e+01   -1.028139358424907e+02   
1.000900000000000e+10    -1.829264705635614e+01   -1.025749447570387e+02   
1.001000000000000e+10    -1.833518006532101e+01   -1.028056639220224e+02   
1.001100000000000e+10    -1.837294980926748e+01   -1.026621575888474e+02   
1.001200000000000e+10    -1.840150913910548e+01   -1.026388482222890e+02   
1.001300000000000e+10    -1.842600808273712e+01   -1.025326129355687e+02   
1.001400000000000e+10    -1.846878474691300e+01   -1.023571906314491e+02   
1.001500000000000e+10    -1.846388119919677e+01   -1.023893375820121e+02   
1.001600000000000e+10    -1.849516559592243e+01   -1.021406519370615e+02   
1.001700000000000e+10    -1.851051308492388e+01   -1.019680737170383e+02   
1.001800000000000e+10    -1.850813223074312e+01   -1.017980919686090e+02   
1.001900000000000e+10    -1.850597985572335e+01   -1.016754256485498e+02   
1.002000000000000e+10    -1.851179222641057e+01   -1.013557102533541e+02   
1.002100000000000e+10    -1.849120222646707e+01   -1.011562111389029e+02   
1.002200000000000e+10    -1.845399638427227e+01   -1.010833173688220e+02   
1.002300000000000e+10    -1.844042730064097e+01   -1.009203520968464e+02   
1.002400000000000e+10    -1.840300937476652e+01   -1.009742281765802e+02   
1.002500000000000e+10    -1.836627709016938e+01   -1.008057539409785e+02   
1.002600000000000e+10    -1.832080623024388e+01   -1.007104113731405e+02   
1.002700000000000e+10    -1.828224336187023e+01   -1.006085679215319e+02   
1.002800000000000e+10    -1.821575761687822e+01   -1.007026332305571e+02   
1.002900000000000e+10    -1.818295388121017e+01   -1.006758075974289e+02   
1.003000000000000e+10    -1.813320834876882e+01   -1.008312011301369e+02   
1.003100000000000e+10    -1.807700033748287e+01   -1.010443599024412e+02   
1.003200000000000e+10    -1.804401355206438e+01   -1.010955170346410e+02   
1.003300000000000e+10    -1.801871626037131e+01   -1.012908571605852e+02   
1.003400000000000e+10    -1.795608585131707e+01   -1.015693011895498e+02   
1.003500000000000e+10    -1.792620847082599e+01   -1.016991252963474e+02   
1.003600000000000e+10    -1.790923896624836e+01   -1.020226834920434e+02   
1.003700000000000e+10    -1.786335887564141e+01   -1.023079071072207e+02   
1.003800000000000e+10    -1.785370397477501e+01   -1.025622811801573e+02   
1.003900000000000e+10    -1.781683495024129e+01   -1.029930962745067e+02   
1.004000000000000e+10    -1.782073226255188e+01   -1.030682679267632e+02   
1.004100000000000e+10    -1.778355873928572e+01   -1.034340687000325e+02   
1.004200000000000e+10    -1.780840316739855e+01   -1.036024081509530e+02   
1.004300000000000e+10    -1.780169314200507e+01   -1.040428956722090e+02   
1.004400000000000e+10    -1.779368911488589e+01   -1.043871505276802e+02   
1.004500000000000e+10    -1.783054325199458e+01   -1.046519376154263e+02   
1.004600000000000e+10    -1.783450081391595e+01   -1.047924795838490e+02   
1.004700000000000e+10    -1.784806638495278e+01   -1.052004814122943e+02   
1.004800000000000e+10    -1.787370420129150e+01   -1.054055734836814e+02   
1.004900000000000e+10    -1.792735560363822e+01   -1.055956330576013e+02   
1.005000000000000e+10    -1.796350461763547e+01   -1.057156647278972e+02   
1.005100000000000e+10    -1.797782482967289e+01   -1.057118628914132e+02   
1.005200000000000e+10    -1.800345667715667e+01   -1.058313576457559e+02   
1.005300000000000e+10    -1.803894379112096e+01   -1.059611101746118e+02   
1.005400000000000e+10    -1.808895357447980e+01   -1.060138798229081e+02   
1.005500000000000e+10    -1.812006756339964e+01   -1.060786383527079e+02   
1.005600000000000e+10    -1.816315041203179e+01   -1.058242653637505e+02   
1.005700000000000e+10    -1.820517810024696e+01   -1.058110161296525e+02   
1.005800000000000e+10    -1.822374537296469e+01   -1.054744848520779e+02   
1.005900000000000e+10    -1.824263036373577e+01   -1.054724629908554e+02   
1.006000000000000e+10    -1.825964652471782e+01   -1.053175965178662e+02   
1.006100000000000e+10    -1.828604418898802e+01   -1.050619664989022e+02   
1.006200000000000e+10    -1.830134796565615e+01   -1.047276454048810e+02   
1.006300000000000e+10    -1.828584259217200e+01   -1.043744635237916e+02   
1.006400000000000e+10    -1.830286898587294e+01   -1.041875627716169e+02   
1.006500000000000e+10    -1.828779185075539e+01   -1.040410233251580e+02   
1.006600000000000e+10    -1.828497117818614e+01   -1.037495676345857e+02   
1.006700000000000e+10    -1.828103774136800e+01   -1.034172220324513e+02   
1.006800000000000e+10    -1.825924650068538e+01   -1.034897849923153e+02   
1.006900000000000e+10    -1.821593020431688e+01   -1.030609284754548e+02   
1.007000000000000e+10    -1.817999999854357e+01   -1.029339514916381e+02   
1.007100000000000e+10    -1.814022430824820e+01   -1.027609350060016e+02   
1.007200000000000e+10    -1.810741623571207e+01   -1.028268914176883e+02   
1.007300000000000e+10    -1.806598915688312e+01   -1.026311213825659e+02   
1.007400000000000e+10    -1.801844588139077e+01   -1.026344148931277e+02   
1.007500000000000e+10    -1.799007291888347e+01   -1.026482195232328e+02   
1.007600000000000e+10    -1.793362315692345e+01   -1.027923497191326e+02   
1.007700000000000e+10    -1.789786512412806e+01   -1.027757935741899e+02   
1.007800000000000e+10    -1.785106603607512e+01   -1.028822652266256e+02   
1.007900000000000e+10    -1.781280947941933e+01   -1.028774934745463e+02   
1.008000000000000e+10    -1.778341638308822e+01   -1.031261117158334e+02   
1.008100000000000e+10    -1.775436246630993e+01   -1.036213170341674e+02   
1.008200000000000e+10    -1.772969237396544e+01   -1.038428037205346e+02   
1.008300000000000e+10    -1.772587757333761e+01   -1.039695569487952e+02   
1.008400000000000e+10    -1.769875462710545e+01   -1.043847521028381e+02   
1.008500000000000e+10    -1.768300911999557e+01   -1.046381724704052e+02   
1.008600000000000e+10    -1.767980062795983e+01   -1.049335019944193e+02   
1.008700000000000e+10    -1.768355083487762e+01   -1.052320585463319e+02   
1.008800000000000e+10    -1.768285951941284e+01   -1.056928011316586e+02   
1.008900000000000e+10    -1.770487571591624e+01   -1.058203439695728e+02   
1.009000000000000e+10    -1.770439495653072e+01   -1.061950150697583e+02   
1.009100000000000e+10    -1.772425314474977e+01   -1.065710808018713e+02   
1.009200000000000e+10    -1.775507689111770e+01   -1.067451743062249e+02   
1.009300000000000e+10    -1.779494847603818e+01   -1.070183298334693e+02   
1.009400000000000e+10    -1.782863669948662e+01   -1.073383909646895e+02   
1.009500000000000e+10    -1.786124079517429e+01   -1.075621111865624e+02   
1.009600000000000e+10    -1.789775028191674e+01   -1.075820661527596e+02   
1.009700000000000e+10    -1.794160435513188e+01   -1.077777422505910e+02   
1.009800000000000e+10    -1.800070688097601e+01   -1.078456373796820e+02   
1.009900000000000e+10    -1.804158428111920e+01   -1.079338736841899e+02   
1.010000000000000e+10    -1.807165593362430e+01   -1.080227242613545e+02   
1.010100000000000e+10    -1.811726945069592e+01   -1.079270059274369e+02   
1.010200000000000e+10    -1.816698349001808e+01   -1.078983368292554e+02   
1.010300000000000e+10    -1.819996855906218e+01   -1.078586304945315e+02   
1.010400000000000e+10    -1.822283077060699e+01   -1.076932740951111e+02   
1.010500000000000e+10    -1.825711197839713e+01   -1.076250802156461e+02   
1.010600000000000e+10    -1.827246423370605e+01   -1.072035821504930e+02   
1.010700000000000e+10    -1.829039818185190e+01   -1.073245183595013e+02   
1.010800000000000e+10    -1.832112982156986e+01   -1.069426169017711e+02   
1.010900000000000e+10    -1.830336834858909e+01   -1.067889756923224e+02   
1.011000000000000e+10    -1.829966201985692e+01   -1.064252877997579e+02   
1.011100000000000e+10    -1.826491112787861e+01   -1.063493958207981e+02   
1.011200000000000e+10    -1.827085898794674e+01   -1.061473993289438e+02   
1.011300000000000e+10    -1.822353954009329e+01   -1.060114111015664e+02   
1.011400000000000e+10    -1.822211567456628e+01   -1.057336709401597e+02   
1.011500000000000e+10    -1.817822232546765e+01   -1.056336863737907e+02   
1.011600000000000e+10    -1.816306741789302e+01   -1.054704389563015e+02   
1.011700000000000e+10    -1.813709270820457e+01   -1.054892073394884e+02   
1.011800000000000e+10    -1.808369379886503e+01   -1.054072386806757e+02   
1.011900000000000e+10    -1.803598882716412e+01   -1.054067981398926e+02   
1.012000000000000e+10    -1.797228997456339e+01   -1.053859068940908e+02   
1.012100000000000e+10    -1.794362462508024e+01   -1.055710429578378e+02   
1.012200000000000e+10    -1.788862857007730e+01   -1.054725040928180e+02   
1.012300000000000e+10    -1.785087780504018e+01   -1.056375278327587e+02   
1.012400000000000e+10    -1.782385762027190e+01   -1.058305404276558e+02   
1.012500000000000e+10    -1.778119423747975e+01   -1.059672812409120e+02   
1.012600000000000e+10    -1.776050873792648e+01   -1.061651561274280e+02   
1.012700000000000e+10    -1.772179641835748e+01   -1.065154833677803e+02   
1.012800000000000e+10    -1.769501773715413e+01   -1.066702149299983e+02   
1.012900000000000e+10    -1.766761902887928e+01   -1.070166379613513e+02   
1.013000000000000e+10    -1.766609687527928e+01   -1.071957486372516e+02   
1.013100000000000e+10    -1.765286139172122e+01   -1.075523949559863e+02   
1.013200000000000e+10    -1.765388880805668e+01   -1.078849315503362e+02   
1.013300000000000e+10    -1.765800034229258e+01   -1.082695350454792e+02   
1.013400000000000e+10    -1.764965520708014e+01   -1.084493194450445e+02   
1.013500000000000e+10    -1.766533915672079e+01   -1.087871093373812e+02   
1.013600000000000e+10    -1.768246724604307e+01   -1.089774794266237e+02   
1.013700000000000e+10    -1.769491963822103e+01   -1.092154022356520e+02   
1.013800000000000e+10    -1.771936005747462e+01   -1.095025064650440e+02   
1.013900000000000e+10    -1.775194238792989e+01   -1.097370934640350e+02   
1.014000000000000e+10    -1.778463006979256e+01   -1.097936029869107e+02   
1.014100000000000e+10    -1.783284978366552e+01   -1.100437971394716e+02   
1.014200000000000e+10    -1.785665022148532e+01   -1.100825003211788e+02   
1.014300000000000e+10    -1.790910522271899e+01   -1.101724218289694e+02   
1.014400000000000e+10    -1.794408866970508e+01   -1.101582228156540e+02   
1.014500000000000e+10    -1.798669168318617e+01   -1.102958136260781e+02   
1.014600000000000e+10    -1.801447016079206e+01   -1.101592081540715e+02   
1.014700000000000e+10    -1.805584750128197e+01   -1.099899728294452e+02   
1.014800000000000e+10    -1.810831542890127e+01   -1.099905206617664e+02   
1.014900000000000e+10    -1.811964754092250e+01   -1.098505420859039e+02   
1.015000000000000e+10    -1.815299279870207e+01   -1.097111031670752e+02   
1.015100000000000e+10    -1.817515895866018e+01   -1.094873372657063e+02   
1.015200000000000e+10    -1.818790660559387e+01   -1.092245905699081e+02   
1.015300000000000e+10    -1.820362597157792e+01   -1.091437118818051e+02   
1.015400000000000e+10    -1.820365877084322e+01   -1.087947641315088e+02   
1.015500000000000e+10    -1.823638644949026e+01   -1.087422302311204e+02   
1.015600000000000e+10    -1.821815844270923e+01   -1.084549002400188e+02   
1.015700000000000e+10    -1.820254375906522e+01   -1.080915041353664e+02   
1.015800000000000e+10    -1.818097258207734e+01   -1.080182751131373e+02   
1.015900000000000e+10    -1.816246371474244e+01   -1.077814048545768e+02   
1.016000000000000e+10    -1.812812648437006e+01   -1.076690090736032e+02   
1.016100000000000e+10    -1.810991378878008e+01   -1.075603798648412e+02   
1.016200000000000e+10    -1.807269341445994e+01   -1.073061935737943e+02   
1.016300000000000e+10    -1.803650635131338e+01   -1.072314530124165e+02   
1.016400000000000e+10    -1.802359936690375e+01   -1.072885953831466e+02   
1.016500000000000e+10    -1.796478050602955e+01   -1.071854210068584e+02   
1.016600000000000e+10    -1.793915957094179e+01   -1.073420269979005e+02   
1.016700000000000e+10    -1.788533131029268e+01   -1.073491276959320e+02   
1.016800000000000e+10    -1.784788965028741e+01   -1.074226369180522e+02   
1.016900000000000e+10    -1.781943034674910e+01   -1.075366755976951e+02   
1.017000000000000e+10    -1.779094524587465e+01   -1.078061007107206e+02   
1.017100000000000e+10    -1.774413580924379e+01   -1.080962082838731e+02   
1.017200000000000e+10    -1.772000217979206e+01   -1.081693993771592e+02   
1.017300000000000e+10    -1.769892411660323e+01   -1.085425620709181e+02   
1.017400000000000e+10    -1.767577961032660e+01   -1.087348756070658e+02   
1.017500000000000e+10    -1.765212301822888e+01   -1.090637070951947e+02   
1.017600000000000e+10    -1.763001592673160e+01   -1.092368643509089e+02   
1.017700000000000e+10    -1.764868904617737e+01   -1.096171342693097e+02   
1.017800000000000e+10    -1.763418326725469e+01   -1.099453507284658e+02   
1.017900000000000e+10    -1.763966898573869e+01   -1.101480949691328e+02   
1.018000000000000e+10    -1.764492587744520e+01   -1.105079674730395e+02   
1.018100000000000e+10    -1.766107335657107e+01   -1.107472145977134e+02   
1.018200000000000e+10    -1.768540017623020e+01   -1.110345532910512e+02   
1.018300000000000e+10    -1.769146366505033e+01   -1.112830997002642e+02   
1.018400000000000e+10    -1.773164610381490e+01   -1.115611203474028e+02   
1.018500000000000e+10    -1.774813517951291e+01   -1.118133798024715e+02   
1.018600000000000e+10    -1.777338260448228e+01   -1.121491916259178e+02   
1.018700000000000e+10    -1.780683475081369e+01   -1.121600379584138e+02   
1.018800000000000e+10    -1.784889131703340e+01   -1.123769134789844e+02   
1.018900000000000e+10    -1.788996619118495e+01   -1.124557906241133e+02   
1.019000000000000e+10    -1.791970847339381e+01   -1.124337211414253e+02   
1.019100000000000e+10    -1.794542167203015e+01   -1.124813747768803e+02   
1.019200000000000e+10    -1.798137419873711e+01   -1.124067754393883e+02   
1.019300000000000e+10    -1.801746845488499e+01   -1.125528519596809e+02   
1.019400000000000e+10    -1.804057785315262e+01   -1.123691037741546e+02   
1.019500000000000e+10    -1.806684690555663e+01   -1.123232723790038e+02   
1.019600000000000e+10    -1.806270088726438e+01   -1.121435060693907e+02   
1.019700000000000e+10    -1.809368953929629e+01   -1.119930397938444e+02   
1.019800000000000e+10    -1.810351331941794e+01   -1.118566455434396e+02   
1.019900000000000e+10    -1.811290227944135e+01   -1.115848612679192e+02   
1.020000000000000e+10    -1.811219073653658e+01   -1.115385618348666e+02   
1.020100000000000e+10    -1.811229621920507e+01   -1.113045000641804e+02   
1.020200000000000e+10    -1.809467247173020e+01   -1.110415364271770e+02   
1.020300000000000e+10    -1.809709888111495e+01   -1.108844497436306e+02   
1.020400000000000e+10    -1.806460617031822e+01   -1.107015710898006e+02   
1.020500000000000e+10    -1.805377985326460e+01   -1.106095629951760e+02   
1.020600000000000e+10    -1.800991421017112e+01   -1.103499350771157e+02   
1.020700000000000e+10    -1.799950456587059e+01   -1.102891520384580e+02   
1.020800000000000e+10    -1.797722654868677e+01   -1.102377164336339e+02   
1.020900000000000e+10    -1.792687410457931e+01   -1.101341871700867e+02   
1.021000000000000e+10    -1.788787186891521e+01   -1.100941526700739e+02   
1.021100000000000e+10    -1.785689635703254e+01   -1.100960476604277e+02   
1.021200000000000e+10    -1.783056756085177e+01   -1.100107810493548e+02   
1.021300000000000e+10    -1.777146886451121e+01   -1.101258804413299e+02   
1.021400000000000e+10    -1.775554871733600e+01   -1.101244290692787e+02   
1.021500000000000e+10    -1.769644106712396e+01   -1.103476149151804e+02   
1.021600000000000e+10    -1.766793652961204e+01   -1.105476927530293e+02   
1.021700000000000e+10    -1.764096522358431e+01   -1.105469472223968e+02   
1.021800000000000e+10    -1.762259419907399e+01   -1.107704300554146e+02   
1.021900000000000e+10    -1.758827093682866e+01   -1.108457119873735e+02   
1.022000000000000e+10    -1.758325642256822e+01   -1.111276234678247e+02   
1.022100000000000e+10    -1.754016644350481e+01   -1.113587865547181e+02   
1.022200000000000e+10    -1.754494049627095e+01   -1.115664007799860e+02   
1.022300000000000e+10    -1.753773455235406e+01   -1.118428495469693e+02   
1.022400000000000e+10    -1.753864689197939e+01   -1.121401197224259e+02   
1.022500000000000e+10    -1.753765330016973e+01   -1.123507492040865e+02   
1.022600000000000e+10    -1.755716753897456e+01   -1.126215136151651e+02   
1.022700000000000e+10    -1.755988727520048e+01   -1.128738124399998e+02   
1.022800000000000e+10    -1.759843544191774e+01   -1.130155584707420e+02   
1.022900000000000e+10    -1.758949824605562e+01   -1.132660431126456e+02   
1.023000000000000e+10    -1.763213634018631e+01   -1.135056221542938e+02   
1.023100000000000e+10    -1.763873518978405e+01   -1.136130116076302e+02   
1.023200000000000e+10    -1.769865659395284e+01   -1.138176939460286e+02   
1.023300000000000e+10    -1.769818916065466e+01   -1.139795025142514e+02   
1.023400000000000e+10    -1.775985515722843e+01   -1.141610986493845e+02   
1.023500000000000e+10    -1.777080342304233e+01   -1.141918440610167e+02   
1.023600000000000e+10    -1.783197687988383e+01   -1.142429528650280e+02   
1.023700000000000e+10    -1.786369502676833e+01   -1.142515298290562e+02   
1.023800000000000e+10    -1.790557806486164e+01   -1.143648302255137e+02   
1.023900000000000e+10    -1.793844808568048e+01   -1.142415439279777e+02   
1.024000000000000e+10    -1.798442297872822e+01   -1.141898663651593e+02   
1.024100000000000e+10    -1.799855418041211e+01   -1.142168879827327e+02   
1.024200000000000e+10    -1.802204403714746e+01   -1.140521438445264e+02   
1.024300000000000e+10    -1.804715004296875e+01   -1.138113641559010e+02   
1.024400000000000e+10    -1.805972461164684e+01   -1.137908318978106e+02   
1.024500000000000e+10    -1.808451642259309e+01   -1.135848524328570e+02   
1.024600000000000e+10    -1.807945126373771e+01   -1.135454923952883e+02   
1.024700000000000e+10    -1.809713550252856e+01   -1.133413718296845e+02   
1.024800000000000e+10    -1.810747327485324e+01   -1.133868011302296e+02   
1.024900000000000e+10    -1.807924039135176e+01   -1.131716417482916e+02   
1.025000000000000e+10    -1.807430576309135e+01   -1.129529962668217e+02   
1.025100000000000e+10    -1.808355306615529e+01   -1.127944870824787e+02   
1.025200000000000e+10    -1.805792658910965e+01   -1.128281383382796e+02   
1.025300000000000e+10    -1.801886940361599e+01   -1.126793678900291e+02   
1.025400000000000e+10    -1.799090780865530e+01   -1.125627559022845e+02   
1.025500000000000e+10    -1.798145032875518e+01   -1.125548003276242e+02   
1.025600000000000e+10    -1.795008845378382e+01   -1.126076090099096e+02   
