[Version] 2.0
! Rohde & Schwarz Vector Network Analyzer
! Rohde-Schwarz,ZNL20-2Port,1323001220200009,1.71.1.10-23.02.1.238
! 
! Port Assignments:
! Nominal Port -> Actual Test Port
! --------------------------------
!   1 -> 1

! Created: GMT 2024-09-04 10:36:03

# Hz S DB R 50

[Number of Ports] 1
[Number of Frequencies] 2001

[Network Data] 
! freq[Hz]               S11[mag dB]              S11[ang]                 
1.000000000000000e+10    -1.799722544123538e+01   -1.013132196960066e+02   
1.000100000000000e+10    -1.802004627552117e+01   -1.016518845745595e+02   
1.000200000000000e+10    -1.805579308673314e+01   -1.017496120750846e+02   
1.000300000000000e+10    -1.808292665194397e+01   -1.019218604974225e+02   
1.000400000000000e+10    -1.812215555438922e+01   -1.021928847937634e+02   
1.000500000000000e+10    -1.813858235399541e+01   -1.023945935363711e+02   
1.000600000000000e+10    -1.820085186872279e+01   -1.025022656851886e+02   
1.000700000000000e+10    -1.820258312024456e+01   -1.026686073833815e+02   
1.000800000000000e+10    -1.827001717326045e+01   -1.028176348028427e+02   
1.000900000000000e+10    -1.828476016015335e+01   -1.025693599259560e+02   
1.001000000000000e+10    -1.832786003722695e+01   -1.028159126475303e+02   
1.001100000000000e+10    -1.836585088280295e+01   -1.026817442949169e+02   
1.001200000000000e+10    -1.839421041961097e+01   -1.026621793619295e+02   
1.001300000000000e+10    -1.842049193186126e+01   -1.025611426651876e+02   
1.001400000000000e+10    -1.846429720263884e+01   -1.023946035055406e+02   
1.001500000000000e+10    -1.845952068113512e+01   -1.024278977161809e+02   
1.001600000000000e+10    -1.849212216228488e+01   -1.021845795044191e+02   
1.001700000000000e+10    -1.850744645121109e+01   -1.020142485417265e+02   
1.001800000000000e+10    -1.850624293032770e+01   -1.018406466254102e+02   
1.001900000000000e+10    -1.850571110413426e+01   -1.017224199552172e+02   
1.002000000000000e+10    -1.851188474362496e+01   -1.014096598203720e+02   
1.002100000000000e+10    -1.849397060892724e+01   -1.011897374414316e+02   
1.002200000000000e+10    -1.845657081761594e+01   -1.011208230717410e+02   
1.002300000000000e+10    -1.844182385197375e+01   -1.009561652551872e+02   
1.002400000000000e+10    -1.840439599025079e+01   -1.010072787653780e+02   
1.002500000000000e+10    -1.837043272295049e+01   -1.008319696598649e+02   
1.002600000000000e+10    -1.832547722999803e+01   -1.007249404299034e+02   
1.002700000000000e+10    -1.828770665217625e+01   -1.006287674547992e+02   
1.002800000000000e+10    -1.822243600226258e+01   -1.007140013994765e+02   
1.002900000000000e+10    -1.818835554349170e+01   -1.006812965551257e+02   
1.003000000000000e+10    -1.813993012039655e+01   -1.008281601046341e+02   
1.003100000000000e+10    -1.808267186027836e+01   -1.010291815769916e+02   
1.003200000000000e+10    -1.804986924611631e+01   -1.010743952067491e+02   
1.003300000000000e+10    -1.802456777271893e+01   -1.012774279359283e+02   
1.003400000000000e+10    -1.795935802911106e+01   -1.015372132327179e+02   
1.003500000000000e+10    -1.792912159809853e+01   -1.016687916841212e+02   
1.003600000000000e+10    -1.791254863165503e+01   -1.019925914859939e+02   
1.003700000000000e+10    -1.786629818704107e+01   -1.022820284551666e+02   
1.003800000000000e+10    -1.785606237204668e+01   -1.025206059249021e+02   
1.003900000000000e+10    -1.781670967742999e+01   -1.029552851733858e+02   
1.004000000000000e+10    -1.782033904507340e+01   -1.030282511747936e+02   
1.004100000000000e+10    -1.778268448765603e+01   -1.033870810205841e+02   
1.004200000000000e+10    -1.780703702734013e+01   -1.035597805741455e+02   
1.004300000000000e+10    -1.779854863529803e+01   -1.039981033934591e+02   
1.004400000000000e+10    -1.778994185179442e+01   -1.043431031475942e+02   
1.004500000000000e+10    -1.782628190140189e+01   -1.045981842497853e+02   
1.004600000000000e+10    -1.783084019681484e+01   -1.047530524831113e+02   
1.004700000000000e+10    -1.784270874414118e+01   -1.051574616995605e+02   
1.004800000000000e+10    -1.786771372601825e+01   -1.053668989069079e+02   
1.004900000000000e+10    -1.791881751636418e+01   -1.055672627529930e+02   
1.005000000000000e+10    -1.795704900229392e+01   -1.056824075763422e+02   
1.005100000000000e+10    -1.797040118726008e+01   -1.056877268130969e+02   
1.005200000000000e+10    -1.799643907753177e+01   -1.058132035818367e+02   
1.005300000000000e+10    -1.803206967588889e+01   -1.059497966416196e+02   
1.005400000000000e+10    -1.808054441898609e+01   -1.060145777335429e+02   
1.005500000000000e+10    -1.811183929435919e+01   -1.060784672629576e+02   
1.005600000000000e+10    -1.815488223588140e+01   -1.058410874752109e+02   
1.005700000000000e+10    -1.819797734949395e+01   -1.058201410279093e+02   
1.005800000000000e+10    -1.821622175452801e+01   -1.054998101356852e+02   
1.005900000000000e+10    -1.823734398285713e+01   -1.055043721926904e+02   
1.006000000000000e+10    -1.825371844880257e+01   -1.053481740959120e+02   
1.006100000000000e+10    -1.828155730103175e+01   -1.051049351062436e+02   
1.006200000000000e+10    -1.829727120060798e+01   -1.047644777750855e+02   
1.006300000000000e+10    -1.828379622296878e+01   -1.044139747342163e+02   
1.006400000000000e+10    -1.830083239007166e+01   -1.042293055981997e+02   
1.006500000000000e+10    -1.828654215250043e+01   -1.040742691352868e+02   
1.006600000000000e+10    -1.828530627619964e+01   -1.037929279939318e+02   
1.006700000000000e+10    -1.828100644412093e+01   -1.034525018388210e+02   
1.006800000000000e+10    -1.826083305855528e+01   -1.035233531405155e+02   
1.006900000000000e+10    -1.821939883033939e+01   -1.030915544612004e+02   
1.007000000000000e+10    -1.818355561517946e+01   -1.029560036996005e+02   
1.007100000000000e+10    -1.814511940755188e+01   -1.027842955752655e+02   
1.007200000000000e+10    -1.811242502538910e+01   -1.028462377598922e+02   
1.007300000000000e+10    -1.807091463642601e+01   -1.026450164495412e+02   
1.007400000000000e+10    -1.802393199507441e+01   -1.026422754202997e+02   
1.007500000000000e+10    -1.799626719315751e+01   -1.026504301691449e+02   
1.007600000000000e+10    -1.793824254503211e+01   -1.027869847264049e+02   
1.007700000000000e+10    -1.790356320131977e+01   -1.027645235743887e+02   
1.007800000000000e+10    -1.785581845319704e+01   -1.028655570974521e+02   
1.007900000000000e+10    -1.781660040143037e+01   -1.028605536083514e+02   
1.008000000000000e+10    -1.778777833056706e+01   -1.030962868570378e+02   
1.008100000000000e+10    -1.775756192048469e+01   -1.035845804965667e+02   
1.008200000000000e+10    -1.773133811397606e+01   -1.038048611887828e+02   
1.008300000000000e+10    -1.772863818607329e+01   -1.039252331322925e+02   
1.008400000000000e+10    -1.770252037627608e+01   -1.043393954639913e+02   
1.008500000000000e+10    -1.768275967845594e+01   -1.045788537072435e+02   
1.008600000000000e+10    -1.767999690750360e+01   -1.048769406400396e+02   
1.008700000000000e+10    -1.768320669612208e+01   -1.051775077168510e+02   
1.008800000000000e+10    -1.768160812422198e+01   -1.056347486576838e+02   
1.008900000000000e+10    -1.770292479209261e+01   -1.057732419083846e+02   
1.009000000000000e+10    -1.770173839111767e+01   -1.061426831123153e+02   
1.009100000000000e+10    -1.771856338218948e+01   -1.065199355496859e+02   
1.009200000000000e+10    -1.775151233721037e+01   -1.067046258119645e+02   
1.009300000000000e+10    -1.778940614067599e+01   -1.069779085412396e+02   
1.009400000000000e+10    -1.782356202992650e+01   -1.072996329033963e+02   
1.009500000000000e+10    -1.785482424021718e+01   -1.075318120269160e+02   
1.009600000000000e+10    -1.789035579130302e+01   -1.075550127974396e+02   
1.009700000000000e+10    -1.793369753780678e+01   -1.077572277591347e+02   
1.009800000000000e+10    -1.799321564801806e+01   -1.078334007553181e+02   
1.009900000000000e+10    -1.803244225692927e+01   -1.079183623428622e+02   
1.010000000000000e+10    -1.806310768524486e+01   -1.080216575406184e+02   
1.010100000000000e+10    -1.810940906491202e+01   -1.079298496615921e+02   
1.010200000000000e+10    -1.815880448766537e+01   -1.079045280373148e+02   
1.010300000000000e+10    -1.819159505489704e+01   -1.078788435798722e+02   
1.010400000000000e+10    -1.821615067414668e+01   -1.077096384963377e+02   
1.010500000000000e+10    -1.824941021072965e+01   -1.076552088197022e+02   
1.010600000000000e+10    -1.826655753232795e+01   -1.072363997142698e+02   
1.010700000000000e+10    -1.828368567164366e+01   -1.073703590954464e+02   
1.010800000000000e+10    -1.831676840093203e+01   -1.069896598897351e+02   
1.010900000000000e+10    -1.830155226859733e+01   -1.068271506980188e+02   
1.011000000000000e+10    -1.829830664596058e+01   -1.064604144446104e+02   
1.011100000000000e+10    -1.826507172571814e+01   -1.063948682418289e+02   
1.011200000000000e+10    -1.827171145838336e+01   -1.061918498422701e+02   
1.011300000000000e+10    -1.822674641555220e+01   -1.060422204729397e+02   
1.011400000000000e+10    -1.822470282839347e+01   -1.057731763079668e+02   
1.011500000000000e+10    -1.818214830910681e+01   -1.056605501505683e+02   
1.011600000000000e+10    -1.816695815617370e+01   -1.054955571332445e+02   
1.011700000000000e+10    -1.814195118150582e+01   -1.055088719770225e+02   
1.011800000000000e+10    -1.808899064173262e+01   -1.054219604559839e+02   
1.011900000000000e+10    -1.804072681552075e+01   -1.054122384821745e+02   
1.012000000000000e+10    -1.797717742130484e+01   -1.054017387608730e+02   
1.012100000000000e+10    -1.794982955386562e+01   -1.055596761248556e+02   
1.012200000000000e+10    -1.789391271378457e+01   -1.054627596438039e+02   
1.012300000000000e+10    -1.785690223241222e+01   -1.056253179150003e+02   
1.012400000000000e+10    -1.782950810167770e+01   -1.058070364641236e+02   
1.012500000000000e+10    -1.778615807886835e+01   -1.059419382557497e+02   
1.012600000000000e+10    -1.776584186164774e+01   -1.061283670901552e+02   
1.012700000000000e+10    -1.772508643627263e+01   -1.064837426106819e+02   
1.012800000000000e+10    -1.769759463600089e+01   -1.066305645679414e+02   
1.012900000000000e+10    -1.767077610307279e+01   -1.069688213565140e+02   
1.013000000000000e+10    -1.766686093738704e+01   -1.071343963447814e+02   
1.013100000000000e+10    -1.765328268686846e+01   -1.075026775443452e+02   
1.013200000000000e+10    -1.765394044222928e+01   -1.078398550000057e+02   
1.013300000000000e+10    -1.765737299895429e+01   -1.082172457874371e+02   
1.013400000000000e+10    -1.764807880923941e+01   -1.083921543863846e+02   
1.013500000000000e+10    -1.766300285708841e+01   -1.087403679444960e+02   
1.013600000000000e+10    -1.767869499956640e+01   -1.089299300153338e+02   
1.013700000000000e+10    -1.768938068395162e+01   -1.091751396383251e+02   
1.013800000000000e+10    -1.771280458493725e+01   -1.094532334188183e+02   
1.013900000000000e+10    -1.774565307184869e+01   -1.096897258276520e+02   
1.014000000000000e+10    -1.777666933591596e+01   -1.097601171097954e+02   
1.014100000000000e+10    -1.782504352908038e+01   -1.100158420713868e+02   
1.014200000000000e+10    -1.784854869837308e+01   -1.100540804519944e+02   
1.014300000000000e+10    -1.789975228326290e+01   -1.101497440571665e+02   
1.014400000000000e+10    -1.793609952542564e+01   -1.101470149339684e+02   
1.014500000000000e+10    -1.797843144073345e+01   -1.102872772593589e+02   
1.014600000000000e+10    -1.800744892822623e+01   -1.101519405121487e+02   
1.014700000000000e+10    -1.804729674102215e+01   -1.100008010911223e+02   
1.014800000000000e+10    -1.809987598476962e+01   -1.100194968727428e+02   
1.014900000000000e+10    -1.811160600522257e+01   -1.098730551418627e+02   
1.015000000000000e+10    -1.814503871083181e+01   -1.097361631344624e+02   
1.015100000000000e+10    -1.816873528180104e+01   -1.095190483377739e+02   
1.015200000000000e+10    -1.818269289925595e+01   -1.092636251219158e+02   
1.015300000000000e+10    -1.819827774549358e+01   -1.091751035943362e+02   
1.015400000000000e+10    -1.819985150422131e+01   -1.088395763128141e+02   
1.015500000000000e+10    -1.823453593523980e+01   -1.087910126809739e+02   
1.015600000000000e+10    -1.821844744723801e+01   -1.084994233988312e+02   
1.015700000000000e+10    -1.820454804316209e+01   -1.081456898080925e+02   
1.015800000000000e+10    -1.818394974987516e+01   -1.080465605592852e+02   
1.015900000000000e+10    -1.816432216734258e+01   -1.078203212356825e+02   
1.016000000000000e+10    -1.813076250648583e+01   -1.076906710832288e+02   
1.016100000000000e+10    -1.811265098269774e+01   -1.075859197258623e+02   
1.016200000000000e+10    -1.807785512972393e+01   -1.073290081911622e+02   
1.016300000000000e+10    -1.804234068489983e+01   -1.072530168219160e+02   
1.016400000000000e+10    -1.802958347545358e+01   -1.073018577209023e+02   
1.016500000000000e+10    -1.797041139566966e+01   -1.072044779512301e+02   
1.016600000000000e+10    -1.794641006451573e+01   -1.073434905458543e+02   
1.016700000000000e+10    -1.789081206289832e+01   -1.073413826688076e+02   
1.016800000000000e+10    -1.785230308182290e+01   -1.074114839848075e+02   
1.016900000000000e+10    -1.782510969145765e+01   -1.075181965297984e+02   
1.017000000000000e+10    -1.779526691450071e+01   -1.077902830657690e+02   
1.017100000000000e+10    -1.774925440060217e+01   -1.080644386695894e+02   
1.017200000000000e+10    -1.772510247967673e+01   -1.081385713715778e+02   
1.017300000000000e+10    -1.770220116091197e+01   -1.084981318857644e+02   
1.017400000000000e+10    -1.767818571317656e+01   -1.086988102285790e+02   
1.017500000000000e+10    -1.765309056429847e+01   -1.090188173550537e+02   
1.017600000000000e+10    -1.763321814703740e+01   -1.091924613292411e+02   
1.017700000000000e+10    -1.765011954853915e+01   -1.095685767193270e+02   
1.017800000000000e+10    -1.763564104700913e+01   -1.099036033939373e+02   
1.017900000000000e+10    -1.763863229893177e+01   -1.101057057110912e+02   
1.018000000000000e+10    -1.764198536712657e+01   -1.104559138750089e+02   
1.018100000000000e+10    -1.765705428639620e+01   -1.106950341156040e+02   
1.018200000000000e+10    -1.768200709772525e+01   -1.109825071334799e+02   
1.018300000000000e+10    -1.768806547809159e+01   -1.112296707024076e+02   
1.018400000000000e+10    -1.772580404099588e+01   -1.115228507331482e+02   
1.018500000000000e+10    -1.774087403040790e+01   -1.117664116965575e+02   
1.018600000000000e+10    -1.776450393522271e+01   -1.121164317196542e+02   
1.018700000000000e+10    -1.779861092259125e+01   -1.121334951741144e+02   
1.018800000000000e+10    -1.783861210267323e+01   -1.123570474080616e+02   
1.018900000000000e+10    -1.788218810032562e+01   -1.124410985850924e+02   
1.019000000000000e+10    -1.790958219956013e+01   -1.124291245716274e+02   
1.019100000000000e+10    -1.793626525865225e+01   -1.124776979392915e+02   
1.019200000000000e+10    -1.797132163269551e+01   -1.124140882435548e+02   
1.019300000000000e+10    -1.800913729148312e+01   -1.125771039641190e+02   
1.019400000000000e+10    -1.803338929075925e+01   -1.123986520686754e+02   
1.019500000000000e+10    -1.806156664331454e+01   -1.123445620108756e+02   
1.019600000000000e+10    -1.805647717875650e+01   -1.121729536712569e+02   
1.019700000000000e+10    -1.808730991828118e+01   -1.120242711032392e+02   
1.019800000000000e+10    -1.809810266654863e+01   -1.118880208882184e+02   
1.019900000000000e+10    -1.810905170808625e+01   -1.116336821805088e+02   
1.020000000000000e+10    -1.810973837307762e+01   -1.115773442967786e+02   
1.020100000000000e+10    -1.811014105203094e+01   -1.113404104849622e+02   
1.020200000000000e+10    -1.809279211395183e+01   -1.110694143112802e+02   
1.020300000000000e+10    -1.809632843194621e+01   -1.109244554608792e+02   
1.020400000000000e+10    -1.806573610862988e+01   -1.107344466512601e+02   
1.020500000000000e+10    -1.805495038415088e+01   -1.106499235674230e+02   
1.020600000000000e+10    -1.801300050089150e+01   -1.103785563667682e+02   
1.020700000000000e+10    -1.800307594862251e+01   -1.103130675784657e+02   
1.020800000000000e+10    -1.797966620621767e+01   -1.102647706262490e+02   
1.020900000000000e+10    -1.793119671121941e+01   -1.101371700814930e+02   
1.021000000000000e+10    -1.789284866368668e+01   -1.100967496389824e+02   
1.021100000000000e+10    -1.786262068967006e+01   -1.100940917182833e+02   
1.021200000000000e+10    -1.783691397122747e+01   -1.100132225238251e+02   
1.021300000000000e+10    -1.777757798918218e+01   -1.101226756745760e+02   
1.021400000000000e+10    -1.776095948593626e+01   -1.101161617608247e+02   
1.021500000000000e+10    -1.770141161498620e+01   -1.103224648600813e+02   
1.021600000000000e+10    -1.767443376020290e+01   -1.105180988150781e+02   
1.021700000000000e+10    -1.764526309532739e+01   -1.105179309017195e+02   
1.021800000000000e+10    -1.762732826558486e+01   -1.107287864245215e+02   
1.021900000000000e+10    -1.759047654585859e+01   -1.107998350317127e+02   
1.022000000000000e+10    -1.758616684886584e+01   -1.110741833673247e+02   
1.022100000000000e+10    -1.754248821058999e+01   -1.113010833225867e+02   
1.022200000000000e+10    -1.754566655159305e+01   -1.115150858452519e+02   
1.022300000000000e+10    -1.753830069890719e+01   -1.117938621127371e+02   
1.022400000000000e+10    -1.753767896594887e+01   -1.120795722101518e+02   
1.022500000000000e+10    -1.753616569883639e+01   -1.123004723054635e+02   
1.022600000000000e+10    -1.755341707910823e+01   -1.125647114782940e+02   
1.022700000000000e+10    -1.755661489330008e+01   -1.128217338907622e+02   
1.022800000000000e+10    -1.759528715540805e+01   -1.129642623366406e+02   
1.022900000000000e+10    -1.758508629195055e+01   -1.132126564456777e+02   
1.023000000000000e+10    -1.762666843992164e+01   -1.134664483668408e+02   
1.023100000000000e+10    -1.763158852560925e+01   -1.135811872545748e+02   
1.023200000000000e+10    -1.769145939193024e+01   -1.137799509813276e+02   
1.023300000000000e+10    -1.769165420344059e+01   -1.139456808410652e+02   
1.023400000000000e+10    -1.775037021242787e+01   -1.141440187018970e+02   
1.023500000000000e+10    -1.776226117325944e+01   -1.141791581102006e+02   
1.023600000000000e+10    -1.782290239358449e+01   -1.142261681526546e+02   
1.023700000000000e+10    -1.785553260782912e+01   -1.142479226627258e+02   
1.023800000000000e+10    -1.789796889067467e+01   -1.143666376049069e+02   
1.023900000000000e+10    -1.793052436086334e+01   -1.142386113513084e+02   
1.024000000000000e+10    -1.797732186612285e+01   -1.141883539140445e+02   
1.024100000000000e+10    -1.799293858455832e+01   -1.142371769231979e+02   
1.024200000000000e+10    -1.801620747825035e+01   -1.140787028784498e+02   
1.024300000000000e+10    -1.804262117626340e+01   -1.138357698053741e+02   
1.024400000000000e+10    -1.805590398975870e+01   -1.138141217498167e+02   
1.024500000000000e+10    -1.808099926126839e+01   -1.136118741266569e+02   
1.024600000000000e+10    -1.807599146490608e+01   -1.135822774867689e+02   
1.024700000000000e+10    -1.809577752329612e+01   -1.133707786575365e+02   
1.024800000000000e+10    -1.810604437094354e+01   -1.134242275599102e+02   
1.024900000000000e+10    -1.807920181325450e+01   -1.132053036396032e+02   
1.025000000000000e+10    -1.807525726877653e+01   -1.129848934900110e+02   
1.025100000000000e+10    -1.808604401604822e+01   -1.128280548229805e+02   
1.025200000000000e+10    -1.806043574171251e+01   -1.128567885989490e+02   
1.025300000000000e+10    -1.802233025104214e+01   -1.127079127058114e+02   
1.025400000000000e+10    -1.799547926529494e+01   -1.125868872536979e+02   
1.025500000000000e+10    -1.798632280592794e+01   -1.125741722074920e+02   
1.025600000000000e+10    -1.795559767176953e+01   -1.126148378086497e+02   
