[Version] 2.0
! Rohde & Schwarz Vector Network Analyzer
! Rohde-Schwarz,ZNL20-2Port,1323001220200009,1.71.1.10-23.02.1.238
! 
! Port Assignments:
! Nominal Port -> Actual Test Port
! --------------------------------
!   1 -> 1

! Created: GMT 2024-09-04 10:36:32

# Hz S DB R 50

[Number of Ports] 1
[Number of Frequencies] 2001

[Network Data] 
! freq[Hz]               S11[mag dB]              S11[ang]                 
1.000000000000000e+10    -1.799220450945739e+01   -1.012740810871055e+02   
1.000100000000000e+10    -1.801500916253642e+01   -1.016256203328248e+02   
1.000200000000000e+10    -1.805146305479288e+01   -1.017293626044381e+02   
1.000300000000000e+10    -1.807553293167375e+01   -1.018890804653692e+02   
1.000400000000000e+10    -1.811650560090929e+01   -1.021665630090220e+02   
1.000500000000000e+10    -1.813139005193186e+01   -1.023795350686994e+02   
1.000600000000000e+10    -1.819366057005467e+01   -1.024857296848544e+02   
1.000700000000000e+10    -1.819605522336060e+01   -1.026573118126776e+02   
1.000800000000000e+10    -1.826446986234077e+01   -1.028106673441458e+02   
1.000900000000000e+10    -1.827817544335215e+01   -1.025752710594958e+02   
1.001000000000000e+10    -1.832121011622439e+01   -1.028149329366308e+02   
1.001100000000000e+10    -1.835827707843257e+01   -1.026791625213819e+02   
1.001200000000000e+10    -1.838708890511820e+01   -1.026688395243717e+02   
1.001300000000000e+10    -1.841274207229076e+01   -1.025754874236953e+02   
1.001400000000000e+10    -1.845784942416645e+01   -1.024131917239492e+02   
1.001500000000000e+10    -1.845348273424572e+01   -1.024574653688272e+02   
1.001600000000000e+10    -1.848685042262882e+01   -1.022115348611260e+02   
1.001700000000000e+10    -1.850321127588871e+01   -1.020370667635890e+02   
1.001800000000000e+10    -1.850378337518676e+01   -1.018712455274267e+02   
1.001900000000000e+10    -1.850245279994751e+01   -1.017493568040553e+02   
1.002000000000000e+10    -1.851013065429752e+01   -1.014242460157579e+02   
1.002100000000000e+10    -1.849246234454603e+01   -1.012148207349893e+02   
1.002200000000000e+10    -1.845546427895282e+01   -1.011473937675127e+02   
1.002300000000000e+10    -1.844304280185067e+01   -1.009709810920180e+02   
1.002400000000000e+10    -1.840774072637935e+01   -1.010233130750644e+02   
1.002500000000000e+10    -1.837298462296475e+01   -1.008444054087923e+02   
1.002600000000000e+10    -1.832837796481713e+01   -1.007398668481899e+02   
1.002700000000000e+10    -1.828903293187466e+01   -1.006294756244212e+02   
1.002800000000000e+10    -1.822562826285945e+01   -1.007151558040257e+02   
1.002900000000000e+10    -1.819122132578643e+01   -1.006738547697973e+02   
1.003000000000000e+10    -1.814264100996002e+01   -1.008121613168554e+02   
1.003100000000000e+10    -1.808676225996706e+01   -1.010136627748584e+02   
1.003200000000000e+10    -1.805343298792019e+01   -1.010531790610039e+02   
1.003300000000000e+10    -1.802799403983857e+01   -1.012445106604615e+02   
1.003400000000000e+10    -1.796222937072842e+01   -1.015158978787339e+02   
1.003500000000000e+10    -1.793250961770127e+01   -1.016374538215185e+02   
1.003600000000000e+10    -1.791372936586890e+01   -1.019545804477957e+02   
1.003700000000000e+10    -1.786673122188918e+01   -1.022380210063682e+02   
1.003800000000000e+10    -1.785630251877121e+01   -1.024804495403760e+02   
1.003900000000000e+10    -1.781765109956571e+01   -1.029094896403121e+02   
1.004000000000000e+10    -1.782030334195174e+01   -1.029822609330910e+02   
1.004100000000000e+10    -1.778232959741347e+01   -1.033421448537394e+02   
1.004200000000000e+10    -1.780555905456753e+01   -1.035127031220048e+02   
1.004300000000000e+10    -1.779710557025806e+01   -1.039545794131895e+02   
1.004400000000000e+10    -1.778804324910839e+01   -1.042985313094947e+02   
1.004500000000000e+10    -1.782261937235207e+01   -1.045531269474596e+02   
1.004600000000000e+10    -1.782640959646530e+01   -1.047026586300530e+02   
1.004700000000000e+10    -1.783694637476661e+01   -1.051130251507844e+02   
1.004800000000000e+10    -1.786214561268096e+01   -1.053381173869003e+02   
1.004900000000000e+10    -1.791397533088515e+01   -1.055380215053730e+02   
1.005000000000000e+10    -1.795035977944366e+01   -1.056579196994200e+02   
1.005100000000000e+10    -1.796294616131906e+01   -1.056649227441225e+02   
1.005200000000000e+10    -1.798975731446289e+01   -1.057966355119916e+02   
1.005300000000000e+10    -1.802503739774387e+01   -1.059386985666547e+02   
1.005400000000000e+10    -1.807297980807723e+01   -1.059957793570034e+02   
1.005500000000000e+10    -1.810454542725589e+01   -1.060726851456243e+02   
1.005600000000000e+10    -1.814736055897459e+01   -1.058406049101349e+02   
1.005700000000000e+10    -1.819152358288517e+01   -1.058352665491376e+02   
1.005800000000000e+10    -1.820938569450457e+01   -1.055119511751766e+02   
1.005900000000000e+10    -1.823127768520451e+01   -1.055151949717218e+02   
1.006000000000000e+10    -1.824936367636497e+01   -1.053688332312446e+02   
1.006100000000000e+10    -1.827681985185838e+01   -1.051233995545187e+02   
1.006200000000000e+10    -1.829399459469378e+01   -1.047830268215560e+02   
1.006300000000000e+10    -1.827980592594202e+01   -1.044386387009201e+02   
1.006400000000000e+10    -1.829958290743236e+01   -1.042605268864813e+02   
1.006500000000000e+10    -1.828585207214924e+01   -1.041080596031105e+02   
1.006600000000000e+10    -1.828149029629366e+01   -1.038149014640232e+02   
1.006700000000000e+10    -1.828165481817281e+01   -1.034820350168563e+02   
1.006800000000000e+10    -1.825993734871390e+01   -1.035459801801669e+02   
1.006900000000000e+10    -1.822020360830565e+01   -1.031086222689786e+02   
1.007000000000000e+10    -1.818391557095084e+01   -1.029773567288496e+02   
1.007100000000000e+10    -1.814676607376125e+01   -1.027950867275616e+02   
1.007200000000000e+10    -1.811455649232121e+01   -1.028547199834693e+02   
1.007300000000000e+10    -1.807327754866946e+01   -1.026484333644034e+02   
1.007400000000000e+10    -1.802743833794650e+01   -1.026387937013011e+02   
1.007500000000000e+10    -1.799954288660545e+01   -1.026500005201640e+02   
1.007600000000000e+10    -1.794105058034610e+01   -1.027770988821563e+02   
1.007700000000000e+10    -1.790678414276687e+01   -1.027495043996348e+02   
1.007800000000000e+10    -1.785974506249124e+01   -1.028406652525631e+02   
1.007900000000000e+10    -1.781971494895537e+01   -1.028367997055107e+02   
1.008000000000000e+10    -1.779139866920609e+01   -1.030735704272617e+02   
1.008100000000000e+10    -1.775935507906638e+01   -1.035489676041964e+02   
1.008200000000000e+10    -1.773273829877031e+01   -1.037713644157930e+02   
1.008300000000000e+10    -1.772926151625584e+01   -1.038837855037898e+02   
1.008400000000000e+10    -1.770276316478355e+01   -1.043019635502630e+02   
1.008500000000000e+10    -1.768317462344970e+01   -1.045379468506564e+02   
1.008600000000000e+10    -1.767922986645892e+01   -1.048315427816447e+02   
1.008700000000000e+10    -1.768221883951472e+01   -1.051334997473817e+02   
1.008800000000000e+10    -1.767918555426833e+01   -1.055875541637010e+02   
1.008900000000000e+10    -1.769950537737482e+01   -1.057232396557066e+02   
1.009000000000000e+10    -1.769823918940000e+01   -1.060989273745301e+02   
1.009100000000000e+10    -1.771535541608645e+01   -1.064796082609157e+02   
1.009200000000000e+10    -1.774681046773595e+01   -1.066504774919895e+02   
1.009300000000000e+10    -1.778418944999402e+01   -1.069335138295666e+02   
1.009400000000000e+10    -1.781719453356146e+01   -1.072572657395620e+02   
1.009500000000000e+10    -1.784733117624562e+01   -1.074941803238893e+02   
1.009600000000000e+10    -1.788325584611185e+01   -1.075300916646415e+02   
1.009700000000000e+10    -1.792554724409469e+01   -1.077316963340241e+02   
1.009800000000000e+10    -1.798482371918063e+01   -1.078073116599428e+02   
1.009900000000000e+10    -1.802546034617117e+01   -1.078993813237097e+02   
1.010000000000000e+10    -1.805562129439808e+01   -1.080025204394425e+02   
1.010100000000000e+10    -1.810069254043925e+01   -1.079270552497739e+02   
1.010200000000000e+10    -1.815172442483649e+01   -1.079053764956683e+02   
1.010300000000000e+10    -1.818498795007311e+01   -1.078760848935169e+02   
1.010400000000000e+10    -1.820858652314982e+01   -1.077091720664660e+02   
1.010500000000000e+10    -1.824464914879413e+01   -1.076603957642128e+02   
1.010600000000000e+10    -1.826087904985782e+01   -1.072494130558886e+02   
1.010700000000000e+10    -1.827990963727635e+01   -1.073792845592286e+02   
1.010800000000000e+10    -1.831436834552668e+01   -1.070057142197214e+02   
1.010900000000000e+10    -1.829775619615636e+01   -1.068476958008525e+02   
1.011000000000000e+10    -1.829573645357046e+01   -1.064875903535564e+02   
1.011100000000000e+10    -1.826362338279656e+01   -1.064144008554347e+02   
1.011200000000000e+10    -1.827125667859838e+01   -1.062081739249565e+02   
1.011300000000000e+10    -1.822447814727392e+01   -1.060634789260504e+02   
1.011400000000000e+10    -1.822430538587177e+01   -1.057907848153110e+02   
1.011500000000000e+10    -1.818210475879468e+01   -1.056786249170591e+02   
1.011600000000000e+10    -1.816901227989474e+01   -1.055083835016872e+02   
1.011700000000000e+10    -1.814296552467694e+01   -1.055218077667095e+02   
1.011800000000000e+10    -1.809237136757209e+01   -1.054212324965688e+02   
1.011900000000000e+10    -1.804376434244652e+01   -1.054144696921805e+02   
1.012000000000000e+10    -1.798147356440345e+01   -1.053949434676711e+02   
1.012100000000000e+10    -1.795279141670584e+01   -1.055539144080399e+02   
1.012200000000000e+10    -1.789800650704023e+01   -1.054460993986649e+02   
1.012300000000000e+10    -1.786112115466832e+01   -1.056076608740407e+02   
1.012400000000000e+10    -1.783427615456389e+01   -1.057870138888327e+02   
1.012500000000000e+10    -1.779092627715364e+01   -1.059092510200135e+02   
1.012600000000000e+10    -1.776758405834301e+01   -1.060921490104624e+02   
1.012700000000000e+10    -1.772953490352093e+01   -1.064447814754888e+02   
1.012800000000000e+10    -1.770031732497355e+01   -1.065805034666276e+02   
1.012900000000000e+10    -1.767208008948056e+01   -1.069186965525623e+02   
1.013000000000000e+10    -1.766876939165845e+01   -1.070979742174999e+02   
1.013100000000000e+10    -1.765507477819553e+01   -1.074527592633215e+02   
1.013200000000000e+10    -1.765489188235702e+01   -1.077870964880374e+02   
1.013300000000000e+10    -1.765738153906186e+01   -1.081636363265925e+02   
1.013400000000000e+10    -1.764571527944736e+01   -1.083439555684309e+02   
1.013500000000000e+10    -1.765957733231614e+01   -1.086932601435007e+02   
1.013600000000000e+10    -1.767503503895207e+01   -1.088886072488544e+02   
1.013700000000000e+10    -1.768606549025678e+01   -1.091280345022039e+02   
1.013800000000000e+10    -1.770913159281859e+01   -1.094093704189583e+02   
1.013900000000000e+10    -1.774058006583595e+01   -1.096499189974810e+02   
1.014000000000000e+10    -1.777134309451708e+01   -1.097196279090458e+02   
1.014100000000000e+10    -1.781868450212355e+01   -1.099752072674058e+02   
1.014200000000000e+10    -1.784255905989348e+01   -1.100226435899328e+02   
1.014300000000000e+10    -1.789362799392235e+01   -1.101202662725922e+02   
1.014400000000000e+10    -1.792868678668504e+01   -1.101284440535836e+02   
1.014500000000000e+10    -1.797071556596715e+01   -1.102799966970971e+02   
1.014600000000000e+10    -1.799876078800888e+01   -1.101415042373933e+02   
1.014700000000000e+10    -1.803912176935418e+01   -1.099946287421914e+02   
1.014800000000000e+10    -1.809378074059223e+01   -1.100157061908612e+02   
1.014900000000000e+10    -1.810432787917480e+01   -1.098705040375036e+02   
1.015000000000000e+10    -1.813784096149571e+01   -1.097478796541953e+02   
1.015100000000000e+10    -1.816128032166967e+01   -1.095370699664337e+02   
1.015200000000000e+10    -1.817652084845784e+01   -1.092760390199465e+02   
1.015300000000000e+10    -1.819325788519329e+01   -1.091921219865805e+02   
1.015400000000000e+10    -1.819646023979295e+01   -1.088577523819255e+02   
1.015500000000000e+10    -1.823023867310861e+01   -1.088135142483673e+02   
1.015600000000000e+10    -1.821467527129674e+01   -1.085214226601251e+02   
1.015700000000000e+10    -1.820213320894675e+01   -1.081596040695819e+02   
1.015800000000000e+10    -1.818099400804240e+01   -1.080774619232634e+02   
1.015900000000000e+10    -1.816382363139169e+01   -1.078392179370378e+02   
1.016000000000000e+10    -1.813118761046471e+01   -1.077136550636067e+02   
1.016100000000000e+10    -1.811268385592060e+01   -1.076043788343421e+02   
1.016200000000000e+10    -1.807825731019432e+01   -1.073467026466240e+02   
1.016300000000000e+10    -1.804246949625340e+01   -1.072652639490121e+02   
1.016400000000000e+10    -1.803076983771885e+01   -1.072968832907204e+02   
1.016500000000000e+10    -1.797365669437000e+01   -1.071935152197715e+02   
1.016600000000000e+10    -1.794949529476165e+01   -1.073391097638912e+02   
1.016700000000000e+10    -1.789424347131101e+01   -1.073318716846690e+02   
1.016800000000000e+10    -1.785582335653909e+01   -1.073960651961483e+02   
1.016900000000000e+10    -1.782702679296335e+01   -1.074972253470449e+02   
1.017000000000000e+10    -1.779814740065775e+01   -1.077530994949947e+02   
1.017100000000000e+10    -1.775208563493680e+01   -1.080314144184319e+02   
1.017200000000000e+10    -1.772810159979189e+01   -1.081010843720528e+02   
1.017300000000000e+10    -1.770377278370299e+01   -1.084540869355162e+02   
1.017400000000000e+10    -1.768133575090173e+01   -1.086392556823296e+02   
1.017500000000000e+10    -1.765536065561491e+01   -1.089674578761255e+02   
1.017600000000000e+10    -1.763255303322891e+01   -1.091324741043516e+02   
1.017700000000000e+10    -1.764917504339809e+01   -1.095089765079691e+02   
1.017800000000000e+10    -1.763402908320237e+01   -1.098383268697691e+02   
1.017900000000000e+10    -1.763620194440166e+01   -1.100378178032637e+02   
1.018000000000000e+10    -1.763912258043412e+01   -1.104004966722409e+02   
1.018100000000000e+10    -1.765419844479827e+01   -1.106431527895542e+02   
1.018200000000000e+10    -1.767738491135589e+01   -1.109117638432740e+02   
1.018300000000000e+10    -1.768217965834026e+01   -1.111758056247673e+02   
1.018400000000000e+10    -1.772039517970098e+01   -1.114622772070807e+02   
1.018500000000000e+10    -1.773654949514145e+01   -1.117061217469294e+02   
1.018600000000000e+10    -1.775830392963319e+01   -1.120685963650787e+02   
1.018700000000000e+10    -1.779198963196310e+01   -1.120815187704133e+02   
1.018800000000000e+10    -1.783284585080664e+01   -1.123056672155551e+02   
1.018900000000000e+10    -1.787331739164983e+01   -1.124010590830577e+02   
1.019000000000000e+10    -1.790195376429998e+01   -1.123980925561816e+02   
1.019100000000000e+10    -1.792883536528539e+01   -1.124505564821111e+02   
1.019200000000000e+10    -1.796280935132781e+01   -1.123952387069058e+02   
1.019300000000000e+10    -1.800157124166994e+01   -1.125520055984958e+02   
1.019400000000000e+10    -1.802695876442900e+01   -1.123813451195924e+02   
1.019500000000000e+10    -1.805367840218314e+01   -1.123490456625058e+02   
1.019600000000000e+10    -1.805047306359016e+01   -1.121737127093909e+02   
1.019700000000000e+10    -1.808202937578052e+01   -1.120286002136589e+02   
1.019800000000000e+10    -1.809436928609878e+01   -1.118970688219554e+02   
1.019900000000000e+10    -1.810488733813937e+01   -1.116392385545211e+02   
1.020000000000000e+10    -1.810530099142438e+01   -1.115897661201767e+02   
1.020100000000000e+10    -1.810781578659958e+01   -1.113546836143661e+02   
1.020200000000000e+10    -1.809123996527001e+01   -1.110854903793937e+02   
1.020300000000000e+10    -1.809721876739640e+01   -1.109429632386151e+02   
1.020400000000000e+10    -1.806600544189442e+01   -1.107481518761691e+02   
1.020500000000000e+10    -1.805774891266439e+01   -1.106629525447824e+02   
1.020600000000000e+10    -1.801462880135981e+01   -1.103913392533033e+02   
1.020700000000000e+10    -1.800730578123058e+01   -1.103231002869905e+02   
1.020800000000000e+10    -1.798335898251500e+01   -1.102673786999818e+02   
1.020900000000000e+10    -1.793573430847732e+01   -1.101312508673430e+02   
1.021000000000000e+10    -1.789757254807099e+01   -1.100929349609190e+02   
1.021100000000000e+10    -1.786848859391476e+01   -1.100884518440056e+02   
1.021200000000000e+10    -1.784191220156969e+01   -1.099900231144681e+02   
1.021300000000000e+10    -1.778382762579884e+01   -1.101040876624082e+02   
1.021400000000000e+10    -1.776687045747225e+01   -1.100863552656563e+02   
1.021500000000000e+10    -1.770543458480591e+01   -1.102996179109366e+02   
1.021600000000000e+10    -1.767935033504598e+01   -1.104859422565380e+02   
1.021700000000000e+10    -1.764920386598094e+01   -1.104805000805852e+02   
1.021800000000000e+10    -1.763123463278697e+01   -1.106922169311935e+02   
1.021900000000000e+10    -1.759541160823299e+01   -1.107563330464069e+02   
1.022000000000000e+10    -1.758897811449073e+01   -1.110260813398636e+02   
1.022100000000000e+10    -1.754572126116538e+01   -1.112463814044487e+02   
1.022200000000000e+10    -1.754735236136211e+01   -1.114523239768681e+02   
1.022300000000000e+10    -1.753873976041046e+01   -1.117291394183678e+02   
1.022400000000000e+10    -1.753859271139200e+01   -1.120300988897500e+02   
1.022500000000000e+10    -1.753626344290024e+01   -1.122364650373052e+02   
1.022600000000000e+10    -1.755246618975593e+01   -1.125144459378062e+02   
1.022700000000000e+10    -1.755385074787207e+01   -1.127652875493855e+02   
1.022800000000000e+10    -1.759084506855778e+01   -1.129107022746675e+02   
1.022900000000000e+10    -1.757971399136877e+01   -1.131678896171219e+02   
1.023000000000000e+10    -1.762165163182916e+01   -1.134143925049688e+02   
1.023100000000000e+10    -1.762669410460505e+01   -1.135317051630283e+02   
1.023200000000000e+10    -1.768606570857904e+01   -1.137400560044368e+02   
1.023300000000000e+10    -1.768381188914551e+01   -1.139131865792794e+02   
1.023400000000000e+10    -1.774372953682212e+01   -1.141095905083120e+02   
1.023500000000000e+10    -1.775579248813357e+01   -1.141490831582381e+02   
1.023600000000000e+10    -1.781455502265078e+01   -1.142116780289535e+02   
1.023700000000000e+10    -1.784743507631212e+01   -1.142419585598410e+02   
1.023800000000000e+10    -1.789098942902379e+01   -1.143580173396913e+02   
1.023900000000000e+10    -1.792199213420817e+01   -1.142351250161551e+02   
1.024000000000000e+10    -1.796933623907499e+01   -1.141959991094148e+02   
1.024100000000000e+10    -1.798571015965685e+01   -1.142417181417754e+02   
1.024200000000000e+10    -1.800858779977121e+01   -1.140835859382653e+02   
1.024300000000000e+10    -1.803688664090691e+01   -1.138532984174889e+02   
1.024400000000000e+10    -1.805082052494433e+01   -1.138295707502144e+02   
1.024500000000000e+10    -1.807562967124057e+01   -1.136357853981004e+02   
1.024600000000000e+10    -1.807274458031598e+01   -1.135964129704518e+02   
1.024700000000000e+10    -1.809158049101527e+01   -1.133983168189495e+02   
1.024800000000000e+10    -1.810297180813408e+01   -1.134397445251813e+02   
1.024900000000000e+10    -1.807687388729378e+01   -1.132328835707873e+02   
1.025000000000000e+10    -1.807356726384549e+01   -1.129974264583003e+02   
1.025100000000000e+10    -1.808575212446562e+01   -1.128364494188986e+02   
1.025200000000000e+10    -1.806109356196192e+01   -1.128763491625933e+02   
1.025300000000000e+10    -1.802356822912294e+01   -1.127179804262045e+02   
1.025400000000000e+10    -1.799775885439363e+01   -1.125939545428237e+02   
1.025500000000000e+10    -1.798933849793740e+01   -1.125744104350499e+02   
1.025600000000000e+10    -1.795880584168211e+01   -1.126103413567460e+02   
