[Version] 2.0
! Rohde & Schwarz Vector Network Analyzer
! Rohde-Schwarz,ZNL20-2Port,1323001220200009,1.71.1.10-23.02.1.238
! 
! Port Assignments:
! Nominal Port -> Actual Test Port
! --------------------------------
!   1 -> 1

! Created: GMT 2024-09-04 10:37:01

# Hz S DB R 50

[Number of Ports] 1
[Number of Frequencies] 2001

[Network Data] 
! freq[Hz]               S11[mag dB]              S11[ang]                 
1.000000000000000e+10    -1.798920381520730e+01   -1.012499450504791e+02   
1.000100000000000e+10    -1.801140697067647e+01   -1.016082299879101e+02   
1.000200000000000e+10    -1.804609042891018e+01   -1.017015417907170e+02   
1.000300000000000e+10    -1.807213328636199e+01   -1.018789477498520e+02   
1.000400000000000e+10    -1.811215514657611e+01   -1.021547208861665e+02   
1.000500000000000e+10    -1.812754504840085e+01   -1.023698859626495e+02   
1.000600000000000e+10    -1.818886366081946e+01   -1.024869740921699e+02   
1.000700000000000e+10    -1.819136411846686e+01   -1.026579646372777e+02   
1.000800000000000e+10    -1.825974165126306e+01   -1.028103520307834e+02   
1.000900000000000e+10    -1.827161045339830e+01   -1.025785209941993e+02   
1.001000000000000e+10    -1.831566052606915e+01   -1.028230409153082e+02   
1.001100000000000e+10    -1.835480478157966e+01   -1.026886030112177e+02   
1.001200000000000e+10    -1.838422115390295e+01   -1.026941881211368e+02   
1.001300000000000e+10    -1.841012840445909e+01   -1.025908892684870e+02   
1.001400000000000e+10    -1.845465695130100e+01   -1.024356380164058e+02   
1.001500000000000e+10    -1.845113040330685e+01   -1.024775292428109e+02   
1.001600000000000e+10    -1.848442744825838e+01   -1.022275990945509e+02   
1.001700000000000e+10    -1.850154891866810e+01   -1.020686442792743e+02   
1.001800000000000e+10    -1.850371215311894e+01   -1.019065670515938e+02   
1.001900000000000e+10    -1.850363137302993e+01   -1.017788626063181e+02   
1.002000000000000e+10    -1.851170615217249e+01   -1.014589531678519e+02   
1.002100000000000e+10    -1.849338648606834e+01   -1.012540722699091e+02   
1.002200000000000e+10    -1.845809826292353e+01   -1.011875259817064e+02   
1.002300000000000e+10    -1.844575415580427e+01   -1.010067642805850e+02   
1.002400000000000e+10    -1.841047471965165e+01   -1.010450893080342e+02   
1.002500000000000e+10    -1.837540403662531e+01   -1.008718431108529e+02   
1.002600000000000e+10    -1.833257646593025e+01   -1.007566597118150e+02   
1.002700000000000e+10    -1.829549083320452e+01   -1.006467885899661e+02   
1.002800000000000e+10    -1.822959689707652e+01   -1.007340269276677e+02   
1.002900000000000e+10    -1.819649839975956e+01   -1.006831843733197e+02   
1.003000000000000e+10    -1.814747262914402e+01   -1.008160084214119e+02   
1.003100000000000e+10    -1.809138260784357e+01   -1.010244378742222e+02   
1.003200000000000e+10    -1.805758044877515e+01   -1.010500356775728e+02   
1.003300000000000e+10    -1.803335979915723e+01   -1.012346241864533e+02   
1.003400000000000e+10    -1.796640073462655e+01   -1.015032208522854e+02   
1.003500000000000e+10    -1.793648809642358e+01   -1.016205271208127e+02   
1.003600000000000e+10    -1.791879062141685e+01   -1.019351665557042e+02   
1.003700000000000e+10    -1.787084736014426e+01   -1.022206398628476e+02   
1.003800000000000e+10    -1.786011732108454e+01   -1.024516282719483e+02   
1.003900000000000e+10    -1.782033221464030e+01   -1.028829488950527e+02   
1.004000000000000e+10    -1.782314289359640e+01   -1.029641026100825e+02   
1.004100000000000e+10    -1.778298514730310e+01   -1.033147704605957e+02   
1.004200000000000e+10    -1.780591497542930e+01   -1.034797216218044e+02   
1.004300000000000e+10    -1.779723684716662e+01   -1.039262962326873e+02   
1.004400000000000e+10    -1.778707816137658e+01   -1.042713541544798e+02   
1.004500000000000e+10    -1.782094988357837e+01   -1.045302685592400e+02   
1.004600000000000e+10    -1.782434954446209e+01   -1.046826737266085e+02   
1.004700000000000e+10    -1.783500980075900e+01   -1.050979342386636e+02   
1.004800000000000e+10    -1.786052526544285e+01   -1.053075980342371e+02   
1.004900000000000e+10    -1.790933108329219e+01   -1.055201748356983e+02   
1.005000000000000e+10    -1.794673876540453e+01   -1.056489666970713e+02   
1.005100000000000e+10    -1.795868604699029e+01   -1.056560262718746e+02   
1.005200000000000e+10    -1.798474269616725e+01   -1.057912660751713e+02   
1.005300000000000e+10    -1.802126425692988e+01   -1.059358583785288e+02   
1.005400000000000e+10    -1.806904737010668e+01   -1.060066155609387e+02   
1.005500000000000e+10    -1.809933090524075e+01   -1.060905848916045e+02   
1.005600000000000e+10    -1.814415119157265e+01   -1.058547278711341e+02   
1.005700000000000e+10    -1.818721239425380e+01   -1.058582395656883e+02   
1.005800000000000e+10    -1.820491676813724e+01   -1.055366703466024e+02   
1.005900000000000e+10    -1.822601233482900e+01   -1.055419773751850e+02   
1.006000000000000e+10    -1.824681878241652e+01   -1.053947365792028e+02   
1.006100000000000e+10    -1.827575603613467e+01   -1.051589049342180e+02   
1.006200000000000e+10    -1.829333771056496e+01   -1.048243288414973e+02   
1.006300000000000e+10    -1.827945051354192e+01   -1.044737068109529e+02   
1.006400000000000e+10    -1.829884130293498e+01   -1.042988868899100e+02   
1.006500000000000e+10    -1.828489005910092e+01   -1.041397613323806e+02   
1.006600000000000e+10    -1.828494268259399e+01   -1.038561078760575e+02   
1.006700000000000e+10    -1.828314400241863e+01   -1.035129634297328e+02   
1.006800000000000e+10    -1.826313935230352e+01   -1.035802615570129e+02   
1.006900000000000e+10    -1.822317458032244e+01   -1.031440857365715e+02   
1.007000000000000e+10    -1.818760944191131e+01   -1.030103383683884e+02   
1.007100000000000e+10    -1.815171836542750e+01   -1.028289052095700e+02   
1.007200000000000e+10    -1.811831982224809e+01   -1.028758751016427e+02   
1.007300000000000e+10    -1.807918211096750e+01   -1.026723301995163e+02   
1.007400000000000e+10    -1.803196092117119e+01   -1.026580172266991e+02   
1.007500000000000e+10    -1.800383915895356e+01   -1.026633467446633e+02   
1.007600000000000e+10    -1.794656011722707e+01   -1.027838476762061e+02   
1.007700000000000e+10    -1.791166300172491e+01   -1.027576823469417e+02   
1.007800000000000e+10    -1.786324452273382e+01   -1.028458744534763e+02   
1.007900000000000e+10    -1.782387355219170e+01   -1.028233128287657e+02   
1.008000000000000e+10    -1.779453464921026e+01   -1.030582052600846e+02   
1.008100000000000e+10    -1.776331293777703e+01   -1.035400440905428e+02   
1.008200000000000e+10    -1.773770209766749e+01   -1.037557981232041e+02   
1.008300000000000e+10    -1.773269552759362e+01   -1.038662867484539e+02   
1.008400000000000e+10    -1.770474827817835e+01   -1.042777697583190e+02   
1.008500000000000e+10    -1.768452065303653e+01   -1.045157138589750e+02   
1.008600000000000e+10    -1.768102332193027e+01   -1.048112955784608e+02   
1.008700000000000e+10    -1.768231803806519e+01   -1.051105840871277e+02   
1.008800000000000e+10    -1.767927934982823e+01   -1.055705149426129e+02   
1.008900000000000e+10    -1.769946487171524e+01   -1.057025266323120e+02   
1.009000000000000e+10    -1.769742029106688e+01   -1.060763935487405e+02   
1.009100000000000e+10    -1.771320617829338e+01   -1.064540267927586e+02   
1.009200000000000e+10    -1.774496753304065e+01   -1.066367365051759e+02   
1.009300000000000e+10    -1.778132214891576e+01   -1.069212588607550e+02   
1.009400000000000e+10    -1.781376865594137e+01   -1.072453891552009e+02   
1.009500000000000e+10    -1.784364736683621e+01   -1.074913706904187e+02   
1.009600000000000e+10    -1.787905261946328e+01   -1.075126208755898e+02   
1.009700000000000e+10    -1.792189085790734e+01   -1.077320499940595e+02   
1.009800000000000e+10    -1.797993346382037e+01   -1.078073477088765e+02   
1.009900000000000e+10    -1.802014339406850e+01   -1.079116270954836e+02   
1.010000000000000e+10    -1.805063776220020e+01   -1.080122934655482e+02   
1.010100000000000e+10    -1.809521799219803e+01   -1.079362075884915e+02   
1.010200000000000e+10    -1.814707463787801e+01   -1.079200951105528e+02   
1.010300000000000e+10    -1.818074826606454e+01   -1.078955309424282e+02   
1.010400000000000e+10    -1.820608894976688e+01   -1.077397180019196e+02   
1.010500000000000e+10    -1.824071660981557e+01   -1.076794167162425e+02   
1.010600000000000e+10    -1.825659801983963e+01   -1.072840878221287e+02   
1.010700000000000e+10    -1.827660874627709e+01   -1.074129687094712e+02   
1.010800000000000e+10    -1.831067926749500e+01   -1.070397774660951e+02   
1.010900000000000e+10    -1.829555212851994e+01   -1.068845930506158e+02   
1.011000000000000e+10    -1.829495020664079e+01   -1.065289316744861e+02   
1.011100000000000e+10    -1.826298077627142e+01   -1.064556047412655e+02   
1.011200000000000e+10    -1.827008707149403e+01   -1.062517090742199e+02   
1.011300000000000e+10    -1.822621023942586e+01   -1.061006110858883e+02   
1.011400000000000e+10    -1.822514585965092e+01   -1.058314285650064e+02   
1.011500000000000e+10    -1.818445043672161e+01   -1.057097554836878e+02   
1.011600000000000e+10    -1.817260110407137e+01   -1.055350559488447e+02   
1.011700000000000e+10    -1.814708663172155e+01   -1.055466962747638e+02   
1.011800000000000e+10    -1.809508313149087e+01   -1.054415922249993e+02   
1.011900000000000e+10    -1.804714169713017e+01   -1.054321826161597e+02   
1.012000000000000e+10    -1.798625859463724e+01   -1.054005919239786e+02   
1.012100000000000e+10    -1.795783052423667e+01   -1.055656002236263e+02   
1.012200000000000e+10    -1.790235139037059e+01   -1.054536742659685e+02   
1.012300000000000e+10    -1.786549276869038e+01   -1.056045206611249e+02   
1.012400000000000e+10    -1.783659810544932e+01   -1.057823791807788e+02   
1.012500000000000e+10    -1.779521970029569e+01   -1.059026757301892e+02   
1.012600000000000e+10    -1.777161026894727e+01   -1.060783267223252e+02   
1.012700000000000e+10    -1.773161576497110e+01   -1.064309925925877e+02   
1.012800000000000e+10    -1.770405769002518e+01   -1.065689649158538e+02   
1.012900000000000e+10    -1.767665180163661e+01   -1.069053165394705e+02   
1.013000000000000e+10    -1.767124954718007e+01   -1.070683451691143e+02   
1.013100000000000e+10    -1.765623931467154e+01   -1.074180630541572e+02   
1.013200000000000e+10    -1.765551897541766e+01   -1.077582791673282e+02   
1.013300000000000e+10    -1.765747290064886e+01   -1.081313419121014e+02   
1.013400000000000e+10    -1.764636663875421e+01   -1.083187331811395e+02   
1.013500000000000e+10    -1.765992915470517e+01   -1.086541071425294e+02   
1.013600000000000e+10    -1.767431824893471e+01   -1.088572361891177e+02   
1.013700000000000e+10    -1.768370062387990e+01   -1.090928214335533e+02   
1.013800000000000e+10    -1.770740805862162e+01   -1.093881493498307e+02   
1.013900000000000e+10    -1.773738126686729e+01   -1.096260395145365e+02   
1.014000000000000e+10    -1.776806727944663e+01   -1.096949088503215e+02   
1.014100000000000e+10    -1.781488418354191e+01   -1.099551837019303e+02   
1.014200000000000e+10    -1.783797999523097e+01   -1.100126822461710e+02   
1.014300000000000e+10    -1.788915763954916e+01   -1.101084443425407e+02   
1.014400000000000e+10    -1.792434100781917e+01   -1.101123548332152e+02   
1.014500000000000e+10    -1.796669489882492e+01   -1.102676818090462e+02   
1.014600000000000e+10    -1.799446947793840e+01   -1.101371668456330e+02   
1.014700000000000e+10    -1.803504877781601e+01   -1.099993128962819e+02   
1.014800000000000e+10    -1.808875898306643e+01   -1.100160522420250e+02   
1.014900000000000e+10    -1.809933374005276e+01   -1.098913832754727e+02   
1.015000000000000e+10    -1.813350355232787e+01   -1.097584679039502e+02   
1.015100000000000e+10    -1.815921700178864e+01   -1.095573246698495e+02   
1.015200000000000e+10    -1.817420621643092e+01   -1.092994816098492e+02   
1.015300000000000e+10    -1.819131079006426e+01   -1.092267286955916e+02   
1.015400000000000e+10    -1.819530513323835e+01   -1.088926181296073e+02   
1.015500000000000e+10    -1.822807086580283e+01   -1.088420825969457e+02   
1.015600000000000e+10    -1.821494503954601e+01   -1.085508574244039e+02   
1.015700000000000e+10    -1.820173380710965e+01   -1.081928645131556e+02   
1.015800000000000e+10    -1.818223657496968e+01   -1.081049437731293e+02   
1.015900000000000e+10    -1.816683105275295e+01   -1.078811194982296e+02   
1.016000000000000e+10    -1.813350813216888e+01   -1.077430668502974e+02   
1.016100000000000e+10    -1.811753044942119e+01   -1.076339193292651e+02   
1.016200000000000e+10    -1.808296681703171e+01   -1.073627575128930e+02   
1.016300000000000e+10    -1.804876197711976e+01   -1.072859863988183e+02   
1.016400000000000e+10    -1.803586785065662e+01   -1.073152659473314e+02   
1.016500000000000e+10    -1.797870088298767e+01   -1.072095494182082e+02   
1.016600000000000e+10    -1.795376789697380e+01   -1.073424547603796e+02   
1.016700000000000e+10    -1.789970933832043e+01   -1.073374082275428e+02   
1.016800000000000e+10    -1.786273634469013e+01   -1.074032286675853e+02   
1.016900000000000e+10    -1.783401749589308e+01   -1.075020104096046e+02   
1.017000000000000e+10    -1.780555215120620e+01   -1.077453834614141e+02   
1.017100000000000e+10    -1.775811566518416e+01   -1.080240492177302e+02   
1.017200000000000e+10    -1.773324356408993e+01   -1.080876136323336e+02   
1.017300000000000e+10    -1.770903412542122e+01   -1.084438312957029e+02   
1.017400000000000e+10    -1.768623790528888e+01   -1.086276507871941e+02   
1.017500000000000e+10    -1.765852530239154e+01   -1.089462373884260e+02   
1.017600000000000e+10    -1.763485393845178e+01   -1.091067462041819e+02   
1.017700000000000e+10    -1.765205458982957e+01   -1.094901084892599e+02   
1.017800000000000e+10    -1.763611425646688e+01   -1.098180495498136e+02   
1.017900000000000e+10    -1.763810546728752e+01   -1.100120806255307e+02   
1.018000000000000e+10    -1.764019172072405e+01   -1.103616221155281e+02   
1.018100000000000e+10    -1.765458065003389e+01   -1.106139067422396e+02   
1.018200000000000e+10    -1.767735128705813e+01   -1.108982146871320e+02   
1.018300000000000e+10    -1.768131803255595e+01   -1.111491107829065e+02   
1.018400000000000e+10    -1.771771229441486e+01   -1.114424040428633e+02   
1.018500000000000e+10    -1.773382908770179e+01   -1.116962452491726e+02   
1.018600000000000e+10    -1.775454166705057e+01   -1.120568344147386e+02   
1.018700000000000e+10    -1.779001329193203e+01   -1.120652465277652e+02   
1.018800000000000e+10    -1.782805578292179e+01   -1.123027069669461e+02   
1.018900000000000e+10    -1.787004431550327e+01   -1.123999472132902e+02   
1.019000000000000e+10    -1.789663140053952e+01   -1.123991416900692e+02   
1.019100000000000e+10    -1.792426450748233e+01   -1.124685156750101e+02   
1.019200000000000e+10    -1.795914469891191e+01   -1.124031256094187e+02   
1.019300000000000e+10    -1.799655026354766e+01   -1.125708585423376e+02   
1.019400000000000e+10    -1.802089629043607e+01   -1.124077578622567e+02   
1.019500000000000e+10    -1.804789773915462e+01   -1.123685762907036e+02   
1.019600000000000e+10    -1.804673888162322e+01   -1.122078770790391e+02   
1.019700000000000e+10    -1.807879247616710e+01   -1.120590016479084e+02   
1.019800000000000e+10    -1.809056123431331e+01   -1.119358742743730e+02   
1.019900000000000e+10    -1.810130933427359e+01   -1.116867580924488e+02   
1.020000000000000e+10    -1.810265948441016e+01   -1.116316646177256e+02   
1.020100000000000e+10    -1.810482478362769e+01   -1.113943330965547e+02   
1.020200000000000e+10    -1.809095345218957e+01   -1.111310393054572e+02   
1.020300000000000e+10    -1.809596887572719e+01   -1.109816242457795e+02   
1.020400000000000e+10    -1.806553630964587e+01   -1.107972288589233e+02   
1.020500000000000e+10    -1.805785748844506e+01   -1.107022085218854e+02   
1.020600000000000e+10    -1.801626529326042e+01   -1.104275952290622e+02   
1.020700000000000e+10    -1.800812662215234e+01   -1.103612207579100e+02   
1.020800000000000e+10    -1.798551791511113e+01   -1.103083026574129e+02   
1.020900000000000e+10    -1.793795816869998e+01   -1.101745172784036e+02   
1.021000000000000e+10    -1.790133669750825e+01   -1.101265134049501e+02   
1.021100000000000e+10    -1.787183563765993e+01   -1.101116729816672e+02   
1.021200000000000e+10    -1.784457083985413e+01   -1.100205807210971e+02   
1.021300000000000e+10    -1.778681145966737e+01   -1.101076181892121e+02   
1.021400000000000e+10    -1.777222800189878e+01   -1.100960237524918e+02   
1.021500000000000e+10    -1.771140072999972e+01   -1.102951761042054e+02   
1.021600000000000e+10    -1.768335322433385e+01   -1.104908059805751e+02   
1.021700000000000e+10    -1.765392838891741e+01   -1.104776203122080e+02   
1.021800000000000e+10    -1.763482482686318e+01   -1.106801612179019e+02   
1.021900000000000e+10    -1.759976942068988e+01   -1.107416503112141e+02   
1.022000000000000e+10    -1.759180635233101e+01   -1.110057915879978e+02   
1.022100000000000e+10    -1.754892344666484e+01   -1.112306123280079e+02   
1.022200000000000e+10    -1.755015913944214e+01   -1.114327772282600e+02   
1.022300000000000e+10    -1.754018163204181e+01   -1.117025046616015e+02   
1.022400000000000e+10    -1.753848672548606e+01   -1.119952229505245e+02   
1.022500000000000e+10    -1.753522719170552e+01   -1.122099594613774e+02   
1.022600000000000e+10    -1.755124486772524e+01   -1.124771422934806e+02   
1.022700000000000e+10    -1.755276472549912e+01   -1.127371866059351e+02   
1.022800000000000e+10    -1.758779372655592e+01   -1.128826945346534e+02   
1.022900000000000e+10    -1.757726420088833e+01   -1.131367739839037e+02   
1.023000000000000e+10    -1.761764722353476e+01   -1.133939103431767e+02   
1.023100000000000e+10    -1.762263487305435e+01   -1.135088837836720e+02   
1.023200000000000e+10    -1.768099636415964e+01   -1.137261774081865e+02   
1.023300000000000e+10    -1.767898303842713e+01   -1.138975277734894e+02   
1.023400000000000e+10    -1.773880997062468e+01   -1.140964774899280e+02   
1.023500000000000e+10    -1.774960388275353e+01   -1.141371335763321e+02   
1.023600000000000e+10    -1.780916757325920e+01   -1.142112592126409e+02   
1.023700000000000e+10    -1.784203785350672e+01   -1.142364974603386e+02   
1.023800000000000e+10    -1.788397911424975e+01   -1.143515532921664e+02   
1.023900000000000e+10    -1.791737364499915e+01   -1.142496258071939e+02   
1.024000000000000e+10    -1.796331353993062e+01   -1.142072769074848e+02   
1.024100000000000e+10    -1.798046474608927e+01   -1.142541966162602e+02   
1.024200000000000e+10    -1.800287866465768e+01   -1.141050112305208e+02   
1.024300000000000e+10    -1.803218017544040e+01   -1.138779691883267e+02   
1.024400000000000e+10    -1.804755601058413e+01   -1.138621385145980e+02   
1.024500000000000e+10    -1.807202296945238e+01   -1.136617873210518e+02   
1.024600000000000e+10    -1.807045578971801e+01   -1.136327122380796e+02   
1.024700000000000e+10    -1.809130066534385e+01   -1.134299543954051e+02   
1.024800000000000e+10    -1.810262886890685e+01   -1.134784397622270e+02   
1.024900000000000e+10    -1.807763876563917e+01   -1.132620123121910e+02   
1.025000000000000e+10    -1.807425432569455e+01   -1.130379406222049e+02   
1.025100000000000e+10    -1.808656879663012e+01   -1.128831072321164e+02   
1.025200000000000e+10    -1.806413834518925e+01   -1.129059267360335e+02   
1.025300000000000e+10    -1.802802864203991e+01   -1.127572973723616e+02   
1.025400000000000e+10    -1.800210140789096e+01   -1.126234439578494e+02   
1.025500000000000e+10    -1.799252526473202e+01   -1.126080583977002e+02   
1.025600000000000e+10    -1.796307030178251e+01   -1.126295332724865e+02   
