[Version] 2.0
! Rohde & Schwarz Vector Network Analyzer
! Rohde-Schwarz,ZNL20-2Port,1323001220200009,1.71.1.10-23.02.1.238
! 
! Port Assignments:
! Nominal Port -> Actual Test Port
! --------------------------------
!   1 -> 1

! Created: GMT 2024-09-04 10:37:28

# Hz S DB R 50

[Number of Ports] 1
[Number of Frequencies] 2001

[Network Data] 
! freq[Hz]               S11[mag dB]              S11[ang]                 
1.000000000000000e+10    -1.798727437981691e+01   -1.012260265777053e+02   
1.000100000000000e+10    -1.800777436923428e+01   -1.015674809311442e+02   
1.000200000000000e+10    -1.804268814041229e+01   -1.016773998047479e+02   
1.000300000000000e+10    -1.806674019239233e+01   -1.018565438152416e+02   
1.000400000000000e+10    -1.810604226257061e+01   -1.021409766409627e+02   
1.000500000000000e+10    -1.811976492037656e+01   -1.023524342692705e+02   
1.000600000000000e+10    -1.818313129650675e+01   -1.024722009631256e+02   
1.000700000000000e+10    -1.818451550247254e+01   -1.026419476012299e+02   
1.000800000000000e+10    -1.825219963511451e+01   -1.028051932176051e+02   
1.000900000000000e+10    -1.826565971896744e+01   -1.025848301675369e+02   
1.001000000000000e+10    -1.831105448585161e+01   -1.028331193221930e+02   
1.001100000000000e+10    -1.834762277914005e+01   -1.027039939747822e+02   
1.001200000000000e+10    -1.837777870909906e+01   -1.027099788551168e+02   
1.001300000000000e+10    -1.840476361667559e+01   -1.026141921294981e+02   
1.001400000000000e+10    -1.844919741225073e+01   -1.024525565115864e+02   
1.001500000000000e+10    -1.844766515041756e+01   -1.024972945899461e+02   
1.001600000000000e+10    -1.848172024752279e+01   -1.022606472293970e+02   
1.001700000000000e+10    -1.849934694992789e+01   -1.020896566117804e+02   
1.001800000000000e+10    -1.849966846158847e+01   -1.019336309435062e+02   
1.001900000000000e+10    -1.850223332270478e+01   -1.018048686328438e+02   
1.002000000000000e+10    -1.851077051746135e+01   -1.014853581183434e+02   
1.002100000000000e+10    -1.849318740836101e+01   -1.012713204101174e+02   
1.002200000000000e+10    -1.845834910506464e+01   -1.011954755307131e+02   
1.002300000000000e+10    -1.844611372429228e+01   -1.010160683043853e+02   
1.002400000000000e+10    -1.841165884748839e+01   -1.010577446565682e+02   
1.002500000000000e+10    -1.837760655334683e+01   -1.008767410243540e+02   
1.002600000000000e+10    -1.833421652396995e+01   -1.007580078773616e+02   
1.002700000000000e+10    -1.829664193524833e+01   -1.006513280059247e+02   
1.002800000000000e+10    -1.823171348822211e+01   -1.007281752313493e+02   
1.002900000000000e+10    -1.819845004211743e+01   -1.006785750386379e+02   
1.003000000000000e+10    -1.815029816818728e+01   -1.008160715408997e+02   
1.003100000000000e+10    -1.809457260612746e+01   -1.010104483242987e+02   
1.003200000000000e+10    -1.806030298529860e+01   -1.010405293368383e+02   
1.003300000000000e+10    -1.803508849341080e+01   -1.012225647990307e+02   
1.003400000000000e+10    -1.796870372778245e+01   -1.014760469609991e+02   
1.003500000000000e+10    -1.793865321503707e+01   -1.016030867099782e+02   
1.003600000000000e+10    -1.792046984326233e+01   -1.019126830090107e+02   
1.003700000000000e+10    -1.787171942960285e+01   -1.021935493813018e+02   
1.003800000000000e+10    -1.786115752082551e+01   -1.024269642767935e+02   
1.003900000000000e+10    -1.781995917894795e+01   -1.028528197231198e+02   
1.004000000000000e+10    -1.782218853931687e+01   -1.029230954948894e+02   
1.004100000000000e+10    -1.778268708389651e+01   -1.032788233298368e+02   
1.004200000000000e+10    -1.780525473681131e+01   -1.034469784534522e+02   
1.004300000000000e+10    -1.779487269216413e+01   -1.038939033769154e+02   
1.004400000000000e+10    -1.778415302986729e+01   -1.042425234978985e+02   
1.004500000000000e+10    -1.781922759701366e+01   -1.045007291123686e+02   
1.004600000000000e+10    -1.782123015774469e+01   -1.046499947705254e+02   
1.004700000000000e+10    -1.783278290038520e+01   -1.050681886625696e+02   
1.004800000000000e+10    -1.785554072344446e+01   -1.052949314986245e+02   
1.004900000000000e+10    -1.790711634816140e+01   -1.054942704122107e+02   
1.005000000000000e+10    -1.794234511833456e+01   -1.056286899745915e+02   
1.005100000000000e+10    -1.795426418836722e+01   -1.056410781585094e+02   
1.005200000000000e+10    -1.797976187744597e+01   -1.057798163985718e+02   
1.005300000000000e+10    -1.801599303667268e+01   -1.059307811119907e+02   
1.005400000000000e+10    -1.806462968261870e+01   -1.060011588729216e+02   
1.005500000000000e+10    -1.809473493357235e+01   -1.060895163601960e+02   
1.005600000000000e+10    -1.813882938235034e+01   -1.058522801181878e+02   
1.005700000000000e+10    -1.818144048708885e+01   -1.058565858249440e+02   
1.005800000000000e+10    -1.820151442357876e+01   -1.055410199546350e+02   
1.005900000000000e+10    -1.822263889845536e+01   -1.055566845014857e+02   
1.006000000000000e+10    -1.824167813392167e+01   -1.054077617340557e+02   
1.006100000000000e+10    -1.827099396968843e+01   -1.051715987739910e+02   
1.006200000000000e+10    -1.828770317528105e+01   -1.048399099364185e+02   
1.006300000000000e+10    -1.827582289583637e+01   -1.044959860012512e+02   
1.006400000000000e+10    -1.829607707017138e+01   -1.043123597125822e+02   
1.006500000000000e+10    -1.828215805405151e+01   -1.041610133120833e+02   
1.006600000000000e+10    -1.828393479368229e+01   -1.038722098384466e+02   
1.006700000000000e+10    -1.828183852147476e+01   -1.035432236921474e+02   
1.006800000000000e+10    -1.826199097616722e+01   -1.036109461787875e+02   
1.006900000000000e+10    -1.822226162643247e+01   -1.031636969221442e+02   
1.007000000000000e+10    -1.818825214587751e+01   -1.030329627858532e+02   
1.007100000000000e+10    -1.815324059656461e+01   -1.028497113686067e+02   
1.007200000000000e+10    -1.812032889340478e+01   -1.028970994264588e+02   
1.007300000000000e+10    -1.808015477631589e+01   -1.026834204999777e+02   
1.007400000000000e+10    -1.803451183739491e+01   -1.026637770595114e+02   
1.007500000000000e+10    -1.800701188174380e+01   -1.026628138020981e+02   
1.007600000000000e+10    -1.794944412633624e+01   -1.027786070960968e+02   
1.007700000000000e+10    -1.791418998686382e+01   -1.027503263969677e+02   
1.007800000000000e+10    -1.786650297017129e+01   -1.028363870778426e+02   
1.007900000000000e+10    -1.782677973239812e+01   -1.028214844071757e+02   
1.008000000000000e+10    -1.779841674396725e+01   -1.030371202955622e+02   
1.008100000000000e+10    -1.776493385291112e+01   -1.035157055976548e+02   
1.008200000000000e+10    -1.773793310714181e+01   -1.037249748598597e+02   
1.008300000000000e+10    -1.773317603326637e+01   -1.038400678520486e+02   
1.008400000000000e+10    -1.770581022268069e+01   -1.042482663831615e+02   
1.008500000000000e+10    -1.768460875356752e+01   -1.044858024517399e+02   
1.008600000000000e+10    -1.768037769107439e+01   -1.047826227751160e+02   
1.008700000000000e+10    -1.768081975835490e+01   -1.050718441759673e+02   
1.008800000000000e+10    -1.767716403430449e+01   -1.055277975608765e+02   
1.008900000000000e+10    -1.769774631875190e+01   -1.056676265437268e+02   
1.009000000000000e+10    -1.769429128784633e+01   -1.060377995484168e+02   
1.009100000000000e+10    -1.771029130496415e+01   -1.064216311229901e+02   
1.009200000000000e+10    -1.774094585291503e+01   -1.066045921549035e+02   
1.009300000000000e+10    -1.777784441754194e+01   -1.068847165962706e+02   
1.009400000000000e+10    -1.780962252666881e+01   -1.072113039262288e+02   
1.009500000000000e+10    -1.783935389126207e+01   -1.074562427709569e+02   
1.009600000000000e+10    -1.787514385682966e+01   -1.074930270795788e+02   
1.009700000000000e+10    -1.791694551305707e+01   -1.077039542468988e+02   
1.009800000000000e+10    -1.797435507393254e+01   -1.077848803477000e+02   
1.009900000000000e+10    -1.801409179583431e+01   -1.078885029553505e+02   
1.010000000000000e+10    -1.804458106381144e+01   -1.079972613757528e+02   
1.010100000000000e+10    -1.808892077924239e+01   -1.079158560282171e+02   
1.010200000000000e+10    -1.814032897828398e+01   -1.079142823459092e+02   
1.010300000000000e+10    -1.817471671973355e+01   -1.078892210448240e+02   
1.010400000000000e+10    -1.819804419204339e+01   -1.077391660876617e+02   
1.010500000000000e+10    -1.823417112359548e+01   -1.076916271100594e+02   
1.010600000000000e+10    -1.825173717767472e+01   -1.072921055013244e+02   
1.010700000000000e+10    -1.827176747881846e+01   -1.074340790790781e+02   
1.010800000000000e+10    -1.830762612717383e+01   -1.070639233231166e+02   
1.010900000000000e+10    -1.829246877384340e+01   -1.069131654700951e+02   
1.011000000000000e+10    -1.829309210607044e+01   -1.065468117601497e+02   
1.011100000000000e+10    -1.826073502813178e+01   -1.064762298091933e+02   
1.011200000000000e+10    -1.827003833001174e+01   -1.062672349588842e+02   
1.011300000000000e+10    -1.822666779923327e+01   -1.061220062163652e+02   
1.011400000000000e+10    -1.822619562816175e+01   -1.058471459920795e+02   
1.011500000000000e+10    -1.818597558162282e+01   -1.057350070992773e+02   
1.011600000000000e+10    -1.817461457440382e+01   -1.055530678654661e+02   
1.011700000000000e+10    -1.815011664639006e+01   -1.055654925735085e+02   
1.011800000000000e+10    -1.809887227442537e+01   -1.054531372191539e+02   
1.011900000000000e+10    -1.805101005941353e+01   -1.054343479054962e+02   
1.012000000000000e+10    -1.798891465522460e+01   -1.054080200619810e+02   
1.012100000000000e+10    -1.796140419089133e+01   -1.055577289952493e+02   
1.012200000000000e+10    -1.790545786569841e+01   -1.054440133968244e+02   
1.012300000000000e+10    -1.786915823305089e+01   -1.055953408958403e+02   
1.012400000000000e+10    -1.784072966225234e+01   -1.057735432084656e+02   
1.012500000000000e+10    -1.779840731754717e+01   -1.058845530318748e+02   
1.012600000000000e+10    -1.777468490784080e+01   -1.060533638444510e+02   
1.012700000000000e+10    -1.773481590155023e+01   -1.064037316256909e+02   
1.012800000000000e+10    -1.770568973776108e+01   -1.065449183000105e+02   
1.012900000000000e+10    -1.767738288100787e+01   -1.068799506953598e+02   
1.013000000000000e+10    -1.767237405615946e+01   -1.070456324545370e+02   
1.013100000000000e+10    -1.765720602105635e+01   -1.073900859376082e+02   
1.013200000000000e+10    -1.765633574963879e+01   -1.077220701975472e+02   
1.013300000000000e+10    -1.765672570393485e+01   -1.080928566993073e+02   
1.013400000000000e+10    -1.764472375113092e+01   -1.082811189090428e+02   
1.013500000000000e+10    -1.765752016864988e+01   -1.086196520449730e+02   
1.013600000000000e+10    -1.767195497819450e+01   -1.088216912660187e+02   
1.013700000000000e+10    -1.768090899245802e+01   -1.090629011718384e+02   
1.013800000000000e+10    -1.770309701336800e+01   -1.093478845465462e+02   
1.013900000000000e+10    -1.773307268750444e+01   -1.095974240484768e+02   
1.014000000000000e+10    -1.776333372250092e+01   -1.096707733745348e+02   
1.014100000000000e+10    -1.780950710129477e+01   -1.099382115355704e+02   
1.014200000000000e+10    -1.783258937273175e+01   -1.099898666727317e+02   
1.014300000000000e+10    -1.788268660279799e+01   -1.101018471171267e+02   
1.014400000000000e+10    -1.791668213605564e+01   -1.101087802454743e+02   
1.014500000000000e+10    -1.795880727492774e+01   -1.102685686208101e+02   
1.014600000000000e+10    -1.798763278510604e+01   -1.101492033465074e+02   
1.014700000000000e+10    -1.802886911216320e+01   -1.100022958344915e+02   
1.014800000000000e+10    -1.808176142190063e+01   -1.100292158865974e+02   
1.014900000000000e+10    -1.809415113301132e+01   -1.098978496864246e+02   
1.015000000000000e+10    -1.812827620684148e+01   -1.097797341938195e+02   
1.015100000000000e+10    -1.815445545349499e+01   -1.095727599123176e+02   
1.015200000000000e+10    -1.816901282363260e+01   -1.093282047991321e+02   
1.015300000000000e+10    -1.818688983751622e+01   -1.092488175371929e+02   
1.015400000000000e+10    -1.818957880824602e+01   -1.089119783595128e+02   
1.015500000000000e+10    -1.822592897349459e+01   -1.088711696642356e+02   
1.015600000000000e+10    -1.821195327960349e+01   -1.085812404228993e+02   
1.015700000000000e+10    -1.820010609358075e+01   -1.082238417596838e+02   
1.015800000000000e+10    -1.818125903172972e+01   -1.081303538388086e+02   
1.015900000000000e+10    -1.816522943955273e+01   -1.078937575155809e+02   
1.016000000000000e+10    -1.813323922623991e+01   -1.077583200685252e+02   
1.016100000000000e+10    -1.811725963625939e+01   -1.076456619396466e+02   
1.016200000000000e+10    -1.808261038227787e+01   -1.073793591313298e+02   
1.016300000000000e+10    -1.804782350254417e+01   -1.072914812668136e+02   
1.016400000000000e+10    -1.803883352114684e+01   -1.073221076625047e+02   
1.016500000000000e+10    -1.797973433242048e+01   -1.072184607651445e+02   
1.016600000000000e+10    -1.795587164611864e+01   -1.073398971272037e+02   
1.016700000000000e+10    -1.790078952272114e+01   -1.073250050334979e+02   
1.016800000000000e+10    -1.786435531723976e+01   -1.073875540451180e+02   
1.016900000000000e+10    -1.783459926466875e+01   -1.074855394566638e+02   
1.017000000000000e+10    -1.780530006815127e+01   -1.077331203960965e+02   
1.017100000000000e+10    -1.776040636671985e+01   -1.080063186009775e+02   
1.017200000000000e+10    -1.773365259716650e+01   -1.080618179430191e+02   
1.017300000000000e+10    -1.770968208674959e+01   -1.084148192051812e+02   
1.017400000000000e+10    -1.768591650852776e+01   -1.086000638706426e+02   
1.017500000000000e+10    -1.765852089036538e+01   -1.089137995316356e+02   
1.017600000000000e+10    -1.763529322331688e+01   -1.090797140700705e+02   
1.017700000000000e+10    -1.765090565315526e+01   -1.094479190697322e+02   
1.017800000000000e+10    -1.763387818770842e+01   -1.097790357219724e+02   
1.017900000000000e+10    -1.763606739787954e+01   -1.099760417097319e+02   
1.018000000000000e+10    -1.763854131455653e+01   -1.103173076762137e+02   
1.018100000000000e+10    -1.764957650735457e+01   -1.105688445289670e+02   
1.018200000000000e+10    -1.767327177959376e+01   -1.108593322039888e+02   
1.018300000000000e+10    -1.767715913312908e+01   -1.111090002326355e+02   
1.018400000000000e+10    -1.771410311976529e+01   -1.114103332942174e+02   
1.018500000000000e+10    -1.772771710449273e+01   -1.116559126810392e+02   
1.018600000000000e+10    -1.775010356907769e+01   -1.120196097377517e+02   
1.018700000000000e+10    -1.778368534107615e+01   -1.120411757829450e+02   
1.018800000000000e+10    -1.782374565392740e+01   -1.122777490406129e+02   
1.018900000000000e+10    -1.786391851154104e+01   -1.123742277274250e+02   
1.019000000000000e+10    -1.789174908048172e+01   -1.123794290993508e+02   
1.019100000000000e+10    -1.791831254338061e+01   -1.124462971834585e+02   
1.019200000000000e+10    -1.795291009005675e+01   -1.123927127085741e+02   
1.019300000000000e+10    -1.799186014994660e+01   -1.125637274296107e+02   
1.019400000000000e+10    -1.801681623909947e+01   -1.123980065306486e+02   
1.019500000000000e+10    -1.804410605055411e+01   -1.123625790777716e+02   
1.019600000000000e+10    -1.804329812714162e+01   -1.122007842934116e+02   
1.019700000000000e+10    -1.807519550436803e+01   -1.120586382229779e+02   
1.019800000000000e+10    -1.808800137475023e+01   -1.119337449988967e+02   
1.019900000000000e+10    -1.809891275942652e+01   -1.116725408831408e+02   
1.020000000000000e+10    -1.810195889696266e+01   -1.116316373659804e+02   
1.020100000000000e+10    -1.810404564485272e+01   -1.114055606133954e+02   
1.020200000000000e+10    -1.808923401533746e+01   -1.111415814523030e+02   
1.020300000000000e+10    -1.809598961936119e+01   -1.109855551398545e+02   
1.020400000000000e+10    -1.806529976849037e+01   -1.108047736802613e+02   
1.020500000000000e+10    -1.805785845809464e+01   -1.107128776037062e+02   
1.020600000000000e+10    -1.801655572035510e+01   -1.104438859951434e+02   
1.020700000000000e+10    -1.800856828822662e+01   -1.103742037593312e+02   
1.020800000000000e+10    -1.798753810475263e+01   -1.103167111621857e+02   
1.020900000000000e+10    -1.793967778633308e+01   -1.101799131852077e+02   
1.021000000000000e+10    -1.790446804899139e+01   -1.101353176352804e+02   
1.021100000000000e+10    -1.787434107405651e+01   -1.101215918395850e+02   
1.021200000000000e+10    -1.784907841172858e+01   -1.100177087844734e+02   
1.021300000000000e+10    -1.778977990920698e+01   -1.101081367335446e+02   
1.021400000000000e+10    -1.777486525310719e+01   -1.100946838960037e+02   
1.021500000000000e+10    -1.771448918495759e+01   -1.102981004503470e+02   
1.021600000000000e+10    -1.768664849652859e+01   -1.104791754259147e+02   
1.021700000000000e+10    -1.765770478313210e+01   -1.104623540393838e+02   
1.021800000000000e+10    -1.763955645556730e+01   -1.106614618549678e+02   
1.021900000000000e+10    -1.760217637126944e+01   -1.107191500669213e+02   
1.022000000000000e+10    -1.759455633811793e+01   -1.109799805579022e+02   
1.022100000000000e+10    -1.754991099155831e+01   -1.112025098021610e+02   
1.022200000000000e+10    -1.755054266845078e+01   -1.114059505729086e+02   
1.022300000000000e+10    -1.754134369837016e+01   -1.116676013081711e+02   
1.022400000000000e+10    -1.753927033150375e+01   -1.119569392467696e+02   
1.022500000000000e+10    -1.753537281035133e+01   -1.121800692493639e+02   
1.022600000000000e+10    -1.755077553849397e+01   -1.124451859376602e+02   
1.022700000000000e+10    -1.755074296777832e+01   -1.127041986730651e+02   
1.022800000000000e+10    -1.758631033303808e+01   -1.128502447444838e+02   
1.022900000000000e+10    -1.757378179172813e+01   -1.131070609026470e+02   
1.023000000000000e+10    -1.761339261907139e+01   -1.133592589366853e+02   
1.023100000000000e+10    -1.761852487926783e+01   -1.134838394418112e+02   
1.023200000000000e+10    -1.767660675637963e+01   -1.136976340968260e+02   
1.023300000000000e+10    -1.767373134247311e+01   -1.138735685030867e+02   
1.023400000000000e+10    -1.773293520119386e+01   -1.140809012620271e+02   
1.023500000000000e+10    -1.774489674889700e+01   -1.141195006053891e+02   
1.023600000000000e+10    -1.780423844696531e+01   -1.141902996911620e+02   
1.023700000000000e+10    -1.783588045081452e+01   -1.142259308803570e+02   
1.023800000000000e+10    -1.787713755731674e+01   -1.143552071049689e+02   
1.023900000000000e+10    -1.790940285505063e+01   -1.142400092869729e+02   
1.024000000000000e+10    -1.795848162357976e+01   -1.142068332110800e+02   
1.024100000000000e+10    -1.797503251080942e+01   -1.142599211428476e+02   
1.024200000000000e+10    -1.799744417123071e+01   -1.141122845645484e+02   
1.024300000000000e+10    -1.802562488325090e+01   -1.138876341974227e+02   
1.024400000000000e+10    -1.804189751292891e+01   -1.138820015218523e+02   
1.024500000000000e+10    -1.806746895016525e+01   -1.136884960899808e+02   
1.024600000000000e+10    -1.806450865704033e+01   -1.136561545710828e+02   
1.024700000000000e+10    -1.808616295153353e+01   -1.134499170058703e+02   
1.024800000000000e+10    -1.809866819185975e+01   -1.134921598522755e+02   
1.024900000000000e+10    -1.807349934489717e+01   -1.132915401242167e+02   
1.025000000000000e+10    -1.807158118943051e+01   -1.130572014381619e+02   
1.025100000000000e+10    -1.808452236319044e+01   -1.128967733772096e+02   
1.025200000000000e+10    -1.806287052384793e+01   -1.129314395821208e+02   
1.025300000000000e+10    -1.802620022777390e+01   -1.127678388285589e+02   
1.025400000000000e+10    -1.800122675271546e+01   -1.126330935365843e+02   
1.025500000000000e+10    -1.799361294813932e+01   -1.126130387860951e+02   
1.025600000000000e+10    -1.796351152671004e+01   -1.126410525869566e+02   
