[Version] 2.0
! Rohde & Schwarz Vector Network Analyzer
! Rohde-Schwarz,ZNL20-2Port,1323001220200009,1.71.1.10-23.02.1.238
! 
! Port Assignments:
! Nominal Port -> Actual Test Port
! --------------------------------
!   1 -> 1

! Created: GMT 2024-09-04 10:38:25

# Hz S DB R 50

[Number of Ports] 1
[Number of Frequencies] 2001

[Network Data] 
! freq[Hz]               S11[mag dB]              S11[ang]                 
1.000000000000000e+10    -1.797863879823317e+01   -1.011682057375854e+02   
1.000100000000000e+10    -1.799796311326479e+01   -1.015235184846720e+02   
1.000200000000000e+10    -1.803309680456250e+01   -1.016270707355951e+02   
1.000300000000000e+10    -1.805677119409632e+01   -1.018044815042328e+02   
1.000400000000000e+10    -1.809623641057489e+01   -1.020974352155348e+02   
1.000500000000000e+10    -1.810970045558958e+01   -1.023161703135883e+02   
1.000600000000000e+10    -1.817131618065093e+01   -1.024409718633268e+02   
1.000700000000000e+10    -1.817300409979661e+01   -1.026132925462940e+02   
1.000800000000000e+10    -1.824070071301287e+01   -1.027835340100770e+02   
1.000900000000000e+10    -1.825489924883761e+01   -1.025596651954431e+02   
1.001000000000000e+10    -1.829812486195308e+01   -1.028277123359985e+02   
1.001100000000000e+10    -1.833672920964193e+01   -1.027114609870614e+02   
1.001200000000000e+10    -1.836714438196004e+01   -1.027080992539928e+02   
1.001300000000000e+10    -1.839435138243293e+01   -1.026296626440984e+02   
1.001400000000000e+10    -1.844035087675697e+01   -1.024760690803681e+02   
1.001500000000000e+10    -1.843841735948010e+01   -1.025212592363896e+02   
1.001600000000000e+10    -1.847346077831860e+01   -1.022905902339641e+02   
1.001700000000000e+10    -1.849196433203226e+01   -1.021235223688667e+02   
1.001800000000000e+10    -1.849269686186463e+01   -1.019642788009670e+02   
1.001900000000000e+10    -1.849448598884511e+01   -1.018423855835750e+02   
1.002000000000000e+10    -1.850508933380652e+01   -1.015236655058607e+02   
1.002100000000000e+10    -1.848983087388886e+01   -1.013208974409090e+02   
1.002200000000000e+10    -1.845635559645501e+01   -1.012314389641080e+02   
1.002300000000000e+10    -1.844485604919999e+01   -1.010505671833052e+02   
1.002400000000000e+10    -1.841145642227276e+01   -1.010861604231083e+02   
1.002500000000000e+10    -1.837802555236962e+01   -1.009080163821066e+02   
1.002600000000000e+10    -1.833584559179912e+01   -1.007746367963300e+02   
1.002700000000000e+10    -1.829773688252047e+01   -1.006662034953274e+02   
1.002800000000000e+10    -1.823328983618418e+01   -1.007356598859148e+02   
1.002900000000000e+10    -1.820116213245116e+01   -1.006821902886649e+02   
1.003000000000000e+10    -1.815212496474601e+01   -1.008032071156190e+02   
1.003100000000000e+10    -1.809552535545934e+01   -1.009928102099533e+02   
1.003200000000000e+10    -1.806187951776627e+01   -1.010189242626800e+02   
1.003300000000000e+10    -1.803618983947557e+01   -1.012010062431619e+02   
1.003400000000000e+10    -1.796935818439078e+01   -1.014406549265821e+02   
1.003500000000000e+10    -1.793792047435652e+01   -1.015684955033928e+02   
1.003600000000000e+10    -1.791920078209823e+01   -1.018711904948427e+02   
1.003700000000000e+10    -1.786865210252444e+01   -1.021554150243609e+02   
1.003800000000000e+10    -1.785786173572956e+01   -1.023800871748784e+02   
1.003900000000000e+10    -1.781677707014817e+01   -1.028107570437853e+02   
1.004000000000000e+10    -1.781922430971872e+01   -1.028739981372190e+02   
1.004100000000000e+10    -1.777697056834232e+01   -1.032260719369230e+02   
1.004200000000000e+10    -1.779877929173772e+01   -1.033957987090866e+02   
1.004300000000000e+10    -1.778818718915685e+01   -1.038378307102763e+02   
1.004400000000000e+10    -1.777545624566469e+01   -1.041790697888987e+02   
1.004500000000000e+10    -1.780866494156434e+01   -1.044428238241922e+02   
1.004600000000000e+10    -1.781270734071501e+01   -1.046035662327987e+02   
1.004700000000000e+10    -1.782086519411534e+01   -1.050144131014327e+02   
1.004800000000000e+10    -1.784309822437907e+01   -1.052397947902793e+02   
1.004900000000000e+10    -1.789326962810524e+01   -1.054450947290815e+02   
1.005000000000000e+10    -1.792791461341712e+01   -1.055855401234678e+02   
1.005100000000000e+10    -1.793946896065029e+01   -1.056000076604338e+02   
1.005200000000000e+10    -1.796497220786812e+01   -1.057506896604568e+02   
1.005300000000000e+10    -1.800063182183933e+01   -1.059071112599942e+02   
1.005400000000000e+10    -1.804695604220137e+01   -1.059816275356352e+02   
1.005500000000000e+10    -1.807717752155791e+01   -1.060705584974692e+02   
1.005600000000000e+10    -1.812309086747804e+01   -1.058424596489455e+02   
1.005700000000000e+10    -1.816576487659198e+01   -1.058565676662200e+02   
1.005800000000000e+10    -1.818500822714321e+01   -1.055568132125823e+02   
1.005900000000000e+10    -1.820737138518257e+01   -1.055665110583319e+02   
1.006000000000000e+10    -1.822647294040905e+01   -1.054250350468020e+02   
1.006100000000000e+10    -1.825706305311240e+01   -1.052002875968591e+02   
1.006200000000000e+10    -1.827697092351353e+01   -1.048654146926711e+02   
1.006300000000000e+10    -1.826470719036304e+01   -1.045236756187114e+02   
1.006400000000000e+10    -1.828538479531092e+01   -1.043436775257918e+02   
1.006500000000000e+10    -1.827353567491677e+01   -1.041938032631265e+02   
1.006600000000000e+10    -1.827552333001862e+01   -1.039077350469272e+02   
1.006700000000000e+10    -1.827504310261537e+01   -1.035661818020941e+02   
1.006800000000000e+10    -1.825689528634245e+01   -1.036225721169253e+02   
1.006900000000000e+10    -1.821845406365996e+01   -1.031804109726371e+02   
1.007000000000000e+10    -1.818493099727048e+01   -1.030455480478958e+02   
1.007100000000000e+10    -1.814946225353414e+01   -1.028484718192088e+02   
1.007200000000000e+10    -1.811767691252318e+01   -1.028874561326181e+02   
1.007300000000000e+10    -1.807833463997003e+01   -1.026623459744580e+02   
1.007400000000000e+10    -1.803183116405135e+01   -1.026454992657841e+02   
1.007500000000000e+10    -1.800458498918379e+01   -1.026369817403045e+02   
1.007600000000000e+10    -1.794837461128465e+01   -1.027455510153851e+02   
1.007700000000000e+10    -1.791252100052426e+01   -1.027045118890512e+02   
1.007800000000000e+10    -1.786407093475890e+01   -1.027856301262133e+02   
1.007900000000000e+10    -1.782404385139887e+01   -1.027582857160699e+02   
1.008000000000000e+10    -1.779387703094944e+01   -1.029845625199921e+02   
1.008100000000000e+10    -1.776194037713441e+01   -1.034490368479206e+02   
1.008200000000000e+10    -1.773517132333515e+01   -1.036679722103126e+02   
1.008300000000000e+10    -1.772928741152269e+01   -1.037637247174169e+02   
1.008400000000000e+10    -1.770045482340810e+01   -1.041711885866382e+02   
1.008500000000000e+10    -1.768039488465971e+01   -1.044036391949439e+02   
1.008600000000000e+10    -1.767393175368341e+01   -1.046881259315097e+02   
1.008700000000000e+10    -1.767512237216064e+01   -1.049870544492199e+02   
1.008800000000000e+10    -1.767030703290682e+01   -1.054370013171931e+02   
1.008900000000000e+10    -1.768850604168413e+01   -1.055768021555769e+02   
1.009000000000000e+10    -1.768547730155253e+01   -1.059478730403498e+02   
1.009100000000000e+10    -1.770038092911639e+01   -1.063375484349043e+02   
1.009200000000000e+10    -1.772915336405827e+01   -1.065182071386489e+02   
1.009300000000000e+10    -1.776451469273511e+01   -1.067963331803334e+02   
1.009400000000000e+10    -1.779658069461543e+01   -1.071316547177216e+02   
1.009500000000000e+10    -1.782493848174989e+01   -1.073848063100995e+02   
1.009600000000000e+10    -1.785893947129142e+01   -1.074206450036690e+02   
1.009700000000000e+10    -1.790264444664807e+01   -1.076438439345671e+02   
1.009800000000000e+10    -1.796014754650293e+01   -1.077390918661687e+02   
1.009900000000000e+10    -1.799930950702739e+01   -1.078405845117272e+02   
1.010000000000000e+10    -1.802999781114593e+01   -1.079642823843815e+02   
1.010100000000000e+10    -1.807413232926391e+01   -1.078962792357693e+02   
1.010200000000000e+10    -1.812629016056634e+01   -1.078845481758541e+02   
1.010300000000000e+10    -1.816116163873127e+01   -1.078725757086245e+02   
1.010400000000000e+10    -1.818674244751702e+01   -1.077300461066420e+02   
1.010500000000000e+10    -1.822251329405933e+01   -1.076892125154440e+02   
1.010600000000000e+10    -1.824195893253994e+01   -1.072905645085252e+02   
1.010700000000000e+10    -1.826255203079237e+01   -1.074337080529342e+02   
1.010800000000000e+10    -1.829887325506698e+01   -1.070628745307800e+02   
1.010900000000000e+10    -1.828504258321853e+01   -1.069139640305683e+02   
1.011000000000000e+10    -1.828658445791973e+01   -1.065545823502297e+02   
1.011100000000000e+10    -1.825605205326377e+01   -1.064806524237973e+02   
1.011200000000000e+10    -1.826584798678664e+01   -1.062683618044033e+02   
1.011300000000000e+10    -1.822232609367748e+01   -1.061167147487195e+02   
1.011400000000000e+10    -1.822305467083423e+01   -1.058429367543035e+02   
1.011500000000000e+10    -1.818233602541140e+01   -1.057336024762932e+02   
1.011600000000000e+10    -1.817254512489824e+01   -1.055431549857682e+02   
1.011700000000000e+10    -1.814756414923700e+01   -1.055518860265927e+02   
1.011800000000000e+10    -1.809826179924467e+01   -1.054470661139547e+02   
1.011900000000000e+10    -1.805090209535841e+01   -1.054170695678352e+02   
1.012000000000000e+10    -1.798951601820288e+01   -1.053921365198109e+02   
1.012100000000000e+10    -1.796163967003211e+01   -1.055380346474278e+02   
1.012200000000000e+10    -1.790803137165119e+01   -1.054160505153679e+02   
1.012300000000000e+10    -1.787011113301772e+01   -1.055604833537403e+02   
1.012400000000000e+10    -1.784151007922807e+01   -1.057294443445612e+02   
1.012500000000000e+10    -1.779955148639746e+01   -1.058436066143925e+02   
1.012600000000000e+10    -1.777473558172077e+01   -1.060040499889467e+02   
1.012700000000000e+10    -1.773375618211531e+01   -1.063540132599524e+02   
1.012800000000000e+10    -1.770494646262891e+01   -1.064801312740407e+02   
1.012900000000000e+10    -1.767585666841074e+01   -1.068075372635055e+02   
1.013000000000000e+10    -1.766953078322662e+01   -1.069675098092432e+02   
1.013100000000000e+10    -1.765325692599082e+01   -1.073156829912728e+02   
1.013200000000000e+10    -1.765152639009088e+01   -1.076496919558535e+02   
1.013300000000000e+10    -1.765055177226954e+01   -1.080138672946111e+02   
1.013400000000000e+10    -1.763787228979312e+01   -1.082061078975819e+02   
1.013500000000000e+10    -1.764962635041336e+01   -1.085486338898978e+02   
1.013600000000000e+10    -1.766224404651998e+01   -1.087459319079572e+02   
1.013700000000000e+10    -1.767195341878898e+01   -1.089958487044107e+02   
1.013800000000000e+10    -1.769235491627810e+01   -1.092796407448473e+02   
1.013900000000000e+10    -1.772109266881741e+01   -1.095346320998090e+02   
1.014000000000000e+10    -1.775111252520788e+01   -1.096058534202345e+02   
1.014100000000000e+10    -1.779696112070111e+01   -1.098818244735225e+02   
1.014200000000000e+10    -1.781946134055704e+01   -1.099396521520921e+02   
1.014300000000000e+10    -1.786950062932712e+01   -1.100535644786656e+02   
1.014400000000000e+10    -1.790293837631036e+01   -1.100674126852941e+02   
1.014500000000000e+10    -1.794454112696483e+01   -1.102224365367537e+02   
1.014600000000000e+10    -1.797342808569299e+01   -1.101212974694585e+02   
1.014700000000000e+10    -1.801331962906907e+01   -1.099766685416568e+02   
1.014800000000000e+10    -1.806576318455057e+01   -1.100125529972895e+02   
1.014900000000000e+10    -1.807874726045184e+01   -1.098888090887536e+02   
1.015000000000000e+10    -1.811350493354189e+01   -1.097750586206338e+02   
1.015100000000000e+10    -1.813942795805603e+01   -1.095729297761527e+02   
1.015200000000000e+10    -1.815478294398115e+01   -1.093249642634380e+02   
1.015300000000000e+10    -1.817493197553978e+01   -1.092582162505294e+02   
1.015400000000000e+10    -1.817690692773467e+01   -1.089244192234680e+02   
1.015500000000000e+10    -1.821412209121454e+01   -1.088811016580270e+02   
1.015600000000000e+10    -1.820151129413755e+01   -1.085923493841662e+02   
1.015700000000000e+10    -1.819005116406090e+01   -1.082379374327904e+02   
1.015800000000000e+10    -1.817348031456089e+01   -1.081467295043427e+02   
1.015900000000000e+10    -1.815683360540822e+01   -1.079077924809858e+02   
1.016000000000000e+10    -1.812630316718445e+01   -1.077718756078595e+02   
1.016100000000000e+10    -1.811194259701987e+01   -1.076514654075275e+02   
1.016200000000000e+10    -1.807813716100510e+01   -1.073821715902572e+02   
1.016300000000000e+10    -1.804433811356007e+01   -1.072958743938242e+02   
1.016400000000000e+10    -1.803452497313732e+01   -1.073144708386579e+02   
1.016500000000000e+10    -1.797662930547484e+01   -1.071937034434174e+02   
1.016600000000000e+10    -1.795402106565245e+01   -1.073240789238843e+02   
1.016700000000000e+10    -1.789873483297643e+01   -1.072948890953706e+02   
1.016800000000000e+10    -1.786230639934245e+01   -1.073503504918687e+02   
1.016900000000000e+10    -1.783412901557760e+01   -1.074379870878713e+02   
1.017000000000000e+10    -1.780483920728664e+01   -1.076724196045570e+02   
1.017100000000000e+10    -1.775655323393980e+01   -1.079368147658829e+02   
1.017200000000000e+10    -1.773159039508790e+01   -1.079940817743461e+02   
1.017300000000000e+10    -1.770526952666349e+01   -1.083344487590038e+02   
1.017400000000000e+10    -1.768235804846987e+01   -1.085132634527952e+02   
1.017500000000000e+10    -1.765317840766303e+01   -1.088238547628103e+02   
1.017600000000000e+10    -1.763062958857978e+01   -1.089895150641821e+02   
1.017700000000000e+10    -1.764460589190744e+01   -1.093594684909278e+02   
1.017800000000000e+10    -1.762755878963749e+01   -1.096776042739210e+02   
1.017900000000000e+10    -1.762874398116838e+01   -1.098715360158451e+02   
1.018000000000000e+10    -1.762995154563842e+01   -1.102184860620776e+02   
1.018100000000000e+10    -1.764151290721613e+01   -1.104689363853874e+02   
1.018200000000000e+10    -1.766326901335022e+01   -1.107559499607528e+02   
1.018300000000000e+10    -1.766593615114227e+01   -1.110062141765598e+02   
1.018400000000000e+10    -1.770127099817032e+01   -1.113070481821896e+02   
1.018500000000000e+10    -1.771766168848333e+01   -1.115627157482952e+02   
1.018600000000000e+10    -1.773793450549692e+01   -1.119243945882496e+02   
1.018700000000000e+10    -1.776966205045709e+01   -1.119435061114669e+02   
1.018800000000000e+10    -1.780793597154995e+01   -1.121966711927582e+02   
1.018900000000000e+10    -1.784931226287473e+01   -1.122922715085600e+02   
1.019000000000000e+10    -1.787569546072745e+01   -1.123110202620956e+02   
1.019100000000000e+10    -1.790334449820303e+01   -1.123755492201409e+02   
1.019200000000000e+10    -1.793769982269822e+01   -1.123312125450637e+02   
1.019300000000000e+10    -1.797678373094357e+01   -1.125047755917285e+02   
1.019400000000000e+10    -1.800157809115910e+01   -1.123581041129292e+02   
1.019500000000000e+10    -1.802879280325248e+01   -1.123306004643280e+02   
1.019600000000000e+10    -1.802806579704863e+01   -1.121608282654528e+02   
1.019700000000000e+10    -1.806148819002211e+01   -1.120372248741822e+02   
1.019800000000000e+10    -1.807331358935726e+01   -1.119237762017323e+02   
1.019900000000000e+10    -1.808795460453463e+01   -1.116657557342963e+02   
1.020000000000000e+10    -1.808919261917562e+01   -1.116250440757009e+02   
1.020100000000000e+10    -1.809374858501871e+01   -1.113976606874345e+02   
1.020200000000000e+10    -1.808020897600970e+01   -1.111363736648256e+02   
1.020300000000000e+10    -1.808869997397378e+01   -1.109795213392385e+02   
1.020400000000000e+10    -1.805958098142341e+01   -1.107993645477406e+02   
1.020500000000000e+10    -1.805371821780764e+01   -1.107057244834561e+02   
1.020600000000000e+10    -1.801439086756529e+01   -1.104248241494002e+02   
1.020700000000000e+10    -1.800767907572589e+01   -1.103512433771373e+02   
1.020800000000000e+10    -1.798548745907853e+01   -1.102898411078276e+02   
1.020900000000000e+10    -1.793874240894710e+01   -1.101513994762689e+02   
1.021000000000000e+10    -1.790444335831805e+01   -1.100917399702377e+02   
1.021100000000000e+10    -1.787436290042532e+01   -1.100743561620856e+02   
1.021200000000000e+10    -1.784847032426714e+01   -1.099687402702438e+02   
1.021300000000000e+10    -1.779158232668307e+01   -1.100569253706817e+02   
1.021400000000000e+10    -1.777619467615693e+01   -1.100348610613450e+02   
1.021500000000000e+10    -1.771525923127833e+01   -1.102185699774740e+02   
1.021600000000000e+10    -1.768803168222842e+01   -1.104084597620825e+02   
1.021700000000000e+10    -1.765730757797392e+01   -1.103843975607612e+02   
1.021800000000000e+10    -1.763821938925519e+01   -1.105770782455358e+02   
1.021900000000000e+10    -1.760135981881765e+01   -1.106375883508098e+02   
1.022000000000000e+10    -1.759306549061035e+01   -1.108909267746213e+02   
1.022100000000000e+10    -1.754842196112529e+01   -1.111024428395612e+02   
1.022200000000000e+10    -1.754787705681077e+01   -1.113090161188478e+02   
1.022300000000000e+10    -1.753763850960907e+01   -1.115770049642086e+02   
1.022400000000000e+10    -1.753474799866222e+01   -1.118623853723891e+02   
1.022500000000000e+10    -1.752958951402177e+01   -1.120759393853163e+02   
1.022600000000000e+10    -1.754404668665820e+01   -1.123462953968059e+02   
1.022700000000000e+10    -1.754468719082407e+01   -1.126052123333861e+02   
1.022800000000000e+10    -1.757822109191105e+01   -1.127534987193690e+02   
1.022900000000000e+10    -1.756574079896458e+01   -1.130180785538264e+02   
1.023000000000000e+10    -1.760409996973533e+01   -1.132694413366369e+02   
1.023100000000000e+10    -1.760835577433206e+01   -1.133959929831031e+02   
1.023200000000000e+10    -1.766516695883247e+01   -1.136141545065213e+02   
1.023300000000000e+10    -1.766180023923400e+01   -1.138016639371243e+02   
1.023400000000000e+10    -1.772132195149713e+01   -1.140080045031525e+02   
1.023500000000000e+10    -1.773135570313802e+01   -1.140645234901159e+02   
1.023600000000000e+10    -1.779015939094193e+01   -1.141378682460867e+02   
1.023700000000000e+10    -1.782369350045791e+01   -1.141752911025801e+02   
1.023800000000000e+10    -1.786530590364871e+01   -1.143078877680209e+02   
1.023900000000000e+10    -1.789780351775828e+01   -1.142030786093570e+02   
1.024000000000000e+10    -1.794456534855629e+01   -1.141779535762930e+02   
1.024100000000000e+10    -1.796209426212279e+01   -1.142395145812967e+02   
1.024200000000000e+10    -1.798636679033773e+01   -1.140998260012422e+02   
1.024300000000000e+10    -1.801572189437176e+01   -1.138736249570184e+02   
1.024400000000000e+10    -1.803109278969540e+01   -1.138668387363663e+02   
1.024500000000000e+10    -1.805632791928443e+01   -1.136696425733485e+02   
1.024600000000000e+10    -1.805672518090416e+01   -1.136494633795894e+02   
1.024700000000000e+10    -1.807808897930618e+01   -1.134500642372650e+02   
1.024800000000000e+10    -1.809270616706285e+01   -1.134972001610129e+02   
1.024900000000000e+10    -1.806801023261919e+01   -1.132888138195293e+02   
1.025000000000000e+10    -1.806766365931014e+01   -1.130639896873388e+02   
1.025100000000000e+10    -1.807949936879999e+01   -1.129056961129579e+02   
1.025200000000000e+10    -1.805929383024368e+01   -1.129212201153505e+02   
1.025300000000000e+10    -1.802472706912282e+01   -1.127660293064255e+02   
1.025400000000000e+10    -1.799876781604959e+01   -1.126236001397919e+02   
1.025500000000000e+10    -1.799191853667438e+01   -1.125961006204193e+02   
1.025600000000000e+10    -1.796311498401944e+01   -1.126224658596658e+02   
