[Version] 2.0
! Rohde & Schwarz Vector Network Analyzer
! Rohde-Schwarz,ZNL20-2Port,1323001220200009,1.71.1.10-23.02.1.238
! 
! Port Assignments:
! Nominal Port -> Actual Test Port
! --------------------------------
!   1 -> 1

! Created: GMT 2024-09-04 10:39:17

# Hz S DB R 50

[Number of Ports] 1
[Number of Frequencies] 2001

[Network Data] 
! freq[Hz]               S11[mag dB]              S11[ang]                 
1.000000000000000e+10    -1.796373357846794e+01   -1.010903899508734e+02   
1.000100000000000e+10    -1.798303131501257e+01   -1.014528285266204e+02   
1.000200000000000e+10    -1.801764679763075e+01   -1.015629895641128e+02   
1.000300000000000e+10    -1.804024421338275e+01   -1.017421560610384e+02   
1.000400000000000e+10    -1.807715669004150e+01   -1.020407996217436e+02   
1.000500000000000e+10    -1.809234629619184e+01   -1.022591530361335e+02   
1.000600000000000e+10    -1.815311348838667e+01   -1.023982986193576e+02   
1.000700000000000e+10    -1.815507047031395e+01   -1.025724272540503e+02   
1.000800000000000e+10    -1.822225715163404e+01   -1.027472133796793e+02   
1.000900000000000e+10    -1.823520100920819e+01   -1.025304211790062e+02   
1.001000000000000e+10    -1.827834992468066e+01   -1.027922901984260e+02   
1.001100000000000e+10    -1.831723379288304e+01   -1.026822062574095e+02   
1.001200000000000e+10    -1.834888797577127e+01   -1.026922065153570e+02   
1.001300000000000e+10    -1.837626860709869e+01   -1.026064690368022e+02   
1.001400000000000e+10    -1.842226802045299e+01   -1.024583004821923e+02   
1.001500000000000e+10    -1.842153257520387e+01   -1.025189705826994e+02   
1.001600000000000e+10    -1.845671277655952e+01   -1.022793794121945e+02   
1.001700000000000e+10    -1.847526484764527e+01   -1.021227839004320e+02   
1.001800000000000e+10    -1.847706233019019e+01   -1.019654535846259e+02   
1.001900000000000e+10    -1.848067561479029e+01   -1.018358753840531e+02   
1.002000000000000e+10    -1.849098973067350e+01   -1.015254940679580e+02   
1.002100000000000e+10    -1.847703624847960e+01   -1.013069825017646e+02   
1.002200000000000e+10    -1.844362245924797e+01   -1.012325863653792e+02   
1.002300000000000e+10    -1.843294978625241e+01   -1.010517606120567e+02   
1.002400000000000e+10    -1.840044203663300e+01   -1.010804388291904e+02   
1.002500000000000e+10    -1.836773597379148e+01   -1.008856287257156e+02   
1.002600000000000e+10    -1.832450714114396e+01   -1.007657639834890e+02   
1.002700000000000e+10    -1.828893776705110e+01   -1.006484818269107e+02   
1.002800000000000e+10    -1.822297293161889e+01   -1.007086459738680e+02   
1.002900000000000e+10    -1.819129484386583e+01   -1.006520574564281e+02   
1.003000000000000e+10    -1.814321471145961e+01   -1.007727606804079e+02   
1.003100000000000e+10    -1.808692810091264e+01   -1.009590900223502e+02   
1.003200000000000e+10    -1.805163638271801e+01   -1.009764570708256e+02   
1.003300000000000e+10    -1.802479003829733e+01   -1.011432587704045e+02   
1.003400000000000e+10    -1.795859058298919e+01   -1.013970874806709e+02   
1.003500000000000e+10    -1.792749058374555e+01   -1.015066546823478e+02   
1.003600000000000e+10    -1.790738153392410e+01   -1.018043443276518e+02   
1.003700000000000e+10    -1.785733325397915e+01   -1.020777964633394e+02   
1.003800000000000e+10    -1.784505376449082e+01   -1.022969055308958e+02   
1.003900000000000e+10    -1.780390763186173e+01   -1.027319122926540e+02   
1.004000000000000e+10    -1.780356617488429e+01   -1.027906991822619e+02   
1.004100000000000e+10    -1.776367968759997e+01   -1.031607865621045e+02   
1.004200000000000e+10    -1.778283171721837e+01   -1.033143628980156e+02   
1.004300000000000e+10    -1.777128546760010e+01   -1.037513073492904e+02   
1.004400000000000e+10    -1.775924152061005e+01   -1.040919457780300e+02   
1.004500000000000e+10    -1.778894422239683e+01   -1.043665117214364e+02   
1.004600000000000e+10    -1.779135299237520e+01   -1.045113518062913e+02   
1.004700000000000e+10    -1.780062457024241e+01   -1.049284640419677e+02   
1.004800000000000e+10    -1.782350432240206e+01   -1.051618066394790e+02   
1.004900000000000e+10    -1.787255294448561e+01   -1.053746113363946e+02   
1.005000000000000e+10    -1.790594389299750e+01   -1.055109510151138e+02   
1.005100000000000e+10    -1.791769368923863e+01   -1.055322831535845e+02   
1.005200000000000e+10    -1.794182867818053e+01   -1.056785767530515e+02   
1.005300000000000e+10    -1.797713620905024e+01   -1.058436140976224e+02   
1.005400000000000e+10    -1.802545287108349e+01   -1.059186141083811e+02   
1.005500000000000e+10    -1.805487272280948e+01   -1.060196264523911e+02   
1.005600000000000e+10    -1.809953127439632e+01   -1.057907204086601e+02   
1.005700000000000e+10    -1.814379391911407e+01   -1.058064482893215e+02   
1.005800000000000e+10    -1.816324090410343e+01   -1.055159670100281e+02   
1.005900000000000e+10    -1.818571945849068e+01   -1.055217003892170e+02   
1.006000000000000e+10    -1.820639512973658e+01   -1.053865514522144e+02   
1.006100000000000e+10    -1.823560071686315e+01   -1.051622838687653e+02   
1.006200000000000e+10    -1.825504799333190e+01   -1.048263467966369e+02   
1.006300000000000e+10    -1.824492749667690e+01   -1.045006263307142e+02   
1.006400000000000e+10    -1.826703031679189e+01   -1.043079675789568e+02   
1.006500000000000e+10    -1.825469546780828e+01   -1.041553497278970e+02   
1.006600000000000e+10    -1.825616020398003e+01   -1.038685549771059e+02   
1.006700000000000e+10    -1.825847139880658e+01   -1.035335605219321e+02   
1.006800000000000e+10    -1.824029788869756e+01   -1.035754451230396e+02   
1.006900000000000e+10    -1.820358669822068e+01   -1.031478238824582e+02   
1.007000000000000e+10    -1.816979038621879e+01   -1.030057121092691e+02   
1.007100000000000e+10    -1.813512030248160e+01   -1.028025282192089e+02   
1.007200000000000e+10    -1.810455355023518e+01   -1.028365348460578e+02   
1.007300000000000e+10    -1.806525434683621e+01   -1.026126584755742e+02   
1.007400000000000e+10    -1.801956892819695e+01   -1.025826176053997e+02   
1.007500000000000e+10    -1.799254005358681e+01   -1.025640826379922e+02   
1.007600000000000e+10    -1.793550685547912e+01   -1.026791362540484e+02   
1.007700000000000e+10    -1.790045343247168e+01   -1.026343454024752e+02   
1.007800000000000e+10    -1.785248655578065e+01   -1.027029500163412e+02   
1.007900000000000e+10    -1.781216691948227e+01   -1.026830351871459e+02   
1.008000000000000e+10    -1.778177288277215e+01   -1.028860713292335e+02   
1.008100000000000e+10    -1.774987388718354e+01   -1.033569997638760e+02   
1.008200000000000e+10    -1.772299086747941e+01   -1.035648879414804e+02   
1.008300000000000e+10    -1.771518039336439e+01   -1.036660439138598e+02   
1.008400000000000e+10    -1.768611756241440e+01   -1.040657168120792e+02   
1.008500000000000e+10    -1.766533793188118e+01   -1.042904786903960e+02   
1.008600000000000e+10    -1.765958202217156e+01   -1.045843710290119e+02   
1.008700000000000e+10    -1.765772994469203e+01   -1.048755090845261e+02   
1.008800000000000e+10    -1.765422958283621e+01   -1.053258048036706e+02   
1.008900000000000e+10    -1.767088471372666e+01   -1.054573922795126e+02   
1.009000000000000e+10    -1.766656398681168e+01   -1.058371652939945e+02   
1.009100000000000e+10    -1.768276489185181e+01   -1.062226446198873e+02   
1.009200000000000e+10    -1.771018443188405e+01   -1.063969652046303e+02   
1.009300000000000e+10    -1.774620956784384e+01   -1.066938445022341e+02   
1.009400000000000e+10    -1.777855440013889e+01   -1.070293970866872e+02   
1.009500000000000e+10    -1.780637762790730e+01   -1.072800122382898e+02   
1.009600000000000e+10    -1.783907743983467e+01   -1.073212827478400e+02   
1.009700000000000e+10    -1.788315262816648e+01   -1.075544340723555e+02   
1.009800000000000e+10    -1.793960787483675e+01   -1.076319707686810e+02   
1.009900000000000e+10    -1.797921387293138e+01   -1.077479873718342e+02   
1.010000000000000e+10    -1.800837560779114e+01   -1.078731044983565e+02   
1.010100000000000e+10    -1.805562005060076e+01   -1.078077992895826e+02   
1.010200000000000e+10    -1.810698167077277e+01   -1.078053651696501e+02   
1.010300000000000e+10    -1.813987760494652e+01   -1.077896866475784e+02   
1.010400000000000e+10    -1.816614528966496e+01   -1.076425565028292e+02   
1.010500000000000e+10    -1.820323239003179e+01   -1.076237444497800e+02   
1.010600000000000e+10    -1.822133147041803e+01   -1.072235849197821e+02   
1.010700000000000e+10    -1.824342965240382e+01   -1.073680252004528e+02   
1.010800000000000e+10    -1.828039858876845e+01   -1.070045762347976e+02   
1.010900000000000e+10    -1.826637652198671e+01   -1.068545059707739e+02   
1.011000000000000e+10    -1.826704919189649e+01   -1.064987572151509e+02   
1.011100000000000e+10    -1.823860534837289e+01   -1.064226713274390e+02   
1.011200000000000e+10    -1.824885846676010e+01   -1.062159758317386e+02   
1.011300000000000e+10    -1.820704321133447e+01   -1.060800972460151e+02   
1.011400000000000e+10    -1.820867019447374e+01   -1.057927605358556e+02   
1.011500000000000e+10    -1.817021565058699e+01   -1.056758180240508e+02   
1.011600000000000e+10    -1.815935675589959e+01   -1.054841750270913e+02   
1.011700000000000e+10    -1.813575807140494e+01   -1.054938907182086e+02   
1.011800000000000e+10    -1.808587224103575e+01   -1.053810420414001e+02   
1.011900000000000e+10    -1.803944168308091e+01   -1.053508632910853e+02   
1.012000000000000e+10    -1.797839238432054e+01   -1.053195611717373e+02   
1.012100000000000e+10    -1.795028906212709e+01   -1.054578511032877e+02   
1.012200000000000e+10    -1.789609266120176e+01   -1.053285530982698e+02   
1.012300000000000e+10    -1.785953348797911e+01   -1.054773099968628e+02   
1.012400000000000e+10    -1.782957031213240e+01   -1.056365570411811e+02   
1.012500000000000e+10    -1.778786276186297e+01   -1.057382701930623e+02   
1.012600000000000e+10    -1.776254850029183e+01   -1.059069335190710e+02   
1.012700000000000e+10    -1.772184136589185e+01   -1.062412645543602e+02   
1.012800000000000e+10    -1.769281521983671e+01   -1.063738998645436e+02   
1.012900000000000e+10    -1.766203506640415e+01   -1.066997855778780e+02   
1.013000000000000e+10    -1.765551367947299e+01   -1.068580653476003e+02   
1.013100000000000e+10    -1.764007948724429e+01   -1.072058661435732e+02   
1.013200000000000e+10    -1.763598921897911e+01   -1.075307342427845e+02   
1.013300000000000e+10    -1.763536240380697e+01   -1.079046811340641e+02   
1.013400000000000e+10    -1.762186864388700e+01   -1.080826679068873e+02   
1.013500000000000e+10    -1.763332326868650e+01   -1.084305663144256e+02   
1.013600000000000e+10    -1.764553429646161e+01   -1.086220266734501e+02   
1.013700000000000e+10    -1.765322318823008e+01   -1.088682575926754e+02   
1.013800000000000e+10    -1.767433599879195e+01   -1.091563460910805e+02   
1.013900000000000e+10    -1.770139616006767e+01   -1.094118679148090e+02   
1.014000000000000e+10    -1.773154084798535e+01   -1.094923399445641e+02   
1.014100000000000e+10    -1.777589433766526e+01   -1.097607182377695e+02   
1.014200000000000e+10    -1.779790960856846e+01   -1.098209248855779e+02   
1.014300000000000e+10    -1.784691967760193e+01   -1.099359127641787e+02   
1.014400000000000e+10    -1.788210811982640e+01   -1.099525447978851e+02   
1.014500000000000e+10    -1.792212386813406e+01   -1.101207220264366e+02   
1.014600000000000e+10    -1.795019477702275e+01   -1.100097735982547e+02   
1.014700000000000e+10    -1.799173367838983e+01   -1.098761485043724e+02   
1.014800000000000e+10    -1.804413684711425e+01   -1.099154410892863e+02   
1.014900000000000e+10    -1.805798640270586e+01   -1.097987703095161e+02   
1.015000000000000e+10    -1.809202221851987e+01   -1.096759887616855e+02   
1.015100000000000e+10    -1.811841023925669e+01   -1.094887633142976e+02   
1.015200000000000e+10    -1.813315228396327e+01   -1.092550020914883e+02   
1.015300000000000e+10    -1.815274177154272e+01   -1.091700589154413e+02   
1.015400000000000e+10    -1.815752414166785e+01   -1.088486060464859e+02   
1.015500000000000e+10    -1.819496224713268e+01   -1.088109959406298e+02   
1.015600000000000e+10    -1.818288057717554e+01   -1.085266182732650e+02   
1.015700000000000e+10    -1.817211091056445e+01   -1.081583502695888e+02   
1.015800000000000e+10    -1.815502444373288e+01   -1.080682473946970e+02   
1.015900000000000e+10    -1.814142331983029e+01   -1.078364515674053e+02   
1.016000000000000e+10    -1.811121209677104e+01   -1.076992288751336e+02   
1.016100000000000e+10    -1.809698787752743e+01   -1.075735187991544e+02   
1.016200000000000e+10    -1.806339908140615e+01   -1.072990076337899e+02   
1.016300000000000e+10    -1.803057786929763e+01   -1.072031077029694e+02   
1.016400000000000e+10    -1.802066361108227e+01   -1.072233302965656e+02   
1.016500000000000e+10    -1.796262317596283e+01   -1.071027835761204e+02   
1.016600000000000e+10    -1.794072647949329e+01   -1.072166029164432e+02   
1.016700000000000e+10    -1.788576357098133e+01   -1.072004064571995e+02   
1.016800000000000e+10    -1.784786780464074e+01   -1.072467632729229e+02   
1.016900000000000e+10    -1.782113307696420e+01   -1.073211671400658e+02   
1.017000000000000e+10    -1.779036452835400e+01   -1.075648970089622e+02   
1.017100000000000e+10    -1.774354644536775e+01   -1.078166570973351e+02   
1.017200000000000e+10    -1.771673066672903e+01   -1.078685455527960e+02   
1.017300000000000e+10    -1.769400017297006e+01   -1.082060426053670e+02   
1.017400000000000e+10    -1.766748936858525e+01   -1.083893662937272e+02   
1.017500000000000e+10    -1.764002669230034e+01   -1.086952031210532e+02   
1.017600000000000e+10    -1.761637776711226e+01   -1.088460648585876e+02   
1.017700000000000e+10    -1.762964225249387e+01   -1.092074381423711e+02   
1.017800000000000e+10    -1.761273001646233e+01   -1.095343100711488e+02   
1.017900000000000e+10    -1.761287474689188e+01   -1.097223115054109e+02   
1.018000000000000e+10    -1.761302905721466e+01   -1.100786429738308e+02   
1.018100000000000e+10    -1.762377557849204e+01   -1.103150523498980e+02   
1.018200000000000e+10    -1.764583480466846e+01   -1.106078033451642e+02   
1.018300000000000e+10    -1.764727827673892e+01   -1.108602941358112e+02   
1.018400000000000e+10    -1.768308238344059e+01   -1.111630901250899e+02   
1.018500000000000e+10    -1.769553324125870e+01   -1.114054817731269e+02   
1.018600000000000e+10    -1.771666943585234e+01   -1.117710221179494e+02   
1.018700000000000e+10    -1.774964735544759e+01   -1.117962392644663e+02   
1.018800000000000e+10    -1.778831512802618e+01   -1.120394755345984e+02   
1.018900000000000e+10    -1.782785942926348e+01   -1.121565518913748e+02   
1.019000000000000e+10    -1.785640619609275e+01   -1.121685835949205e+02   
1.019100000000000e+10    -1.788216170195046e+01   -1.122501553292156e+02   
1.019200000000000e+10    -1.791641494738371e+01   -1.121988807333542e+02   
1.019300000000000e+10    -1.795551393845564e+01   -1.123782817823685e+02   
1.019400000000000e+10    -1.798041124462434e+01   -1.122292980275312e+02   
1.019500000000000e+10    -1.800833420023864e+01   -1.122140985776884e+02   
1.019600000000000e+10    -1.800681735148908e+01   -1.120551286947610e+02   
1.019700000000000e+10    -1.804186298582705e+01   -1.119158172078069e+02   
1.019800000000000e+10    -1.805535881391436e+01   -1.118076578382348e+02   
1.019900000000000e+10    -1.806869973939998e+01   -1.115637395641680e+02   
1.020000000000000e+10    -1.806984553841787e+01   -1.115196627345498e+02   
1.020100000000000e+10    -1.807690956404723e+01   -1.113011250165443e+02   
1.020200000000000e+10    -1.806395600321835e+01   -1.110398994894278e+02   
1.020300000000000e+10    -1.807114006027295e+01   -1.108809734229980e+02   
1.020400000000000e+10    -1.804347330698029e+01   -1.107025233741811e+02   
1.020500000000000e+10    -1.803885798952851e+01   -1.106069436282637e+02   
1.020600000000000e+10    -1.799791980371623e+01   -1.103236798291425e+02   
1.020700000000000e+10    -1.799372392554834e+01   -1.102485763317941e+02   
1.020800000000000e+10    -1.797231587823619e+01   -1.101916486201830e+02   
1.020900000000000e+10    -1.792709116939775e+01   -1.100433569120800e+02   
1.021000000000000e+10    -1.789218764596592e+01   -1.099852052253394e+02   
1.021100000000000e+10    -1.786339546169686e+01   -1.099682523702209e+02   
1.021200000000000e+10    -1.783786541442935e+01   -1.098558157147896e+02   
1.021300000000000e+10    -1.778125767278485e+01   -1.099401213625355e+02   
1.021400000000000e+10    -1.776530458350530e+01   -1.099091037239556e+02   
1.021500000000000e+10    -1.770492467566463e+01   -1.100935256971527e+02   
1.021600000000000e+10    -1.767655106956230e+01   -1.102729162902434e+02   
1.021700000000000e+10    -1.764793798475235e+01   -1.102488405752267e+02   
1.021800000000000e+10    -1.762757512692651e+01   -1.104345097601250e+02   
1.021900000000000e+10    -1.758983945411710e+01   -1.104885098294405e+02   
1.022000000000000e+10    -1.758230940662558e+01   -1.107530314805821e+02   
1.022100000000000e+10    -1.753594406418778e+01   -1.109637623529219e+02   
1.022200000000000e+10    -1.753693995679731e+01   -1.111567883799655e+02   
1.022300000000000e+10    -1.752505624861081e+01   -1.114155534595711e+02   
1.022400000000000e+10    -1.752170486907341e+01   -1.116965995230232e+02   
1.022500000000000e+10    -1.751564810179100e+01   -1.119153090982843e+02   
1.022600000000000e+10    -1.752978720143070e+01   -1.121836112747708e+02   
1.022700000000000e+10    -1.752817711335832e+01   -1.124453227433276e+02   
1.022800000000000e+10    -1.756287696205792e+01   -1.125873833060727e+02   
1.022900000000000e+10    -1.754932965995734e+01   -1.128516172266471e+02   
1.023000000000000e+10    -1.758723724472064e+01   -1.131146215124082e+02   
1.023100000000000e+10    -1.759054277423687e+01   -1.132405822303112e+02   
1.023200000000000e+10    -1.764811572182170e+01   -1.134624151807896e+02   
1.023300000000000e+10    -1.764508693253574e+01   -1.136518582003305e+02   
1.023400000000000e+10    -1.770282880381506e+01   -1.138555392856350e+02   
1.023500000000000e+10    -1.771298703103304e+01   -1.139172050470554e+02   
1.023600000000000e+10    -1.777196712346188e+01   -1.139930053049493e+02   
1.023700000000000e+10    -1.780405835215044e+01   -1.140370344506239e+02   
1.023800000000000e+10    -1.784485292610812e+01   -1.141709771158220e+02   
1.023900000000000e+10    -1.787788353391697e+01   -1.140752185435955e+02   
1.024000000000000e+10    -1.792568704004326e+01   -1.140561172449512e+02   
1.024100000000000e+10    -1.794262270422328e+01   -1.141098778043877e+02   
1.024200000000000e+10    -1.796727477473108e+01   -1.139751278212338e+02   
1.024300000000000e+10    -1.799670056267374e+01   -1.137546173166599e+02   
1.024400000000000e+10    -1.801211713847673e+01   -1.137518458412386e+02   
1.024500000000000e+10    -1.804014956226591e+01   -1.135723574973053e+02   
1.024600000000000e+10    -1.803792865683460e+01   -1.135340624346056e+02   
1.024700000000000e+10    -1.806032142477276e+01   -1.133433931270884e+02   
1.024800000000000e+10    -1.807460413184058e+01   -1.133956230691264e+02   
1.024900000000000e+10    -1.805250457814553e+01   -1.131903876635794e+02   
1.025000000000000e+10    -1.805032220369342e+01   -1.129658054710638e+02   
1.025100000000000e+10    -1.806554070612913e+01   -1.127941085883259e+02   
1.025200000000000e+10    -1.804456294071493e+01   -1.128182841059212e+02   
1.025300000000000e+10    -1.800896744636245e+01   -1.126574695736474e+02   
1.025400000000000e+10    -1.798643250732499e+01   -1.125204883417258e+02   
1.025500000000000e+10    -1.797823371965475e+01   -1.124907779927561e+02   
1.025600000000000e+10    -1.795040760422309e+01   -1.125071806050737e+02   
