[Version] 2.0
! Rohde & Schwarz Vector Network Analyzer
! Rohde-Schwarz,ZNL20-2Port,1323001220200009,1.71.1.10-23.02.1.238
! 
! Port Assignments:
! Nominal Port -> Actual Test Port
! --------------------------------
!   1 -> 1

! Created: GMT 2024-09-04 10:38:51

# Hz S DB R 50

[Number of Ports] 1
[Number of Frequencies] 2001

[Network Data] 
! freq[Hz]               S11[mag dB]              S11[ang]                 
1.000000000000000e+10    -1.796819537626786e+01   -1.011157835831896e+02   
1.000100000000000e+10    -1.798831491004369e+01   -1.014796397984898e+02   
1.000200000000000e+10    -1.802201625999290e+01   -1.015839532489174e+02   
1.000300000000000e+10    -1.804707894514505e+01   -1.017641956231106e+02   
1.000400000000000e+10    -1.808464452211501e+01   -1.020503088116201e+02   
1.000500000000000e+10    -1.809761271831379e+01   -1.022835854100772e+02   
1.000600000000000e+10    -1.815911476045271e+01   -1.023979428518059e+02   
1.000700000000000e+10    -1.816188727736739e+01   -1.025842692182532e+02   
1.000800000000000e+10    -1.822916639390468e+01   -1.027517914818731e+02   
1.000900000000000e+10    -1.824197080536800e+01   -1.025382083695047e+02   
1.001000000000000e+10    -1.828721615492589e+01   -1.027941474480960e+02   
1.001100000000000e+10    -1.832495713165122e+01   -1.026828998223261e+02   
1.001200000000000e+10    -1.835471246839077e+01   -1.026876973267604e+02   
1.001300000000000e+10    -1.838283003952847e+01   -1.026098905691144e+02   
1.001400000000000e+10    -1.842763117288375e+01   -1.024578395335645e+02   
1.001500000000000e+10    -1.842654583962324e+01   -1.025142035582296e+02   
1.001600000000000e+10    -1.846196975003685e+01   -1.022784277520401e+02   
1.001700000000000e+10    -1.848059391487882e+01   -1.021178012570990e+02   
1.001800000000000e+10    -1.848265425066332e+01   -1.019620593048241e+02   
1.001900000000000e+10    -1.848665249322026e+01   -1.018279446310138e+02   
1.002000000000000e+10    -1.849655418529876e+01   -1.015121317684013e+02   
1.002100000000000e+10    -1.848210979297661e+01   -1.013079574737732e+02   
1.002200000000000e+10    -1.844780301279062e+01   -1.012277155348874e+02   
1.002300000000000e+10    -1.843664152015410e+01   -1.010471031219097e+02   
1.002400000000000e+10    -1.840336877240473e+01   -1.010810179644604e+02   
1.002500000000000e+10    -1.837080014896546e+01   -1.009005960785777e+02   
1.002600000000000e+10    -1.832859974513329e+01   -1.007667102819436e+02   
1.002700000000000e+10    -1.829041185014186e+01   -1.006469205733071e+02   
1.002800000000000e+10    -1.822601552050068e+01   -1.007228949373040e+02   
1.002900000000000e+10    -1.819398002355656e+01   -1.006631606151477e+02   
1.003000000000000e+10    -1.814500556586697e+01   -1.007831838279574e+02   
1.003100000000000e+10    -1.808691458570967e+01   -1.009691071159521e+02   
1.003200000000000e+10    -1.805377624235989e+01   -1.009964981245960e+02   
1.003300000000000e+10    -1.802861273622051e+01   -1.011573634573078e+02   
1.003400000000000e+10    -1.796099790774294e+01   -1.014134785119326e+02   
1.003500000000000e+10    -1.793002102542101e+01   -1.015234907254539e+02   
1.003600000000000e+10    -1.790992802485671e+01   -1.018279974917753e+02   
1.003700000000000e+10    -1.786096828255233e+01   -1.021014044846421e+02   
1.003800000000000e+10    -1.784857689288530e+01   -1.023311413588606e+02   
1.003900000000000e+10    -1.780712411408801e+01   -1.027565679801586e+02   
1.004000000000000e+10    -1.780736557299191e+01   -1.028192747382091e+02   
1.004100000000000e+10    -1.776590998195081e+01   -1.031759528120788e+02   
1.004200000000000e+10    -1.778719764964784e+01   -1.033390550345420e+02   
1.004300000000000e+10    -1.777579531771299e+01   -1.037795859205264e+02   
1.004400000000000e+10    -1.776404952700861e+01   -1.041290672931312e+02   
1.004500000000000e+10    -1.779631068030281e+01   -1.043954146519290e+02   
1.004600000000000e+10    -1.779876093319636e+01   -1.045477374506685e+02   
1.004700000000000e+10    -1.780589064508903e+01   -1.049653837405603e+02   
1.004800000000000e+10    -1.782906472941033e+01   -1.051944623966401e+02   
1.004900000000000e+10    -1.788007112489950e+01   -1.054074906011385e+02   
1.005000000000000e+10    -1.791371822555983e+01   -1.055401613466031e+02   
1.005100000000000e+10    -1.792441267529772e+01   -1.055568250056710e+02   
1.005200000000000e+10    -1.794962490332226e+01   -1.057046030195469e+02   
1.005300000000000e+10    -1.798413998924515e+01   -1.058621788677573e+02   
1.005400000000000e+10    -1.803154961281303e+01   -1.059407119926441e+02   
1.005500000000000e+10    -1.806223743028795e+01   -1.060350169221226e+02   
1.005600000000000e+10    -1.810665481989108e+01   -1.058078825212699e+02   
1.005700000000000e+10    -1.814905695314411e+01   -1.058212940230074e+02   
1.005800000000000e+10    -1.816984381897142e+01   -1.055140086821129e+02   
1.005900000000000e+10    -1.819192124953056e+01   -1.055317407514772e+02   
1.006000000000000e+10    -1.821242763894819e+01   -1.053903415925645e+02   
1.006100000000000e+10    -1.824350764025580e+01   -1.051637837516683e+02   
1.006200000000000e+10    -1.826042860168846e+01   -1.048366374832554e+02   
1.006300000000000e+10    -1.824959101962055e+01   -1.044886373317592e+02   
1.006400000000000e+10    -1.827211557308184e+01   -1.043123240900064e+02   
1.006500000000000e+10    -1.825978717348452e+01   -1.041658001904790e+02   
1.006600000000000e+10    -1.826150552990622e+01   -1.038723622535287e+02   
1.006700000000000e+10    -1.826246591781254e+01   -1.035338150358836e+02   
1.006800000000000e+10    -1.824444627078740e+01   -1.035948049470826e+02   
1.006900000000000e+10    -1.820681129576636e+01   -1.031492557446684e+02   
1.007000000000000e+10    -1.817366916493116e+01   -1.030046742980586e+02   
1.007100000000000e+10    -1.813876176992731e+01   -1.028153821209972e+02   
1.007200000000000e+10    -1.810715619636191e+01   -1.028444550752161e+02   
1.007300000000000e+10    -1.806919287588751e+01   -1.026286835227628e+02   
1.007400000000000e+10    -1.802192060235704e+01   -1.025922492275172e+02   
1.007500000000000e+10    -1.799646884938518e+01   -1.025843556410157e+02   
1.007600000000000e+10    -1.793852133165712e+01   -1.026925898141128e+02   
1.007700000000000e+10    -1.790358841248611e+01   -1.026489059890292e+02   
1.007800000000000e+10    -1.785570356207422e+01   -1.027185419210008e+02   
1.007900000000000e+10    -1.781531585069263e+01   -1.026955307032200e+02   
1.008000000000000e+10    -1.778479969212346e+01   -1.029049519330887e+02   
1.008100000000000e+10    -1.775310771317933e+01   -1.033873348896200e+02   
1.008200000000000e+10    -1.772593535530146e+01   -1.035895408390952e+02   
1.008300000000000e+10    -1.771965318658239e+01   -1.036888675884105e+02   
1.008400000000000e+10    -1.768979926347975e+01   -1.040858364119984e+02   
1.008500000000000e+10    -1.766918747604598e+01   -1.043209596094750e+02   
1.008600000000000e+10    -1.766290353211616e+01   -1.046112874643141e+02   
1.008700000000000e+10    -1.766304804975148e+01   -1.049067638558345e+02   
1.008800000000000e+10    -1.765947464587189e+01   -1.053592901495269e+02   
1.008900000000000e+10    -1.767705790264925e+01   -1.054916652722370e+02   
1.009000000000000e+10    -1.767201635934140e+01   -1.058699105585845e+02   
1.009100000000000e+10    -1.768811991660265e+01   -1.062475064324529e+02   
1.009200000000000e+10    -1.771681579957517e+01   -1.064290175975535e+02   
1.009300000000000e+10    -1.775312894028863e+01   -1.067237170675070e+02   
1.009400000000000e+10    -1.778424410627616e+01   -1.070524034741007e+02   
1.009500000000000e+10    -1.781260961215508e+01   -1.073024251285640e+02   
1.009600000000000e+10    -1.784737740730138e+01   -1.073464239073186e+02   
1.009700000000000e+10    -1.788869843473286e+01   -1.075669207225579e+02   
1.009800000000000e+10    -1.794633986398875e+01   -1.076555916017875e+02   
1.009900000000000e+10    -1.798606339777230e+01   -1.077679294254102e+02   
1.010000000000000e+10    -1.801502631394786e+01   -1.078845326442179e+02   
1.010100000000000e+10    -1.806174553526539e+01   -1.078228045161111e+02   
1.010200000000000e+10    -1.811298211060557e+01   -1.078216356261174e+02   
1.010300000000000e+10    -1.814838118151572e+01   -1.078186328019568e+02   
1.010400000000000e+10    -1.817323686072851e+01   -1.076621850288735e+02   
1.010500000000000e+10    -1.820942978992449e+01   -1.076310902532545e+02   
1.010600000000000e+10    -1.822836620054094e+01   -1.072294003928502e+02   
1.010700000000000e+10    -1.825066511785309e+01   -1.073823276831189e+02   
1.010800000000000e+10    -1.828606261303011e+01   -1.070080598498476e+02   
1.010900000000000e+10    -1.827307675476396e+01   -1.068626903856585e+02   
1.011000000000000e+10    -1.827419891705254e+01   -1.065047406885482e+02   
1.011100000000000e+10    -1.824378036734300e+01   -1.064357442400026e+02   
1.011200000000000e+10    -1.825516992564896e+01   -1.062261601497379e+02   
1.011300000000000e+10    -1.821215207293644e+01   -1.060812620084082e+02   
1.011400000000000e+10    -1.821320822597151e+01   -1.058027520801318e+02   
1.011500000000000e+10    -1.817456821108844e+01   -1.056803049734085e+02   
1.011600000000000e+10    -1.816354479181304e+01   -1.055011043459204e+02   
1.011700000000000e+10    -1.814152206589605e+01   -1.054953665270438e+02   
1.011800000000000e+10    -1.809113709130032e+01   -1.053889082285500e+02   
1.011900000000000e+10    -1.804335354477535e+01   -1.053588651693004e+02   
1.012000000000000e+10    -1.798268552396819e+01   -1.053318775683250e+02   
1.012100000000000e+10    -1.795494478792587e+01   -1.054789188900939e+02   
1.012200000000000e+10    -1.789771541549652e+01   -1.053543859865607e+02   
1.012300000000000e+10    -1.786268767522077e+01   -1.054922576928864e+02   
1.012400000000000e+10    -1.783283446299190e+01   -1.056587310534033e+02   
1.012500000000000e+10    -1.779027918648922e+01   -1.057613232872122e+02   
1.012600000000000e+10    -1.776646250740982e+01   -1.059366704833499e+02   
1.012700000000000e+10    -1.772644465356038e+01   -1.062824423713228e+02   
1.012800000000000e+10    -1.769629687315489e+01   -1.064117350519222e+02   
1.012900000000000e+10    -1.766618132448522e+01   -1.067354474095361e+02   
1.013000000000000e+10    -1.765961741441054e+01   -1.068967524702824e+02   
1.013100000000000e+10    -1.764420602854653e+01   -1.072337705872527e+02   
1.013200000000000e+10    -1.764122125468764e+01   -1.075675838015896e+02   
1.013300000000000e+10    -1.764092390554445e+01   -1.079418078966745e+02   
1.013400000000000e+10    -1.762797962702856e+01   -1.081270232601793e+02   
1.013500000000000e+10    -1.763837757435326e+01   -1.084687533855238e+02   
1.013600000000000e+10    -1.765072762648158e+01   -1.086694388806389e+02   
1.013700000000000e+10    -1.765858302444841e+01   -1.089104089958553e+02   
1.013800000000000e+10    -1.768130076484303e+01   -1.092044595970750e+02   
1.013900000000000e+10    -1.770912758969412e+01   -1.094544768433884e+02   
1.014000000000000e+10    -1.773904309841983e+01   -1.095360299680680e+02   
1.014100000000000e+10    -1.778252034790219e+01   -1.097969717967291e+02   
1.014200000000000e+10    -1.780439703669403e+01   -1.098667383544931e+02   
1.014300000000000e+10    -1.785461520268629e+01   -1.099754072085803e+02   
1.014400000000000e+10    -1.788825729935234e+01   -1.099961336859948e+02   
1.014500000000000e+10    -1.792960185958619e+01   -1.101515550887487e+02   
1.014600000000000e+10    -1.795807765132097e+01   -1.100451690148958e+02   
1.014700000000000e+10    -1.799736965352213e+01   -1.099092796122881e+02   
1.014800000000000e+10    -1.805110651990139e+01   -1.099526620913696e+02   
1.014900000000000e+10    -1.806514730469481e+01   -1.098320739192461e+02   
1.015000000000000e+10    -1.809922199265669e+01   -1.097109603365314e+02   
1.015100000000000e+10    -1.812580090645023e+01   -1.095145585107513e+02   
1.015200000000000e+10    -1.814085976645343e+01   -1.092751059139113e+02   
1.015300000000000e+10    -1.815980738876987e+01   -1.091927051743619e+02   
1.015400000000000e+10    -1.816422499312259e+01   -1.088679609911688e+02   
1.015500000000000e+10    -1.820216395149796e+01   -1.088278208062637e+02   
1.015600000000000e+10    -1.818904870526996e+01   -1.085364035979324e+02   
1.015700000000000e+10    -1.817854976908037e+01   -1.081789523281853e+02   
1.015800000000000e+10    -1.815992934212220e+01   -1.080831721671224e+02   
1.015900000000000e+10    -1.814618969287878e+01   -1.078390534162970e+02   
1.016000000000000e+10    -1.811471494524493e+01   -1.077137756324860e+02   
1.016100000000000e+10    -1.809946892344178e+01   -1.075939375133452e+02   
1.016200000000000e+10    -1.806691431666533e+01   -1.073238226849828e+02   
1.016300000000000e+10    -1.803275945528815e+01   -1.072242970260383e+02   
1.016400000000000e+10    -1.802188937319609e+01   -1.072482142036933e+02   
1.016500000000000e+10    -1.796557673120704e+01   -1.071232744194278e+02   
1.016600000000000e+10    -1.794288777494203e+01   -1.072499529169415e+02   
1.016700000000000e+10    -1.788880339060054e+01   -1.072227909595622e+02   
1.016800000000000e+10    -1.785111049738421e+01   -1.072674592986312e+02   
1.016900000000000e+10    -1.782379690744138e+01   -1.073574406658857e+02   
1.017000000000000e+10    -1.779417583060763e+01   -1.075926074409960e+02   
1.017100000000000e+10    -1.774693107434886e+01   -1.078571088898366e+02   
1.017200000000000e+10    -1.772081273185457e+01   -1.079062598028251e+02   
1.017300000000000e+10    -1.769718537227303e+01   -1.082547332102202e+02   
1.017400000000000e+10    -1.767106967880541e+01   -1.084244120480785e+02   
1.017500000000000e+10    -1.764346739745316e+01   -1.087307722055090e+02   
1.017600000000000e+10    -1.762079348910990e+01   -1.088845584535624e+02   
1.017700000000000e+10    -1.763406084097775e+01   -1.092506276177252e+02   
1.017800000000000e+10    -1.761565778357728e+01   -1.095748143947550e+02   
1.017900000000000e+10    -1.761746294744355e+01   -1.097631647516889e+02   
1.018000000000000e+10    -1.761779758054645e+01   -1.101167246445834e+02   
1.018100000000000e+10    -1.762934274315878e+01   -1.103576704597246e+02   
1.018200000000000e+10    -1.765039265922129e+01   -1.106433008726272e+02   
1.018300000000000e+10    -1.765389817599073e+01   -1.109007434222422e+02   
1.018400000000000e+10    -1.768857539857705e+01   -1.112014916303556e+02   
1.018500000000000e+10    -1.770131904273823e+01   -1.114513805899016e+02   
1.018600000000000e+10    -1.772333398808584e+01   -1.118161434149059e+02   
1.018700000000000e+10    -1.775526643852032e+01   -1.118444593751529e+02   
1.018800000000000e+10    -1.779449400136597e+01   -1.120848443336417e+02   
1.018900000000000e+10    -1.783691455384129e+01   -1.121922113148932e+02   
1.019000000000000e+10    -1.786203566987797e+01   -1.122010762690198e+02   
1.019100000000000e+10    -1.788986665558446e+01   -1.122824331845411e+02   
1.019200000000000e+10    -1.792476697147914e+01   -1.122388444862080e+02   
1.019300000000000e+10    -1.796332306056535e+01   -1.124135541546971e+02   
1.019400000000000e+10    -1.798769810343455e+01   -1.122609586902128e+02   
1.019500000000000e+10    -1.801625396771182e+01   -1.122323529826652e+02   
1.019600000000000e+10    -1.801537851451494e+01   -1.120721321063940e+02   
1.019700000000000e+10    -1.804943348734608e+01   -1.119433261110153e+02   
1.019800000000000e+10    -1.806246551429615e+01   -1.118346412487868e+02   
1.019900000000000e+10    -1.807467847795375e+01   -1.115824186298853e+02   
1.020000000000000e+10    -1.807833265145663e+01   -1.115389662973264e+02   
1.020100000000000e+10    -1.808293773640044e+01   -1.113175287404701e+02   
1.020200000000000e+10    -1.806918050566391e+01   -1.110641027983232e+02   
1.020300000000000e+10    -1.807646164973947e+01   -1.109029809487970e+02   
1.020400000000000e+10    -1.804891533373358e+01   -1.107126864039954e+02   
1.020500000000000e+10    -1.804370629098361e+01   -1.106209710513201e+02   
1.020600000000000e+10    -1.800265268774378e+01   -1.103550924737795e+02   
1.020700000000000e+10    -1.799688967241543e+01   -1.102807474968764e+02   
1.020800000000000e+10    -1.797834795700314e+01   -1.102114478294803e+02   
1.020900000000000e+10    -1.793128512136423e+01   -1.100733134825948e+02   
1.021000000000000e+10    -1.789538799959017e+01   -1.100102121069120e+02   
1.021100000000000e+10    -1.786764206356554e+01   -1.099896451829460e+02   
1.021200000000000e+10    -1.784311075862457e+01   -1.098830753149119e+02   
1.021300000000000e+10    -1.778555644372809e+01   -1.099700436997611e+02   
1.021400000000000e+10    -1.776971712270938e+01   -1.099433218205318e+02   
1.021500000000000e+10    -1.770884741465471e+01   -1.101374630569448e+02   
1.021600000000000e+10    -1.768145451170097e+01   -1.103145215920553e+02   
1.021700000000000e+10    -1.765121321087109e+01   -1.102820851948535e+02   
1.021800000000000e+10    -1.763142798625143e+01   -1.104835892766573e+02   
1.021900000000000e+10    -1.759531022992977e+01   -1.105370479949910e+02   
1.022000000000000e+10    -1.758695141258574e+01   -1.107873404620457e+02   
1.022100000000000e+10    -1.754073467012864e+01   -1.110013357559871e+02   
1.022200000000000e+10    -1.753998096237753e+01   -1.112060543934190e+02   
1.022300000000000e+10    -1.753038675694791e+01   -1.114646485099266e+02   
1.022400000000000e+10    -1.752764352083314e+01   -1.117555568564188e+02   
1.022500000000000e+10    -1.752158223948245e+01   -1.119746921928056e+02   
1.022600000000000e+10    -1.753546738611456e+01   -1.122415395534033e+02   
1.022700000000000e+10    -1.753410370501178e+01   -1.125005906520758e+02   
1.022800000000000e+10    -1.756898142055656e+01   -1.126494716310165e+02   
1.022900000000000e+10    -1.755585952705681e+01   -1.129026318177311e+02   
1.023000000000000e+10    -1.759382766106041e+01   -1.131639914274417e+02   
1.023100000000000e+10    -1.759734889709988e+01   -1.132893599910332e+02   
1.023200000000000e+10    -1.765436537855761e+01   -1.135066644411941e+02   
1.023300000000000e+10    -1.765102988692487e+01   -1.137003493584663e+02   
1.023400000000000e+10    -1.771051553401177e+01   -1.139029711838912e+02   
1.023500000000000e+10    -1.772063116034339e+01   -1.139540723545096e+02   
1.023600000000000e+10    -1.777908347868991e+01   -1.140388311261674e+02   
1.023700000000000e+10    -1.781111953785094e+01   -1.140808998756280e+02   
1.023800000000000e+10    -1.785287239982202e+01   -1.142109008933489e+02   
1.023900000000000e+10    -1.788553904263386e+01   -1.141132816115246e+02   
1.024000000000000e+10    -1.793319081571510e+01   -1.140894800269425e+02   
1.024100000000000e+10    -1.794997254514595e+01   -1.141453398363284e+02   
1.024200000000000e+10    -1.797377538459326e+01   -1.140132160682323e+02   
1.024300000000000e+10    -1.800363424825686e+01   -1.137885685526404e+02   
1.024400000000000e+10    -1.801864465217602e+01   -1.137835144332934e+02   
1.024500000000000e+10    -1.804569445986693e+01   -1.135974763915030e+02   
1.024600000000000e+10    -1.804488593753451e+01   -1.135645420454188e+02   
1.024700000000000e+10    -1.806652148114517e+01   -1.133714689892963e+02   
1.024800000000000e+10    -1.808011145175253e+01   -1.134219772615684e+02   
1.024900000000000e+10    -1.805666393768396e+01   -1.132142807704398e+02   
1.025000000000000e+10    -1.805546156890910e+01   -1.129847816718151e+02   
1.025100000000000e+10    -1.806968275690019e+01   -1.128261735925878e+02   
1.025200000000000e+10    -1.804873895763032e+01   -1.128442564559717e+02   
1.025300000000000e+10    -1.801326903570383e+01   -1.126886413927023e+02   
1.025400000000000e+10    -1.798994459216891e+01   -1.125475407162161e+02   
1.025500000000000e+10    -1.798315580998959e+01   -1.125191820964747e+02   
1.025600000000000e+10    -1.795386337367174e+01   -1.125416701942445e+02   
