[Version] 2.0
! Rohde & Schwarz Vector Network Analyzer
! Rohde-Schwarz,ZNL20-2Port,1323001220200009,1.71.1.10-23.02.1.238
! 
! Port Assignments:
! Nominal Port -> Actual Test Port
! --------------------------------
!   1 -> 1

! Created: GMT 2024-09-04 10:30:03

# Hz S DB R 50

[Number of Ports] 1
[Number of Frequencies] 2001

[Network Data] 
! freq[Hz]               S11[mag dB]              S11[ang]                 
1.000000000000000e+10    -1.813467946374869e+01   -1.018595978540038e+02   
1.000100000000000e+10    -1.816566319700107e+01   -1.021158248072458e+02   
1.000200000000000e+10    -1.821065234580511e+01   -1.021059531667388e+02   
1.000300000000000e+10    -1.824085805823830e+01   -1.021746342991853e+02   
1.000400000000000e+10    -1.828369716906219e+01   -1.023327084449408e+02   
1.000500000000000e+10    -1.829929496685170e+01   -1.024323548062292e+02   
1.000600000000000e+10    -1.836134881068957e+01   -1.024201849367125e+02   
1.000700000000000e+10    -1.835887147770794e+01   -1.024662300650574e+02   
1.000800000000000e+10    -1.842139375742286e+01   -1.025116098400043e+02   
1.000900000000000e+10    -1.842488408377511e+01   -1.021604999446312e+02   
1.001000000000000e+10    -1.845750491950825e+01   -1.023091568661540e+02   
1.001100000000000e+10    -1.848182220748814e+01   -1.020907842781772e+02   
1.001200000000000e+10    -1.849561572835566e+01   -1.020015730683168e+02   
1.001300000000000e+10    -1.850422301259159e+01   -1.018426063639259e+02   
1.001400000000000e+10    -1.853080910281056e+01   -1.016358394442586e+02   
1.001500000000000e+10    -1.850781887426196e+01   -1.016493551489660e+02   
1.001600000000000e+10    -1.852106703636038e+01   -1.013964197269544e+02   
1.001700000000000e+10    -1.851867891622922e+01   -1.012375413728888e+02   
1.001800000000000e+10    -1.849897521814277e+01   -1.011091336993977e+02   
1.001900000000000e+10    -1.848100170158873e+01   -1.010302658934146e+02   
1.002000000000000e+10    -1.847076112683670e+01   -1.007740572923945e+02   
1.002100000000000e+10    -1.843780899658824e+01   -1.006576882546831e+02   
1.002200000000000e+10    -1.838845378199249e+01   -1.006778831001804e+02   
1.002300000000000e+10    -1.836414856997099e+01   -1.006135846975443e+02   
1.002400000000000e+10    -1.832002766831799e+01   -1.007680132005446e+02   
1.002500000000000e+10    -1.827951461059767e+01   -1.007143056497617e+02   
1.002600000000000e+10    -1.823273157966352e+01   -1.007401631169617e+02   
1.002700000000000e+10    -1.819428027881926e+01   -1.007575801239023e+02   
1.002800000000000e+10    -1.813184748384737e+01   -1.009676885715827e+02   
1.002900000000000e+10    -1.810406857671291e+01   -1.010485713005371e+02   
1.003000000000000e+10    -1.806176338691921e+01   -1.012974864206690e+02   
1.003100000000000e+10    -1.801516505315151e+01   -1.016013650553887e+02   
1.003200000000000e+10    -1.799284336419245e+01   -1.017385376885378e+02   
1.003300000000000e+10    -1.797996127102849e+01   -1.020195709200139e+02   
1.003400000000000e+10    -1.792849264405090e+01   -1.023506401757652e+02   
1.003500000000000e+10    -1.791575278993493e+01   -1.025361903852786e+02   
1.003600000000000e+10    -1.791291396962964e+01   -1.028943700685471e+02   
1.003700000000000e+10    -1.788250313204608e+01   -1.032108913818831e+02   
1.003800000000000e+10    -1.789046229323328e+01   -1.034700854853937e+02   
1.003900000000000e+10    -1.786787512916475e+01   -1.039025162937812e+02   
1.004000000000000e+10    -1.788872508487657e+01   -1.039621336890319e+02   
1.004100000000000e+10    -1.786755788823971e+01   -1.042923953286766e+02   
1.004200000000000e+10    -1.790755036280120e+01   -1.044254124746871e+02   
1.004300000000000e+10    -1.791458084574437e+01   -1.048130279356022e+02   
1.004400000000000e+10    -1.791859331398135e+01   -1.050905220805417e+02   
1.004500000000000e+10    -1.796755452191788e+01   -1.052776837188832e+02   
1.004600000000000e+10    -1.798223315716444e+01   -1.053332765923886e+02   
1.004700000000000e+10    -1.800311315001096e+01   -1.056449934305383e+02   
1.004800000000000e+10    -1.803563882754642e+01   -1.057557298211917e+02   
1.004900000000000e+10    -1.809360342156420e+01   -1.058456341078470e+02   
1.005000000000000e+10    -1.813388206676497e+01   -1.058532765749373e+02   
1.005100000000000e+10    -1.814569642761680e+01   -1.057285830371036e+02   
1.005200000000000e+10    -1.817054257492485e+01   -1.057454545076402e+02   
1.005300000000000e+10    -1.820048406427198e+01   -1.057661052784905e+02   
1.005400000000000e+10    -1.824203701359516e+01   -1.057161233693948e+02   
1.005500000000000e+10    -1.826304950990040e+01   -1.056883478905531e+02   
1.005600000000000e+10    -1.829611039356740e+01   -1.053476024016311e+02   
1.005700000000000e+10    -1.832371911384163e+01   -1.052549946378762e+02   
1.005800000000000e+10    -1.832598417400071e+01   -1.048667560172682e+02   
1.005900000000000e+10    -1.832825916748209e+01   -1.048046068828078e+02   
1.006000000000000e+10    -1.832766097022815e+01   -1.046195663824888e+02   
1.006100000000000e+10    -1.833713953850389e+01   -1.043537192065726e+02   
1.006200000000000e+10    -1.833175000501274e+01   -1.040226248372527e+02   
1.006300000000000e+10    -1.829833751070495e+01   -1.036961574813479e+02   
1.006400000000000e+10    -1.829817602019201e+01   -1.035541015152122e+02   
1.006500000000000e+10    -1.826581420945547e+01   -1.034606210827465e+02   
1.006600000000000e+10    -1.824655632964582e+01   -1.032495587381879e+02   
1.006700000000000e+10    -1.822977099893270e+01   -1.030097595135358e+02   
1.006800000000000e+10    -1.819587970538897e+01   -1.031783720601191e+02   
1.006900000000000e+10    -1.814516536095968e+01   -1.028588573683788e+02   
1.007000000000000e+10    -1.810304635007013e+01   -1.028478618085538e+02   
1.007100000000000e+10    -1.806115327676708e+01   -1.027972335328387e+02   
1.007200000000000e+10    -1.802574470554644e+01   -1.029760431923849e+02   
1.007300000000000e+10    -1.798493639013924e+01   -1.028999138115374e+02   
1.007400000000000e+10    -1.794163254063554e+01   -1.030186996263137e+02   
1.007500000000000e+10    -1.791840904376985e+01   -1.031499699773121e+02   
1.007600000000000e+10    -1.786893728461893e+01   -1.033834932147670e+02   
1.007700000000000e+10    -1.784366790812817e+01   -1.034674310165865e+02   
1.007800000000000e+10    -1.780786934575374e+01   -1.036547698362919e+02   
1.007900000000000e+10    -1.778159674350221e+01   -1.037282608725386e+02   
1.008000000000000e+10    -1.776743957510445e+01   -1.040380918099189e+02   
1.008100000000000e+10    -1.775086389347659e+01   -1.045796371664524e+02   
1.008200000000000e+10    -1.774186729194147e+01   -1.048421327844986e+02   
1.008300000000000e+10    -1.775521674965182e+01   -1.049838878493786e+02   
1.008400000000000e+10    -1.774506008727915e+01   -1.054158520364109e+02   
1.008500000000000e+10    -1.774478136248053e+01   -1.056553719597484e+02   
1.008600000000000e+10    -1.775834035642018e+01   -1.059248380514170e+02   
1.008700000000000e+10    -1.777787836879586e+01   -1.061988782385793e+02   
1.008800000000000e+10    -1.779226507810716e+01   -1.066036818083081e+02   
1.008900000000000e+10    -1.782863205383044e+01   -1.066804318258909e+02   
1.009000000000000e+10    -1.784009725158794e+01   -1.069776880288671e+02   
1.009100000000000e+10    -1.786978758615234e+01   -1.072683809905183e+02   
1.009200000000000e+10    -1.791202723323102e+01   -1.073535180385458e+02   
1.009300000000000e+10    -1.796000280873142e+01   -1.075260464188391e+02   
1.009400000000000e+10    -1.799917891071740e+01   -1.077329225476582e+02   
1.009500000000000e+10    -1.803403365610986e+01   -1.078499468062611e+02   
1.009600000000000e+10    -1.807124661581040e+01   -1.077572743394522e+02   
1.009700000000000e+10    -1.811314773695132e+01   -1.078376408798493e+02   
1.009800000000000e+10    -1.816865466453106e+01   -1.077786176359251e+02   
1.009900000000000e+10    -1.820334893579623e+01   -1.077539975849940e+02   
1.010000000000000e+10    -1.822361956809280e+01   -1.077374816508544e+02   
1.010100000000000e+10    -1.825724107683768e+01   -1.075362029081344e+02   
1.010200000000000e+10    -1.829477144413776e+01   -1.074311553126287e+02   
1.010300000000000e+10    -1.831100147104560e+01   -1.073057351554998e+02   
1.010400000000000e+10    -1.831719382336183e+01   -1.070730214868285e+02   
1.010500000000000e+10    -1.833164139956980e+01   -1.069732384309958e+02   
1.010600000000000e+10    -1.832839781652033e+01   -1.065175423881536e+02   
1.010700000000000e+10    -1.832710101751160e+01   -1.066460537102501e+02   
1.010800000000000e+10    -1.833923564465641e+01   -1.062812221708956e+02   
1.010900000000000e+10    -1.830225046025538e+01   -1.061552249724488e+02   
1.011000000000000e+10    -1.828199263794425e+01   -1.058374694837717e+02   
1.011100000000000e+10    -1.823012141964575e+01   -1.058300454661827e+02   
1.011200000000000e+10    -1.822090975285344e+01   -1.057063822686906e+02   
1.011300000000000e+10    -1.816217483352983e+01   -1.056606260283682e+02   
1.011400000000000e+10    -1.814811734271177e+01   -1.054926477994716e+02   
1.011500000000000e+10    -1.809656620357253e+01   -1.055059137413434e+02   
1.011600000000000e+10    -1.807639712382356e+01   -1.054479193794408e+02   
1.011700000000000e+10    -1.804663926020968e+01   -1.055933478272952e+02   
1.011800000000000e+10    -1.799316491414750e+01   -1.056277581031572e+02   
1.011900000000000e+10    -1.794635092389068e+01   -1.057427374520999e+02   
1.012000000000000e+10    -1.788821489042261e+01   -1.058514402572392e+02   
1.012100000000000e+10    -1.786598787026665e+01   -1.061337686169223e+02   
1.012200000000000e+10    -1.781939835888508e+01   -1.061508558699993e+02   
1.012300000000000e+10    -1.779337207710142e+01   -1.064082163408783e+02   
1.012400000000000e+10    -1.777802686473397e+01   -1.066810797931217e+02   
1.012500000000000e+10    -1.775076234828802e+01   -1.068906104966079e+02   
1.012600000000000e+10    -1.774447140111633e+01   -1.071432927580351e+02   
1.012700000000000e+10    -1.772099847667555e+01   -1.075550904248569e+02   
1.012800000000000e+10    -1.771172260717276e+01   -1.077288826992406e+02   
1.012900000000000e+10    -1.770167542582901e+01   -1.080922480735821e+02   
1.013000000000000e+10    -1.771744437329861e+01   -1.082712069753312e+02   
1.013100000000000e+10    -1.772226098540363e+01   -1.086146581218786e+02   
1.013200000000000e+10    -1.774040096985489e+01   -1.089287723169012e+02   
1.013300000000000e+10    -1.776073590985091e+01   -1.092709842895152e+02   
1.013400000000000e+10    -1.776743974714487e+01   -1.093955886913888e+02   
1.013500000000000e+10    -1.779756492613213e+01   -1.096723225244485e+02   
1.013600000000000e+10    -1.782844086568023e+01   -1.097778317191188e+02   
1.013700000000000e+10    -1.785209896640736e+01   -1.099217085947007e+02   
1.013800000000000e+10    -1.788554089234577e+01   -1.101035433661981e+02   
1.013900000000000e+10    -1.792486075217380e+01   -1.102305067847004e+02   
1.014000000000000e+10    -1.796368712779680e+01   -1.101701185841992e+02   
1.014100000000000e+10    -1.801472303634995e+01   -1.103061462844353e+02   
1.014200000000000e+10    -1.803793270550906e+01   -1.102175914287785e+02   
1.014300000000000e+10    -1.808806463818297e+01   -1.101863332377679e+02   
1.014400000000000e+10    -1.811755504965013e+01   -1.100591461887894e+02   
1.014500000000000e+10    -1.815279471133573e+01   -1.100761051326339e+02   
1.014600000000000e+10    -1.816961488284829e+01   -1.098383388310742e+02   
1.014700000000000e+10    -1.819814668666302e+01   -1.095790923938473e+02   
1.014800000000000e+10    -1.823504940563222e+01   -1.095051152309772e+02   
1.014900000000000e+10    -1.822979019392066e+01   -1.092854126020246e+02   
1.015000000000000e+10    -1.824543458598214e+01   -1.090934851801869e+02   
1.015100000000000e+10    -1.824933555601803e+01   -1.088457553933316e+02   
1.015200000000000e+10    -1.824255907453528e+01   -1.085682956581682e+02   
1.015300000000000e+10    -1.823875412507557e+01   -1.084809576782888e+02   
1.015400000000000e+10    -1.821946768497209e+01   -1.081663611176757e+02   
1.015500000000000e+10    -1.823392625696457e+01   -1.081532467115908e+02   
1.015600000000000e+10    -1.819840783826692e+01   -1.079250163364240e+02   
1.015700000000000e+10    -1.816735680633845e+01   -1.076366745936347e+02   
1.015800000000000e+10    -1.813222735178650e+01   -1.076403292169177e+02   
1.015900000000000e+10    -1.809866854850132e+01   -1.075167351092410e+02   
1.016000000000000e+10    -1.805469051520390e+01   -1.074994398025560e+02   
1.016100000000000e+10    -1.802779686318624e+01   -1.075247855229203e+02   
1.016200000000000e+10    -1.798713471833744e+01   -1.073837296777557e+02   
1.016300000000000e+10    -1.794756522676410e+01   -1.074468767911268e+02   
1.016400000000000e+10    -1.793428919905162e+01   -1.076227072607490e+02   
1.016500000000000e+10    -1.787808659977527e+01   -1.076570385930471e+02   
1.016600000000000e+10    -1.785831108727804e+01   -1.079225157593999e+02   
1.016700000000000e+10    -1.781027981215009e+01   -1.080350046101314e+02   
1.016800000000000e+10    -1.778286094372297e+01   -1.082257076478212e+02   
1.016900000000000e+10    -1.776666295195703e+01   -1.084376719242093e+02   
1.017000000000000e+10    -1.775023275360791e+01   -1.087871788059285e+02   
1.017100000000000e+10    -1.771939487036353e+01   -1.091478354507466e+02   
1.017200000000000e+10    -1.771154272793173e+01   -1.092844906236283e+02   
1.017300000000000e+10    -1.770607923678167e+01   -1.096964300582268e+02   
1.017400000000000e+10    -1.770163262046439e+01   -1.099216639385337e+02   
1.017500000000000e+10    -1.769338695322435e+01   -1.102655916584813e+02   
1.017600000000000e+10    -1.769279192054590e+01   -1.104254241325654e+02   
1.017700000000000e+10    -1.772770667760183e+01   -1.107998266426202e+02   
1.017800000000000e+10    -1.773088063666904e+01   -1.110976070333399e+02   
1.017900000000000e+10    -1.775276622795497e+01   -1.112470299839026e+02   
1.018000000000000e+10    -1.777169263405273e+01   -1.115334413798578e+02   
1.018100000000000e+10    -1.780188745713684e+01   -1.117016521874294e+02   
1.018200000000000e+10    -1.783880325363721e+01   -1.118936248584337e+02   
1.018300000000000e+10    -1.785685118523814e+01   -1.120438003164629e+02   
1.018400000000000e+10    -1.790318122981938e+01   -1.122123576864021e+02   
1.018500000000000e+10    -1.792641179363527e+01   -1.123431339669561e+02   
1.018600000000000e+10    -1.795270243158746e+01   -1.125660332747924e+02   
1.018700000000000e+10    -1.798918360163096e+01   -1.124412877563991e+02   
1.018800000000000e+10    -1.802685650504112e+01   -1.125440955616925e+02   
1.018900000000000e+10    -1.806541939800141e+01   -1.124959678463116e+02   
1.019000000000000e+10    -1.808686224335761e+01   -1.123653222918261e+02   
1.019100000000000e+10    -1.810391779293534e+01   -1.122912060533483e+02   
1.019200000000000e+10    -1.812632320451868e+01   -1.121251327838055e+02   
1.019300000000000e+10    -1.814998504203924e+01   -1.121836265566666e+02   
1.019400000000000e+10    -1.815921779835907e+01   -1.119170099866192e+02   
1.019500000000000e+10    -1.816627819361341e+01   -1.118028081618282e+02   
1.019600000000000e+10    -1.814389406402604e+01   -1.115703958976120e+02   
1.019700000000000e+10    -1.815537147368239e+01   -1.114011914140571e+02   
1.019800000000000e+10    -1.814467813960893e+01   -1.112496815016761e+02   
1.019900000000000e+10    -1.813495796120286e+01   -1.109897805977703e+02   
1.020000000000000e+10    -1.811427111131576e+01   -1.109561018747048e+02   
1.020100000000000e+10    -1.809538743908582e+01   -1.107720238373330e+02   
1.020200000000000e+10    -1.805998220597681e+01   -1.105716361171551e+02   
1.020300000000000e+10    -1.804699644276699e+01   -1.104905360362027e+02   
1.020400000000000e+10    -1.799975109718596e+01   -1.103955396668599e+02   
1.020500000000000e+10    -1.797796436937617e+01   -1.104063062999826e+02   
1.020600000000000e+10    -1.792493438378052e+01   -1.102647428832147e+02   
1.020700000000000e+10    -1.790646034124264e+01   -1.103152932847544e+02   
1.020800000000000e+10    -1.787827801762196e+01   -1.103999062795737e+02   
1.020900000000000e+10    -1.782663387099959e+01   -1.104048686853282e+02   
1.021000000000000e+10    -1.778927366970363e+01   -1.104957839196363e+02   
1.021100000000000e+10    -1.776165531690459e+01   -1.106256580265500e+02   
1.021200000000000e+10    -1.774010836470069e+01   -1.106678232146387e+02   
1.021300000000000e+10    -1.768935737537926e+01   -1.108937808971776e+02   
1.021400000000000e+10    -1.768475553784968e+01   -1.110058020723094e+02   
1.021500000000000e+10    -1.763668864114074e+01   -1.113097853510103e+02   
1.021600000000000e+10    -1.762371130791806e+01   -1.115996763480884e+02   
1.021700000000000e+10    -1.761217133600741e+01   -1.116685296368361e+02   
1.021800000000000e+10    -1.761157059201398e+01   -1.119416593846348e+02   
1.021900000000000e+10    -1.759540848261058e+01   -1.120566932899292e+02   
1.022000000000000e+10    -1.760943780552120e+01   -1.123579561609155e+02   
1.022100000000000e+10    -1.758608052888153e+01   -1.125933502983027e+02   
1.022200000000000e+10    -1.760848766724330e+01   -1.127899664144031e+02   
1.022300000000000e+10    -1.762083915389348e+01   -1.130398138022659e+02   
1.022400000000000e+10    -1.763926778802411e+01   -1.132923785790777e+02   
1.022500000000000e+10    -1.765395304614618e+01   -1.134464353157402e+02   
1.022600000000000e+10    -1.769000551954646e+01   -1.136347364892186e+02   
1.022700000000000e+10    -1.770640507522194e+01   -1.138035148806327e+02   
1.022800000000000e+10    -1.775690544882533e+01   -1.138432584066207e+02   
1.022900000000000e+10    -1.775648661127450e+01   -1.139867451457942e+02   
1.023000000000000e+10    -1.780689989194776e+01   -1.141146970953250e+02   
1.023100000000000e+10    -1.781842523785432e+01   -1.140967352758441e+02   
1.023200000000000e+10    -1.788248825919781e+01   -1.141774759305199e+02   
1.023300000000000e+10    -1.787973499057506e+01   -1.142070007763303e+02   
1.023400000000000e+10    -1.793818896181310e+01   -1.142725509130922e+02   
1.023500000000000e+10    -1.794488844412475e+01   -1.141759702348319e+02   
1.023600000000000e+10    -1.799686012700831e+01   -1.141122869964998e+02   
1.023700000000000e+10    -1.801956860930971e+01   -1.140144670878230e+02   
1.023800000000000e+10    -1.804914755566776e+01   -1.140280663376904e+02   
1.023900000000000e+10    -1.806746957759008e+01   -1.138062672844822e+02   
1.024000000000000e+10    -1.809777049594847e+01   -1.136786382984315e+02   
1.024100000000000e+10    -1.809522541179864e+01   -1.136575875730285e+02   
1.024200000000000e+10    -1.809886729066329e+01   -1.134588651478427e+02   
1.024300000000000e+10    -1.810503156771978e+01   -1.131882188857985e+02   
1.024400000000000e+10    -1.809792840252661e+01   -1.131616924703698e+02   
1.024500000000000e+10    -1.810177430069916e+01   -1.129665570136172e+02   
1.024600000000000e+10    -1.807596326917614e+01   -1.129563713932558e+02   
1.024700000000000e+10    -1.807621189614375e+01   -1.128045388828793e+02   
1.024800000000000e+10    -1.806804903895085e+01   -1.129121316297630e+02   
1.024900000000000e+10    -1.802284519599499e+01   -1.127887576925632e+02   
1.025000000000000e+10    -1.800329166196337e+01   -1.126617333274799e+02   
1.025100000000000e+10    -1.800071881849311e+01   -1.126180975493442e+02   
1.025200000000000e+10    -1.796583284980105e+01   -1.127738612822993e+02   
1.025300000000000e+10    -1.791976677062793e+01   -1.127584450421290e+02   
1.025400000000000e+10    -1.788697654732946e+01   -1.127737471834539e+02   
1.025500000000000e+10    -1.787548821173180e+01   -1.129043846881230e+02   
1.025600000000000e+10    -1.784608951138804e+01   -1.130881993942693e+02   
