[Version] 2.0
! Rohde & Schwarz Vector Network Analyzer
! Rohde-Schwarz,ZNL20-2Port,1323001220200009,1.71.1.10-23.02.1.238
! 
! Port Assignments:
! Nominal Port -> Actual Test Port
! --------------------------------
!   1 -> 1

! Created: GMT 2024-09-04 10:30:34

# Hz S DB R 50

[Number of Ports] 1
[Number of Frequencies] 2001

[Network Data] 
! freq[Hz]               S11[mag dB]              S11[ang]                 
1.000000000000000e+10    -1.811266666353291e+01   -1.017989065457424e+02   
1.000100000000000e+10    -1.814434247222743e+01   -1.020612230806913e+02   
1.000200000000000e+10    -1.818809431273286e+01   -1.020677569716774e+02   
1.000300000000000e+10    -1.821937145716104e+01   -1.021429177882411e+02   
1.000400000000000e+10    -1.826259402657875e+01   -1.023153406614924e+02   
1.000500000000000e+10    -1.827868537800238e+01   -1.024148769842556e+02   
1.000600000000000e+10    -1.834063696032766e+01   -1.024238398072909e+02   
1.000700000000000e+10    -1.833883974819696e+01   -1.024841852159885e+02   
1.000800000000000e+10    -1.840268163631519e+01   -1.025248646547723e+02   
1.000900000000000e+10    -1.840641340330185e+01   -1.021895962911618e+02   
1.001000000000000e+10    -1.844095558746852e+01   -1.023363732175202e+02   
1.001100000000000e+10    -1.846567269870479e+01   -1.021265441099740e+02   
1.001200000000000e+10    -1.848245129174676e+01   -1.020414953289996e+02   
1.001300000000000e+10    -1.849262930112790e+01   -1.018911697499001e+02   
1.001400000000000e+10    -1.851879770410825e+01   -1.016787915944999e+02   
1.001500000000000e+10    -1.849750802430205e+01   -1.016952972344809e+02   
1.001600000000000e+10    -1.851315183839204e+01   -1.014376302755618e+02   
1.001700000000000e+10    -1.851141358390019e+01   -1.012800085356421e+02   
1.001800000000000e+10    -1.849253126509191e+01   -1.011426717876059e+02   
1.001900000000000e+10    -1.847667802072326e+01   -1.010552285805170e+02   
1.002000000000000e+10    -1.846774472076273e+01   -1.008039997834487e+02   
1.002100000000000e+10    -1.843511807022733e+01   -1.006700802889094e+02   
1.002200000000000e+10    -1.838808714720254e+01   -1.006903582220453e+02   
1.002300000000000e+10    -1.836256027932057e+01   -1.006125124056848e+02   
1.002400000000000e+10    -1.831953646431408e+01   -1.007534696855058e+02   
1.002500000000000e+10    -1.827993191249310e+01   -1.006978911322859e+02   
1.002600000000000e+10    -1.823226709303529e+01   -1.007002982877659e+02   
1.002700000000000e+10    -1.819355148766240e+01   -1.007191649262319e+02   
1.002800000000000e+10    -1.812983214208849e+01   -1.009068180116951e+02   
1.002900000000000e+10    -1.810051258409712e+01   -1.009836187405351e+02   
1.003000000000000e+10    -1.805785646696811e+01   -1.012196957544099e+02   
1.003100000000000e+10    -1.801028572403086e+01   -1.015140516960014e+02   
1.003200000000000e+10    -1.798553731597580e+01   -1.016506550420590e+02   
1.003300000000000e+10    -1.797101312717142e+01   -1.019242968951026e+02   
1.003400000000000e+10    -1.791893053681865e+01   -1.022467874057549e+02   
1.003500000000000e+10    -1.790320629317147e+01   -1.024309055552877e+02   
1.003600000000000e+10    -1.789925272417343e+01   -1.027861506906719e+02   
1.003700000000000e+10    -1.786836160821666e+01   -1.031008574578054e+02   
1.003800000000000e+10    -1.787398416753270e+01   -1.033609249930935e+02   
1.003900000000000e+10    -1.784981437346182e+01   -1.037999811794563e+02   
1.004000000000000e+10    -1.786931958362219e+01   -1.038608419201787e+02   
1.004100000000000e+10    -1.784703362266561e+01   -1.041973633686399e+02   
1.004200000000000e+10    -1.788586316474832e+01   -1.043291144767757e+02   
1.004300000000000e+10    -1.788917560082846e+01   -1.047206176514985e+02   
1.004400000000000e+10    -1.789346363441091e+01   -1.050070985111010e+02   
1.004500000000000e+10    -1.794185505927585e+01   -1.051968239558088e+02   
1.004600000000000e+10    -1.795540390626527e+01   -1.052646171808713e+02   
1.004700000000000e+10    -1.797725169688120e+01   -1.055877530596406e+02   
1.004800000000000e+10    -1.800874112558790e+01   -1.057093820703213e+02   
1.004900000000000e+10    -1.806556464654821e+01   -1.058067165559220e+02   
1.005000000000000e+10    -1.810425827429060e+01   -1.058324014130239e+02   
1.005100000000000e+10    -1.811799757628419e+01   -1.057156778335065e+02   
1.005200000000000e+10    -1.814299808659409e+01   -1.057355810798156e+02   
1.005300000000000e+10    -1.817498079777407e+01   -1.057612963047349e+02   
1.005400000000000e+10    -1.821674984046105e+01   -1.057224400258193e+02   
1.005500000000000e+10    -1.823975286313665e+01   -1.056970678404510e+02   
1.005600000000000e+10    -1.827153564309207e+01   -1.053641259144383e+02   
1.005700000000000e+10    -1.830054253614660e+01   -1.052741180118844e+02   
1.005800000000000e+10    -1.830634174798088e+01   -1.048819323399392e+02   
1.005900000000000e+10    -1.831067568059267e+01   -1.048296592494304e+02   
1.006000000000000e+10    -1.831172788622122e+01   -1.046477967354447e+02   
1.006100000000000e+10    -1.832185484539908e+01   -1.043830778479181e+02   
1.006200000000000e+10    -1.831871489091859e+01   -1.040426556008059e+02   
1.006300000000000e+10    -1.828740540858413e+01   -1.037152992553771e+02   
1.006400000000000e+10    -1.828928980604086e+01   -1.035552847094696e+02   
1.006500000000000e+10    -1.825733113104167e+01   -1.034628012718148e+02   
1.006600000000000e+10    -1.823990854765953e+01   -1.032422667455330e+02   
1.006700000000000e+10    -1.822333739213759e+01   -1.029894231092900e+02   
1.006800000000000e+10    -1.819118992264111e+01   -1.031397017272027e+02   
1.006900000000000e+10    -1.814079151448701e+01   -1.028164356563046e+02   
1.007000000000000e+10    -1.809830740979872e+01   -1.027834336781300e+02   
1.007100000000000e+10    -1.805714026802909e+01   -1.027254155740274e+02   
1.007200000000000e+10    -1.802099776684325e+01   -1.028965710739109e+02   
1.007300000000000e+10    -1.797960765130758e+01   -1.028076307876126e+02   
1.007400000000000e+10    -1.793636050004745e+01   -1.029186119236337e+02   
1.007500000000000e+10    -1.791276612732656e+01   -1.030297336694665e+02   
1.007600000000000e+10    -1.786202681820038e+01   -1.032515147217897e+02   
1.007700000000000e+10    -1.783513569380525e+01   -1.033311203653230e+02   
1.007800000000000e+10    -1.779874294105738e+01   -1.035134564116101e+02   
1.007900000000000e+10    -1.776989468886984e+01   -1.035849524205699e+02   
1.008000000000000e+10    -1.775593072997353e+01   -1.038889323832751e+02   
1.008100000000000e+10    -1.773749526710032e+01   -1.044246227321190e+02   
1.008200000000000e+10    -1.772572916323211e+01   -1.046864331343330e+02   
1.008300000000000e+10    -1.773805954713409e+01   -1.048348429101775e+02   
1.008400000000000e+10    -1.772665225028835e+01   -1.052591955119782e+02   
1.008500000000000e+10    -1.772489064446807e+01   -1.055041247952321e+02   
1.008600000000000e+10    -1.773766127711846e+01   -1.057784191938238e+02   
1.008700000000000e+10    -1.775579133506027e+01   -1.060569662790205e+02   
1.008800000000000e+10    -1.776765549171110e+01   -1.064713626841587e+02   
1.008900000000000e+10    -1.780325979297371e+01   -1.065461476110971e+02   
1.009000000000000e+10    -1.781485911813340e+01   -1.068674980395397e+02   
1.009100000000000e+10    -1.784406525119476e+01   -1.071705456991432e+02   
1.009200000000000e+10    -1.788605100651243e+01   -1.072538043667099e+02   
1.009300000000000e+10    -1.793266017316846e+01   -1.074407914924710e+02   
1.009400000000000e+10    -1.797163340201079e+01   -1.076589876163885e+02   
1.009500000000000e+10    -1.800686102703727e+01   -1.077936861312423e+02   
1.009600000000000e+10    -1.804386636672574e+01   -1.076954286840874e+02   
1.009700000000000e+10    -1.808730653380877e+01   -1.077888974771071e+02   
1.009800000000000e+10    -1.814243275222019e+01   -1.077420519415426e+02   
1.009900000000000e+10    -1.817856943920339e+01   -1.077231014580042e+02   
1.010000000000000e+10    -1.819996473703906e+01   -1.077231387590893e+02   
1.010100000000000e+10    -1.823484310246366e+01   -1.075303085316146e+02   
1.010200000000000e+10    -1.827356699389729e+01   -1.074158496707959e+02   
1.010300000000000e+10    -1.829308315236101e+01   -1.073119072668478e+02   
1.010400000000000e+10    -1.830093621171381e+01   -1.070827245809359e+02   
1.010500000000000e+10    -1.831808894967721e+01   -1.069802846653618e+02   
1.010600000000000e+10    -1.831653931617632e+01   -1.065419319449519e+02   
1.010700000000000e+10    -1.831631263846518e+01   -1.066582215286041e+02   
1.010800000000000e+10    -1.833205010464057e+01   -1.062816292125908e+02   
1.010900000000000e+10    -1.829680066705737e+01   -1.061553379412066e+02   
1.011000000000000e+10    -1.827734135817188e+01   -1.058283985934215e+02   
1.011100000000000e+10    -1.822759584875023e+01   -1.058082209414954e+02   
1.011200000000000e+10    -1.821944502810173e+01   -1.056753112578657e+02   
1.011300000000000e+10    -1.816023816535843e+01   -1.056220703697011e+02   
1.011400000000000e+10    -1.814720424576929e+01   -1.054420423088536e+02   
1.011500000000000e+10    -1.809636616251155e+01   -1.054310478684701e+02   
1.011600000000000e+10    -1.807607477485375e+01   -1.053720979157803e+02   
1.011700000000000e+10    -1.804573096421087e+01   -1.054957685533852e+02   
1.011800000000000e+10    -1.799275867695758e+01   -1.055285788532388e+02   
1.011900000000000e+10    -1.794489773521787e+01   -1.056337104923778e+02   
1.012000000000000e+10    -1.788488680802262e+01   -1.057279977718056e+02   
1.012100000000000e+10    -1.786185233627219e+01   -1.060031825725375e+02   
1.012200000000000e+10    -1.781444136037356e+01   -1.060068920667498e+02   
1.012300000000000e+10    -1.778737093455853e+01   -1.062651649517849e+02   
1.012400000000000e+10    -1.777106156207943e+01   -1.065300461700894e+02   
1.012500000000000e+10    -1.774066648594392e+01   -1.067282780044048e+02   
1.012600000000000e+10    -1.773242083558265e+01   -1.069852556230179e+02   
1.012700000000000e+10    -1.770845369612847e+01   -1.073838124006996e+02   
1.012800000000000e+10    -1.769706721532814e+01   -1.075674311193531e+02   
1.012900000000000e+10    -1.768672278753927e+01   -1.079258967330854e+02   
1.013000000000000e+10    -1.769922770002633e+01   -1.081078298984529e+02   
1.013100000000000e+10    -1.770185032279152e+01   -1.084561785640376e+02   
1.013200000000000e+10    -1.771937110257318e+01   -1.087785949287631e+02   
1.013300000000000e+10    -1.773752838949218e+01   -1.091219769180811e+02   
1.013400000000000e+10    -1.774372888906668e+01   -1.092599698002788e+02   
1.013500000000000e+10    -1.777280701403419e+01   -1.095434063152171e+02   
1.013600000000000e+10    -1.780140149833107e+01   -1.096658264075835e+02   
1.013700000000000e+10    -1.782421578346844e+01   -1.098168344355837e+02   
1.013800000000000e+10    -1.785761451001813e+01   -1.100017370621150e+02   
1.013900000000000e+10    -1.789647132010790e+01   -1.101459461694789e+02   
1.014000000000000e+10    -1.793525757521262e+01   -1.101038233362565e+02   
1.014100000000000e+10    -1.798525660612450e+01   -1.102442311525799e+02   
1.014200000000000e+10    -1.801057372027177e+01   -1.101653774450495e+02   
1.014300000000000e+10    -1.806054509967235e+01   -1.101481352232011e+02   
1.014400000000000e+10    -1.809214035920885e+01   -1.100304732017340e+02   
1.014500000000000e+10    -1.812805699912133e+01   -1.100621891894943e+02   
1.014600000000000e+10    -1.814691091548875e+01   -1.098312538300733e+02   
1.014700000000000e+10    -1.817532205724838e+01   -1.095655808766933e+02   
1.014800000000000e+10    -1.821579885839652e+01   -1.095084831634661e+02   
1.014900000000000e+10    -1.821250881044413e+01   -1.092947660149911e+02   
1.015000000000000e+10    -1.822841676103249e+01   -1.091027369104799e+02   
1.015100000000000e+10    -1.823591902400358e+01   -1.088442354567394e+02   
1.015200000000000e+10    -1.823032043868649e+01   -1.085666528553991e+02   
1.015300000000000e+10    -1.822833793166667e+01   -1.084838607261773e+02   
1.015400000000000e+10    -1.821096284151204e+01   -1.081505122073457e+02   
1.015500000000000e+10    -1.822770464494138e+01   -1.081365422303168e+02   
1.015600000000000e+10    -1.819365444485331e+01   -1.078914636327707e+02   
1.015700000000000e+10    -1.816319709024297e+01   -1.076019364658132e+02   
1.015800000000000e+10    -1.812755061097592e+01   -1.075921127907546e+02   
1.015900000000000e+10    -1.809615757333838e+01   -1.074471322285607e+02   
1.016000000000000e+10    -1.805332249915425e+01   -1.074275135772473e+02   
1.016100000000000e+10    -1.802594937926618e+01   -1.074317213136432e+02   
1.016200000000000e+10    -1.798456274322805e+01   -1.072916394115361e+02   
1.016300000000000e+10    -1.794565044279145e+01   -1.073332312821033e+02   
1.016400000000000e+10    -1.793269658652777e+01   -1.074930551074048e+02   
1.016500000000000e+10    -1.787494837345996e+01   -1.075147833392753e+02   
1.016600000000000e+10    -1.785371126372225e+01   -1.077706789625053e+02   
1.016700000000000e+10    -1.780608729256922e+01   -1.078786778726427e+02   
1.016800000000000e+10    -1.777554156323564e+01   -1.080556484716026e+02   
1.016900000000000e+10    -1.775801974944515e+01   -1.082644884410805e+02   
1.017000000000000e+10    -1.774075202378729e+01   -1.086067824593103e+02   
1.017100000000000e+10    -1.770716367341521e+01   -1.089611905297487e+02   
1.017200000000000e+10    -1.769790661612569e+01   -1.090945911663420e+02   
1.017300000000000e+10    -1.768922782192270e+01   -1.094979627227644e+02   
1.017400000000000e+10    -1.768436311568774e+01   -1.097307499786942e+02   
1.017500000000000e+10    -1.767517417868926e+01   -1.100668574776931e+02   
1.017600000000000e+10    -1.767107991967587e+01   -1.102437836895669e+02   
1.017700000000000e+10    -1.770432429837427e+01   -1.106090434724457e+02   
1.017800000000000e+10    -1.770737388590961e+01   -1.109137295384495e+02   
1.017900000000000e+10    -1.772675753615804e+01   -1.110714903344571e+02   
1.018000000000000e+10    -1.774481852850921e+01   -1.113681941743306e+02   
1.018100000000000e+10    -1.777357676124215e+01   -1.115474225251868e+02   
1.018200000000000e+10    -1.780972957436436e+01   -1.117432127997517e+02   
1.018300000000000e+10    -1.782704026944430e+01   -1.119102987511577e+02   
1.018400000000000e+10    -1.787411807725558e+01   -1.121012314431378e+02   
1.018500000000000e+10    -1.789775189506220e+01   -1.122398466459555e+02   
1.018600000000000e+10    -1.792309924249699e+01   -1.124689554788352e+02   
1.018700000000000e+10    -1.796157598871412e+01   -1.123578547812393e+02   
1.018800000000000e+10    -1.799941776148917e+01   -1.124730726295941e+02   
1.018900000000000e+10    -1.803959310656466e+01   -1.124353646201309e+02   
1.019000000000000e+10    -1.806091101786479e+01   -1.123161746781147e+02   
1.019100000000000e+10    -1.808048699842952e+01   -1.122581665005757e+02   
1.019200000000000e+10    -1.810424325562724e+01   -1.120891429139078e+02   
1.019300000000000e+10    -1.812946319264979e+01   -1.121466189709575e+02   
1.019400000000000e+10    -1.814143641524424e+01   -1.118932017341584e+02   
1.019500000000000e+10    -1.815062638068057e+01   -1.117757137054561e+02   
1.019600000000000e+10    -1.813221409722768e+01   -1.115480902582473e+02   
1.019700000000000e+10    -1.814318325989940e+01   -1.113594152493604e+02   
1.019800000000000e+10    -1.813579581771324e+01   -1.112152637094908e+02   
1.019900000000000e+10    -1.812513656378281e+01   -1.109528378177809e+02   
1.020000000000000e+10    -1.810723966470420e+01   -1.109206035125537e+02   
1.020100000000000e+10    -1.809134114779375e+01   -1.107196097356812e+02   
1.020200000000000e+10    -1.805718609675108e+01   -1.105071747688989e+02   
1.020300000000000e+10    -1.804440780737654e+01   -1.104179820597180e+02   
1.020400000000000e+10    -1.799977532439199e+01   -1.103137352488657e+02   
1.020500000000000e+10    -1.797733991711661e+01   -1.103168094665457e+02   
1.020600000000000e+10    -1.792461828305671e+01   -1.101613713741114e+02   
1.020700000000000e+10    -1.790777783160800e+01   -1.101981540889303e+02   
1.020800000000000e+10    -1.787835234163238e+01   -1.102659391677009e+02   
1.020900000000000e+10    -1.782774177233331e+01   -1.102528500966261e+02   
1.021000000000000e+10    -1.778947171074716e+01   -1.103412649611556e+02   
1.021100000000000e+10    -1.776029524905685e+01   -1.104537708661670e+02   
1.021200000000000e+10    -1.773861406541560e+01   -1.104861915277641e+02   
1.021300000000000e+10    -1.768808657513237e+01   -1.107030401747912e+02   
1.021400000000000e+10    -1.767979777574499e+01   -1.107965327771702e+02   
1.021500000000000e+10    -1.763021433391349e+01   -1.111025168197888e+02   
1.021600000000000e+10    -1.761600592110987e+01   -1.113845840253720e+02   
1.021700000000000e+10    -1.760284949726488e+01   -1.114568903622311e+02   
1.021800000000000e+10    -1.759957707873105e+01   -1.117278374391437e+02   
1.021900000000000e+10    -1.758134852509430e+01   -1.118473566787622e+02   
1.022000000000000e+10    -1.759247547147063e+01   -1.121369110885441e+02   
1.022100000000000e+10    -1.756778333244192e+01   -1.123847452277101e+02   
1.022200000000000e+10    -1.758922407957434e+01   -1.125901308767385e+02   
1.022300000000000e+10    -1.759966933980035e+01   -1.128442926737868e+02   
1.022400000000000e+10    -1.761575651559333e+01   -1.131007591988569e+02   
1.022500000000000e+10    -1.763011070012012e+01   -1.132559248274021e+02   
1.022600000000000e+10    -1.766434801343183e+01   -1.134699452067171e+02   
1.022700000000000e+10    -1.767895280294709e+01   -1.136509526140672e+02   
1.022800000000000e+10    -1.773034033840565e+01   -1.137011586589733e+02   
1.022900000000000e+10    -1.773013111812213e+01   -1.138523154114528e+02   
1.023000000000000e+10    -1.777966140291453e+01   -1.140000778906909e+02   
1.023100000000000e+10    -1.779095055184539e+01   -1.139982910391829e+02   
1.023200000000000e+10    -1.785547637451938e+01   -1.140873295974502e+02   
1.023300000000000e+10    -1.785353990907776e+01   -1.141326279526619e+02   
1.023400000000000e+10    -1.791293248685922e+01   -1.142126575947584e+02   
1.023500000000000e+10    -1.792030753526607e+01   -1.141217592650285e+02   
1.023600000000000e+10    -1.797455229651026e+01   -1.140696770222082e+02   
1.023700000000000e+10    -1.799808384942477e+01   -1.139819593531731e+02   
1.023800000000000e+10    -1.803056189938455e+01   -1.139996898328485e+02   
1.023900000000000e+10    -1.805110139539671e+01   -1.137878308173684e+02   
1.024000000000000e+10    -1.808254445916583e+01   -1.136637987447467e+02   
1.024100000000000e+10    -1.808273631886727e+01   -1.136517517084370e+02   
1.024200000000000e+10    -1.808761279346630e+01   -1.134427114323571e+02   
1.024300000000000e+10    -1.809547100513095e+01   -1.131731969367451e+02   
1.024400000000000e+10    -1.809037215417629e+01   -1.131369094488189e+02   
1.024500000000000e+10    -1.809726061786430e+01   -1.129438564719487e+02   
1.024600000000000e+10    -1.807279288798871e+01   -1.129266256389433e+02   
1.024700000000000e+10    -1.807356037867195e+01   -1.127620116949414e+02   
1.024800000000000e+10    -1.806686672715649e+01   -1.128605353120463e+02   
1.024900000000000e+10    -1.802385505126567e+01   -1.127235718223166e+02   
1.025000000000000e+10    -1.800508161282583e+01   -1.125858844526421e+02   
1.025100000000000e+10    -1.800247242054915e+01   -1.125324355935243e+02   
1.025200000000000e+10    -1.796811889529668e+01   -1.126669551992514e+02   
1.025300000000000e+10    -1.792248531221732e+01   -1.126392244377758e+02   
1.025400000000000e+10    -1.788894177013632e+01   -1.126351320865131e+02   
1.025500000000000e+10    -1.787663160826017e+01   -1.127522115317830e+02   
1.025600000000000e+10    -1.784631660140952e+01   -1.129214505917889e+02   
