[Version] 2.0
! Rohde & Schwarz Vector Network Analyzer
! Rohde-Schwarz,ZNL20-2Port,1323001220200009,1.71.1.10-23.02.1.238
! 
! Port Assignments:
! Nominal Port -> Actual Test Port
! --------------------------------
!   1 -> 1

! Created: GMT 2024-09-04 10:32:37

# Hz S DB R 50

[Number of Ports] 1
[Number of Frequencies] 2001

[Network Data] 
! freq[Hz]               S11[mag dB]              S11[ang]                 
1.000000000000000e+10    -1.804194420742541e+01   -1.015963095060978e+02   
1.000100000000000e+10    -1.807044941982392e+01   -1.019032322420461e+02   
1.000200000000000e+10    -1.811196479213046e+01   -1.019545582579977e+02   
1.000300000000000e+10    -1.814288860474587e+01   -1.020721378645438e+02   
1.000400000000000e+10    -1.818467304698508e+01   -1.023000281736712e+02   
1.000500000000000e+10    -1.820255899418120e+01   -1.024572954378009e+02   
1.000600000000000e+10    -1.826687170493910e+01   -1.025046875576501e+02   
1.000700000000000e+10    -1.826750835555628e+01   -1.026129932015734e+02   
1.000800000000000e+10    -1.833579843646532e+01   -1.027056853603106e+02   
1.000900000000000e+10    -1.834498561184219e+01   -1.024086141242481e+02   
1.001000000000000e+10    -1.838540429653854e+01   -1.026006801320033e+02   
1.001100000000000e+10    -1.841697796722310e+01   -1.024204369248185e+02   
1.001200000000000e+10    -1.843999625301357e+01   -1.023544838304118e+02   
1.001300000000000e+10    -1.845938038000269e+01   -1.022164273306990e+02   
1.001400000000000e+10    -1.849442985071939e+01   -1.020187593037161e+02   
1.001500000000000e+10    -1.848184099504665e+01   -1.020320163015522e+02   
1.001600000000000e+10    -1.850530136090806e+01   -1.017667768718871e+02   
1.001700000000000e+10    -1.851159921347414e+01   -1.015923579507988e+02   
1.001800000000000e+10    -1.850097913872784e+01   -1.014284665567074e+02   
1.001900000000000e+10    -1.849138263174491e+01   -1.013113307922826e+02   
1.002000000000000e+10    -1.848912013653074e+01   -1.010231139105580e+02   
1.002100000000000e+10    -1.846203999565856e+01   -1.008453764896620e+02   
1.002200000000000e+10    -1.841752719622676e+01   -1.008115582473057e+02   
1.002300000000000e+10    -1.839754538635907e+01   -1.006826128083749e+02   
1.002400000000000e+10    -1.835561842472077e+01   -1.007769343576076e+02   
1.002500000000000e+10    -1.831613050086960e+01   -1.006637420730239e+02   
1.002600000000000e+10    -1.826896406670358e+01   -1.006080211682020e+02   
1.002700000000000e+10    -1.822782416811637e+01   -1.005671005868684e+02   
1.002800000000000e+10    -1.816272534646188e+01   -1.007154332228569e+02   
1.002900000000000e+10    -1.812977874261036e+01   -1.007392408820650e+02   
1.003000000000000e+10    -1.808331644079084e+01   -1.009392097079810e+02   
1.003100000000000e+10    -1.802976279303556e+01   -1.011938095262943e+02   
1.003200000000000e+10    -1.799901122589152e+01   -1.012896485390000e+02   
1.003300000000000e+10    -1.797913676334771e+01   -1.015287066483542e+02   
1.003400000000000e+10    -1.792000528703540e+01   -1.018377110281670e+02   
1.003500000000000e+10    -1.789703786014914e+01   -1.020001165378902e+02   
1.003600000000000e+10    -1.788624334703823e+01   -1.023533120928342e+02   
1.003700000000000e+10    -1.784662975251587e+01   -1.026593760426718e+02   
1.003800000000000e+10    -1.784487336560321e+01   -1.029210405078259e+02   
1.003900000000000e+10    -1.781391635733241e+01   -1.033614146144273e+02   
1.004000000000000e+10    -1.782627192114721e+01   -1.034438120894185e+02   
1.004100000000000e+10    -1.779638243261390e+01   -1.037931883892127e+02   
1.004200000000000e+10    -1.782726190085233e+01   -1.039486937203314e+02   
1.004300000000000e+10    -1.782665308292550e+01   -1.043792789748831e+02   
1.004400000000000e+10    -1.782546768501383e+01   -1.046987594032775e+02   
1.004500000000000e+10    -1.786764402495153e+01   -1.049238218103319e+02   
1.004600000000000e+10    -1.787866534217396e+01   -1.050390331925634e+02   
1.004700000000000e+10    -1.789556124405565e+01   -1.054102328821124e+02   
1.004800000000000e+10    -1.792592692107400e+01   -1.055847652342756e+02   
1.004900000000000e+10    -1.798210750045658e+01   -1.057242069251059e+02   
1.005000000000000e+10    -1.802174513100903e+01   -1.057979421951392e+02   
1.005100000000000e+10    -1.803659909147313e+01   -1.057382717177297e+02   
1.005200000000000e+10    -1.806314512475331e+01   -1.058086489987986e+02   
1.005300000000000e+10    -1.809899501831551e+01   -1.058914951572408e+02   
1.005400000000000e+10    -1.814465423217537e+01   -1.058879813954703e+02   
1.005500000000000e+10    -1.817306566276594e+01   -1.059098464323055e+02   
1.005600000000000e+10    -1.821344769855712e+01   -1.056104208424467e+02   
1.005700000000000e+10    -1.825045445460083e+01   -1.055540602990317e+02   
1.005800000000000e+10    -1.826209772751175e+01   -1.051850080302955e+02   
1.005900000000000e+10    -1.827445394384202e+01   -1.051508310072758e+02   
1.006000000000000e+10    -1.828475743098907e+01   -1.049631632691680e+02   
1.006100000000000e+10    -1.830309291456883e+01   -1.046972801026829e+02   
1.006200000000000e+10    -1.831000267903531e+01   -1.043471055860210e+02   
1.006300000000000e+10    -1.828557933441305e+01   -1.039911166104488e+02   
1.006400000000000e+10    -1.829458401989814e+01   -1.038116884983304e+02   
1.006500000000000e+10    -1.827048779967602e+01   -1.036791404561105e+02   
1.006600000000000e+10    -1.825965128329408e+01   -1.034221231993477e+02   
1.006700000000000e+10    -1.824875666642893e+01   -1.031219920870660e+02   
1.006800000000000e+10    -1.822054113997036e+01   -1.032224570407448e+02   
1.006900000000000e+10    -1.817242952334277e+01   -1.028389425355164e+02   
1.007000000000000e+10    -1.813304197355498e+01   -1.027603425266553e+02   
1.007100000000000e+10    -1.809077727492658e+01   -1.026398606594239e+02   
1.007200000000000e+10    -1.805619647891905e+01   -1.027573603275592e+02   
1.007300000000000e+10    -1.801193473633447e+01   -1.026136952440867e+02   
1.007400000000000e+10    -1.796596497592692e+01   -1.026604569903405e+02   
1.007500000000000e+10    -1.793818809633250e+01   -1.027296934103064e+02   
1.007600000000000e+10    -1.788361875897995e+01   -1.029207247619672e+02   
1.007700000000000e+10    -1.785080575608101e+01   -1.029540723382775e+02   
1.007800000000000e+10    -1.780733009119639e+01   -1.031009415226922e+02   
1.007900000000000e+10    -1.777335839104569e+01   -1.031414579578637e+02   
1.008000000000000e+10    -1.775126452727058e+01   -1.034156119521946e+02   
1.008100000000000e+10    -1.772572200799428e+01   -1.039349238033561e+02   
1.008200000000000e+10    -1.770780159853335e+01   -1.041884560786243e+02   
1.008300000000000e+10    -1.771102489279341e+01   -1.043312260719097e+02   
1.008400000000000e+10    -1.769276825484121e+01   -1.047592725284211e+02   
1.008500000000000e+10    -1.768318764975712e+01   -1.050121968026264e+02   
1.008600000000000e+10    -1.768807228120518e+01   -1.053105419492021e+02   
1.008700000000000e+10    -1.769830919763156e+01   -1.056081936784975e+02   
1.008800000000000e+10    -1.770544243194336e+01   -1.060452513532603e+02   
1.008900000000000e+10    -1.773434985160050e+01   -1.061675974953780e+02   
1.009000000000000e+10    -1.773988572457053e+01   -1.065157027092212e+02   
1.009100000000000e+10    -1.776470964235073e+01   -1.068658687783218e+02   
1.009200000000000e+10    -1.780246689837114e+01   -1.070048933917649e+02   
1.009300000000000e+10    -1.784703038150333e+01   -1.072342380678147e+02   
1.009400000000000e+10    -1.788501031251825e+01   -1.075088777333546e+02   
1.009500000000000e+10    -1.791944823556879e+01   -1.076903262828046e+02   
1.009600000000000e+10    -1.795938040373499e+01   -1.076561058331689e+02   
1.009700000000000e+10    -1.800262648446550e+01   -1.078020070478402e+02   
1.009800000000000e+10    -1.806186213074639e+01   -1.078139235475097e+02   
1.009900000000000e+10    -1.810221412112048e+01   -1.078402216102150e+02   
1.010000000000000e+10    -1.812879947697839e+01   -1.078798193697448e+02   
1.010100000000000e+10    -1.817083180134519e+01   -1.077374863000388e+02   
1.010200000000000e+10    -1.821634829376081e+01   -1.076578244196250e+02   
1.010300000000000e+10    -1.824275306257414e+01   -1.075766930173381e+02   
1.010400000000000e+10    -1.826009243915118e+01   -1.073685041968784e+02   
1.010500000000000e+10    -1.828601894268212e+01   -1.072797605791003e+02   
1.010600000000000e+10    -1.829353877401496e+01   -1.068366210324631e+02   
1.010700000000000e+10    -1.830283783968102e+01   -1.069536314333977e+02   
1.010800000000000e+10    -1.832677767077652e+01   -1.065604670519130e+02   
1.010900000000000e+10    -1.829956690072157e+01   -1.064095287308087e+02   
1.011000000000000e+10    -1.828828652910009e+01   -1.060538439080376e+02   
1.011100000000000e+10    -1.824571126855096e+01   -1.060016617397095e+02   
1.011200000000000e+10    -1.824324646797422e+01   -1.058180697017665e+02   
1.011300000000000e+10    -1.818959091329909e+01   -1.057146419930438e+02   
1.011400000000000e+10    -1.818050667251676e+01   -1.054813165316132e+02   
1.011500000000000e+10    -1.813264969408941e+01   -1.054225795335037e+02   
1.011600000000000e+10    -1.811356959344084e+01   -1.052990940028777e+02   
1.011700000000000e+10    -1.808395989036935e+01   -1.053671742614984e+02   
1.011800000000000e+10    -1.802924268288182e+01   -1.053387196666132e+02   
1.011900000000000e+10    -1.797908446457855e+01   -1.053868040850843e+02   
1.012000000000000e+10    -1.791652506420908e+01   -1.054345722129552e+02   
1.012100000000000e+10    -1.788944753900482e+01   -1.056513661784451e+02   
1.012200000000000e+10    -1.783638568521141e+01   -1.056153581179144e+02   
1.012300000000000e+10    -1.780223913472063e+01   -1.058295598362007e+02   
1.012400000000000e+10    -1.777962059989514e+01   -1.060652472517545e+02   
1.012500000000000e+10    -1.774306054827456e+01   -1.062373643229532e+02   
1.012600000000000e+10    -1.772687900190864e+01   -1.064603905868129e+02   
1.012700000000000e+10    -1.769526878142358e+01   -1.068572452397224e+02   
1.012800000000000e+10    -1.767447835847805e+01   -1.070288584752405e+02   
1.012900000000000e+10    -1.765586729494478e+01   -1.073924839350689e+02   
1.013000000000000e+10    -1.766090145547178e+01   -1.075769762341609e+02   
1.013100000000000e+10    -1.765535473425733e+01   -1.079360850853989e+02   
1.013200000000000e+10    -1.766360332743599e+01   -1.082730805544979e+02   
1.013300000000000e+10    -1.767586837972375e+01   -1.086386071204178e+02   
1.013400000000000e+10    -1.767390194239317e+01   -1.088054872988044e+02   
1.013500000000000e+10    -1.769685556802032e+01   -1.091359430875110e+02   
1.013600000000000e+10    -1.772050028756257e+01   -1.092889106024284e+02   
1.013700000000000e+10    -1.773878682989165e+01   -1.095001022097600e+02   
1.013800000000000e+10    -1.776930408390994e+01   -1.097389895732927e+02   
1.013900000000000e+10    -1.780587987386115e+01   -1.099361443749965e+02   
1.014000000000000e+10    -1.784226506519448e+01   -1.099498996783816e+02   
1.014100000000000e+10    -1.789341202633835e+01   -1.101478253725708e+02   
1.014200000000000e+10    -1.791970000516952e+01   -1.101444913433106e+02   
1.014300000000000e+10    -1.797296215193066e+01   -1.101746428149455e+02   
1.014400000000000e+10    -1.800820739500923e+01   -1.101104091068146e+02   
1.014500000000000e+10    -1.804871966881171e+01   -1.101911996274127e+02   
1.014600000000000e+10    -1.807356220615927e+01   -1.100030313540293e+02   
1.014700000000000e+10    -1.810999353441932e+01   -1.097843077873556e+02   
1.014800000000000e+10    -1.815925744278551e+01   -1.097518241825227e+02   
1.014900000000000e+10    -1.816407485684504e+01   -1.095667430890254e+02   
1.015000000000000e+10    -1.818915443324357e+01   -1.093887990956062e+02   
1.015100000000000e+10    -1.820583448371780e+01   -1.091369263897147e+02   
1.015200000000000e+10    -1.821011635139421e+01   -1.088526738700093e+02   
1.015300000000000e+10    -1.821642776445124e+01   -1.087505543293452e+02   
1.015400000000000e+10    -1.820829915577117e+01   -1.084040524078143e+02   
1.015500000000000e+10    -1.823308786570481e+01   -1.083605932496399e+02   
1.015600000000000e+10    -1.820715952342950e+01   -1.080862722391663e+02   
1.015700000000000e+10    -1.818386246187269e+01   -1.077480379485264e+02   
1.015800000000000e+10    -1.815311692495513e+01   -1.076907556265032e+02   
1.015900000000000e+10    -1.812833994554061e+01   -1.074933447409049e+02   
1.016000000000000e+10    -1.808681652510296e+01   -1.074110790483586e+02   
1.016100000000000e+10    -1.806369539215839e+01   -1.073527072614810e+02   
1.016200000000000e+10    -1.802374187984422e+01   -1.071495207590816e+02   
1.016300000000000e+10    -1.798437843642571e+01   -1.071404131027422e+02   
1.016400000000000e+10    -1.796923466708404e+01   -1.072385188713790e+02   
1.016500000000000e+10    -1.790893139766042e+01   -1.072050549135815e+02   
1.016600000000000e+10    -1.788603138088397e+01   -1.074005988997142e+02   
1.016700000000000e+10    -1.783183153022688e+01   -1.074615077910496e+02   
1.016800000000000e+10    -1.779689540234885e+01   -1.075931468403614e+02   
1.016900000000000e+10    -1.777298419499493e+01   -1.077527379985125e+02   
1.017000000000000e+10    -1.774807709832421e+01   -1.080613981067823e+02   
1.017100000000000e+10    -1.770814955365244e+01   -1.083957140071007e+02   
1.017200000000000e+10    -1.769033567661750e+01   -1.085045958166943e+02   
1.017300000000000e+10    -1.767362639945281e+01   -1.089016288447149e+02   
1.017400000000000e+10    -1.765873637288519e+01   -1.091227006299239e+02   
1.017500000000000e+10    -1.764119573013082e+01   -1.094687997331416e+02   
1.017600000000000e+10    -1.762917767114381e+01   -1.096520311831236e+02   
1.017700000000000e+10    -1.765463250300520e+01   -1.100347115796204e+02   
1.017800000000000e+10    -1.764820781906617e+01   -1.103681491190475e+02   
1.017900000000000e+10    -1.766117473614220e+01   -1.105562336013301e+02   
1.018000000000000e+10    -1.767297884944394e+01   -1.108913173847506e+02   
1.018100000000000e+10    -1.769481790910114e+01   -1.111127666417862e+02   
1.018200000000000e+10    -1.772667914354173e+01   -1.113671321514607e+02   
1.018300000000000e+10    -1.774004014814021e+01   -1.115741758254136e+02   
1.018400000000000e+10    -1.778485319714667e+01   -1.118190820260874e+02   
1.018500000000000e+10    -1.780566543422872e+01   -1.120230858892614e+02   
1.018600000000000e+10    -1.783277243242960e+01   -1.123142484411350e+02   
1.018700000000000e+10    -1.787066731785047e+01   -1.122677971978514e+02   
1.018800000000000e+10    -1.791121719956558e+01   -1.124323913927194e+02   
1.018900000000000e+10    -1.795436992287634e+01   -1.124571968210202e+02   
1.019000000000000e+10    -1.798162082397916e+01   -1.123865799620743e+02   
1.019100000000000e+10    -1.800593948431705e+01   -1.123783334667862e+02   
1.019200000000000e+10    -1.803751233511349e+01   -1.122561958946021e+02   
1.019300000000000e+10    -1.807023742453165e+01   -1.123541904499311e+02   
1.019400000000000e+10    -1.808891097839420e+01   -1.121245309937212e+02   
1.019500000000000e+10    -1.810829194916133e+01   -1.120414281979561e+02   
1.019600000000000e+10    -1.809881966159463e+01   -1.118226178933234e+02   
1.019700000000000e+10    -1.812036123950784e+01   -1.116371675580826e+02   
1.019800000000000e+10    -1.812202990575449e+01   -1.114897666326319e+02   
1.019900000000000e+10    -1.812305046870726e+01   -1.112086926619602e+02   
1.020000000000000e+10    -1.811333599142640e+01   -1.111607439930170e+02   
1.020100000000000e+10    -1.810492570311824e+01   -1.109271103999135e+02   
1.020200000000000e+10    -1.807781426838591e+01   -1.106725840524158e+02   
1.020300000000000e+10    -1.807333124517217e+01   -1.105412647803076e+02   
1.020400000000000e+10    -1.803238073165631e+01   -1.103863823583992e+02   
1.020500000000000e+10    -1.801587499893255e+01   -1.103321266684168e+02   
1.020600000000000e+10    -1.796531032979446e+01   -1.101097494077665e+02   
1.020700000000000e+10    -1.795069863569150e+01   -1.100967848314818e+02   
1.020800000000000e+10    -1.792201197598405e+01   -1.101020313646844e+02   
1.020900000000000e+10    -1.787007302384106e+01   -1.100332507115082e+02   
1.021000000000000e+10    -1.783110095591862e+01   -1.100482535250912e+02   
1.021100000000000e+10    -1.779913463652327e+01   -1.101054341608470e+02   
1.021200000000000e+10    -1.777298459630002e+01   -1.100839819435644e+02   
1.021300000000000e+10    -1.771564552326634e+01   -1.102526143498604e+02   
1.021400000000000e+10    -1.770236599770575e+01   -1.103003972550525e+02   
1.021500000000000e+10    -1.764665343608135e+01   -1.105622896264103e+02   
1.021600000000000e+10    -1.762497104222100e+01   -1.108188078504307e+02   
1.021700000000000e+10    -1.760256991167399e+01   -1.108534561955696e+02   
1.021800000000000e+10    -1.759057497202354e+01   -1.111118038280178e+02   
1.021900000000000e+10    -1.756239645649045e+01   -1.112170951588789e+02   
1.022000000000000e+10    -1.756543715299988e+01   -1.115131670848598e+02   
1.022100000000000e+10    -1.753084227738161e+01   -1.117556042065529e+02   
1.022200000000000e+10    -1.754179253247874e+01   -1.119835435164877e+02   
1.022300000000000e+10    -1.754490658775813e+01   -1.122516922891461e+02   
1.022400000000000e+10    -1.755375450759363e+01   -1.125443791275369e+02   
1.022500000000000e+10    -1.756050354237522e+01   -1.127409547426234e+02   
1.022600000000000e+10    -1.758733460757330e+01   -1.129957392338034e+02   
1.022700000000000e+10    -1.759735497029560e+01   -1.132204251959622e+02   
1.022800000000000e+10    -1.764360140408159e+01   -1.133340923939367e+02   
1.022900000000000e+10    -1.763914047523012e+01   -1.135356804581622e+02   
1.023000000000000e+10    -1.768671176470892e+01   -1.137400606129739e+02   
1.023100000000000e+10    -1.769752270678027e+01   -1.137996023671689e+02   
1.023200000000000e+10    -1.776102797007126e+01   -1.139451894721556e+02   
1.023300000000000e+10    -1.776218301888198e+01   -1.140548161090380e+02   
1.023400000000000e+10    -1.782311085828111e+01   -1.141882889213082e+02   
1.023500000000000e+10    -1.783507597225336e+01   -1.141627621645572e+02   
1.023600000000000e+10    -1.789424531320965e+01   -1.141527427972343e+02   
1.023700000000000e+10    -1.792450239320387e+01   -1.141204622248380e+02   
1.023800000000000e+10    -1.796357464851284e+01   -1.141712620151437e+02   
1.023900000000000e+10    -1.799007458121790e+01   -1.139965594024306e+02   
1.024000000000000e+10    -1.803189569061880e+01   -1.138951930453761e+02   
1.024100000000000e+10    -1.804064647323938e+01   -1.139004394707551e+02   
1.024200000000000e+10    -1.805578073500958e+01   -1.137069983199620e+02   
1.024300000000000e+10    -1.807399908998219e+01   -1.134407649257110e+02   
1.024400000000000e+10    -1.807914307043144e+01   -1.133946047460705e+02   
1.024500000000000e+10    -1.809434149675448e+01   -1.131834359235080e+02   
1.024600000000000e+10    -1.807998266106920e+01   -1.131428964012685e+02   
1.024700000000000e+10    -1.808998272161639e+01   -1.129471898782037e+02   
1.024800000000000e+10    -1.809062685745290e+01   -1.130048931392465e+02   
1.024900000000000e+10    -1.805422942366004e+01   -1.128151853171107e+02   
1.025000000000000e+10    -1.804129456570940e+01   -1.126260694046763e+02   
1.025100000000000e+10    -1.804478902097305e+01   -1.125058180027655e+02   
1.025200000000000e+10    -1.801400477977396e+01   -1.125849626083352e+02   
1.025300000000000e+10    -1.797005044932708e+01   -1.124899495138101e+02   
1.025400000000000e+10    -1.793709568893097e+01   -1.124229686833014e+02   
1.025500000000000e+10    -1.792517533187156e+01   -1.124685226980413e+02   
1.025600000000000e+10    -1.789209843095873e+01   -1.125728219932866e+02   
