[Version] 2.0
! Rohde & Schwarz Vector Network Analyzer
! Rohde-Schwarz,ZNL20-2Port,1323001220200009,1.71.1.10-23.02.1.238
! 
! Port Assignments:
! Nominal Port -> Actual Test Port
! --------------------------------
!   1 -> 1

! Created: GMT 2024-09-04 10:33:11

# Hz S DB R 50

[Number of Ports] 1
[Number of Frequencies] 2001

[Network Data] 
! freq[Hz]               S11[mag dB]              S11[ang]                 
1.000000000000000e+10    -1.802787887058066e+01   -1.015393995973137e+02   
1.000100000000000e+10    -1.805565959917286e+01   -1.018534775138923e+02   
1.000200000000000e+10    -1.809644676208499e+01   -1.019212281761151e+02   
1.000300000000000e+10    -1.812462337225259e+01   -1.020563000793303e+02   
1.000400000000000e+10    -1.816712930646570e+01   -1.022911168988686e+02   
1.000500000000000e+10    -1.818418382369702e+01   -1.024567171364051e+02   
1.000600000000000e+10    -1.824811874122263e+01   -1.025260624617992e+02   
1.000700000000000e+10    -1.825089669578763e+01   -1.026392722887927e+02   
1.000800000000000e+10    -1.831718416802175e+01   -1.027556489195529e+02   
1.000900000000000e+10    -1.832851081352408e+01   -1.024672516262041e+02   
1.001000000000000e+10    -1.837014563912256e+01   -1.026669108121667e+02   
1.001100000000000e+10    -1.840368800404033e+01   -1.024946981752853e+02   
1.001200000000000e+10    -1.842893248877487e+01   -1.024410154344941e+02   
1.001300000000000e+10    -1.844933031891832e+01   -1.023100236889549e+02   
1.001400000000000e+10    -1.848589818920611e+01   -1.021112968758556e+02   
1.001500000000000e+10    -1.847603943286121e+01   -1.021286361438633e+02   
1.001600000000000e+10    -1.850111004266566e+01   -1.018671402199345e+02   
1.001700000000000e+10    -1.850980540102798e+01   -1.016936676928012e+02   
1.001800000000000e+10    -1.850171002710751e+01   -1.015276112395638e+02   
1.001900000000000e+10    -1.849432883943211e+01   -1.014060753225042e+02   
1.002000000000000e+10    -1.849417168979582e+01   -1.010992224216982e+02   
1.002100000000000e+10    -1.846799997693824e+01   -1.009185105344960e+02   
1.002200000000000e+10    -1.842567021494717e+01   -1.008726333746082e+02   
1.002300000000000e+10    -1.840585312970999e+01   -1.007346595339555e+02   
1.002400000000000e+10    -1.836545504850871e+01   -1.008053329155390e+02   
1.002500000000000e+10    -1.832690605950646e+01   -1.006776641234844e+02   
1.002600000000000e+10    -1.827951387741242e+01   -1.006123053079143e+02   
1.002700000000000e+10    -1.823847372496130e+01   -1.005555207518461e+02   
1.002800000000000e+10    -1.817310233530328e+01   -1.006890248418186e+02   
1.002900000000000e+10    -1.813965143397120e+01   -1.006972789637057e+02   
1.003000000000000e+10    -1.809132098400344e+01   -1.008853517089030e+02   
1.003100000000000e+10    -1.803688445756370e+01   -1.011302391227867e+02   
1.003200000000000e+10    -1.800562080124664e+01   -1.012144436922337e+02   
1.003300000000000e+10    -1.798432258145158e+01   -1.014489019489446e+02   
1.003400000000000e+10    -1.792356616825652e+01   -1.017492866448255e+02   
1.003500000000000e+10    -1.789848725598261e+01   -1.019057305139552e+02   
1.003600000000000e+10    -1.788506751696950e+01   -1.022474164836453e+02   
1.003700000000000e+10    -1.784379100015639e+01   -1.025520392066131e+02   
1.003800000000000e+10    -1.783985419690875e+01   -1.028078467841502e+02   
1.003900000000000e+10    -1.780717744767486e+01   -1.032549718172195e+02   
1.004000000000000e+10    -1.781815696781982e+01   -1.033290214250027e+02   
1.004100000000000e+10    -1.778580460461687e+01   -1.036862299099703e+02   
1.004200000000000e+10    -1.781622610653512e+01   -1.038554258935695e+02   
1.004300000000000e+10    -1.781338282260034e+01   -1.042830057884373e+02   
1.004400000000000e+10    -1.781014028767283e+01   -1.046040554234558e+02   
1.004500000000000e+10    -1.785153548432930e+01   -1.048450426324816e+02   
1.004600000000000e+10    -1.786103558114304e+01   -1.049679876359639e+02   
1.004700000000000e+10    -1.787776121160773e+01   -1.053450406212878e+02   
1.004800000000000e+10    -1.790602856238373e+01   -1.055337905023128e+02   
1.004900000000000e+10    -1.796238738306571e+01   -1.056921839422929e+02   
1.005000000000000e+10    -1.800206959387800e+01   -1.057736464242288e+02   
1.005100000000000e+10    -1.801558367005935e+01   -1.057241072359289e+02   
1.005200000000000e+10    -1.804265377331426e+01   -1.058149057438183e+02   
1.005300000000000e+10    -1.808038998975018e+01   -1.059051129573534e+02   
1.005400000000000e+10    -1.812695577430038e+01   -1.059212483838704e+02   
1.005500000000000e+10    -1.815603402008266e+01   -1.059507983702820e+02   
1.005600000000000e+10    -1.819719759336140e+01   -1.056661856271959e+02   
1.005700000000000e+10    -1.823620740719632e+01   -1.056167389154513e+02   
1.005800000000000e+10    -1.825007941802469e+01   -1.052610700074933e+02   
1.005900000000000e+10    -1.826439683121043e+01   -1.052248767131330e+02   
1.006000000000000e+10    -1.827674863796181e+01   -1.050489375048521e+02   
1.006100000000000e+10    -1.829791939973295e+01   -1.047879222921317e+02   
1.006200000000000e+10    -1.830696559374644e+01   -1.044358594239011e+02   
1.006300000000000e+10    -1.828530056744826e+01   -1.040786779485474e+02   
1.006400000000000e+10    -1.829623476627483e+01   -1.038917323000163e+02   
1.006500000000000e+10    -1.827426999313180e+01   -1.037556047515437e+02   
1.006600000000000e+10    -1.826622902734035e+01   -1.034826770377665e+02   
1.006700000000000e+10    -1.825619651143275e+01   -1.031752800950582e+02   
1.006800000000000e+10    -1.822980098590484e+01   -1.032697639707184e+02   
1.006900000000000e+10    -1.818365730222937e+01   -1.028645882536309e+02   
1.007000000000000e+10    -1.814272411818205e+01   -1.027762269403736e+02   
1.007100000000000e+10    -1.810311737526261e+01   -1.026362779366161e+02   
1.007200000000000e+10    -1.806666233073297e+01   -1.027442666930582e+02   
1.007300000000000e+10    -1.802459120054056e+01   -1.025850184841568e+02   
1.007400000000000e+10    -1.797711662261374e+01   -1.026213195363336e+02   
1.007500000000000e+10    -1.794947760166108e+01   -1.026733312399528e+02   
1.007600000000000e+10    -1.789349784061305e+01   -1.028553692788636e+02   
1.007700000000000e+10    -1.785959470990704e+01   -1.028735757445353e+02   
1.007800000000000e+10    -1.781503697084412e+01   -1.030060897711396e+02   
1.007900000000000e+10    -1.777946062237363e+01   -1.030455153863670e+02   
1.008000000000000e+10    -1.775537354106419e+01   -1.033053242326514e+02   
1.008100000000000e+10    -1.772798413402474e+01   -1.038287402032804e+02   
1.008200000000000e+10    -1.770825846133718e+01   -1.040749979038127e+02   
1.008300000000000e+10    -1.770933013352942e+01   -1.042099808699066e+02   
1.008400000000000e+10    -1.768915822806710e+01   -1.046402650909846e+02   
1.008500000000000e+10    -1.767633997619457e+01   -1.048989550382972e+02   
1.008600000000000e+10    -1.768034586076450e+01   -1.051978587165275e+02   
1.008700000000000e+10    -1.768896810023954e+01   -1.054919175657750e+02   
1.008800000000000e+10    -1.769342270667849e+01   -1.059455275072160e+02   
1.008900000000000e+10    -1.772061885308831e+01   -1.060723121003832e+02   
1.009000000000000e+10    -1.772646107693148e+01   -1.064238431885959e+02   
1.009100000000000e+10    -1.774813312952929e+01   -1.067830643848908e+02   
1.009200000000000e+10    -1.778603676001435e+01   -1.069325825634496e+02   
1.009300000000000e+10    -1.782888260259644e+01   -1.071792167568949e+02   
1.009400000000000e+10    -1.786583616181399e+01   -1.074661446828636e+02   
1.009500000000000e+10    -1.789926117719988e+01   -1.076630567317058e+02   
1.009600000000000e+10    -1.793820903167933e+01   -1.076383961826999e+02   
1.009700000000000e+10    -1.798335224380019e+01   -1.078008526666892e+02   
1.009800000000000e+10    -1.804210903605968e+01   -1.078246877108862e+02   
1.009900000000000e+10    -1.808255786972272e+01   -1.078719525791860e+02   
1.010000000000000e+10    -1.811023806141892e+01   -1.079200778784525e+02   
1.010100000000000e+10    -1.815302567459929e+01   -1.077914306912545e+02   
1.010200000000000e+10    -1.820057260428508e+01   -1.077249433310181e+02   
1.010300000000000e+10    -1.822997869163146e+01   -1.076492803017874e+02   
1.010400000000000e+10    -1.824880642733189e+01   -1.074561074808501e+02   
1.010500000000000e+10    -1.827567737224010e+01   -1.073719440426919e+02   
1.010600000000000e+10    -1.828588117237294e+01   -1.069372514759826e+02   
1.010700000000000e+10    -1.829719560650408e+01   -1.070415863174512e+02   
1.010800000000000e+10    -1.832321139838492e+01   -1.066553022585054e+02   
1.010900000000000e+10    -1.829986145341362e+01   -1.064968351458301e+02   
1.011000000000000e+10    -1.828971517068884e+01   -1.061328556876564e+02   
1.011100000000000e+10    -1.824995050610392e+01   -1.060776883519333e+02   
1.011200000000000e+10    -1.824902908720712e+01   -1.058852449658604e+02   
1.011300000000000e+10    -1.819788046938357e+01   -1.057643286585526e+02   
1.011400000000000e+10    -1.818946894907614e+01   -1.055292109785491e+02   
1.011500000000000e+10    -1.814212867434784e+01   -1.054430047109945e+02   
1.011600000000000e+10    -1.812479143122145e+01   -1.053119465540453e+02   
1.011700000000000e+10    -1.809566482804377e+01   -1.053681865696288e+02   
1.011800000000000e+10    -1.804041661240016e+01   -1.053215406801635e+02   
1.011900000000000e+10    -1.799082467860563e+01   -1.053572800365374e+02   
1.012000000000000e+10    -1.792882122139125e+01   -1.053910171256487e+02   
1.012100000000000e+10    -1.789959660812854e+01   -1.055942567770991e+02   
1.012200000000000e+10    -1.784598464501624e+01   -1.055414066479487e+02   
1.012300000000000e+10    -1.781193747843115e+01   -1.057417479412756e+02   
1.012400000000000e+10    -1.778749566015748e+01   -1.059658380951857e+02   
1.012500000000000e+10    -1.774843454702427e+01   -1.061367431779740e+02   
1.012600000000000e+10    -1.773033530431311e+01   -1.063538671776656e+02   
1.012700000000000e+10    -1.769631992388939e+01   -1.067377328317273e+02   
1.012800000000000e+10    -1.767399149571823e+01   -1.069059833847568e+02   
1.012900000000000e+10    -1.765324360293426e+01   -1.072640175271653e+02   
1.013000000000000e+10    -1.765623317649949e+01   -1.074484724870011e+02   
1.013100000000000e+10    -1.764884363845268e+01   -1.078073918987038e+02   
1.013200000000000e+10    -1.765573560628795e+01   -1.081461045993430e+02   
1.013300000000000e+10    -1.766461960919650e+01   -1.085215193407735e+02   
1.013400000000000e+10    -1.766222248630690e+01   -1.087005885013576e+02   
1.013500000000000e+10    -1.768216455763745e+01   -1.090240132690085e+02   
1.013600000000000e+10    -1.770402144596515e+01   -1.091991825027774e+02   
1.013700000000000e+10    -1.772121249259542e+01   -1.094136122049395e+02   
1.013800000000000e+10    -1.775009921323439e+01   -1.096671372330663e+02   
1.013900000000000e+10    -1.778618405460059e+01   -1.098759073062460e+02   
1.014000000000000e+10    -1.782189511577007e+01   -1.099015132439125e+02   
1.014100000000000e+10    -1.787250403217547e+01   -1.101218752954423e+02   
1.014200000000000e+10    -1.789812205007496e+01   -1.101214117234793e+02   
1.014300000000000e+10    -1.795173943681491e+01   -1.101692253966607e+02   
1.014400000000000e+10    -1.798729255367479e+01   -1.101230967969298e+02   
1.014500000000000e+10    -1.802806606005822e+01   -1.102147079938244e+02   
1.014600000000000e+10    -1.805550460834415e+01   -1.100360238382005e+02   
1.014700000000000e+10    -1.809280071038178e+01   -1.098381082943899e+02   
1.014800000000000e+10    -1.814280016868588e+01   -1.098107913454294e+02   
1.014900000000000e+10    -1.814972849270138e+01   -1.096286732965071e+02   
1.015000000000000e+10    -1.817838151725195e+01   -1.094652600717355e+02   
1.015100000000000e+10    -1.819582572882176e+01   -1.092183384150171e+02   
1.015200000000000e+10    -1.820281139185194e+01   -1.089412120366399e+02   
1.015300000000000e+10    -1.821182286846249e+01   -1.088427406462204e+02   
1.015400000000000e+10    -1.820681039464608e+01   -1.084924935849874e+02   
1.015500000000000e+10    -1.823308590335780e+01   -1.084446622434988e+02   
1.015600000000000e+10    -1.820873572001675e+01   -1.081627576573847e+02   
1.015700000000000e+10    -1.818882685365148e+01   -1.078177446478170e+02   
1.015800000000000e+10    -1.815953804740315e+01   -1.077489628731103e+02   
1.015900000000000e+10    -1.813634435914999e+01   -1.075441919154049e+02   
1.016000000000000e+10    -1.809695337393461e+01   -1.074495755132085e+02   
1.016100000000000e+10    -1.807409663782680e+01   -1.073772559902531e+02   
1.016200000000000e+10    -1.803389403525628e+01   -1.071589032263936e+02   
1.016300000000000e+10    -1.799513709773816e+01   -1.071248783444780e+02   
1.016400000000000e+10    -1.798191809921687e+01   -1.072094395850725e+02   
1.016500000000000e+10    -1.792131641584849e+01   -1.071551550443780e+02   
1.016600000000000e+10    -1.789636671514532e+01   -1.073464282089549e+02   
1.016700000000000e+10    -1.784218021740405e+01   -1.073936705066337e+02   
1.016800000000000e+10    -1.780686803243500e+01   -1.075061124134407e+02   
1.016900000000000e+10    -1.778035415519519e+01   -1.076573571028233e+02   
1.017000000000000e+10    -1.775444053528400e+01   -1.079538059412620e+02   
1.017100000000000e+10    -1.771218396481725e+01   -1.082756781446021e+02   
1.017200000000000e+10    -1.769349002447994e+01   -1.083834187376240e+02   
1.017300000000000e+10    -1.767528212736170e+01   -1.087712365058984e+02   
1.017400000000000e+10    -1.765696327115920e+01   -1.089839929011117e+02   
1.017500000000000e+10    -1.763744038450619e+01   -1.093297888135139e+02   
1.017600000000000e+10    -1.762252221089079e+01   -1.095058706575912e+02   
1.017700000000000e+10    -1.764631184158385e+01   -1.098972005707535e+02   
1.017800000000000e+10    -1.763801012292407e+01   -1.102303505054223e+02   
1.017900000000000e+10    -1.764827013026665e+01   -1.104191382382178e+02   
1.018000000000000e+10    -1.765817700106149e+01   -1.107643996813744e+02   
1.018100000000000e+10    -1.767954675983283e+01   -1.109967354482153e+02   
1.018200000000000e+10    -1.770941651070804e+01   -1.112541408075382e+02   
1.018300000000000e+10    -1.772060968410209e+01   -1.114839001948773e+02   
1.018400000000000e+10    -1.776396818473467e+01   -1.117412586559759e+02   
1.018500000000000e+10    -1.778414493765987e+01   -1.119546832801943e+02   
1.018600000000000e+10    -1.781022701745336e+01   -1.122553864904222e+02   
1.018700000000000e+10    -1.784810049046221e+01   -1.122272806141511e+02   
1.018800000000000e+10    -1.789040958193245e+01   -1.124062298790816e+02   
1.018900000000000e+10    -1.793312409204970e+01   -1.124469633269024e+02   
1.019000000000000e+10    -1.796102371689187e+01   -1.123867295475194e+02   
1.019100000000000e+10    -1.798692046847014e+01   -1.123985348526152e+02   
1.019200000000000e+10    -1.801833094862265e+01   -1.122899088866200e+02   
1.019300000000000e+10    -1.805393763868384e+01   -1.123991178606933e+02   
1.019400000000000e+10    -1.807391223360335e+01   -1.121799673809564e+02   
1.019500000000000e+10    -1.809548679221278e+01   -1.121060223121592e+02   
1.019600000000000e+10    -1.808726682466124e+01   -1.118967591748922e+02   
1.019700000000000e+10    -1.811158403145978e+01   -1.117163199274863e+02   
1.019800000000000e+10    -1.811562319260870e+01   -1.115739317662441e+02   
1.019900000000000e+10    -1.811799887480076e+01   -1.112931220451903e+02   
1.020000000000000e+10    -1.811161090332864e+01   -1.112353269963411e+02   
1.020100000000000e+10    -1.810583431173774e+01   -1.110064576330078e+02   
1.020200000000000e+10    -1.808271089832902e+01   -1.107423988092886e+02   
1.020300000000000e+10    -1.807906711705183e+01   -1.105989475309116e+02   
1.020400000000000e+10    -1.804089560944638e+01   -1.104310237376312e+02   
1.020500000000000e+10    -1.802541246514824e+01   -1.103648991923932e+02   
1.020600000000000e+10    -1.797701795469713e+01   -1.101308570230206e+02   
1.020700000000000e+10    -1.796384024598764e+01   -1.101023359579753e+02   
1.020800000000000e+10    -1.793614002017360e+01   -1.100898710621361e+02   
1.020900000000000e+10    -1.788422633901082e+01   -1.100119038679064e+02   
1.021000000000000e+10    -1.784396745890368e+01   -1.100105641139443e+02   
1.021100000000000e+10    -1.781160075441128e+01   -1.100581059106868e+02   
1.021200000000000e+10    -1.778543663063450e+01   -1.100136861447011e+02   
1.021300000000000e+10    -1.772791733991221e+01   -1.101653001183308e+02   
1.021400000000000e+10    -1.771369083946500e+01   -1.102073588363281e+02   
1.021500000000000e+10    -1.765582168883335e+01   -1.104610005812031e+02   
1.021600000000000e+10    -1.763188542228157e+01   -1.107021385306290e+02   
1.021700000000000e+10    -1.760781309195967e+01   -1.107275305443907e+02   
1.021800000000000e+10    -1.759396044234060e+01   -1.109825912204715e+02   
1.021900000000000e+10    -1.756534286341032e+01   -1.110806888762406e+02   
1.022000000000000e+10    -1.756562199389415e+01   -1.113688362692949e+02   
1.022100000000000e+10    -1.752871077563971e+01   -1.116196340179633e+02   
1.022200000000000e+10    -1.753796919555344e+01   -1.118406306469837e+02   
1.022300000000000e+10    -1.753711095310773e+01   -1.121173794542905e+02   
1.022400000000000e+10    -1.754366471714414e+01   -1.124055941337308e+02   
1.022500000000000e+10    -1.754898031019431e+01   -1.126152100635235e+02   
1.022600000000000e+10    -1.757347222764111e+01   -1.128724800583099e+02   
1.022700000000000e+10    -1.758261074061225e+01   -1.131140036416371e+02   
1.022800000000000e+10    -1.762591202245553e+01   -1.132289670509148e+02   
1.022900000000000e+10    -1.762112348735807e+01   -1.134531029526831e+02   
1.023000000000000e+10    -1.766746134745350e+01   -1.136661850922007e+02   
1.023100000000000e+10    -1.767773554910390e+01   -1.137453189268788e+02   
1.023200000000000e+10    -1.774001698222429e+01   -1.139049969287353e+02   
1.023300000000000e+10    -1.774070152578964e+01   -1.140305534609315e+02   
1.023400000000000e+10    -1.780202927983578e+01   -1.141801998580583e+02   
1.023500000000000e+10    -1.781486384694901e+01   -1.141689974620409e+02   
1.023600000000000e+10    -1.787413249041595e+01   -1.141772034160486e+02   
1.023700000000000e+10    -1.790502474665011e+01   -1.141506209918681e+02   
1.023800000000000e+10    -1.794568812813649e+01   -1.142218332990995e+02   
1.023900000000000e+10    -1.797419979497058e+01   -1.140596617518335e+02   
1.024000000000000e+10    -1.801676466614065e+01   -1.139752364313798e+02   
1.024100000000000e+10    -1.802879411219421e+01   -1.139825610215674e+02   
1.024200000000000e+10    -1.804512830915685e+01   -1.137917557235057e+02   
1.024300000000000e+10    -1.806598767279424e+01   -1.135313057313068e+02   
1.024400000000000e+10    -1.807326897303079e+01   -1.134943376659003e+02   
1.024500000000000e+10    -1.809116188779555e+01   -1.132805244803845e+02   
1.024600000000000e+10    -1.807913945423091e+01   -1.132354656806107e+02   
1.024700000000000e+10    -1.809117175084993e+01   -1.130356269006723e+02   
1.024800000000000e+10    -1.809442076525957e+01   -1.130879523756996e+02   
1.024900000000000e+10    -1.806065156509453e+01   -1.128860797824275e+02   
1.025000000000000e+10    -1.804975112224514e+01   -1.126869161653435e+02   
1.025100000000000e+10    -1.805302721153354e+01   -1.125499355410761e+02   
1.025200000000000e+10    -1.802432261441097e+01   -1.126161937365743e+02   
1.025300000000000e+10    -1.798110514954861e+01   -1.125029674744864e+02   
1.025400000000000e+10    -1.795048854284622e+01   -1.124212958441178e+02   
1.025500000000000e+10    -1.793764691764775e+01   -1.124567139638339e+02   
1.025600000000000e+10    -1.790508579015492e+01   -1.125378751744955e+02   
