[Version] 2.0
! Rohde & Schwarz Vector Network Analyzer
! Rohde-Schwarz,ZNL20-2Port,1323001220200009,1.71.1.10-23.02.1.238
! 
! Port Assignments:
! Nominal Port -> Actual Test Port
! --------------------------------
!   1 -> 1

! Created: GMT 2024-09-04 10:33:53

# Hz S DB R 50

[Number of Ports] 1
[Number of Frequencies] 2001

[Network Data] 
! freq[Hz]               S11[mag dB]              S11[ang]                 
1.000000000000000e+10    -1.802001901333692e+01   -1.014957601637182e+02   
1.000100000000000e+10    -1.804553846255893e+01   -1.018212042739694e+02   
1.000200000000000e+10    -1.808573815786950e+01   -1.018987163709787e+02   
1.000300000000000e+10    -1.811323021561630e+01   -1.020399194495709e+02   
1.000400000000000e+10    -1.815557473643945e+01   -1.022953183737841e+02   
1.000500000000000e+10    -1.817238704954172e+01   -1.024682446224495e+02   
1.000600000000000e+10    -1.823711054549430e+01   -1.025471979848741e+02   
1.000700000000000e+10    -1.824003969502020e+01   -1.026805530243938e+02   
1.000800000000000e+10    -1.830637686544233e+01   -1.027899019374091e+02   
1.000900000000000e+10    -1.831998235986083e+01   -1.025230882345289e+02   
1.001000000000000e+10    -1.836133020751876e+01   -1.027287807365708e+02   
1.001100000000000e+10    -1.839621722519076e+01   -1.025638566143008e+02   
1.001200000000000e+10    -1.842226188267616e+01   -1.025261164608736e+02   
1.001300000000000e+10    -1.844461372305805e+01   -1.023982232437071e+02   
1.001400000000000e+10    -1.848404434764333e+01   -1.022129845404068e+02   
1.001500000000000e+10    -1.847537905437889e+01   -1.022295589668772e+02   
1.001600000000000e+10    -1.850284339872389e+01   -1.019682636238381e+02   
1.001700000000000e+10    -1.851307336722232e+01   -1.017855195365126e+02   
1.001800000000000e+10    -1.850681912610958e+01   -1.016181789678581e+02   
1.001900000000000e+10    -1.850119312958135e+01   -1.014938478361128e+02   
1.002000000000000e+10    -1.850285705101373e+01   -1.011840724817373e+02   
1.002100000000000e+10    -1.847895233205996e+01   -1.009885142298327e+02   
1.002200000000000e+10    -1.843804218061061e+01   -1.009423688860061e+02   
1.002300000000000e+10    -1.841936171011901e+01   -1.007920048732261e+02   
1.002400000000000e+10    -1.838012550496680e+01   -1.008593544955474e+02   
1.002500000000000e+10    -1.834196651459757e+01   -1.007140064026165e+02   
1.002600000000000e+10    -1.829515692988338e+01   -1.006388914229044e+02   
1.002700000000000e+10    -1.825498876495198e+01   -1.005712954271060e+02   
1.002800000000000e+10    -1.818843946327302e+01   -1.006951635316677e+02   
1.002900000000000e+10    -1.815538560794792e+01   -1.006880251412469e+02   
1.003000000000000e+10    -1.810713485929935e+01   -1.008619035261074e+02   
1.003100000000000e+10    -1.805173636023837e+01   -1.011005182665957e+02   
1.003200000000000e+10    -1.801978889747287e+01   -1.011724572945986e+02   
1.003300000000000e+10    -1.799701330874668e+01   -1.013941655552078e+02   
1.003400000000000e+10    -1.793519333188093e+01   -1.016834390832822e+02   
1.003500000000000e+10    -1.791008258392686e+01   -1.018411468546591e+02   
1.003600000000000e+10    -1.789534092594056e+01   -1.021774713755868e+02   
1.003700000000000e+10    -1.785163881246681e+01   -1.024831744530843e+02   
1.003800000000000e+10    -1.784635262622793e+01   -1.027314188386933e+02   
1.003900000000000e+10    -1.781163669840981e+01   -1.031776825892321e+02   
1.004000000000000e+10    -1.782004012595557e+01   -1.032556060702264e+02   
1.004100000000000e+10    -1.778634181126507e+01   -1.036123544377244e+02   
1.004200000000000e+10    -1.781541535523620e+01   -1.037816536342140e+02   
1.004300000000000e+10    -1.781058799662430e+01   -1.042142582086192e+02   
1.004400000000000e+10    -1.780610633092839e+01   -1.045471059293358e+02   
1.004500000000000e+10    -1.784596722549899e+01   -1.047952052329648e+02   
1.004600000000000e+10    -1.785500517446541e+01   -1.049261684961010e+02   
1.004700000000000e+10    -1.787084519516578e+01   -1.053163719250007e+02   
1.004800000000000e+10    -1.789901780223566e+01   -1.055110570873095e+02   
1.004900000000000e+10    -1.795333018556270e+01   -1.056794310746864e+02   
1.005000000000000e+10    -1.799337580984319e+01   -1.057756826138707e+02   
1.005100000000000e+10    -1.800742418110564e+01   -1.057369440388778e+02   
1.005200000000000e+10    -1.803411300412769e+01   -1.058394936078906e+02   
1.005300000000000e+10    -1.807141880309264e+01   -1.059451449528604e+02   
1.005400000000000e+10    -1.811855461750702e+01   -1.059702787707342e+02   
1.005500000000000e+10    -1.814814380372258e+01   -1.060107620444516e+02   
1.005600000000000e+10    -1.819135751874443e+01   -1.057359757733115e+02   
1.005700000000000e+10    -1.823125941933301e+01   -1.057013010391631e+02   
1.005800000000000e+10    -1.824612959006571e+01   -1.053568661506599e+02   
1.005900000000000e+10    -1.826275388370255e+01   -1.053263126138101e+02   
1.006000000000000e+10    -1.827636609097812e+01   -1.051508386620837e+02   
1.006100000000000e+10    -1.829967802757398e+01   -1.048930715236470e+02   
1.006200000000000e+10    -1.831057635586229e+01   -1.045446399652502e+02   
1.006300000000000e+10    -1.829181740578585e+01   -1.041884245161347e+02   
1.006400000000000e+10    -1.830385338020442e+01   -1.040059881982428e+02   
1.006500000000000e+10    -1.828268710405716e+01   -1.038564249402000e+02   
1.006600000000000e+10    -1.827710817795712e+01   -1.035880187111222e+02   
1.006700000000000e+10    -1.826778247660265e+01   -1.032649902797718e+02   
1.006800000000000e+10    -1.824370629377526e+01   -1.033517658006203e+02   
1.006900000000000e+10    -1.819839903274791e+01   -1.029403611452490e+02   
1.007000000000000e+10    -1.816059408103925e+01   -1.028390043906109e+02   
1.007100000000000e+10    -1.811959172218724e+01   -1.026972996511972e+02   
1.007200000000000e+10    -1.808490490723139e+01   -1.027798827820998e+02   
1.007300000000000e+10    -1.804180931012817e+01   -1.026101919095351e+02   
1.007400000000000e+10    -1.799440983541924e+01   -1.026421120294046e+02   
1.007500000000000e+10    -1.796678871208968e+01   -1.026830620554922e+02   
1.007600000000000e+10    -1.790902831869619e+01   -1.028481031172704e+02   
1.007700000000000e+10    -1.787607583975957e+01   -1.028571536504452e+02   
1.007800000000000e+10    -1.782954718995438e+01   -1.029823757275146e+02   
1.007900000000000e+10    -1.779309763839811e+01   -1.030077300500805e+02   
1.008000000000000e+10    -1.776745982191599e+01   -1.032684030433969e+02   
1.008100000000000e+10    -1.773887895390861e+01   -1.037789850393504e+02   
1.008200000000000e+10    -1.771733954875429e+01   -1.040230492204086e+02   
1.008300000000000e+10    -1.771770116145330e+01   -1.041542133795706e+02   
1.008400000000000e+10    -1.769460432941988e+01   -1.045805078147146e+02   
1.008500000000000e+10    -1.768033136726551e+01   -1.048355723281491e+02   
1.008600000000000e+10    -1.768222751631514e+01   -1.051371623579190e+02   
1.008700000000000e+10    -1.768890870948173e+01   -1.054404028137458e+02   
1.008800000000000e+10    -1.769204520050770e+01   -1.058871708303305e+02   
1.008900000000000e+10    -1.771882643022317e+01   -1.060233048661426e+02   
1.009000000000000e+10    -1.772104908334758e+01   -1.063838639902609e+02   
1.009100000000000e+10    -1.774212485561905e+01   -1.067411938902840e+02   
1.009200000000000e+10    -1.777839147611887e+01   -1.069024424926181e+02   
1.009300000000000e+10    -1.781966109807210e+01   -1.071670901411265e+02   
1.009400000000000e+10    -1.785653646535674e+01   -1.074605665122333e+02   
1.009500000000000e+10    -1.789062196151124e+01   -1.076645725556007e+02   
1.009600000000000e+10    -1.792734863470052e+01   -1.076644059099203e+02   
1.009700000000000e+10    -1.797253780752684e+01   -1.078366517888031e+02   
1.009800000000000e+10    -1.803104766643833e+01   -1.078695272841508e+02   
1.009900000000000e+10    -1.807123713352253e+01   -1.079276019264584e+02   
1.010000000000000e+10    -1.810004309273177e+01   -1.079926448504870e+02   
1.010100000000000e+10    -1.814405545095957e+01   -1.078742812476827e+02   
1.010200000000000e+10    -1.819161524945636e+01   -1.078212921144307e+02   
1.010300000000000e+10    -1.822264018311974e+01   -1.077534183825807e+02   
1.010400000000000e+10    -1.824207821485485e+01   -1.075645246861708e+02   
1.010500000000000e+10    -1.827338996834676e+01   -1.074843406255004e+02   
1.010600000000000e+10    -1.828400816257421e+01   -1.070497878189000e+02   
1.010700000000000e+10    -1.829802741338415e+01   -1.071730251946719e+02   
1.010800000000000e+10    -1.832620445594160e+01   -1.067844405061970e+02   
1.010900000000000e+10    -1.830363743393944e+01   -1.066222768606980e+02   
1.011000000000000e+10    -1.829659881096292e+01   -1.062617465119754e+02   
1.011100000000000e+10    -1.825793102403318e+01   -1.061929553514898e+02   
1.011200000000000e+10    -1.826020032442288e+01   -1.059984401977280e+02   
1.011300000000000e+10    -1.820925550874266e+01   -1.058643629892377e+02   
1.011400000000000e+10    -1.820330444464493e+01   -1.056203746901641e+02   
1.011500000000000e+10    -1.815633166000856e+01   -1.055276456497446e+02   
1.011600000000000e+10    -1.813970910314871e+01   -1.053789714532692e+02   
1.011700000000000e+10    -1.811130495258260e+01   -1.054207126191781e+02   
1.011800000000000e+10    -1.805728984170022e+01   -1.053606113414513e+02   
1.011900000000000e+10    -1.800776981254004e+01   -1.053806619529006e+02   
1.012000000000000e+10    -1.794469259914398e+01   -1.053971421445610e+02   
1.012100000000000e+10    -1.791566821254263e+01   -1.055979831701351e+02   
1.012200000000000e+10    -1.786102134498128e+01   -1.055269427207712e+02   
1.012300000000000e+10    -1.782539440927960e+01   -1.057194649059508e+02   
1.012400000000000e+10    -1.779893214333232e+01   -1.059375228569853e+02   
1.012500000000000e+10    -1.776054112877254e+01   -1.060915163738646e+02   
1.012600000000000e+10    -1.774082336908392e+01   -1.062981609257535e+02   
1.012700000000000e+10    -1.770496884414953e+01   -1.066765021907897e+02   
1.012800000000000e+10    -1.768082854053591e+01   -1.068379391444564e+02   
1.012900000000000e+10    -1.765814896136310e+01   -1.071921933166997e+02   
1.013000000000000e+10    -1.765898532731542e+01   -1.073725373210172e+02   
1.013100000000000e+10    -1.765046781846406e+01   -1.077347251748920e+02   
1.013200000000000e+10    -1.765517636527427e+01   -1.080779797467359e+02   
1.013300000000000e+10    -1.766325070069975e+01   -1.084562461689659e+02   
1.013400000000000e+10    -1.765814064404331e+01   -1.086338047949678e+02   
1.013500000000000e+10    -1.767709401226211e+01   -1.089690899169525e+02   
1.013600000000000e+10    -1.769721171354457e+01   -1.091426718647569e+02   
1.013700000000000e+10    -1.771324763304654e+01   -1.093664039987792e+02   
1.013800000000000e+10    -1.774136097484218e+01   -1.096326093657441e+02   
1.013900000000000e+10    -1.777643665919496e+01   -1.098471023188313e+02   
1.014000000000000e+10    -1.781094377061915e+01   -1.098860823283821e+02   
1.014100000000000e+10    -1.786084372579652e+01   -1.101135655792014e+02   
1.014200000000000e+10    -1.788699921409592e+01   -1.101242765441648e+02   
1.014300000000000e+10    -1.794041893137181e+01   -1.101936215639578e+02   
1.014400000000000e+10    -1.797541675766008e+01   -1.101597544870091e+02   
1.014500000000000e+10    -1.801850844718760e+01   -1.102667305047046e+02   
1.014600000000000e+10    -1.804597071817467e+01   -1.101010079041185e+02   
1.014700000000000e+10    -1.808367883002387e+01   -1.099067861040040e+02   
1.014800000000000e+10    -1.813575704312494e+01   -1.098962604592435e+02   
1.014900000000000e+10    -1.814463110884141e+01   -1.097269478643024e+02   
1.015000000000000e+10    -1.817426765323703e+01   -1.095701719561475e+02   
1.015100000000000e+10    -1.819495538884679e+01   -1.093360097647652e+02   
1.015200000000000e+10    -1.820352890758068e+01   -1.090544059940375e+02   
1.015300000000000e+10    -1.821514305297281e+01   -1.089564454611428e+02   
1.015400000000000e+10    -1.821133887493678e+01   -1.086077114989870e+02   
1.015500000000000e+10    -1.823965827278843e+01   -1.085567349951087e+02   
1.015600000000000e+10    -1.821863415256796e+01   -1.082706548420244e+02   
1.015700000000000e+10    -1.819972368024463e+01   -1.079227660110590e+02   
1.015800000000000e+10    -1.817357743109088e+01   -1.078422549667503e+02   
1.015900000000000e+10    -1.815104388936704e+01   -1.076307996782133e+02   
1.016000000000000e+10    -1.811287919038200e+01   -1.075216470367593e+02   
1.016100000000000e+10    -1.809154763676654e+01   -1.074371226299392e+02   
1.016200000000000e+10    -1.805333506067692e+01   -1.072133180093583e+02   
1.016300000000000e+10    -1.801507002083542e+01   -1.071709441901530e+02   
1.016400000000000e+10    -1.800065517970937e+01   -1.072473128495833e+02   
1.016500000000000e+10    -1.794097139539232e+01   -1.071822399121521e+02   
1.016600000000000e+10    -1.791658075477129e+01   -1.073561364573746e+02   
1.016700000000000e+10    -1.786112119182181e+01   -1.073879029255411e+02   
1.016800000000000e+10    -1.782361145413168e+01   -1.074978452486062e+02   
1.016900000000000e+10    -1.779756118489000e+01   -1.076370026592963e+02   
1.017000000000000e+10    -1.777071162077405e+01   -1.079267308205561e+02   
1.017100000000000e+10    -1.772734272189021e+01   -1.082375787416326e+02   
1.017200000000000e+10    -1.770574256920175e+01   -1.083335067689999e+02   
1.017300000000000e+10    -1.768547130365746e+01   -1.087156973222320e+02   
1.017400000000000e+10    -1.766749925773106e+01   -1.089313851519348e+02   
1.017500000000000e+10    -1.764562271806297e+01   -1.092722236378460e+02   
1.017600000000000e+10    -1.762847003131012e+01   -1.094492673059617e+02   
1.017700000000000e+10    -1.764971365448388e+01   -1.098356819986880e+02   
1.017800000000000e+10    -1.763964506824358e+01   -1.101707130363651e+02   
1.017900000000000e+10    -1.764811738900831e+01   -1.103687456821780e+02   
1.018000000000000e+10    -1.765613299570273e+01   -1.107149904109219e+02   
1.018100000000000e+10    -1.767627225167015e+01   -1.109598674614466e+02   
1.018200000000000e+10    -1.770360784233567e+01   -1.112293644870022e+02   
1.018300000000000e+10    -1.771389823516949e+01   -1.114584160883573e+02   
1.018400000000000e+10    -1.775566805701047e+01   -1.117318603258567e+02   
1.018500000000000e+10    -1.777517658412056e+01   -1.119502874476451e+02   
1.018600000000000e+10    -1.780063186135646e+01   -1.122743053208947e+02   
1.018700000000000e+10    -1.783778148931556e+01   -1.122563442355734e+02   
1.018800000000000e+10    -1.787935069317859e+01   -1.124517970340863e+02   
1.018900000000000e+10    -1.792161958523351e+01   -1.125087752827199e+02   
1.019000000000000e+10    -1.794952253905981e+01   -1.124674112643975e+02   
1.019100000000000e+10    -1.797698508037089e+01   -1.124789931633456e+02   
1.019200000000000e+10    -1.800996789437428e+01   -1.123864732011948e+02   
1.019300000000000e+10    -1.804557331190129e+01   -1.125045277628678e+02   
1.019400000000000e+10    -1.806731317423210e+01   -1.122933048611205e+02   
1.019500000000000e+10    -1.808964050913534e+01   -1.122305963142932e+02   
1.019600000000000e+10    -1.808343665318296e+01   -1.120266909531686e+02   
1.019700000000000e+10    -1.811088912292072e+01   -1.118617655405098e+02   
1.019800000000000e+10    -1.811465514333862e+01   -1.117111979517227e+02   
1.019900000000000e+10    -1.812140174891784e+01   -1.114298896708357e+02   
1.020000000000000e+10    -1.811509698022711e+01   -1.113797739832178e+02   
1.020100000000000e+10    -1.811177168885570e+01   -1.111407244719335e+02   
1.020200000000000e+10    -1.809006776031305e+01   -1.108778501637622e+02   
1.020300000000000e+10    -1.808800763176511e+01   -1.107247425626935e+02   
1.020400000000000e+10    -1.805095869982967e+01   -1.105552277436204e+02   
1.020500000000000e+10    -1.803702896684415e+01   -1.104855750542010e+02   
1.020600000000000e+10    -1.798977157270892e+01   -1.102360163040937e+02   
1.020700000000000e+10    -1.797668941958224e+01   -1.101906262665622e+02   
1.020800000000000e+10    -1.795016419914802e+01   -1.101710922589573e+02   
1.020900000000000e+10    -1.789948096924774e+01   -1.100725278167565e+02   
1.021000000000000e+10    -1.785938558644724e+01   -1.100628463779104e+02   
1.021100000000000e+10    -1.782832641553745e+01   -1.100931082818483e+02   
1.021200000000000e+10    -1.780111630131106e+01   -1.100408368488392e+02   
1.021300000000000e+10    -1.774278596491040e+01   -1.101859988797659e+02   
1.021400000000000e+10    -1.772708715176657e+01   -1.102052563472462e+02   
1.021500000000000e+10    -1.766843617004542e+01   -1.104459719671375e+02   
1.021600000000000e+10    -1.764397067833890e+01   -1.106763238350503e+02   
1.021700000000000e+10    -1.761896371875764e+01   -1.106903328611716e+02   
1.021800000000000e+10    -1.760225882881580e+01   -1.109342495619081e+02   
1.021900000000000e+10    -1.757122712899460e+01   -1.110234322291117e+02   
1.022000000000000e+10    -1.756925741867300e+01   -1.113175431715162e+02   
1.022100000000000e+10    -1.753130588073862e+01   -1.115492517522918e+02   
1.022200000000000e+10    -1.753859425929900e+01   -1.117737575585991e+02   
1.022300000000000e+10    -1.753532965068943e+01   -1.120551193964895e+02   
1.022400000000000e+10    -1.754034822206015e+01   -1.123432136449899e+02   
1.022500000000000e+10    -1.754364266960291e+01   -1.125583132566097e+02   
1.022600000000000e+10    -1.756704299955051e+01   -1.128247977094387e+02   
1.022700000000000e+10    -1.757411256200406e+01   -1.130650024969271e+02   
1.022800000000000e+10    -1.761623295056878e+01   -1.131867366805295e+02   
1.022900000000000e+10    -1.761006610177530e+01   -1.134216981439397e+02   
1.023000000000000e+10    -1.765557016253498e+01   -1.136464232495318e+02   
1.023100000000000e+10    -1.766446704251283e+01   -1.137267429380586e+02   
1.023200000000000e+10    -1.772633977118957e+01   -1.139080890527777e+02   
1.023300000000000e+10    -1.772798215410054e+01   -1.140411945997812e+02   
1.023400000000000e+10    -1.778977174828868e+01   -1.142049167989324e+02   
1.023500000000000e+10    -1.780120276650035e+01   -1.142037437174100e+02   
1.023600000000000e+10    -1.786149201555006e+01   -1.142259327729464e+02   
1.023700000000000e+10    -1.789412156063545e+01   -1.142182804497406e+02   
1.023800000000000e+10    -1.793481217077449e+01   -1.142972661178332e+02   
1.023900000000000e+10    -1.796526299949609e+01   -1.141378808254716e+02   
1.024000000000000e+10    -1.801017130531809e+01   -1.140636644107960e+02   
1.024100000000000e+10    -1.802260730788502e+01   -1.140835574737865e+02   
1.024200000000000e+10    -1.804087404827741e+01   -1.139034005979368e+02   
1.024300000000000e+10    -1.806374197505939e+01   -1.136419399904726e+02   
1.024400000000000e+10    -1.807321850907548e+01   -1.136121605456893e+02   
1.024500000000000e+10    -1.809271859351712e+01   -1.133973705720572e+02   
1.024600000000000e+10    -1.808281868018841e+01   -1.133545760134182e+02   
1.024700000000000e+10    -1.809778161515378e+01   -1.131487429506179e+02   
1.024800000000000e+10    -1.810312575369907e+01   -1.132017366878179e+02   
1.024900000000000e+10    -1.807092691722438e+01   -1.129982356422407e+02   
1.025000000000000e+10    -1.806246815035910e+01   -1.127865938410209e+02   
1.025100000000000e+10    -1.806725300511068e+01   -1.126470679956415e+02   
1.025200000000000e+10    -1.803871165366131e+01   -1.126979516773619e+02   
1.025300000000000e+10    -1.799780201991433e+01   -1.125769095558239e+02   
1.025400000000000e+10    -1.796844551082067e+01   -1.124794766380513e+02   
1.025500000000000e+10    -1.795574284931809e+01   -1.124979847288622e+02   
1.025600000000000e+10    -1.792500986898821e+01   -1.125742622801587e+02   
