[Version] 2.0
! Rohde & Schwarz Vector Network Analyzer
! Rohde-Schwarz,ZNL20-2Port,1323001220200009,1.71.1.10-23.02.1.238
! 
! Port Assignments:
! Nominal Port -> Actual Test Port
! --------------------------------
!   1 -> 1

! Created: GMT 2024-09-04 10:11:02

# Hz S DB R 50

[Number of Ports] 1
[Number of Frequencies] 2001

[Network Data] 
! freq[Hz]               S11[mag dB]              S11[ang]                 
1.000000000000000e+10    -1.822031424255492e+01   -1.004611163700626e+02   
1.000100000000000e+10    -1.822154041560652e+01   -1.006221484270837e+02   
1.000200000000000e+10    -1.823155158808251e+01   -1.005462080550671e+02   
1.000300000000000e+10    -1.822604747559645e+01   -1.005555758804397e+02   
1.000400000000000e+10    -1.823268135430066e+01   -1.007083080997006e+02   
1.000500000000000e+10    -1.821286055613991e+01   -1.008376613368367e+02   
1.000600000000000e+10    -1.823805860650447e+01   -1.008785261634149e+02   
1.000700000000000e+10    -1.820268966432777e+01   -1.010148657317623e+02   
1.000800000000000e+10    -1.823014614674823e+01   -1.011695390346722e+02   
1.000900000000000e+10    -1.820359200946768e+01   -1.009755571060049e+02   
1.001000000000000e+10    -1.820821008029911e+01   -1.012894414195714e+02   
1.001100000000000e+10    -1.820965713487168e+01   -1.012762411159094e+02   
1.001200000000000e+10    -1.820383982213900e+01   -1.013977790042939e+02   
1.001300000000000e+10    -1.819812218432502e+01   -1.014807433890129e+02   
1.001400000000000e+10    -1.821455211784229e+01   -1.015118474051138e+02   
1.001500000000000e+10    -1.818791851279443e+01   -1.017663399404520e+02   
1.001600000000000e+10    -1.820199250450457e+01   -1.017701290696359e+02   
1.001700000000000e+10    -1.820506215766487e+01   -1.018532213249987e+02   
1.001800000000000e+10    -1.819731973761727e+01   -1.019541777197022e+02   
1.001900000000000e+10    -1.819638781230248e+01   -1.021018563607005e+02   
1.002000000000000e+10    -1.820903345514391e+01   -1.020614255580585e+02   
1.002100000000000e+10    -1.819966171739509e+01   -1.021097826005407e+02   
1.002200000000000e+10    -1.818059263279549e+01   -1.022830160368960e+02   
1.002300000000000e+10    -1.818876440205373e+01   -1.023426701345030e+02   
1.002400000000000e+10    -1.817743849583270e+01   -1.025752185482288e+02   
1.002500000000000e+10    -1.817313301222637e+01   -1.025810818719773e+02   
1.002600000000000e+10    -1.816192221601022e+01   -1.026241245043273e+02   
1.002700000000000e+10    -1.815973859214359e+01   -1.026316184348779e+02   
1.002800000000000e+10    -1.813080814355638e+01   -1.027816154701064e+02   
1.002900000000000e+10    -1.813695778581452e+01   -1.027898415519136e+02   
1.003000000000000e+10    -1.812779696947026e+01   -1.029296461980833e+02   
1.003100000000000e+10    -1.810988493511301e+01   -1.031036937573708e+02   
1.003200000000000e+10    -1.811291531678926e+01   -1.030882882485730e+02   
1.003300000000000e+10    -1.812531557160024e+01   -1.031807000475833e+02   
1.003400000000000e+10    -1.809218747435784e+01   -1.033101726814736e+02   
1.003500000000000e+10    -1.809431643201025e+01   -1.032738737396875e+02   
1.003600000000000e+10    -1.810176925784236e+01   -1.034037905727681e+02   
1.003700000000000e+10    -1.807763733951771e+01   -1.034901778102258e+02   
1.003800000000000e+10    -1.808734356626493e+01   -1.034998475276381e+02   
1.003900000000000e+10    -1.806135862932983e+01   -1.036974427078918e+02   
1.004000000000000e+10    -1.807580131203515e+01   -1.035249316329319e+02   
1.004100000000000e+10    -1.804073656955231e+01   -1.036274156849584e+02   
1.004200000000000e+10    -1.806488568830042e+01   -1.035385921044684e+02   
1.004300000000000e+10    -1.805164405811458e+01   -1.037318055785528e+02   
1.004400000000000e+10    -1.803101507474441e+01   -1.038306421894395e+02   
1.004500000000000e+10    -1.805257415123069e+01   -1.038569398130387e+02   
1.004600000000000e+10    -1.803663174546196e+01   -1.037742546896330e+02   
1.004700000000000e+10    -1.802557203617973e+01   -1.040005045861775e+02   
1.004800000000000e+10    -1.802216973095315e+01   -1.040371357632927e+02   
1.004900000000000e+10    -1.804329252219859e+01   -1.040724471970968e+02   
1.005000000000000e+10    -1.804585257113733e+01   -1.040776618473866e+02   
1.005100000000000e+10    -1.802160597745998e+01   -1.039880806253933e+02   
1.005200000000000e+10    -1.801070349745962e+01   -1.040547132476155e+02   
1.005300000000000e+10    -1.800875085322131e+01   -1.041734273166400e+02   
1.005400000000000e+10    -1.801933281039230e+01   -1.042428753294184e+02   
1.005500000000000e+10    -1.801062725363953e+01   -1.043703284981874e+02   
1.005600000000000e+10    -1.801690962525459e+01   -1.042156493901822e+02   
1.005700000000000e+10    -1.802426150864560e+01   -1.043276641045095e+02   
1.005800000000000e+10    -1.801040563251761e+01   -1.041567654633001e+02   
1.005900000000000e+10    -1.800240189891578e+01   -1.043442165215041e+02   
1.006000000000000e+10    -1.799497842421534e+01   -1.044095613808100e+02   
1.006100000000000e+10    -1.800294838171555e+01   -1.043949892654074e+02   
1.006200000000000e+10    -1.800526224461915e+01   -1.043200657031305e+02   
1.006300000000000e+10    -1.798429230905922e+01   -1.042404469506006e+02   
1.006400000000000e+10    -1.799801767517994e+01   -1.043209320599378e+02   
1.006500000000000e+10    -1.798780773744473e+01   -1.044447562056574e+02   
1.006600000000000e+10    -1.799294739484191e+01   -1.044321277402017e+02   
1.006700000000000e+10    -1.800496458620473e+01   -1.043539663476241e+02   
1.006800000000000e+10    -1.800409884466931e+01   -1.046537796820980e+02   
1.006900000000000e+10    -1.798770400074543e+01   -1.044421139214854e+02   
1.007000000000000e+10    -1.798195972408762e+01   -1.045093570563460e+02   
1.007100000000000e+10    -1.797693244970893e+01   -1.045004395916185e+02   
1.007200000000000e+10    -1.797872825750637e+01   -1.046788686308000e+02   
1.007300000000000e+10    -1.797562914755851e+01   -1.045842187661510e+02   
1.007400000000000e+10    -1.796752828891962e+01   -1.046432106114514e+02   
1.007500000000000e+10    -1.797949027296925e+01   -1.046891592483747e+02   
1.007600000000000e+10    -1.796146425761925e+01   -1.048126051247377e+02   
1.007700000000000e+10    -1.796400963772693e+01   -1.047406431879675e+02   
1.007800000000000e+10    -1.795306558510575e+01   -1.047651330048253e+02   
1.007900000000000e+10    -1.795192822251543e+01   -1.046530056719546e+02   
1.008000000000000e+10    -1.795582810482508e+01   -1.047441318862612e+02   
1.008100000000000e+10    -1.795032569076119e+01   -1.050777284068883e+02   
1.008200000000000e+10    -1.795038634034789e+01   -1.051150146617548e+02   
1.008300000000000e+10    -1.796810255618337e+01   -1.050177710366745e+02   
1.008400000000000e+10    -1.795766453787258e+01   -1.052218632341828e+02   
1.008500000000000e+10    -1.795057399887220e+01   -1.052266666782875e+02   
1.008600000000000e+10    -1.795450454074858e+01   -1.052897730816110e+02   
1.008700000000000e+10    -1.795803508653907e+01   -1.053373122425709e+02   
1.008800000000000e+10    -1.795396751304289e+01   -1.055543034974315e+02   
1.008900000000000e+10    -1.796578694307930e+01   -1.054449860697126e+02   
1.009000000000000e+10    -1.795150437264493e+01   -1.055876406250520e+02   
1.009100000000000e+10    -1.795116441194170e+01   -1.057467110925805e+02   
1.009200000000000e+10    -1.796157794458147e+01   -1.057199069741309e+02   
1.009300000000000e+10    -1.797172313758740e+01   -1.058165734382713e+02   
1.009400000000000e+10    -1.797570639162446e+01   -1.059732108329552e+02   
1.009500000000000e+10    -1.797227096062415e+01   -1.060827397007444e+02   
1.009600000000000e+10    -1.797155248627524e+01   -1.060024945856602e+02   
1.009700000000000e+10    -1.797755015089441e+01   -1.061374484594827e+02   
1.009800000000000e+10    -1.799694692165293e+01   -1.061688621184311e+02   
1.009900000000000e+10    -1.799725380575280e+01   -1.062651263175581e+02   
1.010000000000000e+10    -1.798671648879371e+01   -1.063926752371744e+02   
1.010100000000000e+10    -1.799281390914890e+01   -1.063800520657463e+02   
1.010200000000000e+10    -1.800595663036231e+01   -1.064476260238015e+02   
1.010300000000000e+10    -1.800476255670979e+01   -1.065589639010537e+02   
1.010400000000000e+10    -1.799666310475929e+01   -1.065727941214793e+02   
1.010500000000000e+10    -1.800382901729080e+01   -1.067067065332883e+02   
1.010600000000000e+10    -1.799829584086003e+01   -1.065298078954516e+02   
1.010700000000000e+10    -1.799780745273002e+01   -1.068810320238054e+02   
1.010800000000000e+10    -1.801779144205065e+01   -1.067660340115541e+02   
1.010900000000000e+10    -1.799474342283285e+01   -1.068597426041278e+02   
1.011000000000000e+10    -1.799057571610043e+01   -1.067599002119206e+02   
1.011100000000000e+10    -1.796253237208414e+01   -1.069543443071177e+02   
1.011200000000000e+10    -1.797821764942283e+01   -1.069973044223849e+02   
1.011300000000000e+10    -1.794880245159562e+01   -1.070890071536796e+02   
1.011400000000000e+10    -1.796659347678257e+01   -1.070436693911080e+02   
1.011500000000000e+10    -1.794888461804283e+01   -1.071282068611962e+02   
1.011600000000000e+10    -1.796389706373092e+01   -1.071347512360460e+02   
1.011700000000000e+10    -1.797024180876982e+01   -1.072928321525080e+02   
1.011800000000000e+10    -1.795276223502222e+01   -1.073190910153467e+02   
1.011900000000000e+10    -1.794015232682855e+01   -1.073823000681500e+02   
1.012000000000000e+10    -1.791614139943785e+01   -1.074005508228084e+02   
1.012100000000000e+10    -1.792505030368017e+01   -1.075793731359327e+02   
1.012200000000000e+10    -1.790857693044156e+01   -1.074530356052996e+02   
1.012300000000000e+10    -1.790740699588708e+01   -1.075545962022581e+02   
1.012400000000000e+10    -1.791678621796202e+01   -1.076522816699197e+02   
1.012500000000000e+10    -1.790843010797048e+01   -1.076493307743728e+02   
1.012600000000000e+10    -1.791604415636579e+01   -1.076865919024317e+02   
1.012700000000000e+10    -1.790335602686213e+01   -1.078746307271008e+02   
1.012800000000000e+10    -1.790009240894046e+01   -1.078108880087091e+02   
1.012900000000000e+10    -1.789097092898890e+01   -1.079516158241753e+02   
1.013000000000000e+10    -1.790394063961661e+01   -1.078773030275485e+02   
1.013100000000000e+10    -1.790150149521170e+01   -1.079991263933254e+02   
1.013200000000000e+10    -1.790662810812610e+01   -1.080896541072433e+02   
1.013300000000000e+10    -1.791078400539682e+01   -1.082293618694184e+02   
1.013400000000000e+10    -1.789713428162628e+01   -1.081586978537198e+02   
1.013500000000000e+10    -1.790311346987515e+01   -1.082595681730665e+02   
1.013600000000000e+10    -1.790391741342050e+01   -1.082212370841778e+02   
1.013700000000000e+10    -1.789751628148966e+01   -1.082458663907093e+02   
1.013800000000000e+10    -1.789955548621482e+01   -1.083365356769435e+02   
1.013900000000000e+10    -1.790531074372442e+01   -1.083978593931173e+02   
1.014000000000000e+10    -1.790766904645926e+01   -1.083118506670098e+02   
1.014100000000000e+10    -1.792337092497574e+01   -1.084435962615973e+02   
1.014200000000000e+10    -1.791197984028000e+01   -1.083986050396886e+02   
1.014300000000000e+10    -1.792803209589984e+01   -1.084337377034174e+02   
1.014400000000000e+10    -1.792558048563515e+01   -1.084169640533173e+02   
1.014500000000000e+10    -1.793128625634510e+01   -1.085599917848706e+02   
1.014600000000000e+10    -1.792144910579189e+01   -1.084775700930580e+02   
1.014700000000000e+10    -1.792631917815483e+01   -1.084018592168730e+02   
1.014800000000000e+10    -1.794687939960557e+01   -1.085285354351534e+02   
1.014900000000000e+10    -1.792685908271192e+01   -1.085358886192184e+02   
1.015000000000000e+10    -1.793298938536371e+01   -1.085727318032690e+02   
1.015100000000000e+10    -1.793288586934636e+01   -1.085582229294960e+02   
1.015200000000000e+10    -1.792641555980071e+01   -1.085185732971064e+02   
1.015300000000000e+10    -1.792853137492831e+01   -1.086718212492994e+02   
1.015400000000000e+10    -1.792181927475949e+01   -1.085866418614126e+02   
1.015500000000000e+10    -1.794948175225359e+01   -1.087911940738781e+02   
1.015600000000000e+10    -1.793668463921205e+01   -1.087643648932598e+02   
1.015700000000000e+10    -1.792842353544670e+01   -1.086574882285003e+02   
1.015800000000000e+10    -1.792016631344562e+01   -1.088065642184663e+02   
1.015900000000000e+10    -1.791921821382178e+01   -1.088099879469649e+02   
1.016000000000000e+10    -1.790540220091905e+01   -1.088981663257707e+02   
1.016100000000000e+10    -1.791422409698392e+01   -1.089858341928249e+02   
1.016200000000000e+10    -1.790910379244542e+01   -1.088899237641577e+02   
1.016300000000000e+10    -1.790447577549649e+01   -1.089580986643526e+02   
1.016400000000000e+10    -1.792481306682413e+01   -1.091126186163714e+02   
1.016500000000000e+10    -1.790344331350623e+01   -1.090824027234156e+02   
1.016600000000000e+10    -1.791491688434497e+01   -1.092799217576650e+02   
1.016700000000000e+10    -1.789588332267595e+01   -1.092763357122527e+02   
1.016800000000000e+10    -1.789621079935635e+01   -1.093286753254371e+02   
1.016900000000000e+10    -1.790387277660111e+01   -1.093869993975580e+02   
1.017000000000000e+10    -1.790762551607873e+01   -1.095660860000349e+02   
1.017100000000000e+10    -1.789222125447342e+01   -1.097341622349995e+02   
1.017200000000000e+10    -1.789725025826641e+01   -1.096622033956254e+02   
1.017300000000000e+10    -1.789921443520332e+01   -1.098585751257283e+02   
1.017400000000000e+10    -1.789760890816869e+01   -1.098670780175652e+02   
1.017500000000000e+10    -1.788950814469993e+01   -1.099985744539780e+02   
1.017600000000000e+10    -1.788099858089116e+01   -1.099405116441171e+02   
1.017700000000000e+10    -1.790696534247854e+01   -1.100951823280045e+02   
1.017800000000000e+10    -1.789554688313272e+01   -1.101966326465489e+02   
1.017900000000000e+10    -1.789809788938710e+01   -1.101542128814812e+02   
1.018000000000000e+10    -1.789732692589833e+01   -1.102735552610769e+02   
1.018100000000000e+10    -1.790032057324311e+01   -1.103008810194915e+02   
1.018200000000000e+10    -1.790969546750830e+01   -1.103634542006150e+02   
1.018300000000000e+10    -1.789482218552388e+01   -1.104249291864895e+02   
1.018400000000000e+10    -1.791010742068688e+01   -1.105252524735093e+02   
1.018500000000000e+10    -1.790021518431252e+01   -1.106093202938149e+02   
1.018600000000000e+10    -1.789288378586778e+01   -1.108239957192970e+02   
1.018700000000000e+10    -1.789349910104709e+01   -1.107281658066082e+02   
1.018800000000000e+10    -1.789923478787201e+01   -1.108751656044286e+02   
1.018900000000000e+10    -1.790442496881727e+01   -1.109031046946006e+02   
1.019000000000000e+10    -1.789551859855622e+01   -1.108818822174056e+02   
1.019100000000000e+10    -1.788432855486220e+01   -1.109508376384122e+02   
1.019200000000000e+10    -1.788276810376735e+01   -1.109356893543313e+02   
1.019300000000000e+10    -1.788703116012958e+01   -1.111707012613103e+02   
1.019400000000000e+10    -1.787799792345778e+01   -1.110959253313179e+02   
1.019500000000000e+10    -1.787435198546829e+01   -1.112007689302893e+02   
1.019600000000000e+10    -1.784345917585926e+01   -1.111849935612972e+02   
1.019700000000000e+10    -1.785171481230165e+01   -1.112275908138947e+02   
1.019800000000000e+10    -1.784193020928427e+01   -1.112974409909244e+02   
1.019900000000000e+10    -1.783662801884796e+01   -1.112586469518297e+02   
1.020000000000000e+10    -1.782653952559434e+01   -1.114322471284346e+02   
1.020100000000000e+10    -1.782428856019155e+01   -1.114388918339393e+02   
1.020200000000000e+10    -1.780647049005038e+01   -1.114019257184309e+02   
1.020300000000000e+10    -1.781681544653524e+01   -1.114799899081299e+02   
1.020400000000000e+10    -1.779525872652784e+01   -1.115280003274911e+02   
1.020500000000000e+10    -1.780103935171689e+01   -1.116447467386232e+02   
1.020600000000000e+10    -1.777599541683752e+01   -1.115761830860338e+02   
1.020700000000000e+10    -1.778908234493548e+01   -1.116847813778648e+02   
1.020800000000000e+10    -1.779190626437303e+01   -1.117961463289789e+02   
1.020900000000000e+10    -1.777345357313182e+01   -1.117925515033756e+02   
1.021000000000000e+10    -1.776928702573216e+01   -1.118534428777913e+02   
1.021100000000000e+10    -1.777194191163754e+01   -1.119139054911428e+02   
1.021200000000000e+10    -1.778052749569266e+01   -1.118835240803390e+02   
1.021300000000000e+10    -1.775846638639833e+01   -1.119696971876293e+02   
1.021400000000000e+10    -1.777770030291905e+01   -1.119454711728433e+02   
1.021500000000000e+10    -1.775007065323837e+01   -1.120938548942521e+02   
1.021600000000000e+10    -1.775684618920473e+01   -1.122161535722012e+02   
1.021700000000000e+10    -1.776116526541897e+01   -1.120857557858100e+02   
1.021800000000000e+10    -1.777129737005650e+01   -1.121666401007189e+02   
1.021900000000000e+10    -1.776405863033321e+01   -1.120576833490815e+02   
1.022000000000000e+10    -1.777828602077127e+01   -1.121421808460217e+02   
1.022100000000000e+10    -1.775360544362972e+01   -1.121751417491125e+02   
1.022200000000000e+10    -1.777048782722019e+01   -1.121586537789386e+02   
1.022300000000000e+10    -1.777254414006430e+01   -1.122128911904992e+02   
1.022400000000000e+10    -1.777665575054970e+01   -1.122668027477479e+02   
1.022500000000000e+10    -1.777462694396648e+01   -1.122535838241984e+02   
1.022600000000000e+10    -1.778834991182541e+01   -1.122831089716966e+02   
1.022700000000000e+10    -1.778110621279422e+01   -1.123202372392152e+02   
1.022800000000000e+10    -1.780623271876441e+01   -1.122451883142600e+02   
1.022900000000000e+10    -1.777680428194110e+01   -1.122973825414754e+02   
1.023000000000000e+10    -1.779689968269173e+01   -1.123630619066703e+02   
1.023100000000000e+10    -1.777733866394092e+01   -1.123195312213916e+02   
1.023200000000000e+10    -1.780931429753941e+01   -1.123843830471975e+02   
1.023300000000000e+10    -1.777713392051114e+01   -1.124433744467100e+02   
1.023400000000000e+10    -1.780577836865141e+01   -1.125579616451314e+02   
1.023500000000000e+10    -1.778390121856808e+01   -1.125498517287822e+02   
1.023600000000000e+10    -1.780946158318839e+01   -1.125816492272577e+02   
1.023700000000000e+10    -1.780763259109484e+01   -1.126192068566944e+02   
1.023800000000000e+10    -1.781588451323171e+01   -1.127679663415803e+02   
1.023900000000000e+10    -1.781502101393647e+01   -1.127225475932297e+02   
1.024000000000000e+10    -1.783089091254416e+01   -1.127834929655789e+02   
1.024100000000000e+10    -1.781963477119726e+01   -1.129645989470606e+02   
1.024200000000000e+10    -1.781458983953353e+01   -1.129606251146641e+02   
1.024300000000000e+10    -1.781860185354339e+01   -1.129104722407730e+02   
1.024400000000000e+10    -1.781477396930046e+01   -1.130872691012195e+02   
1.024500000000000e+10    -1.782492790621879e+01   -1.131062188307135e+02   
1.024600000000000e+10    -1.781094063203988e+01   -1.132972470132907e+02   
1.024700000000000e+10    -1.782470963230935e+01   -1.133250711108067e+02   
1.024800000000000e+10    -1.783416550548461e+01   -1.136123057513052e+02   
1.024900000000000e+10    -1.781181969209415e+01   -1.136494506416712e+02   
1.025000000000000e+10    -1.781713695617565e+01   -1.136587532965921e+02   
1.025100000000000e+10    -1.784150186755394e+01   -1.137222936376504e+02   
1.025200000000000e+10    -1.783574017419630e+01   -1.139654921744449e+02   
1.025300000000000e+10    -1.782124536483584e+01   -1.140069468395554e+02   
1.025400000000000e+10    -1.782127510330182e+01   -1.140510648104866e+02   
1.025500000000000e+10    -1.784003334824451e+01   -1.141890176177269e+02   
1.025600000000000e+10    -1.784200005494639e+01   -1.143352761367129e+02   
