[Version] 2.0
! Rohde & Schwarz Vector Network Analyzer
! Rohde-Schwarz,ZNL20-2Port,1323001220200009,1.71.1.10-23.02.1.238
! 
! Port Assignments:
! Nominal Port -> Actual Test Port
! --------------------------------
!   1 -> 1

! Created: GMT 2024-09-04 10:17:55

# Hz S DB R 50

[Number of Ports] 1
[Number of Frequencies] 2001

[Network Data] 
! freq[Hz]               S11[mag dB]              S11[ang]                 
1.000000000000000e+10    -1.796306990721564e+01   -1.007051718587398e+02   
1.000100000000000e+10    -1.797182841416621e+01   -1.011137841902842e+02   
1.000200000000000e+10    -1.799416184194003e+01   -1.012779912711147e+02   
1.000300000000000e+10    -1.800761092356990e+01   -1.015229311540499e+02   
1.000400000000000e+10    -1.803602542473981e+01   -1.018812561008108e+02   
1.000500000000000e+10    -1.804291631641759e+01   -1.021857319587991e+02   
1.000600000000000e+10    -1.809773968819614e+01   -1.023961302378916e+02   
1.000700000000000e+10    -1.809532961317327e+01   -1.026720628761872e+02   
1.000800000000000e+10    -1.815856241051096e+01   -1.029313891572523e+02   
1.000900000000000e+10    -1.817157630949295e+01   -1.028164318493885e+02   
1.001000000000000e+10    -1.821522742983834e+01   -1.031746669264686e+02   
1.001100000000000e+10    -1.825634426045752e+01   -1.031551113203565e+02   
1.001200000000000e+10    -1.829157993358622e+01   -1.032580182537924e+02   
1.001300000000000e+10    -1.832614371122032e+01   -1.032676324964813e+02   
1.001400000000000e+10    -1.838014558294011e+01   -1.032064850048178e+02   
1.001500000000000e+10    -1.838941806448565e+01   -1.033300981338317e+02   
1.001600000000000e+10    -1.843729733710665e+01   -1.031679994056890e+02   
1.001700000000000e+10    -1.846995364716583e+01   -1.030579537273572e+02   
1.001800000000000e+10    -1.848679337090022e+01   -1.029256226583227e+02   
1.001900000000000e+10    -1.850598739101851e+01   -1.028310344818533e+02   
1.002000000000000e+10    -1.853293046417091e+01   -1.025212626586553e+02   
1.002100000000000e+10    -1.853351784174705e+01   -1.023027195421532e+02   
1.002200000000000e+10    -1.851561861392270e+01   -1.022004144516144e+02   
1.002300000000000e+10    -1.851966073798588e+01   -1.019754341932803e+02   
1.002400000000000e+10    -1.849936197952101e+01   -1.019523776387321e+02   
1.002500000000000e+10    -1.847965010147211e+01   -1.016957299326108e+02   
1.002600000000000e+10    -1.844723369021327e+01   -1.014885370158780e+02   
1.002700000000000e+10    -1.841949253744622e+01   -1.012754966916046e+02   
1.002800000000000e+10    -1.836079260421693e+01   -1.012487966536545e+02   
1.002900000000000e+10    -1.833371516770357e+01   -1.010904781861613e+02   
1.003000000000000e+10    -1.828784146759988e+01   -1.011110583441485e+02   
1.003100000000000e+10    -1.823138356084828e+01   -1.011933761002992e+02   
1.003200000000000e+10    -1.819486934202590e+01   -1.011147803415546e+02   
1.003300000000000e+10    -1.816711343782915e+01   -1.011878285015471e+02   
1.003400000000000e+10    -1.809350981971478e+01   -1.013436843963184e+02   
1.003500000000000e+10    -1.805537768216197e+01   -1.013712028664365e+02   
1.003600000000000e+10    -1.802792451090069e+01   -1.015929967616058e+02   
1.003700000000000e+10    -1.796776875056255e+01   -1.017996214846171e+02   
1.003800000000000e+10    -1.794597033475486e+01   -1.019659285373878e+02   
1.003900000000000e+10    -1.789148353895751e+01   -1.023428779413972e+02   
1.004000000000000e+10    -1.788019667194496e+01   -1.023659332336137e+02   
1.004100000000000e+10    -1.782653238215456e+01   -1.026931765706465e+02   
1.004200000000000e+10    -1.783329154887079e+01   -1.028408566276416e+02   
1.004300000000000e+10    -1.780797514171844e+01   -1.032763465437861e+02   
1.004400000000000e+10    -1.778353254632604e+01   -1.036264848602999e+02   
1.004500000000000e+10    -1.780249166444929e+01   -1.039144639456599e+02   
1.004600000000000e+10    -1.779185049876246e+01   -1.040964047819330e+02   
1.004700000000000e+10    -1.778937802295939e+01   -1.045562190691531e+02   
1.004800000000000e+10    -1.780119770798295e+01   -1.048336340524536e+02   
1.004900000000000e+10    -1.784034122659373e+01   -1.051079460692383e+02   
1.005000000000000e+10    -1.786623594839215e+01   -1.053143877395718e+02   
1.005100000000000e+10    -1.786942484103277e+01   -1.054084828943115e+02   
1.005200000000000e+10    -1.788918198901339e+01   -1.056413305816372e+02   
1.005300000000000e+10    -1.792055511609762e+01   -1.058915107636465e+02   
1.005400000000000e+10    -1.796497846536060e+01   -1.060671568918991e+02   
1.005500000000000e+10    -1.799563562047659e+01   -1.062592139935759e+02   
1.005600000000000e+10    -1.804307151721418e+01   -1.061474450588422e+02   
1.005700000000000e+10    -1.808977936281057e+01   -1.062610140999343e+02   
1.005800000000000e+10    -1.811612348824630e+01   -1.060571853421763e+02   
1.005900000000000e+10    -1.814658113266079e+01   -1.061591409894440e+02   
1.006000000000000e+10    -1.817775738722192e+01   -1.061166215330732e+02   
1.006100000000000e+10    -1.822145181658624e+01   -1.059644502698440e+02   
1.006200000000000e+10    -1.825304661149117e+01   -1.057026065773041e+02   
1.006300000000000e+10    -1.825846368995213e+01   -1.054138666813041e+02   
1.006400000000000e+10    -1.829593940711092e+01   -1.052751221390764e+02   
1.006500000000000e+10    -1.830195975076188e+01   -1.051502063886114e+02   
1.006600000000000e+10    -1.832100136208355e+01   -1.048675179678358e+02   
1.006700000000000e+10    -1.833929980925368e+01   -1.045217292670056e+02   
1.006800000000000e+10    -1.833703771809462e+01   -1.045575524679003e+02   
1.006900000000000e+10    -1.831569014310022e+01   -1.040670849169303e+02   
1.007000000000000e+10    -1.829631014929398e+01   -1.038684357761773e+02   
1.007100000000000e+10    -1.827399737739301e+01   -1.036083479847828e+02   
1.007200000000000e+10    -1.825347395570787e+01   -1.035733582917495e+02   
1.007300000000000e+10    -1.822262474064802e+01   -1.032619348108549e+02   
1.007400000000000e+10    -1.818361986881060e+01   -1.031500533462384e+02   
1.007500000000000e+10    -1.816182147302172e+01   -1.030355526089306e+02   
1.007600000000000e+10    -1.810652940214950e+01   -1.030549480157677e+02   
1.007700000000000e+10    -1.807141842333887e+01   -1.029199526324818e+02   
1.007800000000000e+10    -1.802083184028127e+01   -1.028984566884292e+02   
1.007900000000000e+10    -1.797718741854943e+01   -1.027839262103641e+02   
1.008000000000000e+10    -1.794185392614746e+01   -1.029138991779800e+02   
1.008100000000000e+10    -1.790156296315568e+01   -1.033110820502356e+02   
1.008200000000000e+10    -1.786587623679220e+01   -1.034387376698783e+02   
1.008300000000000e+10    -1.784917099674815e+01   -1.034836365337727e+02   
1.008400000000000e+10    -1.780788856003856e+01   -1.038360741167099e+02   
1.008500000000000e+10    -1.777446768675285e+01   -1.040253398204977e+02   
1.008600000000000e+10    -1.775545009631440e+01   -1.042855696630710e+02   
1.008700000000000e+10    -1.774065926202269e+01   -1.045503181567999e+02   
1.008800000000000e+10    -1.772254243512768e+01   -1.049959478362663e+02   
1.008900000000000e+10    -1.772480104198288e+01   -1.051374688525050e+02   
1.009000000000000e+10    -1.770599721027244e+01   -1.055255859017602e+02   
1.009100000000000e+10    -1.770667652524437e+01   -1.059356407551119e+02   
1.009200000000000e+10    -1.772143146218506e+01   -1.061587463223544e+02   
1.009300000000000e+10    -1.774320259820117e+01   -1.064969786831034e+02   
1.009400000000000e+10    -1.776164943788355e+01   -1.068845245502276e+02   
1.009500000000000e+10    -1.777893898679877e+01   -1.072116150191399e+02   
1.009600000000000e+10    -1.780354690157480e+01   -1.073283790356609e+02   
1.009700000000000e+10    -1.783664719844245e+01   -1.076399360360974e+02   
1.009800000000000e+10    -1.788646742650055e+01   -1.078226751455177e+02   
1.009900000000000e+10    -1.792215689976553e+01   -1.080339039031781e+02   
1.010000000000000e+10    -1.794811860055787e+01   -1.082579501685367e+02   
1.010100000000000e+10    -1.799320701843805e+01   -1.082985447440491e+02   
1.010200000000000e+10    -1.804554239574360e+01   -1.084042213528649e+02   
1.010300000000000e+10    -1.808336244550188e+01   -1.084923456969861e+02   
1.010400000000000e+10    -1.811563922133816e+01   -1.084447583218650e+02   
1.010500000000000e+10    -1.815907913810302e+01   -1.085011610105864e+02   
1.010600000000000e+10    -1.818785115365019e+01   -1.081868540836629e+02   
1.010700000000000e+10    -1.822093347117559e+01   -1.084014233795921e+02   
1.010800000000000e+10    -1.827062415534002e+01   -1.080999223418793e+02   
1.010900000000000e+10    -1.827118056367759e+01   -1.079892945881916e+02   
1.011000000000000e+10    -1.828765056983680e+01   -1.076606474608068e+02   
1.011100000000000e+10    -1.827439290273387e+01   -1.076012805512543e+02   
1.011200000000000e+10    -1.830019479610531e+01   -1.073935283784175e+02   
1.011300000000000e+10    -1.827394427268191e+01   -1.072290497377468e+02   
1.011400000000000e+10    -1.829041161665368e+01   -1.069124947225223e+02   
1.011500000000000e+10    -1.826582268392146e+01   -1.067367472650962e+02   
1.011600000000000e+10    -1.826832898065304e+01   -1.064946745047228e+02   
1.011700000000000e+10    -1.825719737606412e+01   -1.064204802289646e+02   
1.011800000000000e+10    -1.821547300339828e+01   -1.062261431056312e+02   
1.011900000000000e+10    -1.817735546587177e+01   -1.061031152342443e+02   
1.012000000000000e+10    -1.812210808864636e+01   -1.059691773835429e+02   
1.012100000000000e+10    -1.809825945375726e+01   -1.060088625040131e+02   
1.012200000000000e+10    -1.804520831396539e+01   -1.057794351621553e+02   
1.012300000000000e+10    -1.800785617773625e+01   -1.058103876837396e+02   
1.012400000000000e+10    -1.797818617433344e+01   -1.058769403804954e+02   
1.012500000000000e+10    -1.793079436572061e+01   -1.058810706524806e+02   
1.012600000000000e+10    -1.790130477304564e+01   -1.059514260835262e+02   
1.012700000000000e+10    -1.785343415363424e+01   -1.062041810996164e+02   
1.012800000000000e+10    -1.781461370905100e+01   -1.062477257294096e+02   
1.012900000000000e+10    -1.777583899764792e+01   -1.065046092902433e+02   
1.013000000000000e+10    -1.775724701924602e+01   -1.065990839513982e+02   
1.013100000000000e+10    -1.772840294693938e+01   -1.068889440301388e+02   
1.013200000000000e+10    -1.771293783161038e+01   -1.071827477602493e+02   
1.013300000000000e+10    -1.769895391912948e+01   -1.075265009421845e+02   
1.013400000000000e+10    -1.767179347410810e+01   -1.076909366513790e+02   
1.013500000000000e+10    -1.766917959556336e+01   -1.080324096739344e+02   
1.013600000000000e+10    -1.766692160613035e+01   -1.082377943689435e+02   
1.013700000000000e+10    -1.766171500188852e+01   -1.085042952718707e+02   
1.013800000000000e+10    -1.766932036186019e+01   -1.088303056047156e+02   
1.013900000000000e+10    -1.768596109414682e+01   -1.091283284821982e+02   
1.014000000000000e+10    -1.770354161038783e+01   -1.092667249585544e+02   
1.014100000000000e+10    -1.773741713649197e+01   -1.096064352456660e+02   
1.014200000000000e+10    -1.775155094100685e+01   -1.097474797083755e+02   
1.014300000000000e+10    -1.779445513984178e+01   -1.099503533049025e+02   
1.014400000000000e+10    -1.782359255805125e+01   -1.100689746859302e+02   
1.014500000000000e+10    -1.786104259853907e+01   -1.103283664268916e+02   
1.014600000000000e+10    -1.788929938604315e+01   -1.103277812011696e+02   
1.014700000000000e+10    -1.793149263447381e+01   -1.103028744455220e+02   
1.014800000000000e+10    -1.798832157748162e+01   -1.104424889913712e+02   
1.014900000000000e+10    -1.800782403273967e+01   -1.104260327517148e+02   
1.015000000000000e+10    -1.805036292009871e+01   -1.104083067368531e+02   
1.015100000000000e+10    -1.808600877659291e+01   -1.103038711611719e+02   
1.015200000000000e+10    -1.811504669273718e+01   -1.101405171466207e+02   
1.015300000000000e+10    -1.814724809335642e+01   -1.101424917883199e+02   
1.015400000000000e+10    -1.816741243951812e+01   -1.098724950623313e+02   
1.015500000000000e+10    -1.821936055930757e+01   -1.098760701865729e+02   
1.015600000000000e+10    -1.822424820292166e+01   -1.096252526471449e+02   
1.015700000000000e+10    -1.823086373016044e+01   -1.092746160800350e+02   
1.015800000000000e+10    -1.822940882187684e+01   -1.091900173099045e+02   
1.015900000000000e+10    -1.823163582827883e+01   -1.089316717312837e+02   
1.016000000000000e+10    -1.821688776473007e+01   -1.087632814736130e+02   
1.016100000000000e+10    -1.821676229532036e+01   -1.086082247785314e+02   
1.016200000000000e+10    -1.819822482788725e+01   -1.082765881892196e+02   
1.016300000000000e+10    -1.817645872774078e+01   -1.081201108322297e+02   
1.016400000000000e+10    -1.817801895351187e+01   -1.080688277223999e+02   
1.016500000000000e+10    -1.812838173005222e+01   -1.078657042452576e+02   
1.016600000000000e+10    -1.811155573067594e+01   -1.078953705408501e+02   
1.016700000000000e+10    -1.806122366932401e+01   -1.077797033872593e+02   
1.016800000000000e+10    -1.802699959471821e+01   -1.077273443095545e+02   
1.016900000000000e+10    -1.799900645777543e+01   -1.077235169647015e+02   
1.017000000000000e+10    -1.796731958095828e+01   -1.078648953153782e+02   
1.017100000000000e+10    -1.791591001574557e+01   -1.080395530760904e+02   
1.017200000000000e+10    -1.788386089045241e+01   -1.079932758989334e+02   
1.017300000000000e+10    -1.785129118265093e+01   -1.082600572354860e+02   
1.017400000000000e+10    -1.781661271945670e+01   -1.083587971981435e+02   
1.017500000000000e+10    -1.777675382527087e+01   -1.086175975446925e+02   
1.017600000000000e+10    -1.774007901502569e+01   -1.087070605622884e+02   
1.017700000000000e+10    -1.774006735469446e+01   -1.090353602811193e+02   
1.017800000000000e+10    -1.770832421560535e+01   -1.093261410390685e+02   
1.017900000000000e+10    -1.769301824987445e+01   -1.095090880620594e+02   
1.018000000000000e+10    -1.767820016722096e+01   -1.098486891885024e+02   
1.018100000000000e+10    -1.767454213158760e+01   -1.101084509860018e+02   
1.018200000000000e+10    -1.767897528421166e+01   -1.104212590296258e+02   
1.018300000000000e+10    -1.766780047750602e+01   -1.106992077030312e+02   
1.018400000000000e+10    -1.768785447786485e+01   -1.110425180061762e+02   
1.018500000000000e+10    -1.768706070364100e+01   -1.113603443627605e+02   
1.018600000000000e+10    -1.769623198134612e+01   -1.117936292112691e+02   
1.018700000000000e+10    -1.771747972483883e+01   -1.119003733832827e+02   
1.018800000000000e+10    -1.774601265542492e+01   -1.122259949223090e+02   
1.018900000000000e+10    -1.777834867922746e+01   -1.124253679979656e+02   
1.019000000000000e+10    -1.780048457688433e+01   -1.125404333051865e+02   
1.019100000000000e+10    -1.782340711801932e+01   -1.127149329104960e+02   
1.019200000000000e+10    -1.785545314693425e+01   -1.127773925322879e+02   
1.019300000000000e+10    -1.789302638549160e+01   -1.130521781229029e+02   
1.019400000000000e+10    -1.792121998276520e+01   -1.130064995017689e+02   
1.019500000000000e+10    -1.795329680785875e+01   -1.130805216200491e+02   
1.019600000000000e+10    -1.795928327252182e+01   -1.130164047603743e+02   
1.019700000000000e+10    -1.800149403230340e+01   -1.129790257783552e+02   
1.019800000000000e+10    -1.802522763815868e+01   -1.129301881614287e+02   
1.019900000000000e+10    -1.804937994611947e+01   -1.127544655657023e+02   
1.020000000000000e+10    -1.806568879321422e+01   -1.127568976519454e+02   
1.020100000000000e+10    -1.808448453854282e+01   -1.125718861683776e+02   
1.020200000000000e+10    -1.808712198752957e+01   -1.123337617180455e+02   
1.020300000000000e+10    -1.811012118979808e+01   -1.121899626649370e+02   
1.020400000000000e+10    -1.809794792191139e+01   -1.119961010118157e+02   
1.020500000000000e+10    -1.810746220511912e+01   -1.118811133530585e+02   
1.020600000000000e+10    -1.808195811990129e+01   -1.115633528918406e+02   
1.020700000000000e+10    -1.808935909381863e+01   -1.114437466422677e+02   
1.020800000000000e+10    -1.808197030683598e+01   -1.113168213737101e+02   
1.020900000000000e+10    -1.804605808826271e+01   -1.110935512021902e+02   
1.021000000000000e+10    -1.802014406176712e+01   -1.109513305723842e+02   
1.021100000000000e+10    -1.799952973066099e+01   -1.108354044386903e+02   
1.021200000000000e+10    -1.798027605525884e+01   -1.106372819593264e+02   
1.021300000000000e+10    -1.792682009922171e+01   -1.106207276338389e+02   
1.021400000000000e+10    -1.791336494239687e+01   -1.104820514323293e+02   
1.021500000000000e+10    -1.785221462231944e+01   -1.105642969620551e+02   
1.021600000000000e+10    -1.782313611332724e+01   -1.106395415313013e+02   
1.021700000000000e+10    -1.778914705596474e+01   -1.105012317414374e+02   
1.021800000000000e+10    -1.776315846785046e+01   -1.106082030967865e+02   
1.021900000000000e+10    -1.771879768374374e+01   -1.105631747484545e+02   
1.022000000000000e+10    -1.770264244525499e+01   -1.107291081220574e+02   
1.022100000000000e+10    -1.764472801768429e+01   -1.108724289807724e+02   
1.022200000000000e+10    -1.763305461686556e+01   -1.110024239363445e+02   
1.022300000000000e+10    -1.760863195232117e+01   -1.112129376356330e+02   
1.022400000000000e+10    -1.759185126019240e+01   -1.114641079451886e+02   
1.022500000000000e+10    -1.757082090592992e+01   -1.116519070015383e+02   
1.022600000000000e+10    -1.757116857680405e+01   -1.119012004846948e+02   
1.022700000000000e+10    -1.755519359677167e+01   -1.121677438922395e+02   
1.022800000000000e+10    -1.757399768305870e+01   -1.123295482096702e+02   
1.022900000000000e+10    -1.754772499365463e+01   -1.126177090020144e+02   
1.023000000000000e+10    -1.757256795011265e+01   -1.129184623174631e+02   
1.023100000000000e+10    -1.756378465200030e+01   -1.130971728098504e+02   
1.023200000000000e+10    -1.761034081377318e+01   -1.133830324025160e+02   
1.023300000000000e+10    -1.759744546401083e+01   -1.136428269148230e+02   
1.023400000000000e+10    -1.764819918438426e+01   -1.139358167392655e+02   
1.023500000000000e+10    -1.765277672857948e+01   -1.140787073608280e+02   
1.023600000000000e+10    -1.770750702244904e+01   -1.142554818027257e+02   
1.023700000000000e+10    -1.773778689896128e+01   -1.143946671050328e+02   
1.023800000000000e+10    -1.778033972265948e+01   -1.146182810836938e+02   
1.023900000000000e+10    -1.781409440785866e+01   -1.146249545527711e+02   
1.024000000000000e+10    -1.786510523282766e+01   -1.147000143828408e+02   
1.024100000000000e+10    -1.788894500345070e+01   -1.148526503439637e+02   
1.024200000000000e+10    -1.791958326138520e+01   -1.148099452471427e+02   
1.024300000000000e+10    -1.795885993384932e+01   -1.146744308867637e+02   
1.024400000000000e+10    -1.798541750581280e+01   -1.147462301869619e+02   
1.024500000000000e+10    -1.802647246040221e+01   -1.146268858577290e+02   
1.024600000000000e+10    -1.803909342382845e+01   -1.146580047952886e+02   
1.024700000000000e+10    -1.807707472281176e+01   -1.145041794655641e+02   
1.024800000000000e+10    -1.810602589907838e+01   -1.145876603113272e+02   
1.024900000000000e+10    -1.809898832046505e+01   -1.143930227049431e+02   
1.025000000000000e+10    -1.811511122657085e+01   -1.141711947776396e+02   
1.025100000000000e+10    -1.814573298645220e+01   -1.139993235011343e+02   
1.025200000000000e+10    -1.814012551392820e+01   -1.139922406829489e+02   
1.025300000000000e+10    -1.812027415620795e+01   -1.137870608659230e+02   
1.025400000000000e+10    -1.811033326020144e+01   -1.135999036733537e+02   
1.025500000000000e+10    -1.811653604359778e+01   -1.135004551175553e+02   
1.025600000000000e+10    -1.809925269547264e+01   -1.134447104171247e+02   
