[Version] 2.0
! Rohde & Schwarz Vector Network Analyzer
! Rohde-Schwarz,ZNL20-2Port,1323001220200009,1.71.1.10-23.02.1.238
! 
! Port Assignments:
! Nominal Port -> Actual Test Port
! --------------------------------
!   1 -> 1
!   2 -> 2

! Created: GMT+3 2024-09-24 13:06:52

# Hz S DB R 50

[Number of Ports] 2
[Two-Port Data Order] 21_12
[Number of Frequencies] 6001

[Network Data] 
! freq[Hz]               S11[mag dB]              S11[ang]                 S21[mag dB]              S21[ang]                 S12[mag dB]              S12[ang]                 S22[mag dB]              S22[ang]                 
7.000000000000000e+09    -1.878594684457510e+01   -1.474297178256862e+02   -2.491560508607775e+01   -1.423775307091109e+02   -2.491447835613737e+01   -1.420605665445572e+02   -2.081712056700813e+01   -1.403956851062320e+02   
7.001000000000000e+09    -1.877346853126146e+01   -1.472644581940040e+02   -2.492170899356908e+01   -1.430750792399697e+02   -2.491373444380665e+01   -1.427892575674989e+02   -2.084139043284551e+01   -1.399933118670951e+02   
7.002000000000000e+09    -1.876682264105260e+01   -1.471353866955374e+02   -2.491975843780553e+01   -1.437287979564431e+02   -2.492000731951693e+01   -1.435605410510038e+02   -2.088546082377612e+01   -1.396096289545950e+02   
7.003000000000000e+09    -1.875667756695241e+01   -1.469430828966602e+02   -2.493976643398233e+01   -1.442987533168003e+02   -2.491437657962515e+01   -1.442464952574261e+02   -2.090948352657022e+01   -1.393167476786851e+02   
7.004000000000000e+09    -1.874543141071852e+01   -1.467641995346664e+02   -2.493587567894153e+01   -1.449478923031283e+02   -2.491518984830965e+01   -1.449197951751252e+02   -2.094785515921638e+01   -1.389350303960222e+02   
7.005000000000000e+09    -1.874572530211261e+01   -1.466139993534002e+02   -2.493291636419910e+01   -1.457273177743016e+02   -2.491056084517297e+01   -1.455581268377879e+02   -2.097805850716757e+01   -1.386054133759979e+02   
7.006000000000000e+09    -1.873450156948862e+01   -1.464919700186372e+02   -2.492908844925721e+01   -1.464698777889188e+02   -2.491837268186505e+01   -1.462864082000745e+02   -2.100874240453978e+01   -1.383120600824803e+02   
7.007000000000000e+09    -1.871812680779646e+01   -1.463457578909448e+02   -2.492704947440779e+01   -1.470031708449430e+02   -2.490025865014573e+01   -1.468866513823318e+02   -2.103267453986874e+01   -1.380931514806273e+02   
7.008000000000000e+09    -1.871213553827488e+01   -1.462137726580291e+02   -2.492669988681772e+01   -1.477869757591150e+02   -2.491053897180754e+01   -1.476554600473233e+02   -2.105894025109131e+01   -1.378519216289907e+02   
7.009000000000000e+09    -1.869284776940356e+01   -1.460872072885905e+02   -2.493829960862499e+01   -1.483612644920291e+02   -2.490675963016219e+01   -1.483170019373165e+02   -2.107966095326145e+01   -1.376187248664531e+02   
7.010000000000000e+09    -1.868839204557635e+01   -1.459782313506294e+02   -2.493430818261908e+01   -1.490326909773823e+02   -2.491717788945435e+01   -1.490354193677878e+02   -2.111331520728835e+01   -1.374845177085404e+02   
7.011000000000000e+09    -1.866930700802395e+01   -1.458223227127203e+02   -2.492741193051562e+01   -1.495579997513719e+02   -2.489472008885521e+01   -1.496720982373224e+02   -2.112688664614041e+01   -1.373369935639336e+02   
7.012000000000000e+09    -1.864933035924978e+01   -1.457108061036503e+02   -2.494044114914927e+01   -1.502695660474164e+02   -2.490862711399654e+01   -1.504109181505368e+02   -2.114123481735680e+01   -1.371752372600276e+02   
7.013000000000000e+09    -1.863394660130274e+01   -1.456052120819542e+02   -2.492813456833648e+01   -1.509824083661101e+02   -2.492303780543999e+01   -1.510810527934772e+02   -2.116353399017019e+01   -1.371635799222348e+02   
7.014000000000000e+09    -1.863051793391726e+01   -1.455048043841224e+02   -2.493595571286328e+01   -1.517417826264069e+02   -2.491563832756422e+01   -1.517646908329561e+02   -2.117298167921368e+01   -1.371444343915977e+02   
7.015000000000000e+09    -1.860716012586700e+01   -1.453951314313929e+02   -2.494721430197247e+01   -1.524235791320381e+02   -2.491313194586142e+01   -1.523630077946893e+02   -2.118325080959675e+01   -1.370916261147881e+02   
7.016000000000000e+09    -1.859682077280114e+01   -1.452875407563280e+02   -2.493702477216580e+01   -1.529267081418589e+02   -2.491944523538695e+01   -1.530849633952070e+02   -2.119853641034000e+01   -1.370946635710605e+02   
7.017000000000000e+09    -1.858411314050680e+01   -1.452302353223032e+02   -2.493912073257291e+01   -1.536510298009409e+02   -2.491558283875970e+01   -1.538913375204777e+02   -2.119373228201212e+01   -1.371554445672035e+02   
7.018000000000000e+09    -1.856030405515991e+01   -1.451614000747699e+02   -2.494539914011947e+01   -1.543621244587303e+02   -2.491770266234059e+01   -1.545356792318327e+02   -2.119748167940958e+01   -1.372007809965285e+02   
7.019000000000000e+09    -1.854837714960208e+01   -1.450389175725362e+02   -2.494679174780566e+01   -1.551113421948100e+02   -2.493428578086452e+01   -1.551812511805634e+02   -2.118428983723607e+01   -1.372428119747139e+02   
7.020000000000000e+09    -1.852954209923014e+01   -1.450243697629371e+02   -2.495501682176887e+01   -1.556231207367609e+02   -2.493004089087620e+01   -1.559634585332952e+02   -2.118578613949096e+01   -1.373891645808060e+02   
7.021000000000000e+09    -1.851604448241745e+01   -1.450025778377718e+02   -2.492959240067282e+01   -1.563681355623350e+02   -2.491316839774743e+01   -1.565817734781575e+02   -2.116718434442780e+01   -1.375581822276102e+02   
7.022000000000000e+09    -1.848912356068455e+01   -1.449454558853013e+02   -2.493864837590373e+01   -1.570796737471920e+02   -2.492460716672053e+01   -1.573001933391437e+02   -2.117015903212733e+01   -1.375475560868093e+02   
7.023000000000000e+09    -1.847495110514636e+01   -1.448473040531010e+02   -2.493891347846123e+01   -1.576694426286106e+02   -2.494090217970481e+01   -1.580307812186871e+02   -2.114211493571937e+01   -1.377696043357062e+02   
7.024000000000000e+09    -1.845993258748268e+01   -1.449093325705132e+02   -2.495200191351735e+01   -1.583896584825535e+02   -2.494343634359466e+01   -1.586612602868643e+02   -2.112276780307139e+01   -1.378880656738519e+02   
7.025000000000000e+09    -1.843796902477512e+01   -1.448730280912882e+02   -2.495249480978246e+01   -1.589519546729681e+02   -2.493563151600302e+01   -1.593554340914990e+02   -2.110971143668573e+01   -1.380153988740180e+02   
7.026000000000000e+09    -1.842764368565723e+01   -1.448654767945515e+02   -2.495366443072697e+01   -1.597653880848501e+02   -2.495529458219037e+01   -1.599296597579143e+02   -2.107672714490714e+01   -1.382279106599987e+02   
7.027000000000000e+09    -1.840217456241874e+01   -1.448358344242720e+02   -2.497420678191057e+01   -1.604775255052275e+02   -2.494973109250917e+01   -1.607624282179184e+02   -2.104375524406070e+01   -1.383280696774892e+02   
7.028000000000000e+09    -1.837650704788442e+01   -1.448697057803434e+02   -2.495502512128041e+01   -1.611916533745484e+02   -2.495495948599394e+01   -1.615142203644288e+02   -2.101855641290657e+01   -1.386098696594323e+02   
7.029000000000000e+09    -1.835996160241486e+01   -1.448723979661140e+02   -2.497367627850593e+01   -1.618515330991773e+02   -2.496215871785675e+01   -1.622760445055238e+02   -2.098677476715776e+01   -1.388305635743933e+02   
7.030000000000000e+09    -1.833761873985134e+01   -1.448737708659819e+02   -2.496878220547924e+01   -1.625905184742350e+02   -2.498407762782997e+01   -1.628550141644067e+02   -2.095311161797149e+01   -1.389576803194854e+02   
7.031000000000000e+09    -1.831075061605309e+01   -1.449062111914637e+02   -2.498704210249216e+01   -1.630730828774641e+02   -2.498031923671086e+01   -1.635890072508783e+02   -2.090741266765829e+01   -1.391705951541061e+02   
7.032000000000000e+09    -1.827740372502699e+01   -1.449284548621041e+02   -2.497753148956493e+01   -1.638884305792256e+02   -2.498868138836205e+01   -1.641562759774075e+02   -2.087921168804082e+01   -1.394567796498394e+02   
7.033000000000000e+09    -1.825786446180245e+01   -1.449402140047767e+02   -2.501123329318375e+01   -1.644726687900661e+02   -2.499823560995929e+01   -1.649454194688230e+02   -2.083385543274405e+01   -1.396714427334356e+02   
7.034000000000000e+09    -1.822825242043529e+01   -1.449744684005177e+02   -2.500831642248203e+01   -1.651988618007182e+02   -2.501791755333385e+01   -1.655895770078904e+02   -2.077835466389077e+01   -1.398128387115196e+02   
7.035000000000000e+09    -1.820445352995358e+01   -1.450491836303921e+02   -2.502214834018572e+01   -1.658277885467675e+02   -2.503540640231115e+01   -1.663056148373417e+02   -2.071978034968441e+01   -1.400194847803722e+02   
7.036000000000000e+09    -1.817234954208536e+01   -1.450553534370253e+02   -2.502595954086001e+01   -1.664798962963719e+02   -2.502474775056395e+01   -1.669268239682446e+02   -2.068579644668142e+01   -1.402450102866148e+02   
7.037000000000000e+09    -1.814550376275222e+01   -1.450838665288028e+02   -2.502097966911469e+01   -1.671888765866621e+02   -2.502975209696102e+01   -1.675914819034319e+02   -2.062182701675314e+01   -1.403673780657892e+02   
7.038000000000000e+09    -1.811750660755258e+01   -1.450907031731275e+02   -2.504085881201945e+01   -1.678815851657681e+02   -2.504621463074933e+01   -1.683094536476604e+02   -2.055906824202267e+01   -1.406389386713293e+02   
7.039000000000000e+09    -1.807612551928530e+01   -1.451678310018813e+02   -2.504238967247741e+01   -1.685628010014443e+02   -2.505546396005060e+01   -1.689399806799738e+02   -2.050758093452519e+01   -1.408506977421160e+02   
7.040000000000000e+09    -1.805260543047622e+01   -1.451696238705181e+02   -2.507352084315395e+01   -1.692647065668504e+02   -2.505856777334632e+01   -1.696345309586824e+02   -2.043450129364371e+01   -1.410619738434936e+02   
7.041000000000000e+09    -1.803212654997190e+01   -1.451641106943226e+02   -2.506420859298555e+01   -1.699965415319430e+02   -2.508156467432269e+01   -1.702816755836427e+02   -2.038076286734718e+01   -1.411996281065285e+02   
7.042000000000000e+09    -1.799362510571672e+01   -1.452424432919861e+02   -2.507965673334423e+01   -1.706502294496394e+02   -2.509232704690381e+01   -1.710308485868483e+02   -2.031389542689926e+01   -1.414257323151211e+02   
7.043000000000000e+09    -1.796234179386456e+01   -1.452779464145719e+02   -2.510141252854944e+01   -1.714099499081968e+02   -2.509664636709423e+01   -1.716558434124157e+02   -2.024484953461957e+01   -1.416185086861255e+02   
7.044000000000000e+09    -1.792348710251594e+01   -1.452458668196716e+02   -2.509665437741583e+01   -1.719464116042079e+02   -2.511167411034495e+01   -1.722535204084324e+02   -2.016639861108629e+01   -1.418039259515905e+02   
7.045000000000000e+09    -1.788815465957199e+01   -1.452432724819442e+02   -2.510062645125882e+01   -1.726174467782278e+02   -2.511993818172412e+01   -1.729371823547407e+02   -2.011641027045966e+01   -1.419186991224724e+02   
7.046000000000000e+09    -1.785823931661441e+01   -1.453046045158667e+02   -2.512573048183656e+01   -1.732229471018807e+02   -2.513209975190883e+01   -1.736694998701904e+02   -2.003377170656654e+01   -1.420622959885102e+02   
7.047000000000000e+09    -1.782503276466545e+01   -1.452812357454292e+02   -2.512050672890794e+01   -1.739400649733050e+02   -2.514683292231786e+01   -1.742701715186001e+02   -1.995805171007617e+01   -1.421854085973143e+02   
7.048000000000000e+09    -1.779760711854666e+01   -1.453218260504881e+02   -2.512852853755833e+01   -1.746168454627232e+02   -2.515741021943271e+01   -1.749285557950004e+02   -1.988652689781125e+01   -1.423430831713910e+02   
7.049000000000000e+09    -1.777118647888323e+01   -1.452833416705239e+02   -2.514056098623232e+01   -1.753023547369127e+02   -2.515831848242013e+01   -1.755736763462860e+02   -1.980186350783910e+01   -1.424198181569375e+02   
7.050000000000000e+09    -1.773773407408217e+01   -1.453148129709064e+02   -2.516725620189568e+01   -1.760094397422126e+02   -2.517732158700895e+01   -1.762548157045617e+02   -1.972353021841355e+01   -1.425111733980227e+02   
7.051000000000000e+09    -1.771479835210445e+01   -1.452653263648742e+02   -2.516668830730216e+01   -1.767147108305033e+02   -2.517207620174943e+01   -1.769865155116239e+02   -1.965004443744643e+01   -1.426972876584173e+02   
7.052000000000000e+09    -1.768316371116475e+01   -1.452785919581806e+02   -2.516142220504911e+01   -1.773734040004031e+02   -2.518818870634240e+01   -1.775915898728631e+02   -1.958124175808333e+01   -1.427287828384405e+02   
7.053000000000000e+09    -1.765994391955583e+01   -1.452769138639741e+02   -2.520319864549763e+01   -1.779963309470927e+02   -2.521315747680756e+01   -1.782352803629257e+02   -1.949406345357737e+01   -1.428354208684661e+02   
7.054000000000000e+09    -1.764109396046735e+01   -1.452566090335864e+02   -2.519326561385103e+01   -1.787144777805165e+02   -2.521679611340339e+01   -1.789541284095792e+02   -1.941274605157922e+01   -1.428894314232554e+02   
7.055000000000000e+09    -1.760986624867948e+01   -1.452343429844600e+02   -2.521843244252905e+01   -1.794560464960631e+02   -2.522755156265057e+01   -1.797187147659953e+02   -1.933468788743073e+01   -1.429567059995781e+02   
7.056000000000000e+09    -1.759168779329951e+01   -1.451729129134403e+02   -2.522599684613377e+01   1.799385071062715e+02    -2.523900944323967e+01   1.797351812713347e+02    -1.925713282048370e+01   -1.428904827805125e+02   
7.057000000000000e+09    -1.757101407509872e+01   -1.451097052901654e+02   -2.523969024879736e+01   1.791441550487519e+02    -2.525171537312893e+01   1.789695479805587e+02    -1.916757183484370e+01   -1.429915868330550e+02   
7.058000000000000e+09    -1.754683120560660e+01   -1.451490693650761e+02   -2.525102082064603e+01   1.784901282347873e+02    -2.526148100232044e+01   1.783548016407257e+02    -1.910140948906245e+01   -1.429444471121309e+02   
7.059000000000000e+09    -1.752700870459046e+01   -1.450684871869948e+02   -2.528273862203997e+01   1.778039357566014e+02    -2.526755214763399e+01   1.775855321718300e+02    -1.902041181634971e+01   -1.429797419512919e+02   
7.060000000000000e+09    -1.751611630764984e+01   -1.450644497860230e+02   -2.528456098097723e+01   1.770714715741726e+02    -2.528792846620512e+01   1.769956133234180e+02    -1.894557658909966e+01   -1.430361040994659e+02   
7.061000000000000e+09    -1.750546924855247e+01   -1.450362571098783e+02   -2.529947488946046e+01   1.764489320337035e+02    -2.529264895323518e+01   1.763030529645081e+02    -1.886837212755932e+01   -1.429227007440556e+02   
7.062000000000000e+09    -1.748933291391205e+01   -1.449489326826413e+02   -2.530968142634029e+01   1.758139443522103e+02    -2.531695309753293e+01   1.754742379347063e+02    -1.878813196328321e+01   -1.428974962314441e+02   
7.063000000000000e+09    -1.747224634089300e+01   -1.449429242681718e+02   -2.531657436795870e+01   1.749714470155077e+02    -2.534102743567406e+01   1.749273933078554e+02    -1.872177209461957e+01   -1.428770784079000e+02   
7.064000000000000e+09    -1.746784112349562e+01   -1.449089896455163e+02   -2.534969510883285e+01   1.743226413378009e+02    -2.533703612003227e+01   1.742864273119731e+02    -1.864302893329941e+01   -1.427503991132639e+02   
7.065000000000000e+09    -1.745287771663220e+01   -1.449085641084513e+02   -2.535970383098293e+01   1.736667717139057e+02    -2.538853600914693e+01   1.734492895367363e+02    -1.857914659544286e+01   -1.426912197381834e+02   
7.066000000000000e+09    -1.743612709081784e+01   -1.448174818439903e+02   -2.538255766395023e+01   1.729850591138104e+02    -2.538663603365077e+01   1.728352391847618e+02    -1.850426080686300e+01   -1.426348036247223e+02   
7.067000000000000e+09    -1.742897531183726e+01   -1.447699160842453e+02   -2.539534864830859e+01   1.721907111509728e+02    -2.538172344710106e+01   1.720649871402357e+02    -1.844545791602808e+01   -1.424792517092949e+02   
7.068000000000000e+09    -1.741759593642496e+01   -1.447391604429521e+02   -2.540259818596411e+01   1.715614346873957e+02    -2.542379490136618e+01   1.714731551428777e+02    -1.838319676250433e+01   -1.423966423261646e+02   
7.069000000000000e+09    -1.740686793426292e+01   -1.447681262548682e+02   -2.541977109548927e+01   1.708649891630099e+02    -2.543344276656270e+01   1.707577864285336e+02    -1.832545636379578e+01   -1.422648371793996e+02   
7.070000000000000e+09    -1.740285064070665e+01   -1.447310916110241e+02   -2.543693106719250e+01   1.702016807404051e+02    -2.544259030426099e+01   1.700288881524493e+02    -1.827544023018830e+01   -1.421018567753126e+02   
7.071000000000000e+09    -1.739084344215396e+01   -1.446836694867349e+02   -2.545784642907804e+01   1.694719088447990e+02    -2.546745882193206e+01   1.693909613581152e+02    -1.822353887703996e+01   -1.420197558682583e+02   
7.072000000000000e+09    -1.738073971678187e+01   -1.446827439674570e+02   -2.546122686434121e+01   1.687536670872165e+02    -2.550395618385002e+01   1.685969873865453e+02    -1.817004620972255e+01   -1.418651296286611e+02   
7.073000000000000e+09    -1.737283884861751e+01   -1.446848394469891e+02   -2.551680010274336e+01   1.680663879831239e+02    -2.552648336989835e+01   1.679599138666204e+02    -1.812951523024038e+01   -1.417442295724486e+02   
7.074000000000000e+09    -1.737068753018476e+01   -1.447076935201790e+02   -2.552209269430069e+01   1.673053733738641e+02    -2.552610927690902e+01   1.672044663699638e+02    -1.807977946787496e+01   -1.415581827324486e+02   
7.075000000000000e+09    -1.735623081586516e+01   -1.447767519330941e+02   -2.554791925380876e+01   1.667655216842422e+02    -2.554075605117694e+01   1.665425160196905e+02    -1.804641764503515e+01   -1.413631638209158e+02   
7.076000000000000e+09    -1.735499477219635e+01   -1.447352507795728e+02   -2.557070508015068e+01   1.660032039452256e+02    -2.557321272729793e+01   1.658734852294391e+02    -1.801046226459010e+01   -1.411581562325556e+02   
7.077000000000000e+09    -1.735170168944673e+01   -1.447452821535247e+02   -2.560777571999577e+01   1.652217655201049e+02    -2.559439559774350e+01   1.650859661378924e+02    -1.797323105792918e+01   -1.409796082197825e+02   
7.078000000000000e+09    -1.734696246621092e+01   -1.447047744968158e+02   -2.560945200635259e+01   1.646407263206432e+02    -2.560763999674417e+01   1.644363226283400e+02    -1.794843187913091e+01   -1.408289379019980e+02   
7.079000000000000e+09    -1.734267802772529e+01   -1.447760107439580e+02   -2.563137921731018e+01   1.638544867243430e+02    -2.563652704682346e+01   1.637247044429052e+02    -1.792385752757867e+01   -1.406186911727966e+02   
7.080000000000000e+09    -1.734137638845663e+01   -1.448691144899747e+02   -2.564831501599215e+01   1.632095283982430e+02    -2.566967582817755e+01   1.629727981090277e+02    -1.790406639369299e+01   -1.404287192135326e+02   
7.081000000000000e+09    -1.733873379732463e+01   -1.448369643584899e+02   -2.568764812767706e+01   1.625177276627801e+02    -2.567534571159127e+01   1.623181248227163e+02    -1.788525884489788e+01   -1.402285321138244e+02   
7.082000000000000e+09    -1.734070147503247e+01   -1.448732559077417e+02   -2.570778483610250e+01   1.616891590626341e+02    -2.570793286470312e+01   1.615523805744347e+02    -1.786995220248961e+01   -1.400695846294795e+02   
7.083000000000000e+09    -1.734217527958972e+01   -1.448885411467750e+02   -2.572078487778853e+01   1.610208071611020e+02    -2.571045365418524e+01   1.608605482948809e+02    -1.785665591748917e+01   -1.398833830498032e+02   
7.084000000000000e+09    -1.734627115666336e+01   -1.449323674942321e+02   -2.576206206558688e+01   1.603002921287330e+02    -2.575183895481577e+01   1.602467350906637e+02    -1.784519306477277e+01   -1.396844720565687e+02   
