[Version] 2.0
! Rohde & Schwarz Vector Network Analyzer
! Rohde-Schwarz,ZNL20-2Port,1323001220200009,1.71.1.10-23.02.1.238
! 
! Port Assignments:
! Nominal Port -> Actual Test Port
! --------------------------------
!   1 -> 1
!   2 -> 2

! Created: GMT+3 2024-09-24 15:06:22

# Hz S DB R 50

[Number of Ports] 2
[Two-Port Data Order] 21_12
[Number of Frequencies] 6001

[Network Data] 
! freq[Hz]               S11[mag dB]              S11[ang]                 S21[mag dB]              S21[ang]                 S12[mag dB]              S12[ang]                 S22[mag dB]              S22[ang]                 
7.000000000000000e+09    -1.892785468318608e+01   -1.474122315463514e+02   -2.501193198021828e+01   -1.397606747358157e+02   -2.499123688494497e+01   -1.390820353076132e+02   -2.110712328793823e+01   -1.402557302438264e+02   
7.001000000000000e+09    -1.892197190446358e+01   -1.472603660198345e+02   -2.499053871394211e+01   -1.404694289622148e+02   -2.498537083049426e+01   -1.397446303032081e+02   -2.112907535537920e+01   -1.398028865278320e+02   
7.002000000000000e+09    -1.892256399045998e+01   -1.471082732700267e+02   -2.500519476825300e+01   -1.410369847458243e+02   -2.498317155528585e+01   -1.404419805521813e+02   -2.117216885569743e+01   -1.394162281744190e+02   
7.003000000000000e+09    -1.890808635044526e+01   -1.469027226010408e+02   -2.502399386724170e+01   -1.416513397856509e+02   -2.498318337049170e+01   -1.411338195693609e+02   -2.119528117167122e+01   -1.390051831095874e+02   
7.004000000000000e+09    -1.890738401469059e+01   -1.467394602062553e+02   -2.500985041361414e+01   -1.423114552389536e+02   -2.498757870354711e+01   -1.418245363912406e+02   -2.122199864997026e+01   -1.386855628532661e+02   
7.005000000000000e+09    -1.890330532288786e+01   -1.465353830624879e+02   -2.500442801258380e+01   -1.430134398083713e+02   -2.496960623336577e+01   -1.424168005449214e+02   -2.125197404661426e+01   -1.382624300522921e+02   
7.006000000000000e+09    -1.889509983253658e+01   -1.463224294004642e+02   -2.500418537779490e+01   -1.437309952365561e+02   -2.497758043780695e+01   -1.431246216952230e+02   -2.127351519537826e+01   -1.379781027698699e+02   
7.007000000000000e+09    -1.888280709159753e+01   -1.461459175792953e+02   -2.500226301501389e+01   -1.443528555408669e+02   -2.497038717828010e+01   -1.437571167082420e+02   -2.129707765840021e+01   -1.377365315285664e+02   
7.008000000000000e+09    -1.886631117755237e+01   -1.459849931678866e+02   -2.500312673186940e+01   -1.450761671621587e+02   -2.498070488174837e+01   -1.445180092940071e+02   -2.132721744023068e+01   -1.374951712114722e+02   
7.009000000000000e+09    -1.885405114205589e+01   -1.458254062571057e+02   -2.499568628860455e+01   -1.456748683055357e+02   -2.495624316615825e+01   -1.451533771565971e+02   -2.134776614567119e+01   -1.373195323010953e+02   
7.010000000000000e+09    -1.884551201398472e+01   -1.457040726298974e+02   -2.499649126486552e+01   -1.463086116628262e+02   -2.497626488955083e+01   -1.459371676956674e+02   -2.136355091266890e+01   -1.371231648976892e+02   
7.011000000000000e+09    -1.882902777558352e+01   -1.455256204794311e+02   -2.499536108610408e+01   -1.467923826642543e+02   -2.496040131267420e+01   -1.465484006278702e+02   -2.138606005784655e+01   -1.369959510904827e+02   
7.012000000000000e+09    -1.880876583243844e+01   -1.453871627284457e+02   -2.499255983901227e+01   -1.475760866118665e+02   -2.496112506744355e+01   -1.472330821324026e+02   -2.140298353937296e+01   -1.367962340001894e+02   
7.013000000000000e+09    -1.879486268475710e+01   -1.452689648998791e+02   -2.500036374051709e+01   -1.482017972167588e+02   -2.496848332135765e+01   -1.479487536343005e+02   -2.141740019543573e+01   -1.367619076278224e+02   
7.014000000000000e+09    -1.879360634985824e+01   -1.452109625765073e+02   -2.498638290644729e+01   -1.489155179305958e+02   -2.495319272826582e+01   -1.486089691814749e+02   -2.143827750644190e+01   -1.367347845417172e+02   
7.015000000000000e+09    -1.877477111450878e+01   -1.450850810137565e+02   -2.499336321167722e+01   -1.496395203302706e+02   -2.496735653025873e+01   -1.492320707484133e+02   -2.143586700789643e+01   -1.365889890051846e+02   
7.016000000000000e+09    -1.875539260338935e+01   -1.449475202400997e+02   -2.498620278948744e+01   -1.502535470891116e+02   -2.495773487835704e+01   -1.499190332703857e+02   -2.144343751173297e+01   -1.365686318904622e+02   
7.017000000000000e+09    -1.874128843368675e+01   -1.448387959143836e+02   -2.498333254641029e+01   -1.508305260433985e+02   -2.495391451632759e+01   -1.506563182403207e+02   -2.143786543428117e+01   -1.366602301188472e+02   
7.018000000000000e+09    -1.872871197499328e+01   -1.447806404426999e+02   -2.497831311375734e+01   -1.515188825404778e+02   -2.496300895996060e+01   -1.514143506557939e+02   -2.143916591513182e+01   -1.366680777674522e+02   
7.019000000000000e+09    -1.871590001516887e+01   -1.446551959462412e+02   -2.499170321628615e+01   -1.522288735620288e+02   -2.497579958208178e+01   -1.520295200266802e+02   -2.142870742154822e+01   -1.366127266392802e+02   
7.020000000000000e+09    -1.870218669555680e+01   -1.445861416490792e+02   -2.498197841408868e+01   -1.527965365149556e+02   -2.497676986074909e+01   -1.527751171062216e+02   -2.143203937719640e+01   -1.367502706625151e+02   
7.021000000000000e+09    -1.868792434860462e+01   -1.445449648078691e+02   -2.496027752502957e+01   -1.535342101146302e+02   -2.495424727484047e+01   -1.534063877973304e+02   -2.141218143127407e+01   -1.368662488325491e+02   
7.022000000000000e+09    -1.866573512874984e+01   -1.444652702770201e+02   -2.498639889337291e+01   -1.542143958103286e+02   -2.496540954250948e+01   -1.541019852510140e+02   -2.140842259937937e+01   -1.368449975337466e+02   
7.023000000000000e+09    -1.865195373559619e+01   -1.443664110710905e+02   -2.497542764098245e+01   -1.548714365570544e+02   -2.496041355493504e+01   -1.548845855115212e+02   -2.137891901987433e+01   -1.370371675993834e+02   
7.024000000000000e+09    -1.863847218884694e+01   -1.443649393840635e+02   -2.497358221834935e+01   -1.555455512855448e+02   -2.497794060372779e+01   -1.554937615087303e+02   -2.135550216095308e+01   -1.371503351432505e+02   
7.025000000000000e+09    -1.861876224925986e+01   -1.442615587496417e+02   -2.497525960504898e+01   -1.561376778315652e+02   -2.498009629405157e+01   -1.561837995035736e+02   -2.133006319003567e+01   -1.372115438262182e+02   
7.026000000000000e+09    -1.859618559382341e+01   -1.443244754614526e+02   -2.497416782530079e+01   -1.568823216225276e+02   -2.497057592399237e+01   -1.567933938187300e+02   -2.129626021025126e+01   -1.374000139588529e+02   
7.027000000000000e+09    -1.858094873512653e+01   -1.441936760505922e+02   -2.497726100383000e+01   -1.575297529066829e+02   -2.496482683355159e+01   -1.574110406613779e+02   -2.126891719302514e+01   -1.375211507806567e+02   
7.028000000000000e+09    -1.855567747379490e+01   -1.441697913239420e+02   -2.497267723864768e+01   -1.582986697637212e+02   -2.497029451237539e+01   -1.582681188092920e+02   -2.122930072119335e+01   -1.377433610014186e+02   
7.029000000000000e+09    -1.853459324669237e+01   -1.442147785852935e+02   -2.497358564064110e+01   -1.589426740789419e+02   -2.498086860891732e+01   -1.589708668512448e+02   -2.118065968519599e+01   -1.379076528281296e+02   
7.030000000000000e+09    -1.851380344048470e+01   -1.441706385782703e+02   -2.495944716181192e+01   -1.596340059071678e+02   -2.499219822544830e+01   -1.595312739582328e+02   -2.115149072562300e+01   -1.381063827842415e+02   
7.031000000000000e+09    -1.849454762634828e+01   -1.441134407481249e+02   -2.498153005163600e+01   -1.601606944432163e+02   -2.498724308962139e+01   -1.603345729720491e+02   -2.110541947641045e+01   -1.382410311752942e+02   
7.032000000000000e+09    -1.846084587727399e+01   -1.441282476539730e+02   -2.496829681521898e+01   -1.609732626515901e+02   -2.499747453817995e+01   -1.609279959144446e+02   -2.107295187154299e+01   -1.385227111441397e+02   
7.033000000000000e+09    -1.843909113661568e+01   -1.441231165243958e+02   -2.500159806043885e+01   -1.616458695447526e+02   -2.499994230095899e+01   -1.617566072083115e+02   -2.101363615623070e+01   -1.387097656085883e+02   
7.034000000000000e+09    -1.841242412975794e+01   -1.440865843854690e+02   -2.499858595701659e+01   -1.623982245538041e+02   -2.500989051841227e+01   -1.623842410006601e+02   -2.096802069587525e+01   -1.388356562158866e+02   
7.035000000000000e+09    -1.838349147782146e+01   -1.441008320115665e+02   -2.500050955376661e+01   -1.629320782604676e+02   -2.502207616413362e+01   -1.631026328970369e+02   -2.090902852821547e+01   -1.389984463512507e+02   
7.036000000000000e+09    -1.835612924523523e+01   -1.440739551880998e+02   -2.500649920325109e+01   -1.635740994759128e+02   -2.502764972784453e+01   -1.636987964841997e+02   -2.087180283069890e+01   -1.392150582686421e+02   
7.037000000000000e+09    -1.832940182519603e+01   -1.441222514499953e+02   -2.501394999686759e+01   -1.643493275729600e+02   -2.503263205995097e+01   -1.643626389939616e+02   -2.080831668405096e+01   -1.393281594447367e+02   
7.038000000000000e+09    -1.829742386458994e+01   -1.441143938107642e+02   -2.501425174512976e+01   -1.650521159693664e+02   -2.504203742896987e+01   -1.650469355406346e+02   -2.074712577332220e+01   -1.395132902067173e+02   
7.039000000000000e+09    -1.825774788447853e+01   -1.441143852381860e+02   -2.501475555812394e+01   -1.657277088835838e+02   -2.505214658260051e+01   -1.655906209318664e+02   -2.067815086942429e+01   -1.397387116796482e+02   
7.040000000000000e+09    -1.822753158392563e+01   -1.440807544510491e+02   -2.503870025639603e+01   -1.663692121721340e+02   -2.505935568300821e+01   -1.663468621224490e+02   -2.061909098080157e+01   -1.399434447754009e+02   
7.041000000000000e+09    -1.820293919770756e+01   -1.440474928965565e+02   -2.503379746920168e+01   -1.670218713101834e+02   -2.506949969477684e+01   -1.670102007425033e+02   -2.055996129414926e+01   -1.399658354693934e+02   
7.042000000000000e+09    -1.816247550292667e+01   -1.440552393251593e+02   -2.504972254628726e+01   -1.676816999777899e+02   -2.507439747980449e+01   -1.675731058619110e+02   -2.049270380954826e+01   -1.401446282050264e+02   
7.043000000000000e+09    -1.812504342361727e+01   -1.441223420962440e+02   -2.505752938105828e+01   -1.684128577371163e+02   -2.508281041978822e+01   -1.683090723045378e+02   -2.042166495847070e+01   -1.403886406930849e+02   
7.044000000000000e+09    -1.808495381414718e+01   -1.440277312693674e+02   -2.505767395033533e+01   -1.689546544046186e+02   -2.510005408114930e+01   -1.689864100213177e+02   -2.033160912041497e+01   -1.405266329001004e+02   
7.045000000000000e+09    -1.805045999907052e+01   -1.440497788481509e+02   -2.506052534777300e+01   -1.697387581484789e+02   -2.509360588786808e+01   -1.695630893008119e+02   -2.027160242587420e+01   -1.406329411414379e+02   
7.046000000000000e+09    -1.800953687078733e+01   -1.440772425972607e+02   -2.507542250987885e+01   -1.703980843769264e+02   -2.509953881600610e+01   -1.703050595278367e+02   -2.018336064074143e+01   -1.408235782591036e+02   
7.047000000000000e+09    -1.796974695730153e+01   -1.440430424181901e+02   -2.507206353567092e+01   -1.709647614229715e+02   -2.512275166520674e+01   -1.709814220339194e+02   -2.011877811746282e+01   -1.409180128629146e+02   
7.048000000000000e+09    -1.793884874845694e+01   -1.440485599278404e+02   -2.508180836032098e+01   -1.716160744110501e+02   -2.511804667064941e+01   -1.715419950954814e+02   -2.004153756798479e+01   -1.410616248126802e+02   
7.049000000000000e+09    -1.790709124236388e+01   -1.440190835136642e+02   -2.509570743104977e+01   -1.723887668099274e+02   -2.513173380735083e+01   -1.721722273740070e+02   -1.996982657448062e+01   -1.410973176894335e+02   
7.050000000000000e+09    -1.786744507286046e+01   -1.439800870172143e+02   -2.511558866541174e+01   -1.730636520108024e+02   -2.513445031353690e+01   -1.728782194135230e+02   -1.988697373130309e+01   -1.412121102448368e+02   
7.051000000000000e+09    -1.783203998918606e+01   -1.439620083071560e+02   -2.511142231551075e+01   -1.737544888684858e+02   -2.514751198695224e+01   -1.735237747484861e+02   -1.980597943003158e+01   -1.413777512485241e+02   
7.052000000000000e+09    -1.780891236804516e+01   -1.439819753375412e+02   -2.511443536701881e+01   -1.743423253447848e+02   -2.514946732500997e+01   -1.740328631028534e+02   -1.974023108364045e+01   -1.413856444059060e+02   
7.053000000000000e+09    -1.777328683173388e+01   -1.439854399123639e+02   -2.513540760189315e+01   -1.750553699292552e+02   -2.516135537340681e+01   -1.747876049799631e+02   -1.965168249830253e+01   -1.414237540939085e+02   
7.054000000000000e+09    -1.775432832500957e+01   -1.439522131228418e+02   -2.512125215276382e+01   -1.758305841171471e+02   -2.516592029939534e+01   -1.754772440628748e+02   -1.957452633991429e+01   -1.414747317955452e+02   
7.055000000000000e+09    -1.772089450490562e+01   -1.439148913000832e+02   -2.513912891831039e+01   -1.763922274839329e+02   -2.517617611474977e+01   -1.762170934452721e+02   -1.949485871461432e+01   -1.415525642176997e+02   
7.056000000000000e+09    -1.769744993898323e+01   -1.438437173527361e+02   -2.514355897492579e+01   -1.770228621682885e+02   -2.517950198218248e+01   -1.768041155706499e+02   -1.941685598224136e+01   -1.416140898828977e+02   
7.057000000000000e+09    -1.767372442343688e+01   -1.437900042831387e+02   -2.515113449998671e+01   -1.778248759923767e+02   -2.518029838706501e+01   -1.774444519831711e+02   -1.933276730944534e+01   -1.416795162587269e+02   
7.058000000000000e+09    -1.764057324275170e+01   -1.437532130678553e+02   -2.516679645331572e+01   -1.784169695506358e+02   -2.520198471836750e+01   -1.781787259317131e+02   -1.926824835572602e+01   -1.416129563290386e+02   
7.059000000000000e+09    -1.762423629021520e+01   -1.437674201748347e+02   -2.517741309125979e+01   -1.792202281855646e+02   -2.519353963355541e+01   -1.789355094359422e+02   -1.918326853608792e+01   -1.416271408694614e+02   
7.060000000000000e+09    -1.760286035810263e+01   -1.436906561925539e+02   -2.517002842990512e+01   -1.798492315642989e+02   -2.521754845176163e+01   -1.795393968676609e+02   -1.909940819824601e+01   -1.416368779888082e+02   
7.061000000000000e+09    -1.758058964427427e+01   -1.436389040568222e+02   -2.519506125691473e+01   1.794236623116082e+02    -2.519602856523877e+01   1.797433181785737e+02    -1.902917998636980e+01   -1.415639945752475e+02   
7.062000000000000e+09    -1.756044410368836e+01   -1.435885961268720e+02   -2.520146860567575e+01   1.787269756391237e+02    -2.522516262831549e+01   1.789846150182107e+02    -1.895252914575891e+01   -1.415670225885090e+02   
7.063000000000000e+09    -1.753604520884713e+01   -1.435376797948115e+02   -2.520071866512201e+01   1.779506152660143e+02    -2.525091934842821e+01   1.781857955889724e+02    -1.888211899890465e+01   -1.414619893228915e+02   
7.064000000000000e+09    -1.751954530771018e+01   -1.434788338635941e+02   -2.523207497202110e+01   1.772857926047209e+02    -2.524856619316536e+01   1.777776962419119e+02    -1.880275301602609e+01   -1.413445823929286e+02   
7.065000000000000e+09    -1.751225721301590e+01   -1.435225599730801e+02   -2.523478868435608e+01   1.766063049934347e+02    -2.527751654962159e+01   1.768596550391569e+02    -1.874192956324403e+01   -1.412897582852424e+02   
7.066000000000000e+09    -1.749145023681795e+01   -1.434934272266807e+02   -2.525405269478290e+01   1.758773839265631e+02    -2.528188603188232e+01   1.762728271641027e+02    -1.867365056125049e+01   -1.411992611566766e+02   
7.067000000000000e+09    -1.747739056732740e+01   -1.434175055948321e+02   -2.525942132519356e+01   1.750699971724086e+02    -2.528176940670363e+01   1.754777524493063e+02    -1.860970839629034e+01   -1.410060323046553e+02   
7.068000000000000e+09    -1.746520684098952e+01   -1.434783592988850e+02   -2.528229359395051e+01   1.744889577092736e+02    -2.531630464749336e+01   1.748235676254487e+02    -1.854733930063855e+01   -1.408786420938403e+02   
7.069000000000000e+09    -1.744844679994772e+01   -1.434657877548698e+02   -2.531060218331209e+01   1.737134127254507e+02    -2.531610276493324e+01   1.740822342717341e+02    -1.848772095394593e+01   -1.408306297314163e+02   
7.070000000000000e+09    -1.744208586775633e+01   -1.434319079143878e+02   -2.531313661843180e+01   1.730586056081850e+02    -2.533127425395563e+01   1.734681819208235e+02    -1.843479152006440e+01   -1.406369907038541e+02   
7.071000000000000e+09    -1.742999073976616e+01   -1.434095896206499e+02   -2.533794318891946e+01   1.723463369258486e+02    -2.534612881047055e+01   1.727893123193785e+02    -1.838070402840724e+01   -1.405024955743267e+02   
7.072000000000000e+09    -1.741771507748388e+01   -1.434507696696635e+02   -2.534635923345462e+01   1.716833435665084e+02    -2.537676886152497e+01   1.721268362712570e+02    -1.833119096191107e+01   -1.403815979714443e+02   
7.073000000000000e+09    -1.740832236041874e+01   -1.434303282445660e+02   -2.540078762486385e+01   1.708819095837034e+02    -2.540938864050174e+01   1.712929869176517e+02    -1.828330936013010e+01   -1.401953417298006e+02   
7.074000000000000e+09    -1.740416320417970e+01   -1.434298028657233e+02   -2.539175246171716e+01   1.702342230821895e+02    -2.540667542183286e+01   1.707193663406229e+02    -1.823853044438358e+01   -1.400277132799914e+02   
7.075000000000000e+09    -1.739320837788802e+01   -1.434514471539632e+02   -2.541324371953469e+01   1.695315541830801e+02    -2.542997581682478e+01   1.700765516029718e+02    -1.819774995887580e+01   -1.398113079889069e+02   
7.076000000000000e+09    -1.738071375288908e+01   -1.434133621217308e+02   -2.542955082507535e+01   1.689039013069430e+02    -2.544895015035214e+01   1.693442579171914e+02    -1.816096922862803e+01   -1.396207004275238e+02   
7.077000000000000e+09    -1.737442279932176e+01   -1.434314619633705e+02   -2.545640907978747e+01   1.681192137668544e+02    -2.546257313772393e+01   1.685312646156669e+02    -1.812375005421159e+01   -1.394094255659740e+02   
7.078000000000000e+09    -1.736218374218475e+01   -1.434205710659500e+02   -2.546479442461234e+01   1.674714425996875e+02    -2.547412205076457e+01   1.677833508752466e+02    -1.809581461953051e+01   -1.392633571799298e+02   
7.079000000000000e+09    -1.735483088078606e+01   -1.434694851535357e+02   -2.548161312477909e+01   1.666989785789232e+02    -2.548451526729567e+01   1.672716119251901e+02    -1.805964958802779e+01   -1.390453103212592e+02   
7.080000000000000e+09    -1.735391860731319e+01   -1.435495929121590e+02   -2.550489788521132e+01   1.660939725179981e+02    -2.552550380342808e+01   1.663876630579673e+02    -1.803623804773185e+01   -1.388517755020279e+02   
7.081000000000000e+09    -1.733885162255124e+01   -1.435548520569684e+02   -2.554274954366246e+01   1.653615275211001e+02    -2.553033645943088e+01   1.657267663535604e+02    -1.801697797169017e+01   -1.386885080191884e+02   
7.082000000000000e+09    -1.733823167321089e+01   -1.436080126321571e+02   -2.555411582128460e+01   1.646823854727334e+02    -2.555029840387168e+01   1.650124272580147e+02    -1.799880344112006e+01   -1.384619518993724e+02   
7.083000000000000e+09    -1.734005784852988e+01   -1.436361310116866e+02   -2.557194564627687e+01   1.639157537556337e+02    -2.556899083721994e+01   1.642690503277593e+02    -1.799041988961505e+01   -1.382956806424945e+02   
7.084000000000000e+09    -1.733675181146022e+01   -1.436533908683100e+02   -2.559504445767276e+01   1.631790162484067e+02    -2.559454801571028e+01   1.636739763165164e+02    -1.797694061714037e+01   -1.381023245173394e+02   
