[Version] 2.0
! Rohde & Schwarz Vector Network Analyzer
! Rohde-Schwarz,ZNL20-2Port,1323001220200009,1.71.1.10-23.02.1.238
! 
! Port Assignments:
! Nominal Port -> Actual Test Port
! --------------------------------
!   1 -> 1
!   2 -> 2

! Created: GMT+3 2024-09-24 15:11:00

# Hz S DB R 50

[Number of Ports] 2
[Two-Port Data Order] 21_12
[Number of Frequencies] 6001

[Network Data] 
! freq[Hz]               S11[mag dB]              S11[ang]                 S21[mag dB]              S21[ang]                 S12[mag dB]              S12[ang]                 S22[mag dB]              S22[ang]                 
7.000000000000000e+09    -1.988306977723034e+01   -1.559414037235041e+02   -2.822036378311041e+01   -1.074682874829432e+02   -2.820737758889167e+01   -1.068099401540297e+02   -2.195622614353504e+01   -1.529224862779765e+02   
7.001000000000000e+09    -1.990692342336195e+01   -1.556030198425439e+02   -2.815032359952330e+01   -1.082840142305765e+02   -2.815213085062752e+01   -1.075309952611580e+02   -2.203960794237120e+01   -1.523771873984103e+02   
7.002000000000000e+09    -1.993055466882526e+01   -1.553374305147420e+02   -2.810167850284435e+01   -1.088958624050748e+02   -2.811771522983517e+01   -1.082729310597742e+02   -2.213746262405208e+01   -1.519818772636088e+02   
7.003000000000000e+09    -1.996176597259725e+01   -1.549493799430168e+02   -2.808178308999095e+01   -1.094810379517925e+02   -2.805116133250127e+01   -1.090904622825983e+02   -2.220698774212650e+01   -1.514898371041894e+02   
7.004000000000000e+09    -1.997320944326989e+01   -1.546521127591521e+02   -2.802888576240407e+01   -1.101553165059246e+02   -2.801345991116789e+01   -1.097396245225070e+02   -2.229830408476110e+01   -1.510726757907357e+02   
7.005000000000000e+09    -2.000683657983549e+01   -1.543068800162288e+02   -2.797891986675717e+01   -1.110781727573878e+02   -2.794837124079640e+01   -1.104089812803215e+02   -2.237821995956211e+01   -1.505882513794135e+02   
7.006000000000000e+09    -2.003017923708809e+01   -1.539885885231182e+02   -2.793415136359421e+01   -1.117587967539461e+02   -2.789086485362672e+01   -1.111818686472105e+02   -2.245255708554527e+01   -1.502088683973903e+02   
7.007000000000000e+09    -2.003750396062420e+01   -1.536763096069091e+02   -2.786345813403425e+01   -1.123580117858631e+02   -2.783460090797603e+01   -1.118465164128902e+02   -2.252951913288043e+01   -1.497830779389610e+02   
7.008000000000000e+09    -2.005426743894482e+01   -1.533241761447219e+02   -2.782065885247324e+01   -1.132042884128760e+02   -2.779640522243517e+01   -1.126025926228300e+02   -2.259338587068745e+01   -1.494565440454604e+02   
7.009000000000000e+09    -2.007339034079802e+01   -1.529520670556998e+02   -2.778775805317530e+01   -1.139109742625411e+02   -2.774101496802475e+01   -1.133701239670614e+02   -2.267599159822090e+01   -1.491099773109775e+02   
7.010000000000000e+09    -2.009506453505039e+01   -1.526684553649770e+02   -2.773260246708625e+01   -1.146112409194525e+02   -2.770898779138028e+01   -1.141187798310233e+02   -2.274396667302398e+01   -1.488102461159050e+02   
7.011000000000000e+09    -2.010056169325154e+01   -1.522970676676305e+02   -2.768681634113442e+01   -1.152349970170513e+02   -2.766718631642755e+01   -1.147585242005153e+02   -2.280258317226368e+01   -1.485326952063622e+02   
7.012000000000000e+09    -2.010721901602131e+01   -1.520187749070587e+02   -2.765588936229701e+01   -1.159215543099656e+02   -2.761675212576972e+01   -1.155930352229529e+02   -2.285975191212103e+01   -1.482433935530848e+02   
7.013000000000000e+09    -2.011259595842611e+01   -1.516969647863702e+02   -2.759325579428804e+01   -1.166126888641509e+02   -2.757340749554304e+01   -1.162256711916518e+02   -2.293238162165814e+01   -1.480679508889930e+02   
7.014000000000000e+09    -2.013180268224216e+01   -1.513593244513453e+02   -2.755378242484896e+01   -1.172818069538883e+02   -2.753232591429641e+01   -1.168939287839667e+02   -2.298371542250518e+01   -1.478741923091460e+02   
7.015000000000000e+09    -2.014035166133413e+01   -1.510417697479227e+02   -2.752855039163622e+01   -1.180156252095034e+02   -2.748334663524195e+01   -1.175237061654827e+02   -2.303013941163896e+01   -1.476246233487772e+02   
7.016000000000000e+09    -2.014890130776881e+01   -1.507288013033753e+02   -2.747715043260299e+01   -1.185592807490293e+02   -2.743552420913634e+01   -1.184113451716218e+02   -2.308536846618362e+01   -1.473787064438655e+02   
7.017000000000000e+09    -2.014956712090349e+01   -1.503295770592613e+02   -2.743355396552283e+01   -1.194175927325574e+02   -2.739733500248444e+01   -1.191190700191275e+02   -2.312127334919955e+01   -1.472760134823250e+02   
7.018000000000000e+09    -2.014535653958288e+01   -1.501232928046487e+02   -2.740398202487209e+01   -1.201017051928656e+02   -2.735988720611174e+01   -1.198374369420445e+02   -2.315517276777486e+01   -1.471158796605395e+02   
7.019000000000000e+09    -2.014905433471117e+01   -1.498057946123990e+02   -2.736760169989456e+01   -1.208151380967070e+02   -2.732333083230874e+01   -1.206144140227556e+02   -2.318507383449896e+01   -1.468321724540306e+02   
7.020000000000000e+09    -2.014529839350453e+01   -1.495140037273914e+02   -2.732402203175142e+01   -1.214298206193636e+02   -2.729924136096961e+01   -1.213656728705109e+02   -2.320755019149665e+01   -1.469000381723532e+02   
7.021000000000000e+09    -2.014743941080418e+01   -1.492137142532689e+02   -2.724806797345513e+01   -1.221649171405862e+02   -2.723947167282310e+01   -1.220651555137891e+02   -2.322712813395001e+01   -1.467283898032451e+02   
7.022000000000000e+09    -2.014297986016122e+01   -1.489463211558549e+02   -2.723256801070084e+01   -1.229147096224816e+02   -2.718986481908328e+01   -1.227944466438690e+02   -2.327073094131677e+01   -1.466067869390070e+02   
7.023000000000000e+09    -2.013397467508811e+01   -1.486539862310672e+02   -2.717622658739850e+01   -1.234930931153800e+02   -2.716083968229953e+01   -1.234997234837691e+02   -2.326995402286247e+01   -1.465193396154655e+02   
7.024000000000000e+09    -2.013154952605315e+01   -1.484003922659702e+02   -2.713864099058792e+01   -1.243087706554104e+02   -2.713424640957708e+01   -1.242539387269414e+02   -2.327473954343711e+01   -1.463749797316542e+02   
7.025000000000000e+09    -2.012147751474247e+01   -1.481408847183154e+02   -2.711904938778932e+01   -1.249819380323136e+02   -2.710059880279930e+01   -1.250056345062353e+02   -2.327243779787425e+01   -1.462324834838886e+02   
7.026000000000000e+09    -2.011431083970226e+01   -1.479301060959697e+02   -2.708355472325319e+01   -1.256490641813536e+02   -2.707401376077519e+01   -1.256860004641969e+02   -2.325734521462936e+01   -1.462125865828889e+02   
7.027000000000000e+09    -2.010313311900561e+01   -1.476192559052627e+02   -2.704903768111072e+01   -1.262316584534938e+02   -2.702072211876937e+01   -1.264025121357542e+02   -2.324693796671335e+01   -1.460569481903133e+02   
7.028000000000000e+09    -2.008507661456240e+01   -1.473976310137566e+02   -2.701923166964061e+01   -1.272601445763601e+02   -2.701193867750098e+01   -1.270847907615978e+02   -2.323443008558449e+01   -1.460613290827553e+02   
7.029000000000000e+09    -2.007073841858521e+01   -1.471303762729295e+02   -2.700473383672227e+01   -1.278104898223409e+02   -2.700073019023939e+01   -1.279179391662517e+02   -2.322951383983320e+01   -1.459802977019210e+02   
7.030000000000000e+09    -2.005780458307995e+01   -1.469293458301283e+02   -2.695992865610268e+01   -1.286692158843570e+02   -2.696879353841152e+01   -1.284562181951690e+02   -2.318940059338644e+01   -1.458673910968862e+02   
7.031000000000000e+09    -2.004332199441696e+01   -1.466889487181635e+02   -2.693250442281066e+01   -1.292203334394590e+02   -2.691693269387882e+01   -1.293565826399706e+02   -2.316281678199987e+01   -1.457551372944506e+02   
7.032000000000000e+09    -2.001569903294961e+01   -1.464870822917971e+02   -2.689064324289161e+01   -1.300425963050276e+02   -2.689074035329860e+01   -1.299699577602105e+02   -2.313767796689800e+01   -1.457589493399008e+02   
7.033000000000000e+09    -1.999700625231070e+01   -1.462648855973983e+02   -2.687897414862897e+01   -1.305446277971557e+02   -2.689064633025711e+01   -1.307521867724859e+02   -2.309604613496727e+01   -1.457130786279853e+02   
7.034000000000000e+09    -1.996837492541056e+01   -1.460433984456263e+02   -2.683114051430256e+01   -1.312324075690190e+02   -2.685472104968866e+01   -1.313905338067569e+02   -2.305576598737814e+01   -1.456096047328990e+02   
7.035000000000000e+09    -1.994919104218202e+01   -1.458267922319618e+02   -2.682292139674590e+01   -1.318392494282230e+02   -2.683896794983509e+01   -1.320588571180790e+02   -2.300463507650861e+01   -1.453575689052512e+02   
7.036000000000000e+09    -1.991326379146690e+01   -1.455570385006475e+02   -2.678682702207900e+01   -1.324770047668724e+02   -2.679721526700348e+01   -1.327117904439257e+02   -2.297717527447638e+01   -1.454010701258424e+02   
7.037000000000000e+09    -1.988718773183128e+01   -1.453931775379350e+02   -2.676507658359576e+01   -1.332311776272589e+02   -2.675471144633365e+01   -1.333572134192847e+02   -2.290747528986823e+01   -1.451936612030001e+02   
7.038000000000000e+09    -1.986059978963215e+01   -1.451476178038747e+02   -2.674023873902441e+01   -1.339916230179862e+02   -2.675832468858869e+01   -1.340052716389263e+02   -2.284566101274560e+01   -1.450695374137164e+02   
7.039000000000000e+09    -1.982028421696843e+01   -1.449079586512501e+02   -2.669843689957358e+01   -1.345633293388304e+02   -2.671779379733183e+01   -1.345544376440498e+02   -2.278605630381006e+01   -1.450371008349964e+02   
7.040000000000000e+09    -1.978565314452704e+01   -1.446906050218670e+02   -2.668264553357236e+01   -1.352193318461098e+02   -2.668657605872617e+01   -1.353367367037044e+02   -2.271232001227437e+01   -1.448959488653311e+02   
7.041000000000000e+09    -1.974945136494752e+01   -1.445272280550757e+02   -2.664100445414075e+01   -1.359579144874781e+02   -2.667826075067459e+01   -1.359458970927622e+02   -2.265812296431016e+01   -1.447377317000051e+02   
7.042000000000000e+09    -1.971174367360573e+01   -1.442788965969640e+02   -2.662212281460973e+01   -1.366769358753295e+02   -2.664829374631908e+01   -1.366338660039583e+02   -2.259146821925388e+01   -1.445936825767782e+02   
7.043000000000000e+09    -1.967231085204174e+01   -1.440542147298231e+02   -2.660054372310939e+01   -1.373370106420346e+02   -2.662310771952818e+01   -1.373656486243144e+02   -2.252226699227604e+01   -1.445611699090828e+02   
7.044000000000000e+09    -1.962637471472099e+01   -1.437664465134069e+02   -2.656258467140093e+01   -1.379557264547367e+02   -2.659034090024134e+01   -1.379625476546246e+02   -2.242304512675102e+01   -1.444284277013024e+02   
7.045000000000000e+09    -1.958006089232479e+01   -1.436042690158611e+02   -2.654592816210901e+01   -1.386730049584611e+02   -2.654861441267732e+01   -1.386842449602956e+02   -2.235547225899608e+01   -1.442448118981388e+02   
7.046000000000000e+09    -1.953876339758652e+01   -1.433978241589700e+02   -2.652716195791898e+01   -1.394323580329203e+02   -2.654249313919381e+01   -1.393736049218145e+02   -2.225779126605907e+01   -1.440277594333807e+02   
7.047000000000000e+09    -1.950396040705339e+01   -1.431706277003926e+02   -2.647256792493384e+01   -1.399923961111110e+02   -2.651584464119230e+01   -1.400129413885709e+02   -2.216544950154751e+01   -1.438667578609450e+02   
7.048000000000000e+09    -1.945277963202786e+01   -1.430083717628175e+02   -2.646022839234737e+01   -1.406690065229476e+02   -2.650453280240024e+01   -1.406212609207897e+02   -2.209650670193122e+01   -1.437018401985041e+02   
7.049000000000000e+09    -1.941379547720866e+01   -1.427257853119423e+02   -2.644465779060205e+01   -1.414406803566114e+02   -2.647133965044867e+01   -1.412558023070604e+02   -2.199564617812253e+01   -1.434703456734602e+02   
7.050000000000000e+09    -1.937333595963756e+01   -1.425469150283600e+02   -2.644561188594867e+01   -1.420473891799783e+02   -2.644374920347463e+01   -1.419242820196847e+02   -2.192081173532562e+01   -1.432282115802150e+02   
7.051000000000000e+09    -1.932096305284050e+01   -1.423015750913222e+02   -2.639765916863301e+01   -1.428319096571733e+02   -2.641830414519026e+01   -1.426113407201827e+02   -2.181216987753508e+01   -1.431390366644740e+02   
7.052000000000000e+09    -1.929178172641023e+01   -1.420979289237042e+02   -2.637404580977451e+01   -1.435256941955511e+02   -2.638507484118525e+01   -1.431854405720380e+02   -2.173141404125009e+01   -1.428783592429961e+02   
7.053000000000000e+09    -1.924677126797902e+01   -1.418867628754315e+02   -2.635167350744474e+01   -1.439656133282218e+02   -2.638152004017083e+01   -1.439444013777644e+02   -2.163659408902790e+01   -1.426561562256909e+02   
7.054000000000000e+09    -1.921641726915573e+01   -1.416770681607892e+02   -2.633086315442874e+01   -1.449277008295939e+02   -2.635539885421972e+01   -1.447422078882690e+02   -2.154836028610516e+01   -1.424190916584147e+02   
7.055000000000000e+09    -1.916780838214336e+01   -1.413601963229255e+02   -2.631121466455788e+01   -1.455466518069924e+02   -2.634406929332314e+01   -1.453523789180613e+02   -2.145222613877500e+01   -1.421870733228987e+02   
7.056000000000000e+09    -1.914075989293975e+01   -1.411724600138212e+02   -2.627771868410609e+01   -1.461492144480438e+02   -2.631054920095323e+01   -1.459691036547191e+02   -2.134911062774621e+01   -1.419080515016567e+02   
7.057000000000000e+09    -1.909526978783005e+01   -1.409046307731427e+02   -2.627020700319721e+01   -1.469180045805511e+02   -2.627885015880150e+01   -1.466232251117967e+02   -2.124192860561328e+01   -1.416419148205883e+02   
7.058000000000000e+09    -1.905969602263298e+01   -1.407037126832332e+02   -2.623665092595975e+01   -1.476253376072350e+02   -2.627832723365978e+01   -1.473554319421301e+02   -2.115936343442188e+01   -1.413235569101580e+02   
7.059000000000000e+09    -1.901637679942249e+01   -1.404828809769754e+02   -2.623344687195266e+01   -1.482930912486768e+02   -2.623247929066436e+01   -1.480976440198843e+02   -2.105379895640279e+01   -1.410229594062604e+02   
7.060000000000000e+09    -1.898607397503701e+01   -1.402330154880826e+02   -2.620406056782823e+01   -1.489835188346416e+02   -2.623137848165330e+01   -1.487568277305485e+02   -2.095435521549695e+01   -1.408310050175927e+02   
7.061000000000000e+09    -1.895558610458232e+01   -1.400230886395265e+02   -2.617912941581389e+01   -1.497994568891221e+02   -2.619228398964432e+01   -1.495201542795411e+02   -2.086800675603587e+01   -1.404424908721812e+02   
7.062000000000000e+09    -1.891024863007832e+01   -1.397712689266728e+02   -2.616420015116897e+01   -1.504257040627266e+02   -2.619370945942334e+01   -1.501135724265739e+02   -2.076289473311213e+01   -1.401873637336339e+02   
7.063000000000000e+09    -1.887801216182174e+01   -1.394811756892836e+02   -2.615254227829391e+01   -1.511451626712258e+02   -2.620321411152898e+01   -1.508350164818764e+02   -2.066368565286127e+01   -1.397732389693498e+02   
7.064000000000000e+09    -1.884695923899668e+01   -1.392740987902383e+02   -2.612974034925814e+01   -1.518160794991102e+02   -2.615342329712255e+01   -1.514686057783395e+02   -2.057182948288226e+01   -1.394525364823994e+02   
7.065000000000000e+09    -1.880608015682346e+01   -1.391705878672381e+02   -2.611087147834458e+01   -1.524798119280849e+02   -2.615994487265510e+01   -1.521181667689294e+02   -2.048944470035702e+01   -1.391460629343520e+02   
7.066000000000000e+09    -1.876757518481338e+01   -1.389158302634233e+02   -2.610649720093971e+01   -1.531827401262372e+02   -2.612639119114125e+01   -1.528593589888690e+02   -2.039136293505449e+01   -1.387667701614922e+02   
7.067000000000000e+09    -1.873374241600632e+01   -1.386919069887795e+02   -2.609982487820036e+01   -1.539922853270798e+02   -2.613227141728384e+01   -1.536679466856806e+02   -2.030357429311625e+01   -1.383805321510793e+02   
7.068000000000000e+09    -1.870030108382239e+01   -1.385397658983840e+02   -2.607725651950784e+01   -1.545995297332417e+02   -2.611010545065530e+01   -1.541716258474929e+02   -2.021765026980898e+01   -1.380517527871409e+02   
7.069000000000000e+09    -1.866747918425664e+01   -1.383804420658284e+02   -2.606838503176877e+01   -1.552739913253700e+02   -2.608824061869161e+01   -1.548978904527824e+02   -2.013687514413714e+01   -1.377168179882719e+02   
7.070000000000000e+09    -1.864023628568572e+01   -1.382112748183933e+02   -2.604662371546664e+01   -1.558583140069514e+02   -2.607674236158615e+01   -1.556347598867993e+02   -2.004592095006198e+01   -1.372775087130544e+02   
7.071000000000000e+09    -1.861062248592791e+01   -1.380542916843294e+02   -2.603432242720271e+01   -1.566533366812908e+02   -2.605221400714958e+01   -1.562094836103839e+02   -1.998739283135911e+01   -1.369069029837860e+02   
7.072000000000000e+09    -1.858180487046202e+01   -1.378410337369043e+02   -2.601115032775119e+01   -1.573558389899246e+02   -2.605756182026003e+01   -1.570190407791069e+02   -1.990377720018753e+01   -1.365270288031335e+02   
7.073000000000000e+09    -1.854805694392480e+01   -1.376861683554238e+02   -2.603882276400808e+01   -1.579386410144529e+02   -2.605258337374639e+01   -1.576485742357574e+02   -1.983231270076631e+01   -1.361802057075571e+02   
7.074000000000000e+09    -1.852788164682928e+01   -1.375840808245212e+02   -2.600852488321224e+01   -1.586827976410642e+02   -2.602137172117754e+01   -1.583112461531244e+02   -1.976638917328443e+01   -1.357376546156021e+02   
7.075000000000000e+09    -1.848628928046413e+01   -1.375020219801409e+02   -2.600239560170507e+01   -1.592966535511761e+02   -2.601778035353512e+01   -1.590482398277311e+02   -1.969766331121832e+01   -1.353258309217341e+02   
7.076000000000000e+09    -1.846019348269681e+01   -1.372929676705674e+02   -2.597918938153730e+01   -1.600032176980960e+02   -2.599679458655148e+01   -1.596339247011956e+02   -1.963833893146745e+01   -1.348396807649782e+02   
7.077000000000000e+09    -1.842814541749875e+01   -1.372029909099970e+02   -2.599416262619089e+01   -1.607963106461405e+02   -2.599402953246461e+01   -1.603608190486954e+02   -1.956928760313096e+01   -1.344437278551853e+02   
7.078000000000000e+09    -1.840201668510932e+01   -1.370840645544905e+02   -2.596141525793579e+01   -1.614006083190179e+02   -2.598987335859536e+01   -1.611558835876081e+02   -1.951013828332735e+01   -1.340862617115603e+02   
7.079000000000000e+09    -1.837127788674237e+01   -1.369886575534785e+02   -2.596155829103239e+01   -1.621566010667300e+02   -2.596705854214269e+01   -1.617715869417750e+02   -1.945686962447576e+01   -1.336799332574423e+02   
7.080000000000000e+09    -1.835178833127947e+01   -1.369177199466094e+02   -2.594444086785218e+01   -1.627772566303063e+02   -2.598382820038260e+01   -1.624497880973235e+02   -1.940063220543575e+01   -1.333061180047527e+02   
7.081000000000000e+09    -1.831221767650201e+01   -1.367943749718996e+02   -2.594878595964949e+01   -1.634214921618917e+02   -2.595697922538885e+01   -1.631385726643195e+02   -1.936034904421207e+01   -1.329177444685602e+02   
7.082000000000000e+09    -1.829615462232571e+01   -1.366657748515223e+02   -2.595679000992699e+01   -1.641600485051732e+02   -2.596782212481722e+01   -1.637931078081419e+02   -1.931323040959746e+01   -1.324803985253481e+02   
7.083000000000000e+09    -1.826750537085739e+01   -1.365796713473626e+02   -2.594337235649622e+01   -1.648195061442424e+02   -2.596119049927456e+01   -1.645491784596485e+02   -1.926689459979279e+01   -1.320807424387449e+02   
7.084000000000000e+09    -1.824650546337800e+01   -1.365674690493344e+02   -2.595016877806131e+01   -1.656488654203075e+02   -2.593989434426906e+01   -1.651565064894564e+02   -1.923365975151814e+01   -1.317062188974714e+02   
