[Version] 2.0
! Rohde & Schwarz Vector Network Analyzer
! Rohde-Schwarz,ZNL20-2Port,1323001220200009,1.71.1.10-23.02.1.238
! 
! Port Assignments:
! Nominal Port -> Actual Test Port
! --------------------------------
!   1 -> 1
!   2 -> 2

! Created: GMT+3 2024-09-24 15:13:27

# Hz S DB R 50

[Number of Ports] 2
[Two-Port Data Order] 21_12
[Number of Frequencies] 6001

[Network Data] 
! freq[Hz]               S11[mag dB]              S11[ang]                 S21[mag dB]              S21[ang]                 S12[mag dB]              S12[ang]                 S22[mag dB]              S22[ang]                 
7.000000000000000e+09    -1.961324297604548e+01   -1.605004774459915e+02   -3.208683663910997e+01   -9.180383510568170e+01   -3.207606710629629e+01   -9.154775125363803e+01   -2.157375556989280e+01   -1.574633181082768e+02   
7.001000000000000e+09    -1.966063901679587e+01   -1.602566469328351e+02   -3.196028435714864e+01   -9.280753622848565e+01   -3.197292024627631e+01   -9.205241492536717e+01   -2.166976745093692e+01   -1.571001965508823e+02   
7.002000000000000e+09    -1.969960289154177e+01   -1.600040942779813e+02   -3.185098334353447e+01   -9.331013221513325e+01   -3.185438286767984e+01   -9.282532167002891e+01   -2.177348046364396e+01   -1.567033926593923e+02   
7.003000000000000e+09    -1.974486964405438e+01   -1.597539449853439e+02   -3.172213895479985e+01   -9.372823336440777e+01   -3.170823027512909e+01   -9.354611151054104e+01   -2.187298815881493e+01   -1.563589675422907e+02   
7.004000000000000e+09    -1.978232795669426e+01   -1.594573812285028e+02   -3.160492569974731e+01   -9.450339411629433e+01   -3.161933836850299e+01   -9.415672373075377e+01   -2.196662591219886e+01   -1.559811530454925e+02   
7.005000000000000e+09    -1.982003581744500e+01   -1.591303697264105e+02   -3.148726095021139e+01   -9.534978309612062e+01   -3.148814726700724e+01   -9.480552049280298e+01   -2.205592735670832e+01   -1.556940772525033e+02   
7.006000000000000e+09    -1.985700042689122e+01   -1.588430000936055e+02   -3.136421089028493e+01   -9.608808876162038e+01   -3.134069737877628e+01   -9.559005613182481e+01   -2.215481423747762e+01   -1.553348620100564e+02   
7.007000000000000e+09    -1.989648360060658e+01   -1.585694734582268e+02   -3.123695628578561e+01   -9.658411061694811e+01   -3.121128109126460e+01   -9.630222987345151e+01   -2.223992429757804e+01   -1.550618219522403e+02   
7.008000000000000e+09    -1.993175197856428e+01   -1.583072395211885e+02   -3.114559918122548e+01   -9.747129844572046e+01   -3.112284985337857e+01   -9.712017318852646e+01   -2.232564876686823e+01   -1.547677876682758e+02   
7.009000000000000e+09    -1.996870422387773e+01   -1.579638893076033e+02   -3.106404410484844e+01   -9.783459086657552e+01   -3.101037750172198e+01   -9.780142210009784e+01   -2.240858503620587e+01   -1.545586357089451e+02   
7.010000000000000e+09    -2.000229888906658e+01   -1.577099132520079e+02   -3.093413657559066e+01   -9.870620443177806e+01   -3.092305403924485e+01   -9.854839272290455e+01   -2.249623609649365e+01   -1.543292414997169e+02   
7.011000000000000e+09    -2.003097198474341e+01   -1.573657791253801e+02   -3.081882612080620e+01   -9.919377348900740e+01   -3.079932740620956e+01   -9.909613762617946e+01   -2.257942869165444e+01   -1.541482490736825e+02   
7.012000000000000e+09    -2.005902585022947e+01   -1.570311482424610e+02   -3.073580880474983e+01   -9.991674154410383e+01   -3.072165153776959e+01   -9.969334597215230e+01   -2.265461183520279e+01   -1.539239005501337e+02   
7.013000000000000e+09    -2.008571008158464e+01   -1.567739299253288e+02   -3.060933526041806e+01   -1.005816263456852e+02   -3.061259981270759e+01   -1.005832848426384e+02   -2.272983701734376e+01   -1.537574024482861e+02   
7.014000000000000e+09    -2.012399594944038e+01   -1.565020140186819e+02   -3.052710452889487e+01   -1.014221853891042e+02   -3.050135348602478e+01   -1.010375409878387e+02   -2.280325883849595e+01   -1.536473389195419e+02   
7.015000000000000e+09    -2.014655412687569e+01   -1.561911679343555e+02   -3.041899172311964e+01   -1.020380760465312e+02   -3.038784778483000e+01   -1.015357822353063e+02   -2.286048637710084e+01   -1.534357563486016e+02   
7.016000000000000e+09    -2.017057306686269e+01   -1.558578455936345e+02   -3.030909646032752e+01   -1.026193569126448e+02   -3.030882531462888e+01   -1.024072505989507e+02   -2.293436848698380e+01   -1.533736148954262e+02   
7.017000000000000e+09    -2.019467728196862e+01   -1.554804929685260e+02   -3.021001332286753e+01   -1.034281353810482e+02   -3.021828301567190e+01   -1.033952490900208e+02   -2.297993941633068e+01   -1.533361967826907e+02   
7.018000000000000e+09    -2.021403016466900e+01   -1.551906696036455e+02   -3.010908301656624e+01   -1.040484563786685e+02   -3.010792637152539e+01   -1.039483919674380e+02   -2.304029680663911e+01   -1.531685421314928e+02   
7.019000000000000e+09    -2.024251091644977e+01   -1.549412700411124e+02   -3.003462193636132e+01   -1.048988670811985e+02   -3.002221266325005e+01   -1.046339490756570e+02   -2.308954872851089e+01   -1.530032537483696e+02   
7.020000000000000e+09    -2.025165385505985e+01   -1.546522817131118e+02   -2.992199582162646e+01   -1.054941774869960e+02   -2.995365240030696e+01   -1.053559497007084e+02   -2.312963348531761e+01   -1.530108114019539e+02   
7.021000000000000e+09    -2.027884924572022e+01   -1.544380197216174e+02   -2.982702111179033e+01   -1.063913607184573e+02   -2.984795570460265e+01   -1.061432445998987e+02   -2.316394100104986e+01   -1.528739913698405e+02   
7.022000000000000e+09    -2.028914112246973e+01   -1.540951400022360e+02   -2.976680657551446e+01   -1.070896898546888e+02   -2.974437004953313e+01   -1.068314102082059e+02   -2.322650296714212e+01   -1.527440404267426e+02   
7.023000000000000e+09    -2.030726738594062e+01   -1.537481360080892e+02   -2.967896393350778e+01   -1.077044230240890e+02   -2.968126333643434e+01   -1.078955745211218e+02   -2.324235014826664e+01   -1.527520262998929e+02   
7.024000000000000e+09    -2.032421141617757e+01   -1.535434219124582e+02   -2.958462582552819e+01   -1.084909505463813e+02   -2.961789569145317e+01   -1.084317019866118e+02   -2.326578830285549e+01   -1.526779098605697e+02   
7.025000000000000e+09    -2.033644589130163e+01   -1.531278801308486e+02   -2.951445767733552e+01   -1.090219612207287e+02   -2.950299505858258e+01   -1.091390962129006e+02   -2.327742072516789e+01   -1.525725292780068e+02   
7.026000000000000e+09    -2.034479064190037e+01   -1.529394568341721e+02   -2.943068320234652e+01   -1.098025373918578e+02   -2.945437263102658e+01   -1.098891806542581e+02   -2.328482279911775e+01   -1.525269599190726e+02   
7.027000000000000e+09    -2.036171512780516e+01   -1.526282492335238e+02   -2.938303812378156e+01   -1.105903252839340e+02   -2.935072344169237e+01   -1.105248265242702e+02   -2.330618808466275e+01   -1.523754248349936e+02   
7.028000000000000e+09    -2.035873716968673e+01   -1.523135245073105e+02   -2.927962946561762e+01   -1.113532423420099e+02   -2.929690570948443e+01   -1.114099978426405e+02   -2.330469005772471e+01   -1.523950383437999e+02   
7.029000000000000e+09    -2.036415575502559e+01   -1.520210321183556e+02   -2.922691456563803e+01   -1.121577665732964e+02   -2.923009959880466e+01   -1.121558627881036e+02   -2.331318318157823e+01   -1.524058764788668e+02   
7.030000000000000e+09    -2.036595902586895e+01   -1.517366588804140e+02   -2.912463046480865e+01   -1.129155076091961e+02   -2.915863432683420e+01   -1.127745604843535e+02   -2.330935271293693e+01   -1.522379738795744e+02   
7.031000000000000e+09    -2.036738654595247e+01   -1.514319360140963e+02   -2.904683908762454e+01   -1.134099247756305e+02   -2.910626997680957e+01   -1.135588137992837e+02   -2.329782280413594e+01   -1.520807707006693e+02   
7.032000000000000e+09    -2.035709697790070e+01   -1.511687014149556e+02   -2.899504855495434e+01   -1.143340189875721e+02   -2.901865380653961e+01   -1.142170111022433e+02   -2.329619232899087e+01   -1.519984734248098e+02   
7.033000000000000e+09    -2.035936729102036e+01   -1.508537185939969e+02   -2.892736215568970e+01   -1.147872016971511e+02   -2.897214028094322e+01   -1.148818948421761e+02   -2.326319941939563e+01   -1.521121666257239e+02   
7.034000000000000e+09    -2.035558313646217e+01   -1.505765442729614e+02   -2.885940611842191e+01   -1.156200312171787e+02   -2.889683697509052e+01   -1.156577336167723e+02   -2.325079584763037e+01   -1.518447113852191e+02   
7.035000000000000e+09    -2.034186152248980e+01   -1.502716310255732e+02   -2.879001705022803e+01   -1.162525297055381e+02   -2.884185228532708e+01   -1.162841899735293e+02   -2.321486320627050e+01   -1.516885973691314e+02   
7.036000000000000e+09    -2.032903434691955e+01   -1.499727260944547e+02   -2.872399055916549e+01   -1.169426860182984e+02   -2.877902556151791e+01   -1.169690540175303e+02   -2.319761987773358e+01   -1.515139412690696e+02   
7.037000000000000e+09    -2.032131113232034e+01   -1.496845419711143e+02   -2.866072581156620e+01   -1.176230307512894e+02   -2.869379390049641e+01   -1.176262002610576e+02   -2.317519856165374e+01   -1.513345409875239e+02   
7.038000000000000e+09    -2.030639451479990e+01   -1.493755041702534e+02   -2.861917323850937e+01   -1.183455861246059e+02   -2.865108583484183e+01   -1.183333257497058e+02   -2.311300172629615e+01   -1.512297549414026e+02   
7.039000000000000e+09    -2.028188019673201e+01   -1.491035160535048e+02   -2.852961141540039e+01   -1.190088607423256e+02   -2.855035902546932e+01   -1.189294787617341e+02   -2.308268401786227e+01   -1.510676608800566e+02   
7.040000000000000e+09    -2.026283203507044e+01   -1.487648356902035e+02   -2.847038110823515e+01   -1.196009550431771e+02   -2.851354514305410e+01   -1.197082206183532e+02   -2.302631331932947e+01   -1.508526254107659e+02   
7.041000000000000e+09    -2.024557606921823e+01   -1.484232766696251e+02   -2.839880746612862e+01   -1.205265906743290e+02   -2.844421201288799e+01   -1.204244435438540e+02   -2.297973341716645e+01   -1.506824408110951e+02   
7.042000000000000e+09    -2.021604478436087e+01   -1.481113076434758e+02   -2.834430312000476e+01   -1.212937122862472e+02   -2.840387828863587e+01   -1.209292312486358e+02   -2.293637376339331e+01   -1.504510015078079e+02   
7.043000000000000e+09    -2.019908253171114e+01   -1.478503389604714e+02   -2.829843578910472e+01   -1.218643489887744e+02   -2.832612444337659e+01   -1.218173229149288e+02   -2.287192163529120e+01   -1.503004326762903e+02   
7.044000000000000e+09    -2.016173831488356e+01   -1.474645382473485e+02   -2.822066493950659e+01   -1.225199355517668e+02   -2.828208318747795e+01   -1.223835915374172e+02   -2.280433694325875e+01   -1.501020407512759e+02   
7.045000000000000e+09    -2.013084477512063e+01   -1.471073277451787e+02   -2.816682122843737e+01   -1.233470548194767e+02   -2.820089256648407e+01   -1.232209232543602e+02   -2.273985039574910e+01   -1.498740115497869e+02   
7.046000000000000e+09    -2.009423927909386e+01   -1.468226666530869e+02   -2.813050508153698e+01   -1.239414085776449e+02   -2.817443384538101e+01   -1.239757410464740e+02   -2.266976468277229e+01   -1.495769422871355e+02   
7.047000000000000e+09    -2.006241843093841e+01   -1.464814360952487e+02   -2.804019884833000e+01   -1.247239365063785e+02   -2.809424208819121e+01   -1.243785684056887e+02   -2.260892769667084e+01   -1.493322489767813e+02   
7.048000000000000e+09    -2.003351570431298e+01   -1.462186615900783e+02   -2.798687430572150e+01   -1.254406903568870e+02   -2.803967997309659e+01   -1.251879407553250e+02   -2.252868399226742e+01   -1.490066908541095e+02   
7.049000000000000e+09    -2.000822376626253e+01   -1.458713780323524e+02   -2.793334173906309e+01   -1.260441567117881e+02   -2.798669586621496e+01   -1.258595670934886e+02   -2.246710305971000e+01   -1.486372140519519e+02   
7.050000000000000e+09    -1.997275662746890e+01   -1.455643601373416e+02   -2.789755087980296e+01   -1.268430206038477e+02   -2.792930125430669e+01   -1.265539353553197e+02   -2.239035069783107e+01   -1.483357510366538e+02   
7.051000000000000e+09    -1.993347081799931e+01   -1.451885790944941e+02   -2.782485461367799e+01   -1.275665430798144e+02   -2.787753518398686e+01   -1.274821703703056e+02   -2.231423048828902e+01   -1.481428987189969e+02   
7.052000000000000e+09    -1.990834337905493e+01   -1.448601185850883e+02   -2.776761406217967e+01   -1.283749016567447e+02   -2.779825211307992e+01   -1.278638948521990e+02   -2.224231593284181e+01   -1.477508827253836e+02   
7.053000000000000e+09    -1.987241198112104e+01   -1.445399767165996e+02   -2.772272638571248e+01   -1.289017805408370e+02   -2.776585229364327e+01   -1.287325444923730e+02   -2.215937695089198e+01   -1.474588979457187e+02   
7.054000000000000e+09    -1.984514684637126e+01   -1.442039944783228e+02   -2.767248864698497e+01   -1.298704169051067e+02   -2.773279038909972e+01   -1.294195839372215e+02   -2.207102648860183e+01   -1.469939139584484e+02   
7.055000000000000e+09    -1.981159208831333e+01   -1.438852065511903e+02   -2.763091718180486e+01   -1.306482278689560e+02   -2.768680273425846e+01   -1.301528174354942e+02   -2.199083661279865e+01   -1.466011669918886e+02   
7.056000000000000e+09    -1.977634232903341e+01   -1.434649705405024e+02   -2.755366950268367e+01   -1.311098941969729e+02   -2.760739809173331e+01   -1.308771071357748e+02   -2.191241873729279e+01   -1.461707925455523e+02   
7.057000000000000e+09    -1.975115840408188e+01   -1.430786758343629e+02   -2.753179071489322e+01   -1.319124880522916e+02   -2.756123019202682e+01   -1.316128822096065e+02   -2.181491515757417e+01   -1.458694232594220e+02   
7.058000000000000e+09    -1.971246772492660e+01   -1.427812576680992e+02   -2.747826366090420e+01   -1.327262460668670e+02   -2.751231910043183e+01   -1.323288054562583e+02   -2.174008904922019e+01   -1.454011258752937e+02   
7.059000000000000e+09    -1.968819803340030e+01   -1.423981750264391e+02   -2.744099843250984e+01   -1.334283383245672e+02   -2.747273656393033e+01   -1.331867264021496e+02   -2.165560672224792e+01   -1.449438936570610e+02   
7.060000000000000e+09    -1.965119863035999e+01   -1.421098865346541e+02   -2.739461787789643e+01   -1.342565094167870e+02   -2.741821306567343e+01   -1.337357459221774e+02   -2.157270287515085e+01   -1.446011071314628e+02   
7.061000000000000e+09    -1.962405462740102e+01   -1.417134019007448e+02   -2.735178274786996e+01   -1.350577405589065e+02   -2.736232750390162e+01   -1.346099175981857e+02   -2.149393958021947e+01   -1.440644772428781e+02   
7.062000000000000e+09    -1.959461412352168e+01   -1.414243593089921e+02   -2.729482578604248e+01   -1.355933316652703e+02   -2.733153421745660e+01   -1.353344378559146e+02   -2.139519783201097e+01   -1.436586462843072e+02   
7.063000000000000e+09    -1.955708184158777e+01   -1.410092914415966e+02   -2.727135830584263e+01   -1.365150039951819e+02   -2.731628503870480e+01   -1.360342735451005e+02   -2.130851106991180e+01   -1.431511184184939e+02   
7.064000000000000e+09    -1.952770682832276e+01   -1.406306383322161e+02   -2.722321752394170e+01   -1.370205352163567e+02   -2.724050439036483e+01   -1.366415109891923e+02   -2.122528962322372e+01   -1.426238547190551e+02   
7.065000000000000e+09    -1.949417011562508e+01   -1.403823500431179e+02   -2.718404893483268e+01   -1.379563636669481e+02   -2.723281899167591e+01   -1.373598234637177e+02   -2.114938812700514e+01   -1.421832064472024e+02   
7.066000000000000e+09    -1.946404155370587e+01   -1.400720377509153e+02   -2.715109326459821e+01   -1.386211478164181e+02   -2.717887486175690e+01   -1.381080213126382e+02   -2.104780612965928e+01   -1.416973022069187e+02   
7.067000000000000e+09    -1.942895434371049e+01   -1.397041199841096e+02   -2.712762796163197e+01   -1.394224271913039e+02   -2.714020941243935e+01   -1.390119119617516e+02   -2.096873065050172e+01   -1.411196132497362e+02   
7.068000000000000e+09    -1.940204752946965e+01   -1.394554789435899e+02   -2.707199039056479e+01   -1.400626925282326e+02   -2.711185870621756e+01   -1.395811397267195e+02   -2.090068848180350e+01   -1.406232593461815e+02   
7.069000000000000e+09    -1.936040139950715e+01   -1.392144299091503e+02   -2.703904647901708e+01   -1.407810989662327e+02   -2.705774665666620e+01   -1.403793566049033e+02   -2.082183680337909e+01   -1.401518523714124e+02   
7.070000000000000e+09    -1.933780736026472e+01   -1.388497212781340e+02   -2.698350776026940e+01   -1.414162351517144e+02   -2.703374547947513e+01   -1.411110679701755e+02   -2.074240965532938e+01   -1.395645603075308e+02   
7.071000000000000e+09    -1.930164255910573e+01   -1.385904691997798e+02   -2.696262252194188e+01   -1.422996905597513e+02   -2.698550044935457e+01   -1.417208056258190e+02   -2.067020895677479e+01   -1.389985075359179e+02   
7.072000000000000e+09    -1.927447649417870e+01   -1.383444048836645e+02   -2.692952851290436e+01   -1.430803445978129e+02   -2.697886904158137e+01   -1.425555666082301e+02   -2.059411996893351e+01   -1.385056367038973e+02   
7.073000000000000e+09    -1.924210119346525e+01   -1.380623677714417e+02   -2.692889155791976e+01   -1.436272861624076e+02   -2.693718603786650e+01   -1.431954173945930e+02   -2.052394035321727e+01   -1.379880209776999e+02   
7.074000000000000e+09    -1.921127053750810e+01   -1.378466194643227e+02   -2.686478732720682e+01   -1.444137438168814e+02   -2.689113200133477e+01   -1.439626775811247e+02   -2.046231126022519e+01   -1.373914719242553e+02   
7.075000000000000e+09    -1.917611537765197e+01   -1.375877331622895e+02   -2.684701769485523e+01   -1.449731156588585e+02   -2.685385189317657e+01   -1.447759362149338e+02   -2.040068635721456e+01   -1.368556806874507e+02   
7.076000000000000e+09    -1.914400203709192e+01   -1.373141015789888e+02   -2.680518012018128e+01   -1.457934157712202e+02   -2.681855192740595e+01   -1.453126293229346e+02   -2.033792458567597e+01   -1.362408938604230e+02   
7.077000000000000e+09    -1.911126970808816e+01   -1.371102222690841e+02   -2.680277720220482e+01   -1.465788153211042e+02   -2.679554090647200e+01   -1.460314873073538e+02   -2.027567434725677e+01   -1.356379927385538e+02   
7.078000000000000e+09    -1.907727720393113e+01   -1.368741557666026e+02   -2.674733402120775e+01   -1.472399902027157e+02   -2.675697289457023e+01   -1.469448082156286e+02   -2.021046880218117e+01   -1.351207997018446e+02   
7.079000000000000e+09    -1.905032196823649e+01   -1.366708016995241e+02   -2.674043848165093e+01   -1.480068152935050e+02   -2.672065640832628e+01   -1.475545937363483e+02   -2.016368244137503e+01   -1.345045208516344e+02   
7.080000000000000e+09    -1.903289139920685e+01   -1.364683737019052e+02   -2.668626718650854e+01   -1.487747851368187e+02   -2.671735511592611e+01   -1.483218545509388e+02   -2.010176817904523e+01   -1.340115012998050e+02   
7.081000000000000e+09    -1.899768944399310e+01   -1.362395756008169e+02   -2.667463090413466e+01   -1.493153710234453e+02   -2.669067081934081e+01   -1.490686024379494e+02   -2.005927475693854e+01   -1.335206370605056e+02   
7.082000000000000e+09    -1.895793437783952e+01   -1.360769675078903e+02   -2.666346365164390e+01   -1.502067173967905e+02   -2.666905856745022e+01   -1.497736639660837e+02   -2.000704707280847e+01   -1.329919234991881e+02   
7.083000000000000e+09    -1.892682910234451e+01   -1.358188141191539e+02   -2.663038491286118e+01   -1.509331980298494e+02   -2.663380414252808e+01   -1.505885796144311e+02   -1.996728473873872e+01   -1.324631471714234e+02   
7.084000000000000e+09    -1.890115071160285e+01   -1.356604023082027e+02   -2.661174238742932e+01   -1.516128906670023e+02   -2.660856052558282e+01   -1.511301968803105e+02   -1.992973894584019e+01   -1.319436854125856e+02   
