[Version] 2.0
! Rohde & Schwarz Vector Network Analyzer
! Rohde-Schwarz,ZNL20-2Port,1323001220200009,1.71.1.10-23.02.1.238
! 
! Port Assignments:
! Nominal Port -> Actual Test Port
! --------------------------------
!   1 -> 1
!   2 -> 2

! Created: GMT+3 2024-09-24 15:13:41

# Hz S DB R 50

[Number of Ports] 2
[Two-Port Data Order] 21_12
[Number of Frequencies] 6001

[Network Data] 
! freq[Hz]               S11[mag dB]              S11[ang]                 S21[mag dB]              S21[ang]                 S12[mag dB]              S12[ang]                 S22[mag dB]              S22[ang]                 
7.000000000000000e+09    -1.902332526942339e+01   -1.638508368872063e+02   -4.435270851263768e+01   -8.217852450240423e+01   -4.431926457371570e+01   -8.132762391841342e+01   -2.085321601608757e+01   -1.613781110956044e+02   
7.001000000000000e+09    -1.907245350473849e+01   -1.636671005720487e+02   -4.366864629424261e+01   -8.199009216667068e+01   -4.371670741423260e+01   -8.083178626699656e+01   -2.096020336002961e+01   -1.611509579561553e+02   
7.002000000000000e+09    -1.913171419908124e+01   -1.635168025543377e+02   -4.308129055047731e+01   -8.132944897426417e+01   -4.312887715213265e+01   -8.093632938537617e+01   -2.107380849703479e+01   -1.609146100020466e+02   
7.003000000000000e+09    -1.917580658549593e+01   -1.632775746700034e+02   -4.245363557573091e+01   -8.007323495955562e+01   -4.261450076998788e+01   -7.996548607889392e+01   -2.117460206549492e+01   -1.606820729687276e+02   
7.004000000000000e+09    -1.923231081278671e+01   -1.631171649351655e+02   -4.202356983596363e+01   -8.038875047783685e+01   -4.210098770373502e+01   -8.010894929723203e+01   -2.127998795128365e+01   -1.604544211771928e+02   
7.005000000000000e+09    -1.928496141344606e+01   -1.629449597176568e+02   -4.159912566279011e+01   -8.103468979410223e+01   -4.163871095752791e+01   -8.033179142162793e+01   -2.139445380846474e+01   -1.602486395436380e+02   
7.006000000000000e+09    -1.934065798935302e+01   -1.627824450099327e+02   -4.112879666102087e+01   -8.155426520413725e+01   -4.112715014184832e+01   -8.045197713648638e+01   -2.149761478365319e+01   -1.600834569049333e+02   
7.007000000000000e+09    -1.938506493211157e+01   -1.626057168167315e+02   -4.067000328793615e+01   -8.104108808838197e+01   -4.058148195919175e+01   -8.087711840096595e+01   -2.159306722049219e+01   -1.599104368439725e+02   
7.008000000000000e+09    -1.943864827674201e+01   -1.624094627608222e+02   -4.026778210201396e+01   -8.186382071145721e+01   -4.025371818442608e+01   -8.099044108184567e+01   -2.168707056737799e+01   -1.597498582585031e+02   
7.009000000000000e+09    -1.947698716441104e+01   -1.621480901473015e+02   -3.984295348553265e+01   -8.166428385034733e+01   -3.987121530725170e+01   -8.189850160964890e+01   -2.179353218373272e+01   -1.596827874583586e+02   
7.010000000000000e+09    -1.952693508350048e+01   -1.620028201291437e+02   -3.948552366449682e+01   -8.299269003737469e+01   -3.945667247382009e+01   -8.227593064833114e+01   -2.188406327715895e+01   -1.595062134690571e+02   
7.011000000000000e+09    -1.957200450611171e+01   -1.617497088860955e+02   -3.910236592885733e+01   -8.242930619951224e+01   -3.913636162839030e+01   -8.263629042183837e+01   -2.197361715416783e+01   -1.594321173617188e+02   
7.012000000000000e+09    -1.961301010539617e+01   -1.615149533426363e+02   -3.876206669258438e+01   -8.336415933751664e+01   -3.875386321664808e+01   -8.279073295508375e+01   -2.206844633849930e+01   -1.593100368275479e+02   
7.013000000000000e+09    -1.965653697927577e+01   -1.612855874684936e+02   -3.844668701537587e+01   -8.380943292834911e+01   -3.848112872711680e+01   -8.338981528852732e+01   -2.215560530067270e+01   -1.593008892857140e+02   
7.014000000000000e+09    -1.970398829655407e+01   -1.611115614726782e+02   -3.814516595165797e+01   -8.422918082886291e+01   -3.813033883350873e+01   -8.395869099871192e+01   -2.223891829542740e+01   -1.592351774777571e+02   
7.015000000000000e+09    -1.974862853301132e+01   -1.608977424523267e+02   -3.788354873128500e+01   -8.468806393494796e+01   -3.779149195250527e+01   -8.421634949114949e+01   -2.231072198713377e+01   -1.591732633985366e+02   
7.016000000000000e+09    -1.978972700359301e+01   -1.606351279545466e+02   -3.749791074089376e+01   -8.518269145878162e+01   -3.748379223953187e+01   -8.509206591850911e+01   -2.238603508923985e+01   -1.591986949915261e+02   
7.017000000000000e+09    -1.982955462925889e+01   -1.603604079820159e+02   -3.724525943937004e+01   -8.583581669885382e+01   -3.726091617583046e+01   -8.604201903337007e+01   -2.245696241340483e+01   -1.591747753511362e+02   
7.018000000000000e+09    -1.986371152620129e+01   -1.601808157392268e+02   -3.699121743837148e+01   -8.684105293390033e+01   -3.700379561712223e+01   -8.639132309949574e+01   -2.252873539853585e+01   -1.591517489068385e+02   
7.019000000000000e+09    -1.990558220776972e+01   -1.599014856659032e+02   -3.673311002149286e+01   -8.695236995066627e+01   -3.673472472099554e+01   -8.686873432416151e+01   -2.258180951041911e+01   -1.591176049326886e+02   
7.020000000000000e+09    -1.993775962371517e+01   -1.596694613481858e+02   -3.643842689363710e+01   -8.747392646730300e+01   -3.652648070273577e+01   -8.787763582267627e+01   -2.264504210991574e+01   -1.591613728778700e+02   
7.021000000000000e+09    -1.998119317164985e+01   -1.594286143941217e+02   -3.623284305990528e+01   -8.892181617378860e+01   -3.617127861577121e+01   -8.834740608181059e+01   -2.269043147214921e+01   -1.592076011168899e+02   
7.022000000000000e+09    -2.001001849329815e+01   -1.592095122113912e+02   -3.598877769784505e+01   -8.909834903862438e+01   -3.597140207824769e+01   -8.886286627326035e+01   -2.276191531832996e+01   -1.591557302000946e+02   
7.023000000000000e+09    -2.004574372041258e+01   -1.588949249462275e+02   -3.577448658282851e+01   -8.993699465858620e+01   -3.581836538064059e+01   -8.987177477041797e+01   -2.279099227835043e+01   -1.591539636256879e+02   
7.024000000000000e+09    -2.007740212686982e+01   -1.586758412114249e+02   -3.554254411513486e+01   -9.064794540860780e+01   -3.560591674855212e+01   -9.057520329815333e+01   -2.283035219518382e+01   -1.591629788709951e+02   
7.025000000000000e+09    -2.010346324388719e+01   -1.584058601872396e+02   -3.531271365271707e+01   -9.106021316492371e+01   -3.535762199053399e+01   -9.091205032588236e+01   -2.288053779083700e+01   -1.591843869244270e+02   
7.026000000000000e+09    -2.014325570265381e+01   -1.582284198008622e+02   -3.514698814904133e+01   -9.152146740851819e+01   -3.516958316159001e+01   -9.163328792512007e+01   -2.289080353597429e+01   -1.591258070115760e+02   
7.027000000000000e+09    -2.016372538802826e+01   -1.578802332884887e+02   -3.492823747044829e+01   -9.217212734059964e+01   -3.494597205115758e+01   -9.227967081062026e+01   -2.292045660293565e+01   -1.590689692646513e+02   
7.028000000000000e+09    -2.018058856970942e+01   -1.576066693832254e+02   -3.475311952392433e+01   -9.316344345933017e+01   -3.478215124443611e+01   -9.315678420830316e+01   -2.293424290223806e+01   -1.590796667719231e+02   
7.029000000000000e+09    -2.020620962815362e+01   -1.573402078424156e+02   -3.457721462256511e+01   -9.382856172205638e+01   -3.464599988036260e+01   -9.402476034836414e+01   -2.295824768627326e+01   -1.590777552109276e+02   
7.030000000000000e+09    -2.022091657259843e+01   -1.570852392529588e+02   -3.441938827747600e+01   -9.479935634338148e+01   -3.439910939206948e+01   -9.434801108649357e+01   -2.297647747453340e+01   -1.589574571313748e+02   
7.031000000000000e+09    -2.023856083662316e+01   -1.568424647323433e+02   -3.421061412314157e+01   -9.517081032804161e+01   -3.425502251822562e+01   -9.521407658064494e+01   -2.298802955829803e+01   -1.588974520199695e+02   
7.032000000000000e+09    -2.025095511764955e+01   -1.565474228702286e+02   -3.407551502804100e+01   -9.598473049704864e+01   -3.410713445732362e+01   -9.567419167233017e+01   -2.299271868583879e+01   -1.589275687051574e+02   
7.033000000000000e+09    -2.026815041569591e+01   -1.562726962813184e+02   -3.386974765624606e+01   -9.601399325792111e+01   -3.397211394651244e+01   -9.649955637900885e+01   -2.298626291212675e+01   -1.588589535598300e+02   
7.034000000000000e+09    -2.028396254008140e+01   -1.560182390192423e+02   -3.370503393202765e+01   -9.715617867365238e+01   -3.374468510645844e+01   -9.724816938854379e+01   -2.297717957427174e+01   -1.587028916271715e+02   
7.035000000000000e+09    -2.029764684056092e+01   -1.557513949071410e+02   -3.356698645799754e+01   -9.770263359009033e+01   -3.360845792420299e+01   -9.759062066748713e+01   -2.297306896830314e+01   -1.586105649844840e+02   
7.036000000000000e+09    -2.029922506374339e+01   -1.554533534583136e+02   -3.338359587447230e+01   -9.826007866777996e+01   -3.345021362784293e+01   -9.840106630560248e+01   -2.297839232388745e+01   -1.583975990459258e+02   
7.037000000000000e+09    -2.030936538218253e+01   -1.551684827709491e+02   -3.322456157683617e+01   -9.896085507309239e+01   -3.330524712571312e+01   -9.902028876269803e+01   -2.296157394618053e+01   -1.581856068829575e+02   
7.038000000000000e+09    -2.031055775897738e+01   -1.548544105570573e+02   -3.312457009875758e+01   -9.960966402855784e+01   -3.316429773854688e+01   -9.971080216359412e+01   -2.292451457387018e+01   -1.581152327760426e+02   
7.039000000000000e+09    -2.030771923353999e+01   -1.544844985602016e+02   -3.295346863679330e+01   -1.002986693413971e+02   -3.297156878467907e+01   -1.001588072926661e+02   -2.290849303179973e+01   -1.580437015090021e+02   
7.040000000000000e+09    -2.031366241542391e+01   -1.542090866678610e+02   -3.282485218907308e+01   -1.008357924592390e+02   -3.286630750736953e+01   -1.008519652097226e+02   -2.288255323155085e+01   -1.578132094399407e+02   
7.041000000000000e+09    -2.031625611145301e+01   -1.538336465808865e+02   -3.264212820786227e+01   -1.015657767557663e+02   -3.272136261893503e+01   -1.014976400269330e+02   -2.284592507399732e+01   -1.575491442967179e+02   
7.042000000000000e+09    -2.030914481275931e+01   -1.535342046576877e+02   -3.252304811232198e+01   -1.021944732234878e+02   -3.259515630157827e+01   -1.020584409325191e+02   -2.283761150094906e+01   -1.574010446134001e+02   
7.043000000000000e+09    -2.030348731835032e+01   -1.532418081674918e+02   -3.240450692866894e+01   -1.027692533167611e+02   -3.243657277146167e+01   -1.029441133823094e+02   -2.280009709541897e+01   -1.571686688989862e+02   
7.044000000000000e+09    -2.028903721463828e+01   -1.527980194648777e+02   -3.223990680296927e+01   -1.034976119918418e+02   -3.230751556063603e+01   -1.033852812908888e+02   -2.274257908143472e+01   -1.568687979557464e+02   
7.045000000000000e+09    -2.027894079066680e+01   -1.524995033091073e+02   -3.208754527910478e+01   -1.044985911398273e+02   -3.215265175701116e+01   -1.041157982345596e+02   -2.270974850371116e+01   -1.566604915521098e+02   
7.046000000000000e+09    -2.026218975720779e+01   -1.521403634583305e+02   -3.196665706277138e+01   -1.048107477948099e+02   -3.205239096271021e+01   -1.046930665131777e+02   -2.266482914030956e+01   -1.563785343627436e+02   
7.047000000000000e+09    -2.025602787107055e+01   -1.517433359838524e+02   -3.181979431351838e+01   -1.055617186254184e+02   -3.191297970265135e+01   -1.054851514347871e+02   -2.260945685506374e+01   -1.559657804654307e+02   
7.048000000000000e+09    -2.023841575987618e+01   -1.514567482967694e+02   -3.168987872948701e+01   -1.064646000185369e+02   -3.177565207168055e+01   -1.060224979813239e+02   -2.256636869594402e+01   -1.555825584624492e+02   
7.049000000000000e+09    -2.023503506405807e+01   -1.510577766477071e+02   -3.156284209544996e+01   -1.069826161161989e+02   -3.166139727265807e+01   -1.066597635205607e+02   -2.251406363921211e+01   -1.552752613471275e+02   
7.050000000000000e+09    -2.021487522941947e+01   -1.506539999826795e+02   -3.149295590135012e+01   -1.077673313717928e+02   -3.150430918524394e+01   -1.073961508216495e+02   -2.247038484902873e+01   -1.548611451454356e+02   
7.051000000000000e+09    -2.020235998281725e+01   -1.502498382895231e+02   -3.135988084698227e+01   -1.086500118046412e+02   -3.140551597368628e+01   -1.081996184852831e+02   -2.241268582827333e+01   -1.545761651158141e+02   
7.052000000000000e+09    -2.018974996235883e+01   -1.499036070575146e+02   -3.123800528768808e+01   -1.092392636117978e+02   -3.124114843870998e+01   -1.087782272543267e+02   -2.235871169635708e+01   -1.541392533672456e+02   
7.053000000000000e+09    -2.018145470500292e+01   -1.495176260944587e+02   -3.108892338735889e+01   -1.098619634791592e+02   -3.115856205953595e+01   -1.095028004299762e+02   -2.230522212045796e+01   -1.537361104911284e+02   
7.054000000000000e+09    -2.018018452444977e+01   -1.490849552913664e+02   -3.100264714767001e+01   -1.108195285620037e+02   -3.105784473962350e+01   -1.103008751615078e+02   -2.225070683872412e+01   -1.532409377382986e+02   
7.055000000000000e+09    -2.015737119612517e+01   -1.486614116134469e+02   -3.090116824113193e+01   -1.114009207900903e+02   -3.093609605429544e+01   -1.109077651974649e+02   -2.219668913270029e+01   -1.528137109941923e+02   
7.056000000000000e+09    -2.014340511527921e+01   -1.481794718780579e+02   -3.077094041487552e+01   -1.119662453498569e+02   -3.080384940185922e+01   -1.116905838825668e+02   -2.213565356667019e+01   -1.523300658786903e+02   
7.057000000000000e+09    -2.013000918081279e+01   -1.477724896954703e+02   -3.068821389894171e+01   -1.127866103746905e+02   -3.072418987736065e+01   -1.124928304761169e+02   -2.206393318820801e+01   -1.518786668091390e+02   
7.058000000000000e+09    -2.010738714467271e+01   -1.474099125582814e+02   -3.058739704986115e+01   -1.135082595208551e+02   -3.059901948443118e+01   -1.130768474349930e+02   -2.202356803023426e+01   -1.513736641548981e+02   
7.059000000000000e+09    -2.011075756461933e+01   -1.469731456366828e+02   -3.049098735522809e+01   -1.142396681278020e+02   -3.048929646832172e+01   -1.138855720261327e+02   -2.195040582347050e+01   -1.507670143844322e+02   
7.060000000000000e+09    -2.008885885087891e+01   -1.465353538335959e+02   -3.037963729883086e+01   -1.151003681956481e+02   -3.040357393564682e+01   -1.145109289405679e+02   -2.188633972544276e+01   -1.503680833302866e+02   
7.061000000000000e+09    -2.008435054801895e+01   -1.461700749756089e+02   -3.029379832952404e+01   -1.158817762502483e+02   -3.030549848732265e+01   -1.155757165081421e+02   -2.182841992148243e+01   -1.497245290451353e+02   
7.062000000000000e+09    -2.006572653424865e+01   -1.457083006357214e+02   -3.017946909379364e+01   -1.164438831029984e+02   -3.024018467284723e+01   -1.161647704429637e+02   -2.175618194663382e+01   -1.491964213550568e+02   
7.063000000000000e+09    -2.004493618383926e+01   -1.452476386046978e+02   -3.011661312451714e+01   -1.172777295646913e+02   -3.014596542755488e+01   -1.167304099875794e+02   -2.169158826149235e+01   -1.485764462849317e+02   
7.064000000000000e+09    -2.003305643752659e+01   -1.448243569648432e+02   -2.999730388537358e+01   -1.180558681097491e+02   -3.002159284931522e+01   -1.175859040597318e+02   -2.162580092361111e+01   -1.478807669634374e+02   
7.065000000000000e+09    -2.001536731096900e+01   -1.444252654426151e+02   -2.991482585953347e+01   -1.187627819549499e+02   -2.995729979179296e+01   -1.182014592056910e+02   -2.157007723419793e+01   -1.473948706741421e+02   
7.066000000000000e+09    -1.999999329961150e+01   -1.439576541447260e+02   -2.984713734081540e+01   -1.194134475352708e+02   -2.983703566052856e+01   -1.189963432820720e+02   -2.150657737143103e+01   -1.467406760288960e+02   
7.067000000000000e+09    -1.997377289678099e+01   -1.435551617840362e+02   -2.975931154665446e+01   -1.202395063396711e+02   -2.976530607367036e+01   -1.198377395789952e+02   -2.144598367474085e+01   -1.460278707227131e+02   
7.068000000000000e+09    -1.995637193496825e+01   -1.431636439399743e+02   -2.966918498743811e+01   -1.209358270803675e+02   -2.967918267024913e+01   -1.203313652988728e+02   -2.138146281566019e+01   -1.454481421307596e+02   
7.069000000000000e+09    -1.993648697311783e+01   -1.427982225326929e+02   -2.957645803362140e+01   -1.217892240511147e+02   -2.957227285939343e+01   -1.211021562128491e+02   -2.132963294804054e+01   -1.448560298842795e+02   
7.070000000000000e+09    -1.991902695695015e+01   -1.423889924307647e+02   -2.947164122214858e+01   -1.222269537351867e+02   -2.951160925884646e+01   -1.219803976905517e+02   -2.126188404508706e+01   -1.440512750148268e+02   
7.071000000000000e+09    -1.989570649829578e+01   -1.420121038783886e+02   -2.940888868581462e+01   -1.231733553155108e+02   -2.943375709400379e+01   -1.227442404490152e+02   -2.121976257723443e+01   -1.434389766877115e+02   
7.072000000000000e+09    -1.988689299154439e+01   -1.416559984693924e+02   -2.933520284969443e+01   -1.238675045533460e+02   -2.936558913225524e+01   -1.233152077361163e+02   -2.116439634271216e+01   -1.427255277697398e+02   
7.073000000000000e+09    -1.986405987210753e+01   -1.412819478517169e+02   -2.928045191955388e+01   -1.243986596128021e+02   -2.927045415602635e+01   -1.239348461286882e+02   -2.110976734985289e+01   -1.420920503423894e+02   
7.074000000000000e+09    -1.984615596880548e+01   -1.409365084400415e+02   -2.920669502869094e+01   -1.253153328344588e+02   -2.918845045750363e+01   -1.247712906877317e+02   -2.104948941100776e+01   -1.413376516128138e+02   
7.075000000000000e+09    -1.981783130538269e+01   -1.405870800941203e+02   -2.911720264508364e+01   -1.258999646838174e+02   -2.911751247014963e+01   -1.254916799192600e+02   -2.101196090191424e+01   -1.406948513719285e+02   
7.076000000000000e+09    -1.979536002683067e+01   -1.401917037836604e+02   -2.902798952619922e+01   -1.266167068593636e+02   -2.904028823556125e+01   -1.261650171080700e+02   -2.095673042049516e+01   -1.398873792115956e+02   
7.077000000000000e+09    -1.977881981099329e+01   -1.398383134540238e+02   -2.900057623432920e+01   -1.272845019624965e+02   -2.897235383940206e+01   -1.269481067809651e+02   -2.091373138926641e+01   -1.392739232011416e+02   
7.078000000000000e+09    -1.975161649967548e+01   -1.394836756288816e+02   -2.889968758016146e+01   -1.282023864120654e+02   -2.891819293654002e+01   -1.277493407501582e+02   -2.087067905058083e+01   -1.385756213613630e+02   
7.079000000000000e+09    -1.972395951583434e+01   -1.391911900505437e+02   -2.883331352567199e+01   -1.288150029029546e+02   -2.882737344916099e+01   -1.283874807156828e+02   -2.082038350344332e+01   -1.379212331647768e+02   
7.080000000000000e+09    -1.971325335459777e+01   -1.389157255996391e+02   -2.875862456772420e+01   -1.295271637538512e+02   -2.877345373418502e+01   -1.290703201280330e+02   -2.078756815473837e+01   -1.372207310917375e+02   
7.081000000000000e+09    -1.968806050665869e+01   -1.385939411093432e+02   -2.869232819009387e+01   -1.302398754881878e+02   -2.869893900314798e+01   -1.297437469018766e+02   -2.075233171779694e+01   -1.365508031875795e+02   
7.082000000000000e+09    -1.966127988362626e+01   -1.382858283176940e+02   -2.864774562530683e+01   -1.310332317314989e+02   -2.866050762835752e+01   -1.305100528464085e+02   -2.071308585135538e+01   -1.358745840798470e+02   
7.083000000000000e+09    -1.963839974333587e+01   -1.379133128337619e+02   -2.857966260394355e+01   -1.316510376065134e+02   -2.859405607127663e+01   -1.312188781063363e+02   -2.067682717835096e+01   -1.351799290446725e+02   
7.084000000000000e+09    -1.962043772099743e+01   -1.376858439275057e+02   -2.851892247995897e+01   -1.324500471732974e+02   -2.849171676501856e+01   -1.320720725808359e+02   -2.064631287817902e+01   -1.344514797866114e+02   
