[Version] 2.0
! Rohde & Schwarz Vector Network Analyzer
! Rohde-Schwarz,ZNL20-2Port,1323001220200009,1.71.1.10-23.02.1.238
! 
! Port Assignments:
! Nominal Port -> Actual Test Port
! --------------------------------
!   1 -> 1
!   2 -> 2

! Created: GMT+3 2024-09-24 15:13:53

# Hz S DB R 50

[Number of Ports] 2
[Two-Port Data Order] 21_12
[Number of Frequencies] 6001

[Network Data] 
! freq[Hz]               S11[mag dB]              S11[ang]                 S21[mag dB]              S21[ang]                 S12[mag dB]              S12[ang]                 S22[mag dB]              S22[ang]                 
7.000000000000000e+09    -1.817510187026384e+01   -1.643277569898743e+02   -3.677402633123712e+01   1.322811435768116e+02    -3.683749060735083e+01   1.328125979234015e+02    -1.977612716616690e+01   -1.620115629447041e+02   
7.001000000000000e+09    -1.822788981284852e+01   -1.643370164682319e+02   -3.706509374991730e+01   1.312879251332287e+02    -3.709090259205242e+01   1.316947995556356e+02    -1.987250447769767e+01   -1.618975200082980e+02   
7.002000000000000e+09    -1.828531870843449e+01   -1.643324999612022e+02   -3.737669397837485e+01   1.300671187549174e+02    -3.737568015373475e+01   1.303663880902743e+02    -1.998136253755877e+01   -1.619104459194053e+02   
7.003000000000000e+09    -1.833427098823267e+01   -1.643253464932332e+02   -3.781953927478404e+01   1.287906130090898e+02    -3.768990262023656e+01   1.292414956121281e+02    -2.007790352267353e+01   -1.618346360660231e+02   
7.004000000000000e+09    -1.839119329643225e+01   -1.642805218798508e+02   -3.811519365930398e+01   1.282152921797260e+02    -3.804989598833180e+01   1.281887757871583e+02    -2.018733797833997e+01   -1.618503497015780e+02   
7.005000000000000e+09    -1.844711336303879e+01   -1.642163484294001e+02   -3.845765985815967e+01   1.266371866728423e+02    -3.840017830162269e+01   1.268649582501653e+02    -2.029926352582875e+01   -1.618207874993830e+02   
7.006000000000000e+09    -1.850359672206028e+01   -1.641822849315099e+02   -3.878891132056386e+01   1.259805837238285e+02    -3.876613453714397e+01   1.256260717834604e+02    -2.039805329245894e+01   -1.618137970356829e+02   
7.007000000000000e+09    -1.854773753348282e+01   -1.641308695778488e+02   -3.920935701463834e+01   1.243235391175224e+02    -3.914648288338784e+01   1.250325394457268e+02    -2.049434785627533e+01   -1.617903311644662e+02   
7.008000000000000e+09    -1.860029353063647e+01   -1.640746350392302e+02   -3.958424781543992e+01   1.231631104393682e+02    -3.957092857018061e+01   1.237915696087299e+02    -2.058968124663279e+01   -1.618942626188260e+02   
7.009000000000000e+09    -1.864968063345146e+01   -1.639873694757048e+02   -3.998498863287913e+01   1.219088512611992e+02    -3.997616856994669e+01   1.227134344457946e+02    -2.069851187694144e+01   -1.619321585338843e+02   
7.010000000000000e+09    -1.870080594805488e+01   -1.639535271835442e+02   -4.039791398130242e+01   1.206925863085992e+02    -4.037872780603897e+01   1.206946326187313e+02    -2.078796542766309e+01   -1.619822308913348e+02   
7.011000000000000e+09    -1.874481747902625e+01   -1.638873362750204e+02   -4.100946374602793e+01   1.199253816766633e+02    -4.088906171887756e+01   1.198999348559694e+02    -2.088131285000141e+01   -1.620739430930874e+02   
7.012000000000000e+09    -1.880082209948255e+01   -1.638058566188851e+02   -4.140993799574406e+01   1.178786112589276e+02    -4.145706125833665e+01   1.183440978340621e+02    -2.096788744473186e+01   -1.621734996213813e+02   
7.013000000000000e+09    -1.885021150374979e+01   -1.637593639924629e+02   -4.206011510987258e+01   1.171044978648824e+02    -4.191054195907327e+01   1.172821515045425e+02    -2.106451805901768e+01   -1.623153248034110e+02   
7.014000000000000e+09    -1.889962559703764e+01   -1.636848481453375e+02   -4.253270717467412e+01   1.146873101254057e+02    -4.244599681329835e+01   1.155632266493941e+02    -2.114840708788044e+01   -1.624456877001254e+02   
7.015000000000000e+09    -1.895296768960554e+01   -1.636240388679682e+02   -4.306530077653620e+01   1.129703262158788e+02    -4.321917084691647e+01   1.131971255071462e+02    -2.123632137326318e+01   -1.625218541732120e+02   
7.016000000000000e+09    -1.900030315734207e+01   -1.634810847518323e+02   -4.392356916897779e+01   1.114581783276307e+02    -4.373735736632413e+01   1.120013671166988e+02    -2.131726108218430e+01   -1.626746209871185e+02   
7.017000000000000e+09    -1.905405405897629e+01   -1.633962298429507e+02   -4.443604643777754e+01   1.102832531553543e+02    -4.433877790412329e+01   1.103680609135432e+02    -2.139712324890196e+01   -1.628879665567408e+02   
7.018000000000000e+09    -1.910373827992419e+01   -1.632882590659828e+02   -4.525499555092367e+01   1.081124746579243e+02    -4.517560806559834e+01   1.087366662163493e+02    -2.147666485383122e+01   -1.629821838621731e+02   
7.019000000000000e+09    -1.915085466821622e+01   -1.631862704085609e+02   -4.607401480939829e+01   1.055716768763225e+02    -4.595405403582993e+01   1.065347209202802e+02    -2.154416766934519e+01   -1.630758423322309e+02   
7.020000000000000e+09    -1.919658609571600e+01   -1.630585652967218e+02   -4.702634680493480e+01   1.034517847186917e+02    -4.677702556108006e+01   1.035289451241951e+02    -2.160721281626359e+01   -1.632602571684763e+02   
7.021000000000000e+09    -1.924919131063896e+01   -1.629994584622557e+02   -4.805627857707346e+01   1.030229735500593e+02    -4.784385075176325e+01   1.010912184666475e+02    -2.165916081205308e+01   -1.634231169070361e+02   
7.022000000000000e+09    -1.929163314150070e+01   -1.628473077315946e+02   -4.914018382330397e+01   9.826639482829354e+01    -4.900367751487391e+01   9.909720502273224e+01    -2.174322324250284e+01   -1.635515840150628e+02   
7.023000000000000e+09    -1.934730077664276e+01   -1.627144102576127e+02   -5.027207097957138e+01   9.427700200603640e+01    -5.017378567643493e+01   9.454966491079389e+01    -2.178232688434294e+01   -1.637082487926657e+02   
7.024000000000000e+09    -1.938740191155499e+01   -1.626543316003657e+02   -5.165479307544580e+01   8.974724326725047e+01    -5.139937380546920e+01   8.741076721558859e+01    -2.183624694040391e+01   -1.638438192508269e+02   
7.025000000000000e+09    -1.942958742141554e+01   -1.624577429997001e+02   -5.333744207384053e+01   8.041360777505980e+01    -5.306065317373115e+01   8.466032815343537e+01    -2.188372357835696e+01   -1.639928233778566e+02   
7.026000000000000e+09    -1.946868828191229e+01   -1.623783828282629e+02   -5.475007149804910e+01   7.272267229269372e+01    -5.487963697592577e+01   7.331858922619610e+01    -2.192860228742382e+01   -1.640420104671389e+02   
7.027000000000000e+09    -1.951854015936141e+01   -1.621839501336830e+02   -5.642425077292537e+01   5.837921903422195e+01    -5.704736090801060e+01   5.673296198610783e+01    -2.197819115478319e+01   -1.641036210283535e+02   
7.028000000000000e+09    -1.954789605962897e+01   -1.620575287294658e+02   -5.847694285323630e+01   4.246459797230096e+01    -5.782353451754244e+01   4.125588781631738e+01    -2.201030800314467e+01   -1.643088321556083e+02   
7.029000000000000e+09    -1.959217788228452e+01   -1.618941391185580e+02   -5.828321678044657e+01   1.715693176576643e+01    -5.889323036986365e+01   2.021581144834682e+01    -2.204958761894316e+01   -1.643747427257610e+02   
7.030000000000000e+09    -1.963042265145535e+01   -1.617224458587193e+02   -5.818435989195948e+01   -5.201393803231329e+00   -5.745067726537519e+01   -4.258053338471749e+00   -2.207580988236857e+01   -1.644045599725594e+02   
7.031000000000000e+09    -1.966605718667877e+01   -1.615539428108978e+02   -5.581223880746391e+01   -2.347621266099051e+01   -5.599245414223478e+01   -2.095062630974416e+01   -2.210569675790873e+01   -1.643944703478659e+02   
7.032000000000000e+09    -1.969477671682951e+01   -1.614008725758942e+02   -5.461678044244142e+01   -3.378038325336756e+01   -5.434570046126652e+01   -3.443580805116428e+01   -2.213151171126194e+01   -1.644745149799008e+02   
7.033000000000000e+09    -1.973263850390226e+01   -1.611852433557812e+02   -5.235029239369889e+01   -3.934093770541105e+01   -5.289124968239918e+01   -3.975950425141875e+01   -2.214556185789555e+01   -1.645709758945461e+02   
7.034000000000000e+09    -1.976248697959165e+01   -1.610170284880587e+02   -5.122264254498941e+01   -4.615609830736032e+01   -5.115663531464332e+01   -4.445270091495787e+01   -2.216847397618637e+01   -1.644740379869164e+02   
7.035000000000000e+09    -1.979736426405207e+01   -1.608319239161413e+02   -4.974973844892052e+01   -5.154667302726079e+01   -5.009818315439176e+01   -4.924928514980168e+01   -2.217156455086599e+01   -1.644881345977366e+02   
7.036000000000000e+09    -1.982420232859866e+01   -1.605721852016182e+02   -4.869594280889721e+01   -5.417938425024666e+01   -4.892014844667071e+01   -5.347641411012505e+01   -2.219851827071286e+01   -1.644353111034322e+02   
7.037000000000000e+09    -1.985309931049102e+01   -1.604947063017594e+02   -4.754553511227785e+01   -5.662776427889855e+01   -4.769845306236152e+01   -5.829893537517031e+01   -2.220049883687388e+01   -1.643114721530318e+02   
7.038000000000000e+09    -1.987891830064446e+01   -1.601708565652366e+02   -4.672427257428545e+01   -5.886556364259245e+01   -4.681859138254427e+01   -5.855336114037751e+01   -2.218493805077419e+01   -1.643428260615100e+02   
7.039000000000000e+09    -1.989669330374031e+01   -1.599328417527120e+02   -4.575103174482980e+01   -6.139929680813275e+01   -4.581990391189622e+01   -6.143666788409396e+01   -2.219628590410823e+01   -1.642946473357590e+02   
7.040000000000000e+09    -1.992167671331409e+01   -1.596234484338680e+02   -4.508461060517046e+01   -6.337320816670198e+01   -4.510777595345493e+01   -6.318576649527930e+01   -2.218848114246506e+01   -1.641117583140811e+02   
7.041000000000000e+09    -1.995233828081802e+01   -1.594235173857408e+02   -4.435467364785560e+01   -6.571113107924913e+01   -4.448557864111170e+01   -6.447975227803133e+01   -2.219689191009040e+01   -1.638730639605881e+02   
7.042000000000000e+09    -1.996634950101164e+01   -1.590654415696230e+02   -4.381402584341538e+01   -6.686952921191632e+01   -4.364994711325850e+01   -6.603445687336999e+01   -2.219670883177449e+01   -1.637283315264624e+02   
7.043000000000000e+09    -1.997980862456692e+01   -1.588847167426505e+02   -4.320870975080720e+01   -6.792379027943767e+01   -4.325387823432294e+01   -6.810126461385259e+01   -2.217995221176687e+01   -1.636636747435616e+02   
7.044000000000000e+09    -2.000745121058467e+01   -1.584631785711605e+02   -4.247459075679159e+01   -6.972414901370269e+01   -4.259988573438201e+01   -6.886990543048678e+01   -2.215060023652573e+01   -1.633956976475668e+02   
7.045000000000000e+09    -2.001536787167408e+01   -1.581399956128653e+02   -4.205011169200684e+01   -7.166059466698003e+01   -4.212608694581385e+01   -7.081162808649204e+01   -2.213867290456298e+01   -1.632273080336701e+02   
7.046000000000000e+09    -2.002578664369786e+01   -1.578576271883908e+02   -4.157614442077439e+01   -7.194562246088896e+01   -4.162444762636290e+01   -7.215049970130629e+01   -2.212405525820778e+01   -1.629546635025906e+02   
7.047000000000000e+09    -2.003398949662415e+01   -1.574669346377035e+02   -4.099897472782850e+01   -7.372467849516283e+01   -4.099396395150122e+01   -7.283603390997686e+01   -2.211247217371514e+01   -1.626496498828218e+02   
7.048000000000000e+09    -2.004647696687427e+01   -1.572020777141412e+02   -4.046328626779471e+01   -7.471849954069293e+01   -4.057692152252501e+01   -7.423152507541569e+01   -2.209249130377473e+01   -1.624154661667873e+02   
7.049000000000000e+09    -2.006995840752967e+01   -1.568283617388060e+02   -4.013727588987549e+01   -7.609907637386178e+01   -4.017871515557999e+01   -7.571015738103681e+01   -2.206574395643177e+01   -1.620583865727582e+02   
7.050000000000000e+09    -2.007440923571232e+01   -1.564981323296149e+02   -3.971114262698898e+01   -7.693465315426899e+01   -3.971620611860359e+01   -7.704540633145170e+01   -2.204419517339021e+01   -1.616695341938674e+02   
7.051000000000000e+09    -2.008528938957415e+01   -1.560831528951625e+02   -3.937631553999690e+01   -7.844827462965627e+01   -3.935493124068869e+01   -7.818038144653771e+01   -2.202269640399674e+01   -1.613364737358844e+02   
7.052000000000000e+09    -2.009918116535350e+01   -1.557000681822391e+02   -3.893406132343034e+01   -7.943972269769606e+01   -3.883347943750642e+01   -7.924923642781387e+01   -2.200223101780718e+01   -1.610315418290847e+02   
7.053000000000000e+09    -2.011264063934735e+01   -1.553117716504073e+02   -3.852056295167864e+01   -8.028095613822836e+01   -3.856477799913849e+01   -8.012657971892784e+01   -2.197631667421453e+01   -1.605241340952525e+02   
7.054000000000000e+09    -2.012820258400956e+01   -1.549425297868554e+02   -3.825762984697376e+01   -8.204932754665039e+01   -3.830926777030156e+01   -8.130778368796571e+01   -2.193750378828789e+01   -1.600940201871305e+02   
7.055000000000000e+09    -2.014029065881479e+01   -1.545010922688405e+02   -3.793565556651040e+01   -8.258445482063767e+01   -3.797405231931275e+01   -8.226070931939616e+01   -2.190733349275463e+01   -1.596440451294099e+02   
7.056000000000000e+09    -2.015284327515996e+01   -1.540380416792798e+02   -3.758494601950539e+01   -8.375643782242261e+01   -3.763547364790842e+01   -8.365955053931334e+01   -2.188367041528345e+01   -1.591521646753650e+02   
7.057000000000000e+09    -2.015460469064437e+01   -1.535927807075880e+02   -3.735007394939706e+01   -8.478087312708873e+01   -3.738075137763457e+01   -8.455091545877436e+01   -2.184244203089376e+01   -1.586589249611766e+02   
7.058000000000000e+09    -2.016662960443952e+01   -1.531845158959038e+02   -3.698049505771224e+01   -8.611144355001124e+01   -3.707814049848577e+01   -8.549511076695573e+01   -2.182416178557524e+01   -1.581725328416310e+02   
7.059000000000000e+09    -2.017937324011984e+01   -1.527240277658541e+02   -3.675063618419594e+01   -8.675849185528210e+01   -3.681726534111058e+01   -8.643465018142335e+01   -2.178026585782354e+01   -1.576438469481578e+02   
7.060000000000000e+09    -2.018733681886614e+01   -1.522693714083293e+02   -3.650369496329370e+01   -8.780987385958959e+01   -3.652604864723295e+01   -8.776962421464256e+01   -2.174796005026756e+01   -1.571341853492341e+02   
7.061000000000000e+09    -2.020279653263042e+01   -1.517740382077621e+02   -3.625384499911627e+01   -8.887628394041786e+01   -3.631612494647446e+01   -8.854211081420183e+01   -2.172430439636368e+01   -1.564650772746961e+02   
7.062000000000000e+09    -2.020563464281594e+01   -1.513112386459628e+02   -3.595944606054616e+01   -8.992268491298030e+01   -3.605360494173563e+01   -8.939455080900193e+01   -2.168332819557925e+01   -1.558825606259304e+02   
7.063000000000000e+09    -2.021632824148743e+01   -1.508242820145535e+02   -3.581940755796821e+01   -9.115650848458866e+01   -3.583210974282396e+01   -9.047591369982159e+01   -2.164759714332801e+01   -1.552660998788265e+02   
7.064000000000000e+09    -2.022363489963679e+01   -1.503325007581829e+02   -3.552629016811473e+01   -9.179564076486585e+01   -3.553096225325513e+01   -9.150488456272355e+01   -2.161990874402772e+01   -1.545499711428826e+02   
7.065000000000000e+09    -2.022704769555789e+01   -1.499352951188170e+02   -3.529597687073277e+01   -9.277455185740871e+01   -3.531598169111546e+01   -9.203610912070212e+01   -2.157675660961273e+01   -1.539364851790688e+02   
7.066000000000000e+09    -2.023033722646598e+01   -1.494364055010045e+02   -3.503321102581266e+01   -9.329813089670529e+01   -3.511240556870631e+01   -9.310238486500451e+01   -2.154920628044620e+01   -1.532661652912631e+02   
7.067000000000000e+09    -2.023227878467322e+01   -1.489790957107054e+02   -3.493022012291675e+01   -9.457737617081999e+01   -3.493577004055058e+01   -9.417966467027452e+01   -2.151109954347137e+01   -1.524852467777381e+02   
7.068000000000000e+09    -2.023749958738369e+01   -1.485229778421629e+02   -3.469422540321911e+01   -9.539727090868030e+01   -3.465074619757074e+01   -9.509323439170913e+01   -2.148446283513093e+01   -1.518387678591021e+02   
7.069000000000000e+09    -2.024194084201374e+01   -1.480868929503745e+02   -3.446672792756409e+01   -9.644632248273976e+01   -3.445759951448650e+01   -9.601031429834782e+01   -2.145393123549059e+01   -1.512006774723188e+02   
7.070000000000000e+09    -2.024960020583359e+01   -1.476145526738236e+02   -3.421625247236320e+01   -9.705922767538667e+01   -3.427681251797775e+01   -9.660960327345022e+01   -2.142749353079080e+01   -1.504297257471506e+02   
7.071000000000000e+09    -2.024020476480526e+01   -1.471376044297047e+02   -3.405281318026643e+01   -9.814671110553803e+01   -3.406082040215531e+01   -9.768204899218985e+01   -2.140537090897780e+01   -1.496667900246058e+02   
7.072000000000000e+09    -2.024308426575924e+01   -1.466747881729822e+02   -3.387475385001230e+01   -9.927350230223990e+01   -3.391141822046102e+01   -9.853925197723470e+01   -2.137410565942037e+01   -1.488898213716002e+02   
7.073000000000000e+09    -2.024614415735099e+01   -1.462617419601480e+02   -3.372262908004066e+01   -9.980729963410977e+01   -3.369292150180861e+01   -9.919305609428693e+01   -2.135447673174054e+01   -1.481846957386045e+02   
7.074000000000000e+09    -2.024766603255419e+01   -1.457904675714408e+02   -3.352501329456909e+01   -1.008000175332885e+02   -3.355771991022304e+01   -1.004062071776540e+02   -2.132842142332718e+01   -1.473997213654032e+02   
7.075000000000000e+09    -2.024101016035479e+01   -1.453641303984858e+02   -3.335956489500538e+01   -1.014983669695048e+02   -3.337564150147376e+01   -1.011878936410599e+02   -2.131527211947235e+01   -1.465946194116140e+02   
7.076000000000000e+09    -2.023430680349630e+01   -1.449239604934307e+02   -3.316934607799653e+01   -1.024756410539385e+02   -3.319409292767125e+01   -1.020323994774403e+02   -2.130081361300515e+01   -1.457706172901487e+02   
7.077000000000000e+09    -2.023055357654004e+01   -1.444364128457264e+02   -3.306692070511374e+01   -1.032279240413452e+02   -3.306686902729013e+01   -1.028997546958010e+02   -2.126968608426797e+01   -1.449904896931213e+02   
7.078000000000000e+09    -2.022725358842102e+01   -1.439529682742982e+02   -3.287827066048033e+01   -1.043627038147589e+02   -3.292998082909479e+01   -1.037446135244144e+02   -2.125572818682935e+01   -1.442362052893930e+02   
7.079000000000000e+09    -2.021446167669664e+01   -1.435549433679804e+02   -3.274650938644142e+01   -1.050569292766339e+02   -3.272415498019977e+01   -1.045987086243023e+02   -2.123404938069755e+01   -1.434378409843688e+02   
7.080000000000000e+09    -2.021039056986609e+01   -1.431962808431871e+02   -3.259912498635455e+01   -1.059804006992293e+02   -3.263548700141524e+01   -1.052741953016763e+02   -2.121888158882342e+01   -1.425727426923018e+02   
7.081000000000000e+09    -2.019622310960506e+01   -1.427671012175451e+02   -3.243874499357135e+01   -1.064358748654584e+02   -3.242307461015877e+01   -1.062063483756467e+02   -2.120453824361483e+01   -1.418249844115813e+02   
7.082000000000000e+09    -2.019628588849071e+01   -1.422972019069062e+02   -3.232197635346161e+01   -1.073438726014005e+02   -3.231007593539948e+01   -1.071210687794933e+02   -2.119423080098104e+01   -1.409640026594741e+02   
7.083000000000000e+09    -2.018937779309981e+01   -1.419077180058167e+02   -3.216468216903122e+01   -1.083306832243196e+02   -3.218136856996649e+01   -1.079748796903900e+02   -2.118918632161695e+01   -1.402042796573368e+02   
7.084000000000000e+09    -2.018378997949409e+01   -1.415231885504174e+02   -3.204772838157129e+01   -1.093013813209175e+02   -3.202204651393697e+01   -1.088857157312904e+02   -2.116731936599307e+01   -1.394124699074353e+02   
