[Version] 2.0
! Rohde & Schwarz Vector Network Analyzer
! Rohde-Schwarz,ZNL20-2Port,1323001220200009,1.71.1.10-23.02.1.238
! 
! Port Assignments:
! Nominal Port -> Actual Test Port
! --------------------------------
!   1 -> 1
!   2 -> 2

! Created: GMT+3 2024-09-24 15:14:04

# Hz S DB R 50

[Number of Ports] 2
[Two-Port Data Order] 21_12
[Number of Frequencies] 6001

[Network Data] 
! freq[Hz]               S11[mag dB]              S11[ang]                 S21[mag dB]              S21[ang]                 S12[mag dB]              S12[ang]                 S22[mag dB]              S22[ang]                 
7.000000000000000e+09    -1.756010364449800e+01   -1.620520920557171e+02   -3.029192772531703e+01   1.470847679419112e+02    -3.026937052609022e+01   1.477054069335845e+02    -1.895584269252143e+01   -1.586749957286545e+02   
7.001000000000000e+09    -1.760252198146577e+01   -1.620841225142466e+02   -3.039697031662548e+01   1.462210373797149e+02    -3.039937828050980e+01   1.466967911796910e+02    -1.903650157951567e+01   -1.587264108234384e+02   
7.002000000000000e+09    -1.764415989466353e+01   -1.621886333766205e+02   -3.050797318031404e+01   1.452275520148651e+02    -3.049234554426675e+01   1.456687158289121e+02    -1.912124402930371e+01   -1.587998152421050e+02   
7.003000000000000e+09    -1.768097451209034e+01   -1.622601022948210e+02   -3.066699988449009e+01   1.439495771154135e+02    -3.063803100324508e+01   1.446341690484913e+02    -1.920686935840676e+01   -1.589044740136300e+02   
7.004000000000000e+09    -1.772395091001222e+01   -1.623205516419834e+02   -3.079586487004366e+01   1.431209173747027e+02    -3.075314356178394e+01   1.435742420519710e+02    -1.929221377991035e+01   -1.589920870852802e+02   
7.005000000000000e+09    -1.776707079181681e+01   -1.623700120809634e+02   -3.089968567736195e+01   1.420713551725638e+02    -3.087727280065235e+01   1.425071047181853e+02    -1.937531980938510e+01   -1.591001550601253e+02   
7.006000000000000e+09    -1.780999657750873e+01   -1.624237868550927e+02   -3.100703421580770e+01   1.410263045550889e+02    -3.100548210365364e+01   1.414844303716626e+02    -1.945608583451429e+01   -1.592590324186540e+02   
7.007000000000000e+09    -1.784870949413452e+01   -1.625176925377139e+02   -3.119328361654424e+01   1.397942510933211e+02    -3.115102464137492e+01   1.404313306767926e+02    -1.954082928729607e+01   -1.593863573136883e+02   
7.008000000000000e+09    -1.788908119276239e+01   -1.625632063265430e+02   -3.127385875350855e+01   1.391068146067527e+02    -3.128700750214822e+01   1.395238832165985e+02    -1.962017823045727e+01   -1.595781516456316e+02   
7.009000000000000e+09    -1.792709293532030e+01   -1.626240267337637e+02   -3.144947855522122e+01   1.379586008684609e+02    -3.140745240079878e+01   1.384348599279845e+02    -1.971517672997541e+01   -1.597702688461649e+02   
7.010000000000000e+09    -1.797198534808699e+01   -1.627187149222700e+02   -3.157189135877824e+01   1.368874482724942e+02    -3.155158384781170e+01   1.373032870547981e+02    -1.978879752442996e+01   -1.599594778648502e+02   
7.011000000000000e+09    -1.801850896866481e+01   -1.627015042560143e+02   -3.177732606404901e+01   1.359377483372189e+02    -3.171272985372452e+01   1.362609034401115e+02    -1.986501524138326e+01   -1.601614117852303e+02   
7.012000000000000e+09    -1.806006984595914e+01   -1.627536763062670e+02   -3.190066064002454e+01   1.348965836630437e+02    -3.186809985256466e+01   1.352381033121827e+02    -1.994446804910812e+01   -1.604170081781279e+02   
7.013000000000000e+09    -1.809655857475427e+01   -1.628131310365063e+02   -3.206726097005145e+01   1.337552478185869e+02    -3.200252789925739e+01   1.340983128090177e+02    -2.002269135232829e+01   -1.606556403512685e+02   
7.014000000000000e+09    -1.814902599543273e+01   -1.628423266462200e+02   -3.222833978738215e+01   1.325706182065670e+02    -3.218614958663663e+01   1.329509210009003e+02    -2.010209412246746e+01   -1.609882771006120e+02   
7.015000000000000e+09    -1.819129815102488e+01   -1.629197664691423e+02   -3.235574013289268e+01   1.312689806995068e+02    -3.236942740782895e+01   1.318422585925897e+02    -2.016868620230536e+01   -1.611805970194712e+02   
7.016000000000000e+09    -1.822934635508605e+01   -1.629040391640438e+02   -3.256779305491449e+01   1.303970027446038e+02    -3.254261976406795e+01   1.305403849650804e+02    -2.023555225697422e+01   -1.614581539531086e+02   
7.017000000000000e+09    -1.827915365861208e+01   -1.629279519152742e+02   -3.269242291169903e+01   1.291538579588987e+02    -3.270378777097574e+01   1.297091858549245e+02    -2.031203889266689e+01   -1.618172023547905e+02   
7.018000000000000e+09    -1.832216478004811e+01   -1.629985848509417e+02   -3.290138442944368e+01   1.280777675581231e+02    -3.287571043948562e+01   1.286232996132257e+02    -2.037448241967350e+01   -1.621145280317642e+02   
7.019000000000000e+09    -1.836950589756523e+01   -1.629785691358474e+02   -3.309117209147711e+01   1.270832998216904e+02    -3.305746869376988e+01   1.272210198053567e+02    -2.043006633052957e+01   -1.622865442116469e+02   
7.020000000000000e+09    -1.841347065037752e+01   -1.629942568941421e+02   -3.327780988552676e+01   1.256777584806548e+02    -3.322245117557125e+01   1.260368622985577e+02    -2.048930758727680e+01   -1.627173469076153e+02   
7.021000000000000e+09    -1.845532754902781e+01   -1.630498275268102e+02   -3.343050643315239e+01   1.249299997064698e+02    -3.343799556315966e+01   1.250415838252058e+02    -2.054760318590003e+01   -1.629581641929103e+02   
7.022000000000000e+09    -1.850068364161878e+01   -1.630670271460612e+02   -3.364314977273572e+01   1.234890543497711e+02    -3.363417969570539e+01   1.236221520919793e+02    -2.061255335686324e+01   -1.631943580456528e+02   
7.023000000000000e+09    -1.854715386426390e+01   -1.630527620036615e+02   -3.383420818378848e+01   1.224976403942427e+02    -3.384603721551505e+01   1.224277832376762e+02    -2.065304067903788e+01   -1.635248305575340e+02   
7.024000000000000e+09    -1.858737445209899e+01   -1.630899852017630e+02   -3.403374981984640e+01   1.211441671347060e+02    -3.404985863198903e+01   1.211567747391590e+02    -2.070382740283783e+01   -1.638226896142066e+02   
7.025000000000000e+09    -1.863486127510316e+01   -1.630716857115430e+02   -3.427859945873413e+01   1.198901987228250e+02    -3.423918162267958e+01   1.201814887746675e+02    -2.076045768908938e+01   -1.641170883965973e+02   
7.026000000000000e+09    -1.867504716832050e+01   -1.631193863845236e+02   -3.449878678586457e+01   1.187333559846912e+02    -3.450557155315007e+01   1.189038031241019e+02    -2.079020537995478e+01   -1.643564621952864e+02   
7.027000000000000e+09    -1.871816645479240e+01   -1.630771962466525e+02   -3.470427963689484e+01   1.174152454189069e+02    -3.471755184381102e+01   1.176218552936237e+02    -2.083850470543393e+01   -1.645611741308858e+02   
7.028000000000000e+09    -1.876175211534907e+01   -1.630558355341286e+02   -3.490630171992137e+01   1.162442295816159e+02    -3.493807556295078e+01   1.163786133096685e+02    -2.087193515675165e+01   -1.649158494162893e+02   
7.029000000000000e+09    -1.880066131033977e+01   -1.630514728915840e+02   -3.509420779779854e+01   1.148974347089925e+02    -3.510122600709914e+01   1.151150177083394e+02    -2.091373419631459e+01   -1.651484857624430e+02   
7.030000000000000e+09    -1.884409511363656e+01   -1.630191282975039e+02   -3.530239535975103e+01   1.136741989450024e+02    -3.538478971141033e+01   1.134561269154946e+02    -2.094090171739338e+01   -1.652301738172577e+02   
7.031000000000000e+09    -1.887774566518591e+01   -1.629974584869393e+02   -3.563074189332111e+01   1.123727687477575e+02    -3.564745953108032e+01   1.123465342034502e+02    -2.097648917647371e+01   -1.654718707723240e+02   
7.032000000000000e+09    -1.891658951441183e+01   -1.629372542624477e+02   -3.585305918683611e+01   1.111338188490716e+02    -3.592322809361283e+01   1.110258643941477e+02    -2.101172621059973e+01   -1.657182869322324e+02   
7.033000000000000e+09    -1.895224404613798e+01   -1.629458079040068e+02   -3.611863231132938e+01   1.092372855355477e+02    -3.605807293374949e+01   1.092446233040420e+02    -2.102746539428628e+01   -1.659026801805379e+02   
7.034000000000000e+09    -1.899021243317883e+01   -1.629011275402631e+02   -3.634124074382706e+01   1.078417489667790e+02    -3.634932213617147e+01   1.081340848825635e+02    -2.105782936117247e+01   -1.660614920488748e+02   
7.035000000000000e+09    -1.902391971500040e+01   -1.628232393797057e+02   -3.660124250901206e+01   1.060756460763312e+02    -3.662122678051900e+01   1.062256319929433e+02    -2.107867979389349e+01   -1.661350708434746e+02   
7.036000000000000e+09    -1.906040389472193e+01   -1.627327723278522e+02   -3.692951684582529e+01   1.046575947297024e+02    -3.693534521785674e+01   1.044763461595965e+02    -2.110284273617015e+01   -1.662576939996018e+02   
7.037000000000000e+09    -1.909709787141733e+01   -1.626985205086167e+02   -3.722870237759764e+01   1.026715204674521e+02    -3.725753223513274e+01   1.031964041340415e+02    -2.111372119233648e+01   -1.662885921706872e+02   
7.038000000000000e+09    -1.913271558423689e+01   -1.625769090750049e+02   -3.748993357649138e+01   1.012183660290748e+02    -3.753571640724659e+01   1.012972534699804e+02    -2.112108483006523e+01   -1.664327656300370e+02   
7.039000000000000e+09    -1.915917829187912e+01   -1.624389667989610e+02   -3.781675375590036e+01   9.971315840083751e+01    -3.787167389003852e+01   9.956179999967419e+01    -2.113740265077142e+01   -1.664689406007468e+02   
7.040000000000000e+09    -1.919166601452568e+01   -1.622977650099548e+02   -3.818389072722069e+01   9.720107569999351e+01    -3.818100842943656e+01   9.766248123558955e+01    -2.114159270290430e+01   -1.663840868108559e+02   
7.041000000000000e+09    -1.923028476081327e+01   -1.621659021211355e+02   -3.848712461479157e+01   9.570883298291147e+01    -3.851151391426065e+01   9.560160878746281e+01    -2.115433967120433e+01   -1.664214251099416e+02   
7.042000000000000e+09    -1.926129932906966e+01   -1.620454448158750e+02   -3.885436759958341e+01   9.387836480401063e+01    -3.886184900613920e+01   9.358544908056976e+01    -2.117040008145526e+01   -1.664615618919723e+02   
7.043000000000000e+09    -1.928728065304830e+01   -1.619226416306253e+02   -3.909756957086929e+01   9.137389647575091e+01    -3.917456705410590e+01   9.235629871806150e+01    -2.116386638687599e+01   -1.664536163193607e+02   
7.044000000000000e+09    -1.931161633671896e+01   -1.616389360235778e+02   -3.962779928841947e+01   8.904690112167778e+01    -3.953009839988482e+01   8.912329844711086e+01    -2.115033421781720e+01   -1.663659408487877e+02   
7.045000000000000e+09    -1.933925748863773e+01   -1.614679779182861e+02   -3.997983610552921e+01   8.699929801066565e+01    -3.997338723661066e+01   8.745183311498775e+01    -2.116340708111540e+01   -1.662483793105841e+02   
7.046000000000000e+09    -1.936442484881806e+01   -1.612870242809133e+02   -4.029969716291036e+01   8.422152505266996e+01    -4.031787096460901e+01   8.455118886654866e+01    -2.115561690856804e+01   -1.661779317797671e+02   
7.047000000000000e+09    -1.939060525273570e+01   -1.610284614483905e+02   -4.079318495363519e+01   8.188812778635997e+01    -4.069557068899002e+01   8.180065843187073e+01    -2.116112474705169e+01   -1.660133850212588e+02   
7.048000000000000e+09    -1.941493226312481e+01   -1.608831703166412e+02   -4.115150659046574e+01   7.879983765268858e+01    -4.119821849925386e+01   7.880129122372725e+01    -2.115628939531022e+01   -1.658858252973531e+02   
7.049000000000000e+09    -1.944834842297417e+01   -1.606167924632733e+02   -4.159857288762650e+01   7.587882470948909e+01    -4.161894802584528e+01   7.589853675497618e+01    -2.115641702978191e+01   -1.656961410797445e+02   
7.050000000000000e+09    -1.947144002125618e+01   -1.603949425190668e+02   -4.203778077439516e+01   7.250451129312926e+01    -4.207326936504388e+01   7.247730506160330e+01    -2.114593524951058e+01   -1.654511339471187e+02   
7.051000000000000e+09    -1.949698031578703e+01   -1.601008566679843e+02   -4.248289685473967e+01   6.976126231785155e+01    -4.242628804836730e+01   6.949873692100205e+01    -2.115292980192987e+01   -1.652746699899103e+02   
7.052000000000000e+09    -1.952980241443815e+01   -1.598467510231810e+02   -4.289662800543205e+01   6.599771258764262e+01    -4.306377994492045e+01   6.528715378714016e+01    -2.114586138652479e+01   -1.649752563352181e+02   
7.053000000000000e+09    -1.956116187538899e+01   -1.595989745988526e+02   -4.338227882151448e+01   6.076960218369464e+01    -4.339872321703149e+01   6.145589438319774e+01    -2.113582509217599e+01   -1.646843073854091e+02   
7.054000000000000e+09    -1.959981135619864e+01   -1.593145107894692e+02   -4.379298022134357e+01   5.808966893229675e+01    -4.380027180125786e+01   5.735329104350764e+01    -2.111582560342116e+01   -1.643539744691302e+02   
7.055000000000000e+09    -1.961809596322312e+01   -1.590309812567377e+02   -4.417580212045901e+01   5.244919155363696e+01    -4.408572411364635e+01   5.278826079289627e+01    -2.112020868057727e+01   -1.640257072232320e+02   
7.056000000000000e+09    -1.965549797346585e+01   -1.586256060962280e+02   -4.462532825694776e+01   4.778460507447907e+01    -4.472676274049719e+01   4.737352365438169e+01    -2.110961769854099e+01   -1.637009308781406e+02   
7.057000000000000e+09    -1.968824529879654e+01   -1.583236398110640e+02   -4.504651729188312e+01   4.193232974457758e+01    -4.506455276125636e+01   4.299551294934447e+01    -2.108920819660711e+01   -1.633492984610539e+02   
7.058000000000000e+09    -1.971313100298978e+01   -1.579163386334187e+02   -4.519762857140527e+01   3.643542008532958e+01    -4.546404248766343e+01   3.659899648926028e+01    -2.109390031734874e+01   -1.629908799712160e+02   
7.059000000000000e+09    -1.974049571596052e+01   -1.575694360750290e+02   -4.559989767114371e+01   2.914212132077274e+01    -4.578519847194212e+01   3.121436653772417e+01    -2.108944227094213e+01   -1.624901213901774e+02   
7.060000000000000e+09    -1.977411533442467e+01   -1.572373365138993e+02   -4.573710347122975e+01   2.396559892532142e+01    -4.588325249817417e+01   2.462616815655576e+01    -2.108269654387165e+01   -1.620841011054683e+02   
7.061000000000000e+09    -1.980924353296659e+01   -1.568865758991978e+02   -4.591142379266409e+01   1.875402259261827e+01    -4.600158760568348e+01   1.792555453772322e+01    -2.107056438932392e+01   -1.615463423252342e+02   
7.062000000000000e+09    -1.983025369302433e+01   -1.565439772245638e+02   -4.588247020176061e+01   1.093792999507875e+01    -4.589053074677886e+01   1.255437852054603e+01    -2.105601047290005e+01   -1.611377016922523e+02   
7.063000000000000e+09    -1.986533841843900e+01   -1.560603555437398e+02   -4.595593368014433e+01   4.681877995820517e+00    -4.561895427046693e+01   5.842307517605129e+00    -2.105071242157049e+01   -1.605610094959224e+02   
7.064000000000000e+09    -1.990951225809208e+01   -1.556143283945710e+02   -4.573361920581422e+01   -1.720599305974239e+00   -4.576352824029051e+01   -2.216222828641108e+00   -2.105112110000579e+01   -1.599868547956113e+02   
7.065000000000000e+09    -1.993238358418944e+01   -1.553264513082079e+02   -4.541920246526271e+01   -8.178665257145077e+00   -4.540257511368367e+01   -7.494709591542521e+00   -2.104210942497162e+01   -1.594999120119913e+02   
7.066000000000000e+09    -1.995452464895394e+01   -1.548605642640050e+02   -4.507414734245479e+01   -1.372023753055927e+01   -4.516312235297288e+01   -1.352131242642471e+01   -2.102988562860925e+01   -1.588587748614045e+02   
7.067000000000000e+09    -1.999140630426791e+01   -1.543657177154815e+02   -4.472725868909333e+01   -1.934383359065099e+01   -4.488132239815070e+01   -1.880413293488410e+01   -2.103293497651314e+01   -1.582402470671374e+02   
7.068000000000000e+09    -2.002207419285958e+01   -1.539781777631924e+02   -4.436403524258570e+01   -2.486863879341618e+01   -4.433625995916130e+01   -2.508012167338312e+01   -2.103614809613516e+01   -1.576195349700963e+02   
7.069000000000000e+09    -2.003476617569024e+01   -1.536586886194581e+02   -4.407770675372355e+01   -2.972098692390919e+01   -4.401284347149982e+01   -2.947840653606633e+01   -2.103038755852555e+01   -1.570160629453102e+02   
7.070000000000000e+09    -2.007627719326635e+01   -1.531392703493539e+02   -4.348362779716425e+01   -3.434643031620453e+01   -4.364972283109413e+01   -3.340435348360399e+01   -2.103932576260226e+01   -1.562918583742271e+02   
7.071000000000000e+09    -2.009785187128141e+01   -1.527775078196803e+02   -4.324414548958617e+01   -3.800489798508715e+01   -4.328598585404751e+01   -3.781533751944871e+01   -2.104461140569109e+01   -1.556978417455701e+02   
7.072000000000000e+09    -2.011999214108590e+01   -1.522688221341706e+02   -4.276919114830999e+01   -4.214486730406430e+01   -4.274932704987484e+01   -4.086972661894596e+01   -2.104872592903597e+01   -1.550218094620130e+02   
7.073000000000000e+09    -2.015358451002596e+01   -1.518209631376186e+02   -4.218294108848418e+01   -4.440597482954724e+01   -4.232124228126897e+01   -4.438799101175872e+01   -2.105514058719085e+01   -1.543204022002643e+02   
7.074000000000000e+09    -2.017323837380651e+01   -1.514337926076352e+02   -4.198776900198808e+01   -4.861695357499481e+01   -4.195702733985307e+01   -4.864079669746138e+01   -2.106284662511504e+01   -1.536105983821182e+02   
7.075000000000000e+09    -2.019071829879610e+01   -1.510042066326000e+02   -4.144761081108085e+01   -5.136345777519224e+01   -4.153164163542104e+01   -5.103504434652151e+01   -2.107163466800324e+01   -1.528778952171439e+02   
7.076000000000000e+09    -2.021086785805592e+01   -1.505292744945983e+02   -4.100940431885781e+01   -5.464680478811633e+01   -4.109202308564988e+01   -5.398620786733297e+01   -2.109671082348729e+01   -1.521160837186906e+02   
7.077000000000000e+09    -2.023279640451897e+01   -1.500981995894475e+02   -4.068928506878207e+01   -5.567580028693678e+01   -4.068890064502508e+01   -5.634745381640506e+01   -2.109879376862096e+01   -1.513375722514934e+02   
7.078000000000000e+09    -2.025009917624053e+01   -1.496345148059505e+02   -4.024585082802658e+01   -5.969036429610566e+01   -4.035660950976855e+01   -5.892906364251922e+01   -2.110975487029832e+01   -1.505642821897712e+02   
7.079000000000000e+09    -2.026794309355715e+01   -1.491820208461299e+02   -3.994327424889269e+01   -6.134051970050182e+01   -3.992899041458611e+01   -6.105783269605840e+01   -2.112810110617581e+01   -1.498624563426553e+02   
7.080000000000000e+09    -2.028776259110561e+01   -1.488364934204765e+02   -3.954006237928773e+01   -6.322108962534767e+01   -3.959561025561902e+01   -6.250992885935564e+01   -2.114468241581281e+01   -1.490666826667093e+02   
7.081000000000000e+09    -2.029888359996961e+01   -1.483441130751581e+02   -3.914904581094697e+01   -6.566983855975772e+01   -3.921268458140602e+01   -6.497363739240159e+01   -2.116387664952140e+01   -1.482393373874042e+02   
7.082000000000000e+09    -2.032128831267016e+01   -1.479605084857866e+02   -3.889663885793310e+01   -6.731534386179788e+01   -3.892637285020011e+01   -6.675664148605739e+01   -2.119507516562964e+01   -1.474670370832839e+02   
7.083000000000000e+09    -2.034076061214745e+01   -1.475011075085218e+02   -3.858778516010662e+01   -6.960775588153183e+01   -3.859498844885113e+01   -6.908864029313359e+01   -2.121101796036544e+01   -1.467431167350198e+02   
7.084000000000000e+09    -2.035392105408889e+01   -1.470511174235619e+02   -3.822983471574677e+01   -7.091598536299628e+01   -3.826581296907874e+01   -7.080238338336595e+01   -2.123285782433149e+01   -1.458690478241644e+02   
