[Version] 2.0
! Rohde & Schwarz Vector Network Analyzer
! Rohde-Schwarz,ZNL20-2Port,1323001220200009,1.71.1.10-23.02.1.238
! 
! Port Assignments:
! Nominal Port -> Actual Test Port
! --------------------------------
!   1 -> 1
!   2 -> 2

! Created: GMT+3 2024-09-24 15:14:18

# Hz S DB R 50

[Number of Ports] 2
[Two-Port Data Order] 21_12
[Number of Frequencies] 6001

[Network Data] 
! freq[Hz]               S11[mag dB]              S11[ang]                 S21[mag dB]              S21[ang]                 S12[mag dB]              S12[ang]                 S22[mag dB]              S22[ang]                 
7.000000000000000e+09    -1.727934130968553e+01   -1.590965330241711e+02   -2.778756034372622e+01   1.592375546909320e+02    -2.781374169823508e+01   1.598222866813355e+02    -1.858551359149037e+01   -1.542882325821695e+02   
7.001000000000000e+09    -1.730626703344628e+01   -1.591804969637809e+02   -2.786201243880275e+01   1.583969072839949e+02    -2.788079998639855e+01   1.589354916679059e+02    -1.864763124884390e+01   -1.544155569369567e+02   
7.002000000000000e+09    -1.733402683119746e+01   -1.592726705543874e+02   -2.793206108060459e+01   1.575605026087536e+02    -2.792133952304834e+01   1.578969610493820e+02    -1.871310412361517e+01   -1.545311465576906e+02   
7.003000000000000e+09    -1.736707941827465e+01   -1.593698719466396e+02   -2.803901210097834e+01   1.565717320729083e+02    -2.800540766418849e+01   1.569775729203106e+02    -1.877542870034280e+01   -1.546603068681024e+02   
7.004000000000000e+09    -1.738605985070344e+01   -1.594815395251370e+02   -2.808419336861619e+01   1.555905641596099e+02    -2.808574775876249e+01   1.560105907580899e+02    -1.884715649565594e+01   -1.547932588642201e+02   
7.005000000000000e+09    -1.741759206055652e+01   -1.595856958061104e+02   -2.815363592576743e+01   1.545653481269151e+02    -2.815734316575170e+01   1.551091093511919e+02    -1.890717779931466e+01   -1.549181209317599e+02   
7.006000000000000e+09    -1.745178118457838e+01   -1.596616428228508e+02   -2.821781431569343e+01   1.537774160217385e+02    -2.824603889394447e+01   1.541953863522479e+02    -1.897091217205810e+01   -1.550694185220557e+02   
7.007000000000000e+09    -1.747723877155733e+01   -1.597847372129919e+02   -2.832925364809165e+01   1.528355862960360e+02    -2.832588749340516e+01   1.532889041030121e+02    -1.903291562923677e+01   -1.552595932145160e+02   
7.008000000000000e+09    -1.749841800335626e+01   -1.598557457910403e+02   -2.836441605314904e+01   1.518344295564826e+02    -2.838314927375034e+01   1.522277400875832e+02    -1.910175992114175e+01   -1.554999591127047e+02   
7.009000000000000e+09    -1.753193509363444e+01   -1.599670929469524e+02   -2.847747348092355e+01   1.508801746622394e+02    -2.846255529323242e+01   1.513140913779883e+02    -1.916707987729989e+01   -1.557012448765003e+02   
7.010000000000000e+09    -1.756102025255012e+01   -1.600871036966984e+02   -2.854606073165935e+01   1.499946937751116e+02    -2.854482991735128e+01   1.503390943276382e+02    -1.922612226764989e+01   -1.559499742804290e+02   
7.011000000000000e+09    -1.759547028001425e+01   -1.601619267434355e+02   -2.865571345912420e+01   1.491914010256247e+02    -2.865536497782898e+01   1.494197398206896e+02    -1.928054555803646e+01   -1.562448343568221e+02   
7.012000000000000e+09    -1.762447758446795e+01   -1.602414734148571e+02   -2.870803804703722e+01   1.480387518501312e+02    -2.872448343977310e+01   1.483990395087707e+02    -1.934198646520488e+01   -1.565215498485337e+02   
7.013000000000000e+09    -1.765140743398100e+01   -1.603180677524917e+02   -2.882163965664210e+01   1.472988452169791e+02    -2.880506539281812e+01   1.472910586593792e+02    -1.940455515483088e+01   -1.568722263766572e+02   
7.014000000000000e+09    -1.768915580405541e+01   -1.604694236573490e+02   -2.889367605992799e+01   1.460904440471652e+02    -2.890348249645748e+01   1.464048483473116e+02    -1.946157280530667e+01   -1.572174031530718e+02   
7.015000000000000e+09    -1.772242109990356e+01   -1.605417974347838e+02   -2.898348249699544e+01   1.449066711624677e+02    -2.900912204877393e+01   1.455995606945324e+02    -1.951496871505093e+01   -1.575434634414553e+02   
7.016000000000000e+09    -1.775391992631209e+01   -1.606390976977216e+02   -2.909647664734264e+01   1.442462739419037e+02    -2.909552537341231e+01   1.445201849996890e+02    -1.956546412771007e+01   -1.578854349999650e+02   
7.017000000000000e+09    -1.779154639131269e+01   -1.607282858182744e+02   -2.918060479824312e+01   1.432134638013301e+02    -2.916089739657643e+01   1.435117109646195e+02    -1.961844233356405e+01   -1.583052073872866e+02   
7.018000000000000e+09    -1.782103879449451e+01   -1.608665984385962e+02   -2.926305431956446e+01   1.422541328882744e+02    -2.926114232463556e+01   1.426412111696829e+02    -1.966093068281498e+01   -1.586679156619824e+02   
7.019000000000000e+09    -1.786001312235044e+01   -1.609171458953912e+02   -2.936788929455522e+01   1.412058098337071e+02    -2.937661294891305e+01   1.414642472586065e+02    -1.971140384011464e+01   -1.589747596203707e+02   
7.020000000000000e+09    -1.789024978218970e+01   -1.610145996815891e+02   -2.948483545574046e+01   1.402467037208198e+02    -2.946103798292704e+01   1.403258728094334e+02    -1.975931862866764e+01   -1.593687760022889e+02   
7.021000000000000e+09    -1.792826573799772e+01   -1.610925766278928e+02   -2.955850650647159e+01   1.393020442145069e+02    -2.955982840678844e+01   1.394870768730339e+02    -1.979944256046011e+01   -1.597576223910305e+02   
7.022000000000000e+09    -1.795482419404798e+01   -1.612062402139381e+02   -2.965804742040154e+01   1.381497722463816e+02    -2.966067401276916e+01   1.384768342031344e+02    -1.984934646365071e+01   -1.601533478831668e+02   
7.023000000000000e+09    -1.799258020472569e+01   -1.612615713619231e+02   -2.977967749136049e+01   1.370986897073693e+02    -2.975341407564282e+01   1.374551626971250e+02    -1.987516164203635e+01   -1.605174006623938e+02   
7.024000000000000e+09    -1.803099381436515e+01   -1.613854561712869e+02   -2.986945162903108e+01   1.360711738641109e+02    -2.987582389629385e+01   1.363105003674171e+02    -1.991524643761633e+01   -1.608764074260851e+02   
7.025000000000000e+09    -1.806228015191668e+01   -1.614846396837094e+02   -2.999056994826386e+01   1.350462339349939e+02    -2.999321251310380e+01   1.352026370870370e+02    -1.995445975239455e+01   -1.612307017017316e+02   
7.026000000000000e+09    -1.809310249672004e+01   -1.616041458959545e+02   -3.009509520188857e+01   1.339352697984068e+02    -3.012599722140500e+01   1.340842059483075e+02    -1.997162632832304e+01   -1.616223652891726e+02   
7.027000000000000e+09    -1.813478639021679e+01   -1.616379833874734e+02   -3.021607428530181e+01   1.328573177468025e+02    -3.022328872329136e+01   1.329965003830194e+02    -2.000360228611138e+01   -1.619682979437662e+02   
7.028000000000000e+09    -1.816328536469356e+01   -1.617152884153681e+02   -3.030432638170790e+01   1.319583837249592e+02    -3.032829403406315e+01   1.320305579547218e+02    -2.003177052838284e+01   -1.623768518933510e+02   
7.029000000000000e+09    -1.820040047360417e+01   -1.617889790411129e+02   -3.042434167297371e+01   1.306113876323409e+02    -3.042671300242378e+01   1.307866987259141e+02    -2.005673714310186e+01   -1.627271958467753e+02   
7.030000000000000e+09    -1.823051340649118e+01   -1.618762020161065e+02   -3.052820927331742e+01   1.296099882366035e+02    -3.060331308933533e+01   1.296925944761040e+02    -2.008840765304438e+01   -1.630399355459894e+02   
7.031000000000000e+09    -1.826514481838313e+01   -1.619556034388480e+02   -3.068193936093467e+01   1.287986498062086e+02    -3.069747331692454e+01   1.287461756326767e+02    -2.010681588324698e+01   -1.632962203917729e+02   
7.032000000000000e+09    -1.828965437447388e+01   -1.619902445448425e+02   -3.078783107469099e+01   1.275856570935169e+02    -3.083996421165855e+01   1.277826169165539e+02    -2.013859081438989e+01   -1.636804030985868e+02   
7.033000000000000e+09    -1.832583541802162e+01   -1.620474522445748e+02   -3.093565963392787e+01   1.262615232221940e+02    -3.091724013282837e+01   1.261783773141729e+02    -2.015157981446060e+01   -1.640207269222928e+02   
7.034000000000000e+09    -1.835989676863012e+01   -1.621229316510298e+02   -3.104273320194703e+01   1.251768614132185e+02    -3.107818627658173e+01   1.252355991551301e+02    -2.016795501384559e+01   -1.642115565638549e+02   
7.035000000000000e+09    -1.838852390271570e+01   -1.621663075623383e+02   -3.120009353558168e+01   1.239595365618289e+02    -3.121397300620890e+01   1.239739313592049e+02    -2.017675739524445e+01   -1.644223682777307e+02   
7.036000000000000e+09    -1.841568640036848e+01   -1.621951172088994e+02   -3.133740721276898e+01   1.228517253133737e+02    -3.132562193297819e+01   1.228079611252602e+02    -2.020334358557526e+01   -1.647116875172940e+02   
7.037000000000000e+09    -1.845329028558839e+01   -1.622736781231513e+02   -3.145079775717301e+01   1.215474166406289e+02    -3.149952502583605e+01   1.218706886176166e+02    -2.022145605244540e+01   -1.648628899666340e+02   
7.038000000000000e+09    -1.847968989912111e+01   -1.622710437319032e+02   -3.161130957479675e+01   1.203733314917013e+02    -3.164362275400763e+01   1.205338128930385e+02    -2.022059034844730e+01   -1.651348979616182e+02   
7.039000000000000e+09    -1.850499852869330e+01   -1.622344462591844e+02   -3.175584365478333e+01   1.193234070606339e+02    -3.183821659793840e+01   1.193970700690376e+02    -2.023372980601721e+01   -1.653116807898037e+02   
7.040000000000000e+09    -1.853843387678032e+01   -1.622536254795066e+02   -3.190741106603619e+01   1.178083449835376e+02    -3.193176095440310e+01   1.182411722953761e+02    -2.024072148749273e+01   -1.655079291294076e+02   
7.041000000000000e+09    -1.857584350413816e+01   -1.621640713279052e+02   -3.208601230305983e+01   1.166347870535546e+02    -3.208848309855696e+01   1.167915204529019e+02    -2.025208222693050e+01   -1.655682401970079e+02   
7.042000000000000e+09    -1.859599237906514e+01   -1.621875403781202e+02   -3.222280204402010e+01   1.154130590282479e+02    -3.227858220326552e+01   1.157705806711854e+02    -2.026811711294186e+01   -1.657124105350954e+02   
7.043000000000000e+09    -1.861786033808024e+01   -1.621716939997283e+02   -3.236619311734610e+01   1.139970680925653e+02    -3.239986410277235e+01   1.143592459495134e+02    -2.025846531455187e+01   -1.658245413613732e+02   
7.044000000000000e+09    -1.864444346173908e+01   -1.620294156182397e+02   -3.258346531018599e+01   1.127454234338760e+02    -3.257878530336860e+01   1.128598415751132e+02    -2.025863577401330e+01   -1.659709539815321e+02   
7.045000000000000e+09    -1.868211906952963e+01   -1.619844779418965e+02   -3.271638794317936e+01   1.114520500854572e+02    -3.275887046644912e+01   1.118149207926767e+02    -2.026358768522657e+01   -1.659265778121928e+02   
7.046000000000000e+09    -1.870386869675183e+01   -1.618940704228591e+02   -3.289425235413487e+01   1.099268728929954e+02    -3.293880834945709e+01   1.102607043879253e+02    -2.026040768095860e+01   -1.659949329011234e+02   
7.047000000000000e+09    -1.873004775281684e+01   -1.617726397579416e+02   -3.308039976802647e+01   1.088679543187651e+02    -3.312438488574030e+01   1.088720924210006e+02    -2.026554986623434e+01   -1.659494706701823e+02   
7.048000000000000e+09    -1.875877757276692e+01   -1.617105859852204e+02   -3.327102357717065e+01   1.074307208733535e+02    -3.330915612771455e+01   1.077608347417848e+02    -2.027446827968661e+01   -1.659498211590234e+02   
7.049000000000000e+09    -1.879199354069377e+01   -1.616050332467779e+02   -3.346703249577787e+01   1.060778852541456e+02    -3.347511219315214e+01   1.062781030155966e+02    -2.027151692993094e+01   -1.659507749599599e+02   
7.050000000000000e+09    -1.881361019040363e+01   -1.614409057472741e+02   -3.362211718489040e+01   1.044662191486318e+02    -3.365093701588301e+01   1.049287406794548e+02    -2.027155635437328e+01   -1.658624402890635e+02   
7.051000000000000e+09    -1.884719315175608e+01   -1.613118780809809e+02   -3.383065443925258e+01   1.031920723919421e+02    -3.384600951934708e+01   1.037362809295222e+02    -2.026427079365556e+01   -1.658202259668308e+02   
7.052000000000000e+09    -1.888378544547027e+01   -1.611473765538947e+02   -3.406052383184656e+01   1.016005654855197e+02    -3.409180475843176e+01   1.021421860494471e+02    -2.026802284691126e+01   -1.656869547586944e+02   
7.053000000000000e+09    -1.890252028706301e+01   -1.610151162444054e+02   -3.429739770713042e+01   1.000676640366490e+02    -3.426206277199415e+01   1.006567996021081e+02    -2.026601078002687e+01   -1.655297178418984e+02   
7.054000000000000e+09    -1.894483609517071e+01   -1.608550637259886e+02   -3.446610031977750e+01   9.887456007134881e+01    -3.447363739947365e+01   9.927842856124775e+01    -2.027232531887432e+01   -1.653929327024506e+02   
7.055000000000000e+09    -1.897899926234409e+01   -1.606982894398128e+02   -3.464990453819756e+01   9.704267893625183e+01    -3.467360069017262e+01   9.742802685753843e+01    -2.027628545418986e+01   -1.652023573520058e+02   
7.056000000000000e+09    -1.901388084909708e+01   -1.604662194042579e+02   -3.489497155659210e+01   9.526878255117889e+01    -3.489090858260386e+01   9.585657798420789e+01    -2.027280315591583e+01   -1.649714647859169e+02   
7.057000000000000e+09    -1.905377580471925e+01   -1.601780999082519e+02   -3.510395407953936e+01   9.380416660533008e+01    -3.513586345341420e+01   9.432128195967778e+01    -2.027358412478307e+01   -1.647721605231458e+02   
7.058000000000000e+09    -1.908033505146794e+01   -1.600227988914133e+02   -3.531122593693997e+01   9.243072800936712e+01    -3.536902638811659e+01   9.297029631582704e+01    -2.028099672599504e+01   -1.644934696485874e+02   
7.059000000000000e+09    -1.911837809884946e+01   -1.597392835066650e+02   -3.556877518582646e+01   9.058647520105018e+01    -3.559653768041362e+01   9.132082275692630e+01    -2.027952242266863e+01   -1.641849343115608e+02   
7.060000000000000e+09    -1.915904939521172e+01   -1.594821052867634e+02   -3.579016137548707e+01   8.888321735787271e+01    -3.582733749954427e+01   8.947330912263629e+01    -2.027187859712566e+01   -1.639321002746412e+02   
7.061000000000000e+09    -1.920547049532767e+01   -1.592849405502255e+02   -3.600224321210769e+01   8.732642638517252e+01    -3.606772975074810e+01   8.817288266848281e+01    -2.029336028052567e+01   -1.635371797649292e+02   
7.062000000000000e+09    -1.924069043299324e+01   -1.590267912095703e+02   -3.630916158769340e+01   8.516104018704389e+01    -3.626692709276885e+01   8.577570724982169e+01    -2.029496498834633e+01   -1.632854178319594e+02   
7.063000000000000e+09    -1.926992689457904e+01   -1.587127669621627e+02   -3.650911966092435e+01   8.311793922966503e+01    -3.649777275706882e+01   8.363904202381832e+01    -2.029019446108260e+01   -1.628139236616561e+02   
7.064000000000000e+09    -1.932034036501707e+01   -1.584234022171273e+02   -3.677946678713162e+01   8.126763190081603e+01    -3.681034519425390e+01   8.209509767572979e+01    -2.029498177477015e+01   -1.623455764665616e+02   
7.065000000000000e+09    -1.935377547788995e+01   -1.582295848898433e+02   -3.709494134994725e+01   7.916404308770279e+01    -3.704402305306868e+01   7.988074570519443e+01    -2.031269720516950e+01   -1.620132691591636e+02   
7.066000000000000e+09    -1.939818541875712e+01   -1.578389102073872e+02   -3.730830874188893e+01   7.687306397134267e+01    -3.727738874799167e+01   7.762223210217701e+01    -2.030275113271633e+01   -1.615472637660233e+02   
7.067000000000000e+09    -1.944122077971980e+01   -1.575718649215059e+02   -3.749175591042663e+01   7.524079015285278e+01    -3.757877266848986e+01   7.576407006329055e+01    -2.031774233153936e+01   -1.610375770771299e+02   
7.068000000000000e+09    -1.948117702472714e+01   -1.573164544228632e+02   -3.785120316256096e+01   7.272538439641227e+01    -3.783534495669321e+01   7.308534058590817e+01    -2.033068540268920e+01   -1.605757742073197e+02   
7.069000000000000e+09    -1.951599639728665e+01   -1.569670859290488e+02   -3.806018423823056e+01   7.057420102368285e+01    -3.808320990363175e+01   7.120641943179520e+01    -2.035009209179282e+01   -1.601289527051270e+02   
7.070000000000000e+09    -1.957087231956139e+01   -1.566105473115092e+02   -3.839345334182966e+01   6.738850049950942e+01    -3.834067686398252e+01   6.887616266855977e+01    -2.037151508448042e+01   -1.595364111547725e+02   
7.071000000000000e+09    -1.959985942467087e+01   -1.563129981839784e+02   -3.867480436633864e+01   6.542895019030479e+01    -3.870541874864523e+01   6.562484879780121e+01    -2.039576583538850e+01   -1.590075840185640e+02   
7.072000000000000e+09    -1.964653347971873e+01   -1.559944627028509e+02   -3.898430886844784e+01   6.267152699900240e+01    -3.884939485640321e+01   6.304340535450039e+01    -2.041446448443553e+01   -1.585199546028344e+02   
7.073000000000000e+09    -1.968575123793261e+01   -1.556716003160100e+02   -3.915187232533589e+01   5.925611502303639e+01    -3.922165033411132e+01   5.981745763498768e+01    -2.043216822328551e+01   -1.579722946173523e+02   
7.074000000000000e+09    -1.972753240876397e+01   -1.553269942564399e+02   -3.945986419688219e+01   5.644196013123579e+01    -3.952604911247869e+01   5.747133156417925e+01    -2.046687942470300e+01   -1.573520838848249e+02   
7.075000000000000e+09    -1.976194120943060e+01   -1.549823095555392e+02   -3.979481024228480e+01   5.296062112355479e+01    -3.974880316424352e+01   5.455830680262447e+01    -2.048833057886534e+01   -1.567410945636789e+02   
7.076000000000000e+09    -1.979373639769754e+01   -1.546063078480327e+02   -4.010658858889314e+01   5.022369068885531e+01    -4.001096021135570e+01   5.110416800851893e+01    -2.052240577411001e+01   -1.560625267250410e+02   
7.077000000000000e+09    -1.983621112962517e+01   -1.542611771244100e+02   -4.021082841554488e+01   4.682175724343769e+01    -4.025197574930364e+01   4.780369396783041e+01    -2.056302412127965e+01   -1.554354461399197e+02   
7.078000000000000e+09    -1.987653776554610e+01   -1.538972144506907e+02   -4.058116712944164e+01   4.303213812319230e+01    -4.048227859386023e+01   4.452888003633385e+01    -2.059234811013116e+01   -1.548231864098931e+02   
7.079000000000000e+09    -1.990808907846233e+01   -1.535167237899312e+02   -4.075281437178524e+01   3.967803857191741e+01    -4.079647171575677e+01   4.037215932045970e+01    -2.062595397977647e+01   -1.541795298747091e+02   
7.080000000000000e+09    -1.995024330537058e+01   -1.532329670273490e+02   -4.098947294147471e+01   3.576882161275993e+01    -4.091123552458973e+01   3.636489921267687e+01    -2.065782082672773e+01   -1.535420467175606e+02   
7.081000000000000e+09    -1.997234247051201e+01   -1.528488941436847e+02   -4.116133250417468e+01   3.170574588746441e+01    -4.117488664155309e+01   3.288681745290931e+01    -2.070402300732663e+01   -1.529027130921048e+02   
7.082000000000000e+09    -2.001442131103703e+01   -1.524867661631253e+02   -4.134817534349299e+01   2.786645641209920e+01    -4.123870351622042e+01   2.889014817719594e+01    -2.075007539169873e+01   -1.521748459133996e+02   
7.083000000000000e+09    -2.005415016202629e+01   -1.520721684572581e+02   -4.148780384654188e+01   2.353730178330518e+01    -4.142437909450783e+01   2.471306718962297e+01    -2.078274603608264e+01   -1.515037225738423e+02   
7.084000000000000e+09    -2.009166526181987e+01   -1.517184755497079e+02   -4.147773146692994e+01   1.939810555202837e+01    -4.155940821557056e+01   2.068883621380764e+01    -2.083741898819795e+01   -1.508374453054532e+02   
