[Version] 2.0
! Rohde & Schwarz Vector Network Analyzer
! Rohde-Schwarz,ZNL20-2Port,1323001220200009,1.71.1.10-23.02.1.238
! 
! Port Assignments:
! Nominal Port -> Actual Test Port
! --------------------------------
!   1 -> 1
!   2 -> 2

! Created: GMT+3 2024-09-24 15:14:43

# Hz S DB R 50

[Number of Ports] 2
[Two-Port Data Order] 21_12
[Number of Frequencies] 6001

[Network Data] 
! freq[Hz]               S11[mag dB]              S11[ang]                 S21[mag dB]              S21[ang]                 S12[mag dB]              S12[ang]                 S22[mag dB]              S22[ang]                 
7.000000000000000e+09    -1.719773710335875e+01   -1.566427911715275e+02   -2.660000398781929e+01   1.681231093923314e+02    -2.665100460470170e+01   1.685417194719287e+02    -1.852440772725345e+01   -1.508334691708168e+02   
7.001000000000000e+09    -1.720892698845058e+01   -1.567354137176951e+02   -2.664317884558346e+01   1.672362507850302e+02    -2.669358797860823e+01   1.676231766517999e+02    -1.857921992142990e+01   -1.509249096547735e+02   
7.002000000000000e+09    -1.723170851525446e+01   -1.568284537178015e+02   -2.671307957861742e+01   1.664259423280006e+02    -2.674100397576924e+01   1.666655636933170e+02    -1.863093045743702e+01   -1.509654071033336e+02   
7.003000000000000e+09    -1.724420104254669e+01   -1.568890434535030e+02   -2.677517662170122e+01   1.655441990381392e+02    -2.678628845523420e+01   1.659066840866190e+02    -1.868263260373579e+01   -1.510832319172422e+02   
7.004000000000000e+09    -1.726586214208882e+01   -1.570083975333344e+02   -2.681844267015510e+01   1.646905959545521e+02    -2.684454775068760e+01   1.649751203605993e+02    -1.872337247264151e+01   -1.511573726741636e+02   
7.005000000000000e+09    -1.729305705400071e+01   -1.570954479061112e+02   -2.684866196467533e+01   1.637539237776915e+02    -2.688543420518566e+01   1.642285712347078e+02    -1.878111097355936e+01   -1.513005486096863e+02   
7.006000000000000e+09    -1.731479816495394e+01   -1.572063799883779e+02   -2.690321460483505e+01   1.628811949045754e+02    -2.693538055830975e+01   1.633040905498598e+02    -1.883438529957854e+01   -1.514349616367150e+02   
7.007000000000000e+09    -1.732329245324005e+01   -1.573315090708286e+02   -2.696031913169640e+01   1.620563588768017e+02    -2.696424798982491e+01   1.624852832810380e+02    -1.888644198538915e+01   -1.516728377860455e+02   
7.008000000000000e+09    -1.734535047097676e+01   -1.573877009581921e+02   -2.700444542681645e+01   1.611296094312131e+02    -2.703690379353118e+01   1.615104366555514e+02    -1.893334852509768e+01   -1.518407908340463e+02   
7.009000000000000e+09    -1.735912770754658e+01   -1.575392030411078e+02   -2.706699223310940e+01   1.602493639237294e+02    -2.708838044221326e+01   1.607030422712370e+02    -1.898209515793907e+01   -1.520471184311529e+02   
7.010000000000000e+09    -1.738615414959837e+01   -1.576282979006625e+02   -2.711259661140456e+01   1.594315868666571e+02    -2.713980250015814e+01   1.598023492823752e+02    -1.902606802666423e+01   -1.523560707806855e+02   
7.011000000000000e+09    -1.740416938182595e+01   -1.577179603194475e+02   -2.718724691832561e+01   1.586413926392937e+02    -2.719833956264130e+01   1.589872356969033e+02    -1.906955364604608e+01   -1.525644561374363e+02   
7.012000000000000e+09    -1.742666891533816e+01   -1.577702035838852e+02   -2.724017035335999e+01   1.576098569755936e+02    -2.726920782248624e+01   1.578721085388693e+02    -1.911494063674114e+01   -1.528546540037834e+02   
7.013000000000000e+09    -1.744833527482749e+01   -1.579307631983620e+02   -2.729504981158533e+01   1.567807285958402e+02    -2.731595762178650e+01   1.570747408837300e+02    -1.916374748798653e+01   -1.532181727685914e+02   
7.014000000000000e+09    -1.747595149586598e+01   -1.580743683745402e+02   -2.735232273847736e+01   1.558022519127418e+02    -2.739364078290275e+01   1.561458586322386e+02    -1.920620804562351e+01   -1.535354492429174e+02   
7.015000000000000e+09    -1.749320190126468e+01   -1.581588791852136e+02   -2.741991691500514e+01   1.548514905554727e+02    -2.745216328158845e+01   1.552935849049646e+02    -1.924252218142867e+01   -1.538411745674196e+02   
7.016000000000000e+09    -1.752124897600919e+01   -1.582944090852863e+02   -2.748289681108618e+01   1.540462685939203e+02    -2.753053323173471e+01   1.543456384800568e+02    -1.928885441101991e+01   -1.542353664028672e+02   
7.017000000000000e+09    -1.754370841979685e+01   -1.584231126635286e+02   -2.753194784013480e+01   1.531691406774875e+02    -2.754532268649004e+01   1.533615949024993e+02    -1.931987514882440e+01   -1.546604784974595e+02   
7.018000000000000e+09    -1.756803283396669e+01   -1.585152743889268e+02   -2.758387813511040e+01   1.521254939545232e+02    -2.763421792813109e+01   1.524559054300059e+02    -1.936106238111534e+01   -1.550226304119440e+02   
7.019000000000000e+09    -1.759521516950535e+01   -1.586439611279076e+02   -2.765826586676646e+01   1.511147989939784e+02    -2.771188207185256e+01   1.515706806958724e+02    -1.938430820627363e+01   -1.552980189046204e+02   
7.020000000000000e+09    -1.761493866608151e+01   -1.587425119589367e+02   -2.774270776228838e+01   1.502422143528125e+02    -2.775565126599971e+01   1.504860339286886e+02    -1.942111619299136e+01   -1.557951111560742e+02   
7.021000000000000e+09    -1.765021294658546e+01   -1.588539240749308e+02   -2.778093554666295e+01   1.494035277978624e+02    -2.781797162510887e+01   1.496410244028791e+02    -1.944829893325596e+01   -1.561936090824030e+02   
7.022000000000000e+09    -1.766851704752009e+01   -1.590034234260943e+02   -2.785340125510666e+01   1.483418663577819e+02    -2.789954074549365e+01   1.488415789937468e+02    -1.948180647851785e+01   -1.565311319235914e+02   
7.023000000000000e+09    -1.769932726769010e+01   -1.590887442099572e+02   -2.794142144818183e+01   1.474236053574608e+02    -2.797415286394448e+01   1.477833392038092e+02    -1.949829833995511e+01   -1.570355243133135e+02   
7.024000000000000e+09    -1.771843617815009e+01   -1.592132682623490e+02   -2.801085258454231e+01   1.463438221604525e+02    -2.804202936041867e+01   1.467297736354418e+02    -1.952041244069606e+01   -1.574236991556540e+02   
7.025000000000000e+09    -1.774470083222483e+01   -1.593448313696225e+02   -2.808045164473193e+01   1.454475670783619e+02    -2.812822490025147e+01   1.458329297728264e+02    -1.954800129747352e+01   -1.577864458847266e+02   
7.026000000000000e+09    -1.776900788115557e+01   -1.594888067513973e+02   -2.815416686520987e+01   1.444119079797410e+02    -2.819017490798794e+01   1.447675731745466e+02    -1.955692708867461e+01   -1.581845555332994e+02   
7.027000000000000e+09    -1.779883110455122e+01   -1.595638147825619e+02   -2.822064836054224e+01   1.434101492785158e+02    -2.826617672899308e+01   1.439137142786670e+02    -1.958186881985267e+01   -1.586171712110602e+02   
7.028000000000000e+09    -1.781988381396540e+01   -1.597001188054369e+02   -2.827652854258607e+01   1.425323932263426e+02    -2.833748932125687e+01   1.429485721664076e+02    -1.959172197150994e+01   -1.590093635668430e+02   
7.029000000000000e+09    -1.784586499065022e+01   -1.598382413691034e+02   -2.836922019462509e+01   1.414564443277438e+02    -2.839661507489414e+01   1.418048913295409e+02    -1.960554878725852e+01   -1.594139911063130e+02   
7.030000000000000e+09    -1.786975165617867e+01   -1.599215774564117e+02   -2.845007000280257e+01   1.404782705585762e+02    -2.853297121467015e+01   1.409306509169773e+02    -1.962775076496381e+01   -1.596916384627444e+02   
7.031000000000000e+09    -1.789292175703775e+01   -1.600585781091716e+02   -2.854001379236290e+01   1.396264490332866e+02    -2.857407372059262e+01   1.398432962498984e+02    -1.963843892917712e+01   -1.600895406401364e+02   
7.032000000000000e+09    -1.791223342217117e+01   -1.601309553996560e+02   -2.860867758649363e+01   1.386644341483076e+02    -2.867033219324608e+01   1.389862498080718e+02    -1.964842296349191e+01   -1.604754263205869e+02   
7.033000000000000e+09    -1.794423236364533e+01   -1.602712682422853e+02   -2.872174309629035e+01   1.374958116338247e+02    -2.872005819806937e+01   1.376262770358448e+02    -1.965977639201955e+01   -1.608794843138050e+02   
7.034000000000000e+09    -1.796225559404584e+01   -1.603781745522993e+02   -2.877854591810023e+01   1.364985215622154e+02    -2.882407885797289e+01   1.369081814127838e+02    -1.966349343870326e+01   -1.611307274635972e+02   
7.035000000000000e+09    -1.798799620209113e+01   -1.604507515712650e+02   -2.888992621125094e+01   1.354668378415113e+02    -2.891633156886868e+01   1.356463797943413e+02    -1.966321984947893e+01   -1.614635424496927e+02   
7.036000000000000e+09    -1.801233955482342e+01   -1.605806378584785e+02   -2.899646924620281e+01   1.344937590665786e+02    -2.899460042099392e+01   1.347353405744220e+02    -1.967678101079862e+01   -1.617696344873068e+02   
7.037000000000000e+09    -1.803576248502132e+01   -1.606781359610314e+02   -2.906858730072578e+01   1.333370938583677e+02    -2.907641759573790e+01   1.337893517463357e+02    -1.968401166455973e+01   -1.620265899254314e+02   
7.038000000000000e+09    -1.805280398013823e+01   -1.607269349195197e+02   -2.914428829643184e+01   1.321985400416123e+02    -2.919483304988009e+01   1.326902460243745e+02    -1.967209712994491e+01   -1.623625944480325e+02   
7.039000000000000e+09    -1.807452139256026e+01   -1.607785432909783e+02   -2.924990023497548e+01   1.312740544799530e+02    -2.930825286942064e+01   1.316117076071868e+02    -1.968665467385501e+01   -1.625609045516287e+02   
7.040000000000000e+09    -1.809788530075680e+01   -1.608401990535824e+02   -2.937610341421582e+01   1.300379145359252e+02    -2.937573189929589e+01   1.304864432774254e+02    -1.967527320079338e+01   -1.628496788293890e+02   
7.041000000000000e+09    -1.812221262229673e+01   -1.609182621027792e+02   -2.943702987212944e+01   1.291258333697611e+02    -2.948670767536164e+01   1.294802558285380e+02    -1.967833696234412e+01   -1.630253658771454e+02   
7.042000000000000e+09    -1.813892677806299e+01   -1.609223326383415e+02   -2.955454134839181e+01   1.279302374124254e+02    -2.958927669869803e+01   1.283647186199692e+02    -1.968595557195555e+01   -1.632482893693952e+02   
7.043000000000000e+09    -1.816447244352807e+01   -1.609838023415011e+02   -2.962337022641104e+01   1.267356705695194e+02    -2.967268526252871e+01   1.273198938692410e+02    -1.967564222815411e+01   -1.634818332457301e+02   
7.044000000000000e+09    -1.818325161971718e+01   -1.609158275916302e+02   -2.979432282414609e+01   1.257657693336968e+02    -2.978771700366846e+01   1.260967582970928e+02    -1.965692603798048e+01   -1.636353086241830e+02   
7.045000000000000e+09    -1.820007625025127e+01   -1.609508980101992e+02   -2.988352390920869e+01   1.247479864221713e+02    -2.990116905525668e+01   1.251996304463989e+02    -1.965972824694176e+01   -1.638484998562250e+02   
7.046000000000000e+09    -1.821836677155129e+01   -1.609583995276617e+02   -3.000048202558815e+01   1.233552588859474e+02    -2.999554663140897e+01   1.239159816380606e+02    -1.964723871420622e+01   -1.639347516970045e+02   
7.047000000000000e+09    -1.824370039641896e+01   -1.609157050961921e+02   -3.013261336874528e+01   1.224579531839252e+02    -3.013334143563431e+01   1.227733610364499e+02    -1.964833106926062e+01   -1.640448609337017e+02   
7.048000000000000e+09    -1.826692360484402e+01   -1.609826853864736e+02   -3.023060135712223e+01   1.211354726976991e+02    -3.025176254707656e+01   1.216411289422823e+02    -1.965305738394730e+01   -1.641170362024760e+02   
7.049000000000000e+09    -1.829316245149047e+01   -1.609150316529652e+02   -3.036082072827848e+01   1.200680083214802e+02    -3.034236073122930e+01   1.205480646479698e+02    -1.963871638342028e+01   -1.642013807550308e+02   
7.050000000000000e+09    -1.831334507390349e+01   -1.608550436312672e+02   -3.048707236695125e+01   1.186819750550016e+02    -3.047364829455621e+01   1.194741280463221e+02    -1.963365179596184e+01   -1.642314839169819e+02   
7.051000000000000e+09    -1.833903774259178e+01   -1.607708502692875e+02   -3.059005561944111e+01   1.176369340612237e+02    -3.057710807363926e+01   1.183375952026611e+02    -1.962479033417571e+01   -1.642687182861870e+02   
7.052000000000000e+09    -1.836925467683779e+01   -1.607314321124935e+02   -3.071494735913340e+01   1.164712462265672e+02    -3.072393623144196e+01   1.172212900775660e+02    -1.962842964953637e+01   -1.642537173850152e+02   
7.053000000000000e+09    -1.839371960565747e+01   -1.606767387611010e+02   -3.089294027208380e+01   1.152486941683467e+02    -3.082647075433583e+01   1.157254599751611e+02    -1.962875662618797e+01   -1.642644059382143e+02   
7.054000000000000e+09    -1.843531808453455e+01   -1.606019812879445e+02   -3.096568890360841e+01   1.143409867146326e+02    -3.097562145328770e+01   1.145934994607101e+02    -1.961889764542554e+01   -1.641564250988542e+02   
7.055000000000000e+09    -1.846466171210975e+01   -1.604738299307263e+02   -3.113611863392874e+01   1.128106452662931e+02    -3.109461859991145e+01   1.135206119031711e+02    -1.962388333994825e+01   -1.641293923916759e+02   
7.056000000000000e+09    -1.850051162384829e+01   -1.603758327894099e+02   -3.129024328854183e+01   1.118287403701252e+02    -3.125823281676194e+01   1.124420237588331e+02    -1.961012906633685e+01   -1.640349987560670e+02   
7.057000000000000e+09    -1.852803007319023e+01   -1.601804944151783e+02   -3.139416928290325e+01   1.104604460278471e+02    -3.135057229680549e+01   1.112444669637735e+02    -1.960715327341537e+01   -1.639505425771894e+02   
7.058000000000000e+09    -1.856182511382683e+01   -1.601112324913542e+02   -3.154116929782079e+01   1.093312485798612e+02    -3.152439487672493e+01   1.099317585498681e+02    -1.962031841780208e+01   -1.637724270759012e+02   
7.059000000000000e+09    -1.859748476619487e+01   -1.599125669157864e+02   -3.168097106733944e+01   1.079479188336463e+02    -3.166530615772792e+01   1.087440118843627e+02    -1.960752255005415e+01   -1.636274114707489e+02   
7.060000000000000e+09    -1.863308293912943e+01   -1.597915827170577e+02   -3.180868238680358e+01   1.067702356467265e+02    -3.179228014779099e+01   1.073517389982859e+02    -1.960840150917054e+01   -1.634787069110301e+02   
7.061000000000000e+09    -1.867086394199018e+01   -1.596407289497938e+02   -3.193852052915185e+01   1.054797100819153e+02    -3.191557205392223e+01   1.063101654350106e+02    -1.961771323377832e+01   -1.632189105796223e+02   
7.062000000000000e+09    -1.871386866408028e+01   -1.594634545270253e+02   -3.212123291369313e+01   1.042040616606445e+02    -3.206337908850166e+01   1.049183220160906e+02    -1.962144641213362e+01   -1.630147994213479e+02   
7.063000000000000e+09    -1.874153645026622e+01   -1.592842169054610e+02   -3.225379571760153e+01   1.028464358172701e+02    -3.221231736226304e+01   1.032029742650654e+02    -1.962677720968080e+01   -1.627259090118268e+02   
7.064000000000000e+09    -1.878581730533651e+01   -1.590675797579627e+02   -3.243448956665414e+01   1.014673232141387e+02    -3.236619061503171e+01   1.021418508411006e+02    -1.963602085166062e+01   -1.624204125980491e+02   
7.065000000000000e+09    -1.881798839812343e+01   -1.589847405939904e+02   -3.260763672789755e+01   1.001185268524202e+02    -3.252713501484753e+01   1.003631956190840e+02    -1.964363721796541e+01   -1.621477281165632e+02   
7.066000000000000e+09    -1.886227175466401e+01   -1.587581051573365e+02   -3.276697031733256e+01   9.860369227083562e+01    -3.269794256487278e+01   9.939781301072919e+01    -1.964535485027170e+01   -1.618694737705548e+02   
7.067000000000000e+09    -1.890363745252047e+01   -1.585389052346762e+02   -3.289583453121179e+01   9.741719452971057e+01    -3.285203291696750e+01   9.788078611575500e+01    -1.966958453908345e+01   -1.615189552645602e+02   
7.068000000000000e+09    -1.894447988834998e+01   -1.583097677176626e+02   -3.308749527060507e+01   9.586266244593375e+01    -3.303798662085391e+01   9.618596752008760e+01    -1.968021717647065e+01   -1.611267566073491e+02   
7.069000000000000e+09    -1.898978306767958e+01   -1.582067984269546e+02   -3.323080688362902e+01   9.449232654535263e+01    -3.319030486032077e+01   9.488491271425887e+01    -1.969441481294562e+01   -1.608420822420208e+02   
7.070000000000000e+09    -1.904135550770054e+01   -1.579665445136214e+02   -3.346670135934380e+01   9.295221617166401e+01    -3.334700854162163e+01   9.348640858386857e+01    -1.973050327933716e+01   -1.603580472948761e+02   
7.071000000000000e+09    -1.907873449330914e+01   -1.577540798724473e+02   -3.360196618016113e+01   9.155674481617325e+01    -3.357442522255712e+01   9.198492535380778e+01    -1.974091352684826e+01   -1.599653308849065e+02   
7.072000000000000e+09    -1.912659386250001e+01   -1.575071259352582e+02   -3.379220188241126e+01   9.027768376724549e+01    -3.370866875197261e+01   9.022796478550983e+01    -1.976849351257959e+01   -1.595640574054427e+02   
7.073000000000000e+09    -1.916606680194577e+01   -1.572995187369627e+02   -3.400264782328825e+01   8.811753796699058e+01    -3.388353697041221e+01   8.842254549441249e+01    -1.980084902809945e+01   -1.591499174034693e+02   
7.074000000000000e+09    -1.921052367768988e+01   -1.570989329730323e+02   -3.417486725482952e+01   8.689925393290524e+01    -3.412428803787633e+01   8.687094100697149e+01    -1.982266313956825e+01   -1.586758528619881e+02   
7.075000000000000e+09    -1.924732152868661e+01   -1.568878348807265e+02   -3.434797714876340e+01   8.505570085968944e+01    -3.429581955376797e+01   8.570335328954445e+01    -1.986622318086657e+01   -1.581830006381455e+02   
7.076000000000000e+09    -1.929437304762443e+01   -1.565522924417551e+02   -3.456098202634020e+01   8.349546240918851e+01    -3.449700998954718e+01   8.357444372052197e+01    -1.989909923558048e+01   -1.576444874073787e+02   
7.077000000000000e+09    -1.934462352793224e+01   -1.563121274697971e+02   -3.469123093779156e+01   8.168603249407468e+01    -3.464607447932475e+01   8.218365932906062e+01    -1.993798170610039e+01   -1.571281350218196e+02   
7.078000000000000e+09    -1.938408342884321e+01   -1.561063130027647e+02   -3.497453406431173e+01   8.026985269862608e+01    -3.482183511235660e+01   8.024004591880148e+01    -1.998805524733513e+01   -1.566308155269020e+02   
7.079000000000000e+09    -1.943056746935835e+01   -1.557744042590538e+02   -3.510848229044915e+01   7.833315262605819e+01    -3.508470660891729e+01   7.824235867804165e+01    -2.003375165516844e+01   -1.561199768439320e+02   
7.080000000000000e+09    -1.947067399893593e+01   -1.556109203563215e+02   -3.535232336088876e+01   7.641491595223479e+01    -3.521910244265035e+01   7.634944502789565e+01    -2.006615198991650e+01   -1.556300335701953e+02   
7.081000000000000e+09    -1.952189685551231e+01   -1.552974456989083e+02   -3.555897644098715e+01   7.436911974478281e+01    -3.544923616584326e+01   7.454065101659025e+01    -2.012501610696128e+01   -1.551119986335908e+02   
7.082000000000000e+09    -1.956357423154073e+01   -1.550626986868894e+02   -3.576007135642807e+01   7.228277172239446e+01    -3.561611900755653e+01   7.240086999413558e+01    -2.017241401737447e+01   -1.545442518263679e+02   
7.083000000000000e+09    -1.961993556889277e+01   -1.547735084813216e+02   -3.596037160201861e+01   7.064939427566482e+01    -3.585199273151924e+01   7.046163610048306e+01    -2.022532063171651e+01   -1.539635847474719e+02   
7.084000000000000e+09    -1.965863461728896e+01   -1.544627863302842e+02   -3.614200825308235e+01   6.839765088668194e+01    -3.612649611198052e+01   6.865649718485011e+01    -2.027500132397738e+01   -1.534119542554988e+02   
