[Version] 2.0
! Rohde & Schwarz Vector Network Analyzer
! Rohde-Schwarz,ZNL20-2Port,1323001220200009,1.71.1.10-23.02.1.238
! 
! Port Assignments:
! Nominal Port -> Actual Test Port
! --------------------------------
!   1 -> 1
!   2 -> 2

! Created: GMT+3 2024-09-24 15:14:56

# Hz S DB R 50

[Number of Ports] 2
[Two-Port Data Order] 21_12
[Number of Frequencies] 6001

[Network Data] 
! freq[Hz]               S11[mag dB]              S11[ang]                 S21[mag dB]              S21[ang]                 S12[mag dB]              S12[ang]                 S22[mag dB]              S22[ang]                 
7.000000000000000e+09    -1.720512010096251e+01   -1.547943475902974e+02   -2.598838035721574e+01   1.743015557467685e+02    -2.602548912143668e+01   1.749650073904642e+02    -1.855672273543963e+01   -1.482811597502287e+02   
7.001000000000000e+09    -1.721281746715274e+01   -1.548824638812844e+02   -2.602465179093283e+01   1.734507192523969e+02    -2.606167152358584e+01   1.741494939560150e+02    -1.860060406144666e+01   -1.483181870625981e+02   
7.002000000000000e+09    -1.722722277619885e+01   -1.549671282823829e+02   -2.606484520295742e+01   1.726406306456007e+02    -2.608334126663230e+01   1.732365647536871e+02    -1.863948115160199e+01   -1.483663401698195e+02   
7.003000000000000e+09    -1.724170755704001e+01   -1.550584338597797e+02   -2.612778782177701e+01   1.717547192663562e+02    -2.611460805007587e+01   1.724401798042075e+02    -1.867755294789855e+01   -1.484333159612532e+02   
7.004000000000000e+09    -1.725558915066499e+01   -1.551308453086893e+02   -2.616791674836932e+01   1.709410690634560e+02    -2.615937624371304e+01   1.715990113564783e+02    -1.872238891474113e+01   -1.485480154494579e+02   
7.005000000000000e+09    -1.726819570473543e+01   -1.551888618229078e+02   -2.618985798555067e+01   1.701302256852517e+02    -2.619409794893227e+01   1.708204730437728e+02    -1.876593416745464e+01   -1.486256085692585e+02   
7.006000000000000e+09    -1.727960182518547e+01   -1.553374712338258e+02   -2.623044877195538e+01   1.693145414381468e+02    -2.623307840547469e+01   1.700068662418129e+02    -1.881157732340098e+01   -1.487506179760062e+02   
7.007000000000000e+09    -1.729169964775297e+01   -1.553776709621782e+02   -2.629380027955323e+01   1.685678580502119e+02    -2.625732537146114e+01   1.692185140442378e+02    -1.884683586617494e+01   -1.489374455129530e+02   
7.008000000000000e+09    -1.730620487640184e+01   -1.555222797103825e+02   -2.632169019024523e+01   1.677365107355245e+02    -2.630322353177994e+01   1.683176839610728e+02    -1.888959940625764e+01   -1.491057986308284e+02   
7.009000000000000e+09    -1.730948464117604e+01   -1.556018149660138e+02   -2.636493670575249e+01   1.668929906484777e+02    -2.633203771792294e+01   1.674503549596570e+02    -1.893616643862011e+01   -1.493347271910301e+02   
7.010000000000000e+09    -1.733028564436260e+01   -1.557234910063536e+02   -2.638723806402686e+01   1.660268986066085e+02    -2.637909767214722e+01   1.666183864363891e+02    -1.896928826941802e+01   -1.495699486495891e+02   
7.011000000000000e+09    -1.734326251349180e+01   -1.558131418881376e+02   -2.645661074036509e+01   1.654068013437289e+02    -2.642359166109970e+01   1.658240955358995e+02    -1.900540141101001e+01   -1.498235614183723e+02   
7.012000000000000e+09    -1.735344721628382e+01   -1.558880074269651e+02   -2.646971048466834e+01   1.643679933389399e+02    -2.646663310716389e+01   1.649169379814524e+02    -1.904099095029306e+01   -1.500615362103524e+02   
7.013000000000000e+09    -1.736372396654895e+01   -1.560358222321633e+02   -2.652927818055854e+01   1.636834885789621e+02    -2.650722351937753e+01   1.641250805596068e+02    -1.908477869023791e+01   -1.503976758101298e+02   
7.014000000000000e+09    -1.738731084702394e+01   -1.561881047034486e+02   -2.656871514598275e+01   1.626979848336097e+02    -2.655667585437697e+01   1.632817119029679e+02    -1.911936484407461e+01   -1.507446053800560e+02   
7.015000000000000e+09    -1.740020215586369e+01   -1.562608920269550e+02   -2.661938050816158e+01   1.617693643351283e+02    -2.660778897173838e+01   1.623290088187520e+02    -1.915092702383149e+01   -1.510328436834936e+02   
7.016000000000000e+09    -1.741776132943036e+01   -1.563741227650235e+02   -2.666044357181062e+01   1.611422452859381e+02    -2.664800974427468e+01   1.614413099473535e+02    -1.917766237790080e+01   -1.513823873230321e+02   
7.017000000000000e+09    -1.744055328070405e+01   -1.565156395324542e+02   -2.671228164011044e+01   1.602242232205796e+02    -2.667676162460488e+01   1.605903032270670e+02    -1.920909276614626e+01   -1.517563498787009e+02   
7.018000000000000e+09    -1.745758340784543e+01   -1.566430222879335e+02   -2.675925423369523e+01   1.593202062399183e+02    -2.672888515293844e+01   1.598160744752482e+02    -1.923801003989785e+01   -1.520995095426260e+02   
7.019000000000000e+09    -1.748074771758978e+01   -1.567491713025285e+02   -2.679884326972449e+01   1.583713686908504e+02    -2.678338553216847e+01   1.587743530992876e+02    -1.925340041381592e+01   -1.524613895757787e+02   
7.020000000000000e+09    -1.749381809667828e+01   -1.568455758565598e+02   -2.684160055774467e+01   1.576622727009774e+02    -2.680654756952433e+01   1.578082399505383e+02    -1.927917872914966e+01   -1.528718190322367e+02   
7.021000000000000e+09    -1.751868900944880e+01   -1.569904818695411e+02   -2.686276519103863e+01   1.566906606471696e+02    -2.686372914585796e+01   1.571041541883918e+02    -1.929217781368780e+01   -1.532719988859229e+02   
7.022000000000000e+09    -1.752831273655472e+01   -1.571208247062049e+02   -2.692920356284557e+01   1.556738577397304e+02    -2.691536457137761e+01   1.562232050329937e+02    -1.932452108654173e+01   -1.535990531006716e+02   
7.023000000000000e+09    -1.755291315522687e+01   -1.572011064351208e+02   -2.697040463003266e+01   1.548380053905813e+02    -2.697142993751305e+01   1.551580356936659e+02    -1.933446182930793e+01   -1.541140596175742e+02   
7.024000000000000e+09    -1.757413374147382e+01   -1.574021147430772e+02   -2.703105001067205e+01   1.538364215802345e+02    -2.703396096027926e+01   1.541693137498931e+02    -1.934854308440654e+01   -1.544489359527645e+02   
7.025000000000000e+09    -1.758667370210406e+01   -1.575187855515848e+02   -2.710671514142959e+01   1.530075920950355e+02    -2.708614266637525e+01   1.533072062955236e+02    -1.936145155564344e+01   -1.548794938272955e+02   
7.026000000000000e+09    -1.760579339125129e+01   -1.576481071360791e+02   -2.715491293699841e+01   1.520761396282840e+02    -2.714374670766872e+01   1.524104960735222e+02    -1.936407020588009e+01   -1.552883300839511e+02   
7.027000000000000e+09    -1.762175604304802e+01   -1.577663706022048e+02   -2.721076539981301e+01   1.511221929572732e+02    -2.719895348356010e+01   1.515402983294826e+02    -1.937465966994582e+01   -1.556733603934519e+02   
7.028000000000000e+09    -1.763936693390595e+01   -1.579166956219757e+02   -2.725670652448860e+01   1.501660132834495e+02    -2.723485723515120e+01   1.504922993695374e+02    -1.937599760362247e+01   -1.560952176345203e+02   
7.029000000000000e+09    -1.765851001924571e+01   -1.580480708132495e+02   -2.730990298482026e+01   1.492791208408051e+02    -2.729675239540247e+01   1.496012009880852e+02    -1.938837263417539e+01   -1.565689764655152e+02   
7.030000000000000e+09    -1.767442174865573e+01   -1.582047675455962e+02   -2.735873737265610e+01   1.483362584995485e+02    -2.739159154705324e+01   1.486375505963891e+02    -1.939199687801075e+01   -1.568702184045615e+02   
7.031000000000000e+09    -1.769407348571093e+01   -1.583453893099409e+02   -2.743195905193580e+01   1.475586872298318e+02    -2.742832317855815e+01   1.476450716500828e+02    -1.939626826077279e+01   -1.573353574496236e+02   
7.032000000000000e+09    -1.770391638683076e+01   -1.584664891288055e+02   -2.746628478265595e+01   1.465933359382335e+02    -2.749186934499985e+01   1.468090855991859e+02    -1.940405704576618e+01   -1.577615623618767e+02   
7.033000000000000e+09    -1.772225503552690e+01   -1.586411536187719e+02   -2.756350807834431e+01   1.455150765790281e+02    -2.754441926634514e+01   1.456712082117112e+02    -1.939935623194608e+01   -1.580893416261073e+02   
7.034000000000000e+09    -1.774311623598570e+01   -1.587335025432841e+02   -2.761775566991877e+01   1.445843804465654e+02    -2.762001948296651e+01   1.448260383477570e+02    -1.940178020800753e+01   -1.583788090319557e+02   
7.035000000000000e+09    -1.775980870195731e+01   -1.589059303209700e+02   -2.766197018779090e+01   1.436361731458796e+02    -2.767400451785486e+01   1.437996678132070e+02    -1.939458421733393e+01   -1.587318282137930e+02   
7.036000000000000e+09    -1.777764030887914e+01   -1.589846976344487e+02   -2.776337909308392e+01   1.426608678464879e+02    -2.772777575398602e+01   1.427245339385457e+02    -1.939862613380691e+01   -1.590545734761894e+02   
7.037000000000000e+09    -1.779231174324213e+01   -1.591123116578942e+02   -2.782143791940057e+01   1.417018917872863e+02    -2.780830691603433e+01   1.419538766963286e+02    -1.939647349004568e+01   -1.593826218830973e+02   
7.038000000000000e+09    -1.780749946386816e+01   -1.591917274745342e+02   -2.788399616701760e+01   1.405519203190411e+02    -2.787747127423943e+01   1.408330553704174e+02    -1.938478297300271e+01   -1.597412678172164e+02   
7.039000000000000e+09    -1.781686300130602e+01   -1.593040588228983e+02   -2.794927401265828e+01   1.398092782278753e+02    -2.796542396814196e+01   1.399108214703503e+02    -1.938126815711622e+01   -1.600236548266469e+02   
7.040000000000000e+09    -1.783252945431042e+01   -1.593713096667095e+02   -2.803932937739130e+01   1.386758160302408e+02    -2.803090149160955e+01   1.388688084484457e+02    -1.936098843682452e+01   -1.602941779601797e+02   
7.041000000000000e+09    -1.785133065228910e+01   -1.594599345491836e+02   -2.810255479963431e+01   1.376975830939567e+02    -2.810170238016246e+01   1.379783950887499e+02    -1.935742694449187e+01   -1.605593468058249e+02   
7.042000000000000e+09    -1.786776253547218e+01   -1.594843748927874e+02   -2.817146515301367e+01   1.367582240938080e+02    -2.817699187957751e+01   1.367811120275838e+02    -1.936043510172471e+01   -1.607966778873833e+02   
7.043000000000000e+09    -1.788458486253051e+01   -1.596357653631533e+02   -2.823370160652128e+01   1.354909202572909e+02    -2.824151693303946e+01   1.358042085668948e+02    -1.934358134232474e+01   -1.611168103716113e+02   
7.044000000000000e+09    -1.789633246814700e+01   -1.595925040287507e+02   -2.834788392228693e+01   1.346231767440132e+02    -2.832987484484491e+01   1.348760419239217e+02    -1.932068942690884e+01   -1.613000067945580e+02   
7.045000000000000e+09    -1.790631693316171e+01   -1.597021338373265e+02   -2.841567010910386e+01   1.336922279345633e+02    -2.841200719656109e+01   1.338264488443271e+02    -1.931503279363345e+01   -1.614680250784109e+02   
7.046000000000000e+09    -1.791990653304906e+01   -1.596794090171273e+02   -2.849657382747850e+01   1.324287516027315e+02    -2.847643392022049e+01   1.328336958448037e+02    -1.930272247953529e+01   -1.617005678874158e+02   
7.047000000000000e+09    -1.793907441037013e+01   -1.596992812974798e+02   -2.858972806319322e+01   1.317339956948221e+02    -2.858074283260262e+01   1.316894586311921e+02    -1.929657983389679e+01   -1.618485008402942e+02   
7.048000000000000e+09    -1.795469151814673e+01   -1.597983156264281e+02   -2.867966138574722e+01   1.304576544953226e+02    -2.867827224826045e+01   1.307112965927689e+02    -1.928727080993832e+01   -1.619731161245902e+02   
7.049000000000000e+09    -1.798278948397815e+01   -1.597452969888238e+02   -2.877355302990970e+01   1.295824873954092e+02    -2.874403283458906e+01   1.296075408602569e+02    -1.927583883272682e+01   -1.620983172608844e+02   
7.050000000000000e+09    -1.799294999903480e+01   -1.597817294579297e+02   -2.884389913484142e+01   1.283690910665455e+02    -2.884700136356025e+01   1.286416075863675e+02    -1.926228848058662e+01   -1.622191648408314e+02   
7.051000000000000e+09    -1.802127273940815e+01   -1.597385718261002e+02   -2.894668834493363e+01   1.273919075151779e+02    -2.893010504854656e+01   1.275322662237008e+02    -1.924642720229331e+01   -1.622954502710015e+02   
7.052000000000000e+09    -1.804698777147395e+01   -1.597519321031101e+02   -2.903137213096250e+01   1.264164621135389e+02    -2.904639259833891e+01   1.266444346671756e+02    -1.924235152686309e+01   -1.624004611507709e+02   
7.053000000000000e+09    -1.806524703516899e+01   -1.597138677405754e+02   -2.914781758245585e+01   1.252286180969683e+02    -2.911784181016008e+01   1.255062848049685e+02    -1.923009289717663e+01   -1.624116714916718e+02   
7.054000000000000e+09    -1.808645810095221e+01   -1.597194382893139e+02   -2.923014795848052e+01   1.241565129990631e+02    -2.920700528395034e+01   1.242616924277465e+02    -1.922041055583786e+01   -1.623672350122085e+02   
7.055000000000000e+09    -1.811648117785535e+01   -1.596357333151790e+02   -2.932233626908503e+01   1.230669392214284e+02    -2.932199891642979e+01   1.232254374452948e+02    -1.921294060350786e+01   -1.624006364436613e+02   
7.056000000000000e+09    -1.814829804434130e+01   -1.595840850165494e+02   -2.943563151028053e+01   1.220177265699794e+02    -2.942678481673732e+01   1.224210002868010e+02    -1.920593391395485e+01   -1.623892151596372e+02   
7.057000000000000e+09    -1.817946744077752e+01   -1.594620057352818e+02   -2.952114759140454e+01   1.208776074468951e+02    -2.952027995012735e+01   1.211376728774682e+02    -1.919242732470214e+01   -1.624037189334936e+02   
7.058000000000000e+09    -1.820131478244934e+01   -1.594181840576900e+02   -2.962399845808932e+01   1.197170691479913e+02    -2.961129448460410e+01   1.201144021202011e+02    -1.919280391879954e+01   -1.622844870233118e+02   
7.059000000000000e+09    -1.823172267217187e+01   -1.592543549252980e+02   -2.973857695058732e+01   1.185721211085122e+02    -2.970028053317640e+01   1.190432294062783e+02    -1.918537530524918e+01   -1.622520937625906e+02   
7.060000000000000e+09    -1.826852774692225e+01   -1.592194416085104e+02   -2.984546516724206e+01   1.176527860574414e+02    -2.982409161451072e+01   1.177017924075346e+02    -1.917375427195903e+01   -1.621574539644934e+02   
7.061000000000000e+09    -1.829266601391150e+01   -1.590987655286649e+02   -2.992490498962739e+01   1.164997985540003e+02    -2.992442710971925e+01   1.168300789942980e+02    -1.918327157783194e+01   -1.619712525730791e+02   
7.062000000000000e+09    -1.832695746536970e+01   -1.589984217407957e+02   -3.004634362616859e+01   1.152408283486818e+02    -3.001666729083833e+01   1.154263784308531e+02    -1.918066436757508e+01   -1.618800037200826e+02   
7.063000000000000e+09    -1.836266811795579e+01   -1.588430467106543e+02   -3.015022861465528e+01   1.141806890369781e+02    -3.015698189420479e+01   1.142652977198396e+02    -1.917353621659315e+01   -1.616417009756052e+02   
7.064000000000000e+09    -1.840475111240775e+01   -1.587045879416830e+02   -3.027685320720781e+01   1.130070043981228e+02    -3.027158769692895e+01   1.132326535641148e+02    -1.918240651228423e+01   -1.613955737697707e+02   
7.065000000000000e+09    -1.844156498019913e+01   -1.586701044965026e+02   -3.037345276035654e+01   1.117190775059450e+02    -3.038056947192667e+01   1.117816536520239e+02    -1.918267932880199e+01   -1.612305989778223e+02   
7.066000000000000e+09    -1.847439572493819e+01   -1.585081218565348e+02   -3.049172259854011e+01   1.104677652915181e+02    -3.049386050366003e+01   1.108829613563886e+02    -1.918730426460122e+01   -1.609903459306291e+02   
7.067000000000000e+09    -1.850901603910832e+01   -1.583651021948703e+02   -3.061856318073136e+01   1.092484887385218e+02    -3.059716893727040e+01   1.094996362753531e+02    -1.919069491017065e+01   -1.606658459285671e+02   
7.068000000000000e+09    -1.854624962857621e+01   -1.582524402307720e+02   -3.075323962556394e+01   1.081375046059458e+02    -3.073150889578458e+01   1.083007909280486e+02    -1.920565548128622e+01   -1.604476095932191e+02   
7.069000000000000e+09    -1.858576287357927e+01   -1.581766899438721e+02   -3.086025206935218e+01   1.068845714981360e+02    -3.087459914750167e+01   1.069842081383163e+02    -1.921946437220575e+01   -1.601911825122233e+02   
7.070000000000000e+09    -1.863233319586631e+01   -1.580206351330019e+02   -3.101559776807820e+01   1.058809387804880e+02    -3.098258271308136e+01   1.058114154243302e+02    -1.923383632702557e+01   -1.598220575302163e+02   
7.071000000000000e+09    -1.866621244337976e+01   -1.578778097840066e+02   -3.113262228867324e+01   1.045044804515198e+02    -3.112751630138207e+01   1.046979003388397e+02    -1.926172877083147e+01   -1.595240992135835e+02   
7.072000000000000e+09    -1.871949032241416e+01   -1.577053960686477e+02   -3.128237289800538e+01   1.034574512888238e+02    -3.125199574221595e+01   1.030658470725292e+02    -1.928297460008667e+01   -1.592201618104406e+02   
7.073000000000000e+09    -1.875316098892923e+01   -1.575033366940270e+02   -3.141587144147739e+01   1.015585661956266e+02    -3.141508007348115e+01   1.018805143494185e+02    -1.931196510046048e+01   -1.588830457332557e+02   
7.074000000000000e+09    -1.879770195118128e+01   -1.573701399239448e+02   -3.152568811880413e+01   1.006837447279939e+02    -3.154812192351839e+01   1.006560542333181e+02    -1.933694796585937e+01   -1.585061069474559e+02   
7.075000000000000e+09    -1.883753942653912e+01   -1.572637584129581e+02   -3.170056975501641e+01   9.927328564115970e+01    -3.168651834897583e+01   9.940429504216225e+01    -1.936831011497204e+01   -1.581117293784727e+02   
7.076000000000000e+09    -1.887855342620515e+01   -1.570583204014243e+02   -3.184356177550960e+01   9.801051527895491e+01    -3.186340653074639e+01   9.802722491209137e+01    -1.940250320080981e+01   -1.577576485935823e+02   
7.077000000000000e+09    -1.892183930613791e+01   -1.568860534369857e+02   -3.194405247399894e+01   9.641073760215990e+01    -3.196528763177678e+01   9.650599429077053e+01    -1.943606333422620e+01   -1.572625539725855e+02   
7.078000000000000e+09    -1.897018472469340e+01   -1.566793175345255e+02   -3.213256623239368e+01   9.529512705625072e+01    -3.210684805698759e+01   9.536610010492720e+01    -1.947400825743875e+01   -1.569409360649591e+02   
7.079000000000000e+09    -1.900755757401458e+01   -1.565120893581734e+02   -3.225765829711197e+01   9.381901705214212e+01    -3.227838846199330e+01   9.386983599235684e+01    -1.952414690748716e+01   -1.565198800969602e+02   
7.080000000000000e+09    -1.906279012088666e+01   -1.563683459835094e+02   -3.241778007109714e+01   9.273944930710836e+01    -3.242918489704139e+01   9.241186055102619e+01    -1.956498295302932e+01   -1.561014572698089e+02   
7.081000000000000e+09    -1.909680099737425e+01   -1.561588314278392e+02   -3.256885143387723e+01   9.101017577135509e+01    -3.259276300260575e+01   9.108716224975956e+01    -1.961349119248890e+01   -1.556644158336445e+02   
7.082000000000000e+09    -1.915345205756100e+01   -1.559900072856968e+02   -3.268512617734388e+01   8.944038685588907e+01    -3.268522364044270e+01   8.958398645873716e+01    -1.966444558115608e+01   -1.552086458039612e+02   
7.083000000000000e+09    -1.920125643747851e+01   -1.557752195601374e+02   -3.287140295124535e+01   8.820748614327785e+01    -3.284040451607298e+01   8.808797873953053e+01    -1.972155766717040e+01   -1.547656817434534e+02   
7.084000000000000e+09    -1.925373436746844e+01   -1.555614125931798e+02   -3.302161272919588e+01   8.636845538998034e+01    -3.306636626030659e+01   8.696226157690936e+01    -1.978111062076661e+01   -1.543092918629875e+02   
