[Version] 2.0
! Rohde & Schwarz Vector Network Analyzer
! Rohde-Schwarz,ZNL20-2Port,1323001220200009,1.71.1.10-23.02.1.238
! 
! Port Assignments:
! Nominal Port -> Actual Test Port
! --------------------------------
!   1 -> 1
!   2 -> 2

! Created: GMT+3 2024-09-24 15:15:23

# Hz S DB R 50

[Number of Ports] 2
[Two-Port Data Order] 21_12
[Number of Frequencies] 6001

[Network Data] 
! freq[Hz]               S11[mag dB]              S11[ang]                 S21[mag dB]              S21[ang]                 S12[mag dB]              S12[ang]                 S22[mag dB]              S22[ang]                 
7.000000000000000e+09    -1.725574591703465e+01   -1.535389219621478e+02   -2.563710580445386e+01   1.786899781332311e+02    -2.561640707573941e+01   1.794205804143437e+02    -1.864166065178808e+01   -1.466654685221613e+02   
7.001000000000000e+09    -1.726550645072286e+01   -1.536201628434700e+02   -2.564034230001148e+01   1.778724839976166e+02    -2.564876768948129e+01   1.786388752378763e+02    -1.867528669048813e+01   -1.466184035141680e+02   
7.002000000000000e+09    -1.726990151276370e+01   -1.537146144039132e+02   -2.567579025385072e+01   1.771107612789754e+02    -2.567012548860199e+01   1.778208478527628e+02    -1.871396275987707e+01   -1.466597065814248e+02   
7.003000000000000e+09    -1.727935780702357e+01   -1.537922883419222e+02   -2.574409132196566e+01   1.763091133880680e+02    -2.571117670357265e+01   1.770049005567210e+02    -1.874439381071419e+01   -1.467033234895853e+02   
7.004000000000000e+09    -1.728196966827267e+01   -1.538238394163026e+02   -2.575773128895151e+01   1.755605671711550e+02    -2.573580678141261e+01   1.761510534042188e+02    -1.878210202591269e+01   -1.467434354804498e+02   
7.005000000000000e+09    -1.730220607833670e+01   -1.538463791863485e+02   -2.577577935621621e+01   1.747419697924599e+02    -2.577162159591506e+01   1.753761121890861e+02    -1.882565205108427e+01   -1.468432883958130e+02   
7.006000000000000e+09    -1.731815392816750e+01   -1.539503119411195e+02   -2.582528793405412e+01   1.739031662643790e+02    -2.580439697518361e+01   1.746469434048453e+02    -1.886555334174925e+01   -1.469281529752285e+02   
7.007000000000000e+09    -1.732129668713453e+01   -1.540348190339755e+02   -2.586677965352484e+01   1.731209812129424e+02    -2.583667727020051e+01   1.738101218867771e+02    -1.890115154917448e+01   -1.470592016706979e+02   
7.008000000000000e+09    -1.733033731946037e+01   -1.541004966999473e+02   -2.588100913442067e+01   1.723231945593251e+02    -2.585236708722272e+01   1.730523002477322e+02    -1.893678685602649e+01   -1.472370520594625e+02   
7.009000000000000e+09    -1.732842693073703e+01   -1.541959221953745e+02   -2.593162693511657e+01   1.714857009693272e+02    -2.588957677184933e+01   1.721058604891398e+02    -1.897393837517460e+01   -1.474092107163837e+02   
7.010000000000000e+09    -1.734524558425621e+01   -1.543020984112504e+02   -2.595821091320355e+01   1.706302901198213e+02    -2.591744050450743e+01   1.712925748674796e+02    -1.900297480664031e+01   -1.475968499310510e+02   
7.011000000000000e+09    -1.734847556371675e+01   -1.543405011592893e+02   -2.600325284732924e+01   1.700185783681994e+02    -2.596731235311851e+01   1.704783682449329e+02    -1.903312225960264e+01   -1.478406909727078e+02   
7.012000000000000e+09    -1.735911403116175e+01   -1.544132961666393e+02   -2.603746113806107e+01   1.690615096129870e+02    -2.600064360225826e+01   1.696571318686143e+02    -1.906530332844763e+01   -1.480877549194781e+02   
7.013000000000000e+09    -1.736357994486377e+01   -1.545562249830446e+02   -2.607288168173483e+01   1.684800727247539e+02    -2.602348320717401e+01   1.687729716054789e+02    -1.910100177839234e+01   -1.484066506023038e+02   
7.014000000000000e+09    -1.738724411098651e+01   -1.546937731972185e+02   -2.610984039582339e+01   1.675530829535857e+02    -2.606279833983825e+01   1.679923679029177e+02    -1.913648566456236e+01   -1.487117823205410e+02   
7.015000000000000e+09    -1.739161354371079e+01   -1.547759097448836e+02   -2.615917642155098e+01   1.666151578903656e+02    -2.611987170967070e+01   1.672183952814151e+02    -1.915626411800043e+01   -1.489732673435333e+02   
7.016000000000000e+09    -1.740036018901684e+01   -1.548329125432951e+02   -2.618998279398659e+01   1.659993933586065e+02    -2.615334690709112e+01   1.662853690828629e+02    -1.918544852873464e+01   -1.493300033926460e+02   
7.017000000000000e+09    -1.741167320260737e+01   -1.549671360188378e+02   -2.622078270708149e+01   1.651916923993086e+02    -2.617631805169473e+01   1.654697821594515e+02    -1.920581459387815e+01   -1.496661749183223e+02   
7.018000000000000e+09    -1.742398078410120e+01   -1.550884444051278e+02   -2.625756761028222e+01   1.642963511274251e+02    -2.622274829995378e+01   1.646967525387079e+02    -1.923105617096017e+01   -1.500195916728600e+02   
7.019000000000000e+09    -1.743947576324759e+01   -1.552163235339438e+02   -2.628933679570540e+01   1.633555483115101e+02    -2.625344565971662e+01   1.637187258846248e+02    -1.923888893932986e+01   -1.503493231429996e+02   
7.020000000000000e+09    -1.745068174724609e+01   -1.552945601519239e+02   -2.633861765957320e+01   1.625979131720245e+02    -2.628291450994812e+01   1.627866983422985e+02    -1.926667926588524e+01   -1.507936414801712e+02   
7.021000000000000e+09    -1.746803247434449e+01   -1.554279803443118e+02   -2.635906473228650e+01   1.616946851958244e+02    -2.634223446261259e+01   1.621533271888937e+02    -1.926539648626572e+01   -1.511199633682404e+02   
7.022000000000000e+09    -1.747461311707478e+01   -1.555447617428504e+02   -2.640711407661762e+01   1.608965363269585e+02    -2.638398734889303e+01   1.612153799711384e+02    -1.929068185485570e+01   -1.515128673655772e+02   
7.023000000000000e+09    -1.749393054936713e+01   -1.556885181371841e+02   -2.645407505868012e+01   1.600284515405635e+02    -2.640064696786745e+01   1.602170402103630e+02    -1.929668278774121e+01   -1.519143102281699e+02   
7.024000000000000e+09    -1.749965461237832e+01   -1.558475076822718e+02   -2.649316025020489e+01   1.590804985690677e+02    -2.645295483266386e+01   1.592892122793035e+02    -1.930947013844363e+01   -1.522925062095004e+02   
7.025000000000000e+09    -1.751073931884364e+01   -1.559385800108948e+02   -2.655331858849848e+01   1.583303378770099e+02    -2.650286237544515e+01   1.584717517427430e+02    -1.931440113830686e+01   -1.526651178852615e+02   
7.026000000000000e+09    -1.752353896505015e+01   -1.561173148039790e+02   -2.658545350034464e+01   1.573963569663251e+02    -2.654453283937837e+01   1.574784486599520e+02    -1.930849141199353e+01   -1.530522964036487e+02   
7.027000000000000e+09    -1.754053093861292e+01   -1.562383688054936e+02   -2.665274430221504e+01   1.564969980713218e+02    -2.661255430705592e+01   1.567423754213173e+02    -1.931527595430484e+01   -1.534731699775966e+02   
7.028000000000000e+09    -1.754827158145686e+01   -1.563807751035050e+02   -2.666044834947792e+01   1.556301967576576e+02    -2.664629142493343e+01   1.558018474958984e+02    -1.932524430220359e+01   -1.539051204987984e+02   
7.029000000000000e+09    -1.756007366477715e+01   -1.565613823781100e+02   -2.670663100550282e+01   1.547467781842473e+02    -2.668557681100850e+01   1.548898781642503e+02    -1.931799567135256e+01   -1.542817973534394e+02   
7.030000000000000e+09    -1.757181319222043e+01   -1.566691276417160e+02   -2.676057719293929e+01   1.539303973850692e+02    -2.676062491052697e+01   1.539291790021973e+02    -1.931965461748406e+01   -1.545985369366771e+02   
7.031000000000000e+09    -1.758439352130324e+01   -1.568058277280548e+02   -2.681747778860668e+01   1.530834519762636e+02    -2.679061606614897e+01   1.531126647005660e+02    -1.931222782044945e+01   -1.550338809813775e+02   
7.032000000000000e+09    -1.759538750070563e+01   -1.569431743066370e+02   -2.684324527534335e+01   1.521348442341840e+02    -2.684353481976981e+01   1.522547890038979e+02    -1.931396799622964e+01   -1.554395917260103e+02   
7.033000000000000e+09    -1.760876545691997e+01   -1.571162895783332e+02   -2.692840754980460e+01   1.512648675255544e+02    -2.689454639001760e+01   1.511809491922933e+02    -1.930658388980596e+01   -1.558530086591462e+02   
7.034000000000000e+09    -1.761532492732869e+01   -1.572458724310981e+02   -2.696671246145429e+01   1.503138870487532e+02    -2.694244693581329e+01   1.503591212620948e+02    -1.930318038310260e+01   -1.561116085657784e+02   
7.035000000000000e+09    -1.762623806992191e+01   -1.573855976874632e+02   -2.701501303741138e+01   1.494511683539163e+02    -2.700350161017239e+01   1.492861885418772e+02    -1.928667762994146e+01   -1.564948894878847e+02   
7.036000000000000e+09    -1.763915597735002e+01   -1.574952243044341e+02   -2.707538302393260e+01   1.484909562320614e+02    -2.704867848389600e+01   1.484878713497150e+02    -1.928584443487079e+01   -1.568797154261034e+02   
7.037000000000000e+09    -1.765478896667963e+01   -1.576679195120445e+02   -2.712157296522385e+01   1.475625624395329e+02    -2.710669206261827e+01   1.475013554069913e+02    -1.927737949729246e+01   -1.571262441195718e+02   
7.038000000000000e+09    -1.766602557504451e+01   -1.577510731311090e+02   -2.717201709404644e+01   1.466170437833295e+02    -2.716991594235589e+01   1.465577126027621e+02    -1.925388760219741e+01   -1.574919233238786e+02   
7.039000000000000e+09    -1.766741759383303e+01   -1.578501552407379e+02   -2.723234640202671e+01   1.457633700555337e+02    -2.723550120442571e+01   1.456572093958020e+02    -1.925214779944913e+01   -1.577608332620950e+02   
7.040000000000000e+09    -1.767855538715779e+01   -1.579243248570120e+02   -2.730787953813752e+01   1.447803821758287e+02    -2.728559695467469e+01   1.447311095664880e+02    -1.922778629664884e+01   -1.581158762908976e+02   
7.041000000000000e+09    -1.768714503215473e+01   -1.580290514992541e+02   -2.735388029841405e+01   1.438550817222424e+02    -2.736894766299672e+01   1.437412252147820e+02    -1.921795425635889e+01   -1.583506784874348e+02   
7.042000000000000e+09    -1.769433281381607e+01   -1.581188679822808e+02   -2.740435747680428e+01   1.428633145878200e+02    -2.744465254859253e+01   1.428232162545585e+02    -1.920775989483649e+01   -1.586061240234044e+02   
7.043000000000000e+09    -1.770914422077691e+01   -1.582484479285741e+02   -2.746604354527395e+01   1.417918234437285e+02    -2.747640219626480e+01   1.419872559815163e+02    -1.918416208950215e+01   -1.589123070723227e+02   
7.044000000000000e+09    -1.771469172512683e+01   -1.582676398323024e+02   -2.754450252178041e+01   1.410177217950221e+02    -2.755426262295305e+01   1.408266144386903e+02    -1.916449104269150e+01   -1.591333778340680e+02   
7.045000000000000e+09    -1.772072660821315e+01   -1.583239238497951e+02   -2.760196420096726e+01   1.400404641871671e+02    -2.762228475070295e+01   1.399215738584778e+02    -1.914820140352460e+01   -1.593740024782787e+02   
7.046000000000000e+09    -1.773346361765164e+01   -1.583946091049076e+02   -2.768589644858769e+01   1.389433616366364e+02    -2.768433958646828e+01   1.389759894599545e+02    -1.912430347595411e+01   -1.595876753378027e+02   
7.047000000000000e+09    -1.774227030821546e+01   -1.584522279101251e+02   -2.775611070330923e+01   1.380979696266858e+02    -2.777582247545501e+01   1.380668090417562e+02    -1.911132067563063e+01   -1.597890172770398e+02   
7.048000000000000e+09    -1.775520784363155e+01   -1.585229142491591e+02   -2.782275173363116e+01   1.371480848308614e+02    -2.783696473550051e+01   1.370622427738154e+02    -1.909937467878938e+01   -1.599280070750243e+02   
7.049000000000000e+09    -1.777370065742929e+01   -1.585448415370911e+02   -2.788019841560848e+01   1.362332282437051e+02    -2.790753593075017e+01   1.362684109899945e+02    -1.907106034437243e+01   -1.600714802663382e+02   
7.050000000000000e+09    -1.778310448451408e+01   -1.585765687023782e+02   -2.796782387275471e+01   1.350879658284599e+02    -2.797236956542985e+01   1.353679784792446e+02    -1.904965656099285e+01   -1.601933219043687e+02   
7.051000000000000e+09    -1.780139869647881e+01   -1.585688931572018e+02   -2.800351585856906e+01   1.341449303288766e+02    -2.804387376332477e+01   1.343763880126823e+02    -1.902590314385001e+01   -1.603380731094778e+02   
7.052000000000000e+09    -1.781964914263025e+01   -1.586297433876299e+02   -2.807627310309682e+01   1.331218069634627e+02    -2.811770951565791e+01   1.334476051781970e+02    -1.901226653067326e+01   -1.604348837859405e+02   
7.053000000000000e+09    -1.783440675364547e+01   -1.586309438709344e+02   -2.820244903253542e+01   1.321763248253765e+02    -2.821308367288621e+01   1.321589803890111e+02    -1.899806182871056e+01   -1.604933960200221e+02   
7.054000000000000e+09    -1.786580921604402e+01   -1.586468994505530e+02   -2.824100212666505e+01   1.311813252997917e+02    -2.827524043537940e+01   1.312416441640902e+02    -1.898033105096439e+01   -1.605441006586339e+02   
7.055000000000000e+09    -1.787863768271779e+01   -1.585780186931602e+02   -2.832582987241615e+01   1.300252470704477e+02    -2.835479901242185e+01   1.302195722763478e+02    -1.896348511457716e+01   -1.605980636983773e+02   
7.056000000000000e+09    -1.790846863844110e+01   -1.585325458461890e+02   -2.842405045021389e+01   1.291275811588562e+02    -2.843177707409664e+01   1.292645847285812e+02    -1.894796754056882e+01   -1.606462785874218e+02   
7.057000000000000e+09    -1.793683475481073e+01   -1.585060974646567e+02   -2.849617256684904e+01   1.281435648921127e+02    -2.849941152868116e+01   1.282458355494458e+02    -1.892091409458965e+01   -1.606364594641243e+02   
7.058000000000000e+09    -1.795562347675450e+01   -1.584774726936016e+02   -2.858450516781001e+01   1.268883397819946e+02    -2.860676023312334e+01   1.271970468596509e+02    -1.892726434280338e+01   -1.606293395685321e+02   
7.059000000000000e+09    -1.798278681560569e+01   -1.583690942521077e+02   -2.867494526483124e+01   1.260020918532483e+02    -2.867253067835459e+01   1.262063428687635e+02    -1.891654628342041e+01   -1.605575097892953e+02   
7.060000000000000e+09    -1.800442038151215e+01   -1.583489829260191e+02   -2.874425170410973e+01   1.250984227661890e+02    -2.876926255483139e+01   1.252461909325797e+02    -1.889997676194758e+01   -1.605494249494986e+02   
7.061000000000000e+09    -1.803596160538401e+01   -1.582635443227177e+02   -2.881044230228528e+01   1.239550093950741e+02    -2.885404547499213e+01   1.243907310796092e+02    -1.889565656220068e+01   -1.604165176275350e+02   
7.062000000000000e+09    -1.806266114568348e+01   -1.582151947597943e+02   -2.892500054796682e+01   1.228459590770891e+02    -2.893032953903630e+01   1.230095449177685e+02    -1.888394495837822e+01   -1.603482272621264e+02   
7.063000000000000e+09    -1.809151486710293e+01   -1.581315030057399e+02   -2.899902959200926e+01   1.218661555673858e+02    -2.901857976073804e+01   1.218771722483460e+02    -1.887787430585841e+01   -1.601876017943224e+02   
7.064000000000000e+09    -1.812257338285228e+01   -1.580675896883163e+02   -2.909451027983712e+01   1.208115497851339e+02    -2.913398091478224e+01   1.210920522255037e+02    -1.886753434660157e+01   -1.600099829752057e+02   
7.065000000000000e+09    -1.815414904437065e+01   -1.579842114857952e+02   -2.917327089150707e+01   1.197884646612217e+02    -2.919166848935855e+01   1.198517599896498e+02    -1.887259902199793e+01   -1.599124045326309e+02   
7.066000000000000e+09    -1.819071184304192e+01   -1.579212286636011e+02   -2.927527217501302e+01   1.186241847401420e+02    -2.931481463876714e+01   1.188581098243390e+02    -1.886606874476926e+01   -1.597002217066473e+02   
7.067000000000000e+09    -1.822249363745896e+01   -1.578160825367360e+02   -2.934526380099905e+01   1.174984709417739e+02    -2.938154521707729e+01   1.177941907558209e+02    -1.886995259666937e+01   -1.594861400906183e+02   
7.068000000000000e+09    -1.826481417872256e+01   -1.577281810892241e+02   -2.947683421548249e+01   1.164313164048980e+02    -2.951047951185539e+01   1.166329919731286e+02    -1.887468642607211e+01   -1.592890946477071e+02   
7.069000000000000e+09    -1.829626164989012e+01   -1.577036870715912e+02   -2.955365214279436e+01   1.153179584404941e+02    -2.960447823400978e+01   1.155908669800928e+02    -1.888151663265058e+01   -1.590913162867245e+02   
7.070000000000000e+09    -1.833882380834514e+01   -1.575941225610718e+02   -2.968647203231314e+01   1.142593876029947e+02    -2.970111950760202e+01   1.144687762132822e+02    -1.889349303600138e+01   -1.588231873239696e+02   
7.071000000000000e+09    -1.837173651336126e+01   -1.575389327886673e+02   -2.976095378634665e+01   1.131742826679346e+02    -2.981216651067628e+01   1.134759074443426e+02    -1.891290295010693e+01   -1.585568186477323e+02   
7.072000000000000e+09    -1.842245226907192e+01   -1.574247944080240e+02   -2.987029588072848e+01   1.120704045577923e+02    -2.991370886483306e+01   1.121337260465531e+02    -1.892675104814327e+01   -1.583126661363264e+02   
7.073000000000000e+09    -1.845282061699846e+01   -1.573644193341069e+02   -2.998519685938093e+01   1.105162165684072e+02    -3.001449467241388e+01   1.109604603713509e+02    -1.895033433356221e+01   -1.580291247719607e+02   
7.074000000000000e+09    -1.850371645315654e+01   -1.572322322778682e+02   -3.008928847416234e+01   1.097445489378674e+02    -3.013093832379848e+01   1.099554103228469e+02    -1.897315012969296e+01   -1.577156299381272e+02   
7.075000000000000e+09    -1.853516097904134e+01   -1.571472594580783e+02   -3.020356703642361e+01   1.083918969516745e+02    -3.021878730218155e+01   1.088512581610815e+02    -1.899880910113750e+01   -1.574169425015911e+02   
7.076000000000000e+09    -1.858487152532282e+01   -1.569722899704077e+02   -3.034258744213776e+01   1.073797257984282e+02    -3.036177279478514e+01   1.076466160713158e+02    -1.902624865993873e+01   -1.570851265722012e+02   
7.077000000000000e+09    -1.861701008533024e+01   -1.568778252772404e+02   -3.040724100417346e+01   1.059681532868621e+02    -3.045210441834751e+01   1.063729894061486e+02    -1.906586560533996e+01   -1.566979249228726e+02   
7.078000000000000e+09    -1.866228724661176e+01   -1.567420467871558e+02   -3.056420797776826e+01   1.049229263753356e+02    -3.055821827763852e+01   1.052434366757058e+02    -1.909829841971218e+01   -1.564454193810900e+02   
7.079000000000000e+09    -1.870641975830706e+01   -1.565887479892101e+02   -3.066024047619872e+01   1.037048659985697e+02    -3.070183849775201e+01   1.041264489120098e+02    -1.913567669019173e+01   -1.560576161785538e+02   
7.080000000000000e+09    -1.874842588177960e+01   -1.564891406028263e+02   -3.077566085342838e+01   1.025839457573726e+02    -3.083164091530875e+01   1.027496799564661e+02    -1.917903614018054e+01   -1.557428825839657e+02   
7.081000000000000e+09    -1.879338126421882e+01   -1.563539515894412e+02   -3.093615154493027e+01   1.011973765479183e+02    -3.094248324464470e+01   1.015742817281060e+02    -1.922233248848251e+01   -1.553773228941101e+02   
7.082000000000000e+09    -1.883564675652955e+01   -1.562461923857672e+02   -3.104566418472385e+01   9.979758536396966e+01    -3.105469183674512e+01   1.002924860644008e+02    -1.927918625116554e+01   -1.550159943205864e+02   
7.083000000000000e+09    -1.889249228684137e+01   -1.561149293484905e+02   -3.114679247267998e+01   9.869844957255596e+01    -3.118314195203339e+01   9.905837793923696e+01    -1.932309007199699e+01   -1.546281378658425e+02   
7.084000000000000e+09    -1.894016692677642e+01   -1.559710067779421e+02   -3.128105634055127e+01   9.739071788800838e+01    -3.129797081541022e+01   9.788306998134624e+01    -1.938587328938862e+01   -1.542412803817629e+02   
