[Version] 2.0
! Rohde & Schwarz Vector Network Analyzer
! Rohde-Schwarz,ZNL20-2Port,1323001220200009,1.71.1.10-23.02.1.238
! 
! Port Assignments:
! Nominal Port -> Actual Test Port
! --------------------------------
!   1 -> 1
!   2 -> 2

! Created: GMT+3 2024-09-24 15:17:05

# Hz S DB R 50

[Number of Ports] 2
[Two-Port Data Order] 21_12
[Number of Frequencies] 6001

[Network Data] 
! freq[Hz]               S11[mag dB]              S11[ang]                 S21[mag dB]              S21[ang]                 S12[mag dB]              S12[ang]                 S22[mag dB]              S22[ang]                 
7.000000000000000e+09    -1.734786037271345e+01   -1.518766180670707e+02   -2.530197470679971e+01   -1.758353462472775e+02   -2.530353686918083e+01   -1.750628823257982e+02   -1.882464952543576e+01   -1.442798087804208e+02   
7.001000000000000e+09    -1.734939067062341e+01   -1.519357169898041e+02   -2.532093078572532e+01   -1.765616484777140e+02   -2.533074605636710e+01   -1.758218306420146e+02   -1.885681946382484e+01   -1.442608935955452e+02   
7.002000000000000e+09    -1.735401863279515e+01   -1.519606347684979e+02   -2.533926703615922e+01   -1.773251619438859e+02   -2.535753887697705e+01   -1.766920453942847e+02   -1.889077899477772e+01   -1.442142281310869e+02   
7.003000000000000e+09    -1.736182466744666e+01   -1.520150519400812e+02   -2.540871092201436e+01   -1.780485923223045e+02   -2.537010397818420e+01   -1.774424749726620e+02   -1.891963359230474e+01   -1.441786268382411e+02   
7.004000000000000e+09    -1.736402415778636e+01   -1.520592186417188e+02   -2.541961053522726e+01   -1.787654865214519e+02   -2.539811016140420e+01   -1.781908492694484e+02   -1.894505490168676e+01   -1.441652578620516e+02   
7.005000000000000e+09    -1.737104243097717e+01   -1.520927881984019e+02   -2.543435129568307e+01   -1.795872079798293e+02   -2.542464334395147e+01   -1.789008786489035e+02   -1.898318292901019e+01   -1.442718573473747e+02   
7.006000000000000e+09    -1.737420292485734e+01   -1.521410598472569e+02   -2.546693047112809e+01   1.795996196043593e+02    -2.544979022400256e+01   -1.797125754055291e+02   -1.901453828901953e+01   -1.443213392485173e+02   
7.007000000000000e+09    -1.737460361122388e+01   -1.522174120662627e+02   -2.550786373985161e+01   1.789907054722260e+02    -2.547814470710163e+01   1.795600440058273e+02    -1.904283585712106e+01   -1.444218009760555e+02   
7.008000000000000e+09    -1.737649032352516e+01   -1.522641291278850e+02   -2.550612555212393e+01   1.781487588273116e+02    -2.548744191011939e+01   1.787564255425438e+02    -1.906562714781739e+01   -1.445354878148288e+02   
7.009000000000000e+09    -1.737822220213787e+01   -1.523437942972501e+02   -2.554401601790073e+01   1.774621664564371e+02    -2.552664729303294e+01   1.779766581741263e+02    -1.910264695730621e+01   -1.446535518945626e+02   
7.010000000000000e+09    -1.738346310753399e+01   -1.524127213755671e+02   -2.555877696569389e+01   1.767109886237232e+02    -2.555106797559536e+01   1.772261937142500e+02    -1.912850445893005e+01   -1.448205396998003e+02   
7.011000000000000e+09    -1.738598412661804e+01   -1.524797494374616e+02   -2.559354347384872e+01   1.760420887860757e+02    -2.559020132104392e+01   1.764031134396922e+02    -1.915037646237792e+01   -1.449892392723797e+02   
7.012000000000000e+09    -1.739264796277452e+01   -1.525430356077493e+02   -2.562543684229398e+01   1.752057506319106e+02    -2.561195464117965e+01   1.756094928084167e+02    -1.917471508253420e+01   -1.451861832269067e+02   
7.013000000000000e+09    -1.739680468572476e+01   -1.526283830765483e+02   -2.565600547992934e+01   1.744777883337428e+02    -2.563374096892154e+01   1.748174251201708e+02    -1.920555231689793e+01   -1.454650216403311e+02   
7.014000000000000e+09    -1.740332929408996e+01   -1.527435118774164e+02   -2.568383020424935e+01   1.737693368772782e+02    -2.566861384006455e+01   1.741120405946644e+02    -1.922719759164235e+01   -1.457429951083199e+02   
7.015000000000000e+09    -1.740974617207586e+01   -1.528377710419638e+02   -2.572108815788500e+01   1.728919187625808e+02    -2.571812165038621e+01   1.733751717836267e+02    -1.924541736116216e+01   -1.459718430132497e+02   
7.016000000000000e+09    -1.741341922126351e+01   -1.528889036200420e+02   -2.575216929034561e+01   1.721975025953389e+02    -2.573045483453356e+01   1.725610150999135e+02    -1.926390613424296e+01   -1.462538669908261e+02   
7.017000000000000e+09    -1.742395119788149e+01   -1.530061569396880e+02   -2.576687710401146e+01   1.714347043819695e+02    -2.573376518131926e+01   1.717412380292133e+02    -1.927647914643740e+01   -1.466420219918965e+02   
7.018000000000000e+09    -1.743002531615603e+01   -1.531333586513992e+02   -2.578441205710663e+01   1.706204816048023e+02    -2.578216046628381e+01   1.709475955576862e+02    -1.928737268370927e+01   -1.469016223288429e+02   
7.019000000000000e+09    -1.744089815012723e+01   -1.532134879597449e+02   -2.582517894339594e+01   1.698116004065259e+02    -2.581487582205235e+01   1.700679908598086e+02    -1.929456605267900e+01   -1.472403579027388e+02   
7.020000000000000e+09    -1.744941373809328e+01   -1.532938567494378e+02   -2.585496883661633e+01   1.690384280590635e+02    -2.582509659721566e+01   1.691754142815763e+02    -1.929963424784695e+01   -1.476326288071673e+02   
7.021000000000000e+09    -1.745441258782354e+01   -1.534342932798628e+02   -2.586217419532122e+01   1.682565911118308e+02    -2.586121752112994e+01   1.685316636002296e+02    -1.929743109757907e+01   -1.479456752301717e+02   
7.022000000000000e+09    -1.745645270410429e+01   -1.535863211515658e+02   -2.590988228471288e+01   1.674305966627966e+02    -2.588934278442360e+01   1.677690662925862e+02    -1.931005474790892e+01   -1.482955640641989e+02   
7.023000000000000e+09    -1.746913129439969e+01   -1.536455375654370e+02   -2.593653562956023e+01   1.666076046129434e+02    -2.591798160939653e+01   1.669075921168374e+02    -1.931076306802897e+01   -1.486904579353164e+02   
7.024000000000000e+09    -1.747329091639376e+01   -1.537956480215201e+02   -2.597281720760103e+01   1.658234290934717e+02    -2.596830326388460e+01   1.659866161110534e+02    -1.929996937465877e+01   -1.490938272756861e+02   
7.025000000000000e+09    -1.748558434961243e+01   -1.539059218589488e+02   -2.600434604698997e+01   1.650908584493202e+02    -2.600125712838395e+01   1.652168425056467e+02    -1.930771126340603e+01   -1.494454642811844e+02   
7.026000000000000e+09    -1.748448615962420e+01   -1.540715462664958e+02   -2.603559090347759e+01   1.642092903070233e+02    -2.601691615475163e+01   1.643897666687806e+02    -1.929654872776729e+01   -1.498688433235559e+02   
7.027000000000000e+09    -1.749479866155165e+01   -1.541688177783716e+02   -2.607402051151150e+01   1.634277573112669e+02    -2.605382730066614e+01   1.636411888977683e+02    -1.928724948325847e+01   -1.502058314565867e+02   
7.028000000000000e+09    -1.749719808212607e+01   -1.543071544586365e+02   -2.608679428683241e+01   1.625807471891351e+02    -2.609491584997429e+01   1.627675022266494e+02    -1.928112996232452e+01   -1.506239130265521e+02   
7.029000000000000e+09    -1.750980357374531e+01   -1.544851048538367e+02   -2.612688953330089e+01   1.616333267387529e+02    -2.609958856498763e+01   1.618746897456132e+02    -1.927791116029562e+01   -1.510666179071077e+02   
7.030000000000000e+09    -1.751205651026062e+01   -1.546195056508110e+02   -2.615861003115054e+01   1.608936126553844e+02    -2.616386791773396e+01   1.610444274580409e+02    -1.925707902026706e+01   -1.513539674451913e+02   
7.031000000000000e+09    -1.751613977436284e+01   -1.547806847202844e+02   -2.618821450926969e+01   1.600616955560380e+02    -2.618002905159365e+01   1.600946240522914e+02    -1.925095049516400e+01   -1.517861237694059e+02   
7.032000000000000e+09    -1.751797406706082e+01   -1.548713814203175e+02   -2.622340780940218e+01   1.592356973844575e+02    -2.622408642523390e+01   1.594308565098128e+02    -1.924662344726465e+01   -1.521915197975837e+02   
7.033000000000000e+09    -1.752833845630341e+01   -1.550374824479979e+02   -2.628225933357096e+01   1.584042083072998e+02    -2.626341904866515e+01   1.583840457852772e+02    -1.922876781558575e+01   -1.525824164517894e+02   
7.034000000000000e+09    -1.752767491395734e+01   -1.551690592363693e+02   -2.630343176273497e+01   1.574718185811979e+02    -2.630815434251007e+01   1.576240971893965e+02    -1.921115689850629e+01   -1.528889497956519e+02   
7.035000000000000e+09    -1.752954150149947e+01   -1.553472163143544e+02   -2.634947930301814e+01   1.566262062828309e+02    -2.634652406543072e+01   1.565860934904828e+02    -1.918834848726580e+01   -1.532602492679509e+02   
7.036000000000000e+09    -1.753108510017194e+01   -1.554577443752634e+02   -2.638658742773746e+01   1.558926456547923e+02    -2.636402361110829e+01   1.559257123674967e+02    -1.917445291706955e+01   -1.535863379901481e+02   
7.037000000000000e+09    -1.754036099703283e+01   -1.556389190431969e+02   -2.641905361996812e+01   1.548226429288194e+02    -2.642783976354853e+01   1.550497156382449e+02    -1.915603998487050e+01   -1.539086914890424e+02   
7.038000000000000e+09    -1.754313994287050e+01   -1.557037718867446e+02   -2.645751280056445e+01   1.539525157665277e+02    -2.647263944577505e+01   1.541462606164095e+02    -1.912745487736790e+01   -1.542902217098712e+02   
7.039000000000000e+09    -1.753988977338686e+01   -1.558622158791528e+02   -2.650360724314601e+01   1.531693911434458e+02    -2.651529328871975e+01   1.533238487498040e+02    -1.911057003434872e+01   -1.545953003894889e+02   
7.040000000000000e+09    -1.754708021173301e+01   -1.559410824657921e+02   -2.655974427142270e+01   1.522251748672157e+02    -2.655988835113550e+01   1.524728081934243e+02    -1.907834055273623e+01   -1.549101342074928e+02   
7.041000000000000e+09    -1.755322261236310e+01   -1.560502253278707e+02   -2.659303149519923e+01   1.513557444903441e+02    -2.659862294368994e+01   1.514294405956630e+02    -1.906065209853911e+01   -1.552425169636571e+02   
7.042000000000000e+09    -1.755061539558473e+01   -1.561931552775679e+02   -2.663613316336500e+01   1.503401329463570e+02    -2.664932690868886e+01   1.505061294135458e+02    -1.903574922552769e+01   -1.555188163288583e+02   
7.043000000000000e+09    -1.755282248725742e+01   -1.563294139192201e+02   -2.668803945117959e+01   1.493890130916402e+02    -2.668872467482689e+01   1.496814643867586e+02    -1.901218773716252e+01   -1.558724307957283e+02   
7.044000000000000e+09    -1.755631920689857e+01   -1.563247114811206e+02   -2.676157460843825e+01   1.486722074042199e+02    -2.676765190725811e+01   1.486356258780588e+02    -1.896943108991983e+01   -1.560892037984723e+02   
7.045000000000000e+09    -1.755497540036582e+01   -1.564014954558025e+02   -2.678809709174680e+01   1.477881312003031e+02    -2.679617432786607e+01   1.479040567296612e+02    -1.895562320716319e+01   -1.563316348960428e+02   
7.046000000000000e+09    -1.756054682681010e+01   -1.565190987957947e+02   -2.685701042648353e+01   1.467559673641402e+02    -2.684647956573012e+01   1.469891612018494e+02    -1.892434202759197e+01   -1.565795950994106e+02   
7.047000000000000e+09    -1.755711969673850e+01   -1.565711913951797e+02   -2.691429672260585e+01   1.459578288064221e+02    -2.691319625415484e+01   1.461184089556842e+02    -1.889715610537396e+01   -1.568596473932915e+02   
7.048000000000000e+09    -1.755929002796163e+01   -1.566629087446772e+02   -2.695782126487508e+01   1.451039506371582e+02    -2.696083765495618e+01   1.452132114330845e+02    -1.886413563856919e+01   -1.570739005235489e+02   
7.049000000000000e+09    -1.756916729592118e+01   -1.567204350767883e+02   -2.700940300380262e+01   1.441573263691627e+02    -2.700236512633614e+01   1.443504098070635e+02    -1.884032759512742e+01   -1.572310119341587e+02   
7.050000000000000e+09    -1.757740651020120e+01   -1.567925117731565e+02   -2.708250572510108e+01   1.431338329249809e+02    -2.706214829720425e+01   1.433689606186576e+02    -1.881139437176119e+01   -1.574138464663098e+02   
7.051000000000000e+09    -1.758193733421869e+01   -1.568105887281703e+02   -2.711128288563736e+01   1.422957559992046e+02    -2.710857312458889e+01   1.425756835589527e+02    -1.877914978135770e+01   -1.576427599715534e+02   
7.052000000000000e+09    -1.759380149112097e+01   -1.568769449357381e+02   -2.718004030051678e+01   1.412890836381669e+02    -2.718588791896782e+01   1.416769010404100e+02    -1.876486247145345e+01   -1.577532815597843e+02   
7.053000000000000e+09    -1.760591341845514e+01   -1.569084912687788e+02   -2.723786519463638e+01   1.404425622915372e+02    -2.723481960611412e+01   1.405988759697682e+02    -1.873306761028714e+01   -1.578921103723010e+02   
7.054000000000000e+09    -1.762064798001524e+01   -1.569838938460075e+02   -2.728710244010620e+01   1.395938853349603e+02    -2.728254419467199e+01   1.397043416172230e+02    -1.871726286093815e+01   -1.579783994387915e+02   
7.055000000000000e+09    -1.763475572891666e+01   -1.569696619177276e+02   -2.734753023339203e+01   1.384876931518451e+02    -2.733873014503478e+01   1.387547997317758e+02    -1.868639787203179e+01   -1.580748287810167e+02   
7.056000000000000e+09    -1.765815940789068e+01   -1.569527147872541e+02   -2.742031816945435e+01   1.376509966900435e+02    -2.741138779591615e+01   1.379712574476006e+02    -1.867358979331396e+01   -1.581541430897347e+02   
7.057000000000000e+09    -1.767280814776908e+01   -1.569384192199312e+02   -2.746310116269839e+01   1.366825471225914e+02    -2.746726700018252e+01   1.369655169855725e+02    -1.864601859287330e+01   -1.582983682848108e+02   
7.058000000000000e+09    -1.769432681898918e+01   -1.569161158914913e+02   -2.752948237327863e+01   1.357398657957022e+02    -2.752072285776335e+01   1.359773615588732e+02    -1.862740016443716e+01   -1.583205356953145e+02   
7.059000000000000e+09    -1.771705284269686e+01   -1.569075277696873e+02   -2.759572282947670e+01   1.347605345985999e+02    -2.757584090901009e+01   1.349946069313631e+02    -1.860745032936648e+01   -1.583068410148173e+02   
7.060000000000000e+09    -1.773587472595609e+01   -1.569157766475978e+02   -2.765624123198862e+01   1.337913765546293e+02    -2.766004505551474e+01   1.340559597135581e+02    -1.859378289498526e+01   -1.583587246886198e+02   
7.061000000000000e+09    -1.775663485956722e+01   -1.568404293333711e+02   -2.772251430674496e+01   1.328038465558065e+02    -2.771658989185562e+01   1.331895858158785e+02    -1.857833352581645e+01   -1.582774524528233e+02   
7.062000000000000e+09    -1.778188842335058e+01   -1.567835062215384e+02   -2.779071500264936e+01   1.318736928819930e+02    -2.777979062808235e+01   1.321131567078046e+02    -1.856050137458003e+01   -1.582656960377731e+02   
7.063000000000000e+09    -1.780748892283829e+01   -1.567855220085588e+02   -2.783980057952553e+01   1.309659587429441e+02    -2.783758797283387e+01   1.310308727462005e+02    -1.854985363550831e+01   -1.582045660632731e+02   
7.064000000000000e+09    -1.783270649264335e+01   -1.567186004206587e+02   -2.794048803163254e+01   1.298314702905661e+02    -2.791299380187307e+01   1.303198631262158e+02    -1.854352921341964e+01   -1.580179985618459e+02   
7.065000000000000e+09    -1.785659078360682e+01   -1.566935588674280e+02   -2.798165652018874e+01   1.288285309637043e+02    -2.799707650944796e+01   1.290911754513918e+02    -1.853788145260322e+01   -1.579612197675128e+02   
7.066000000000000e+09    -1.788805337039208e+01   -1.566337381055776e+02   -2.807482167398886e+01   1.277694208971434e+02    -2.808019938267385e+01   1.282977446679364e+02    -1.852674084629609e+01   -1.578526933568708e+02   
7.067000000000000e+09    -1.790979763267656e+01   -1.566125011846340e+02   -2.812759507813096e+01   1.267695614809519e+02    -2.812785989593513e+01   1.271873049916320e+02    -1.852109319946980e+01   -1.576558691994261e+02   
7.068000000000000e+09    -1.794845843388422e+01   -1.565075141456865e+02   -2.820779546817744e+01   1.259041056998396e+02    -2.823195429114993e+01   1.261794211281992e+02    -1.852002369354634e+01   -1.575295174588264e+02   
7.069000000000000e+09    -1.797556510242050e+01   -1.565196168635925e+02   -2.828559302334379e+01   1.249232287491539e+02    -2.829159236966990e+01   1.251813684783965e+02    -1.852228298299181e+01   -1.574148347167327e+02   
7.070000000000000e+09    -1.801198476235854e+01   -1.564153858866947e+02   -2.838295627145530e+01   1.239472924670094e+02    -2.836025585675257e+01   1.241960409966604e+02    -1.853252096870656e+01   -1.571945402691461e+02   
7.071000000000000e+09    -1.804504585312281e+01   -1.564147741949817e+02   -2.843470838034560e+01   1.228725488890507e+02    -2.844515745385620e+01   1.231315875630956e+02    -1.853733850893176e+01   -1.569974078803479e+02   
7.072000000000000e+09    -1.808328513171672e+01   -1.563214458626857e+02   -2.851453356897567e+01   1.217432631803467e+02    -2.851162575561865e+01   1.219830613673477e+02    -1.854563850368127e+01   -1.568450823297737e+02   
7.073000000000000e+09    -1.811685165845103e+01   -1.562480011583244e+02   -2.860956622861213e+01   1.206292763994025e+02    -2.862390534594427e+01   1.209694562625866e+02    -1.857019421308462e+01   -1.565940330110209e+02   
7.074000000000000e+09    -1.814971700557168e+01   -1.562231122728626e+02   -2.868622133375819e+01   1.197256150668839e+02    -2.870524866657265e+01   1.200389081780753e+02    -1.857992976355446e+01   -1.563750645959855e+02   
7.075000000000000e+09    -1.817860627196775e+01   -1.561603998756745e+02   -2.878546536871585e+01   1.186824601307039e+02    -2.878645484341213e+01   1.188986935259791e+02    -1.860830092230176e+01   -1.561639983323502e+02   
7.076000000000000e+09    -1.821321745463705e+01   -1.560983737506660e+02   -2.887954584233716e+01   1.175908130049132e+02    -2.887264546061067e+01   1.178273018923676e+02    -1.863351541613810e+01   -1.558618464848704e+02   
7.077000000000000e+09    -1.824873095148677e+01   -1.560106761168076e+02   -2.894400914676304e+01   1.164260484455791e+02    -2.893863422700838e+01   1.167278411492069e+02    -1.865054545298041e+01   -1.555842429048084e+02   
7.078000000000000e+09    -1.828639048579256e+01   -1.559944723045877e+02   -2.906869947606185e+01   1.153424903641965e+02    -2.901178965899118e+01   1.157060281910360e+02    -1.869159652800647e+01   -1.553548092923416e+02   
7.079000000000000e+09    -1.832328820430464e+01   -1.558971071492195e+02   -2.914634807007968e+01   1.143246545395116e+02    -2.914022378377895e+01   1.147392812987663e+02    -1.873013979523471e+01   -1.550807101885916e+02   
7.080000000000000e+09    -1.836482121450990e+01   -1.558627568676985e+02   -2.923279830537505e+01   1.134320184915861e+02    -2.924845503026058e+01   1.134111601661827e+02    -1.876814424158624e+01   -1.547962100103958e+02   
7.081000000000000e+09    -1.840263482278685e+01   -1.557682185983254e+02   -2.934437613271059e+01   1.121932524056788e+02    -2.932224092697204e+01   1.123978166359956e+02    -1.880904041444557e+01   -1.544901481250050e+02   
7.082000000000000e+09    -1.844825449384968e+01   -1.557399974931560e+02   -2.942641749401893e+01   1.110504908486179e+02    -2.939925153723873e+01   1.112199639455766e+02    -1.885233486199331e+01   -1.541993262557313e+02   
7.083000000000000e+09    -1.849440032163769e+01   -1.556128667678790e+02   -2.951884009171162e+01   1.101763712421671e+02    -2.949479679322827e+01   1.101255763787538e+02    -1.889607414379900e+01   -1.539558637528875e+02   
7.084000000000000e+09    -1.854827836629225e+01   -1.555919957286887e+02   -2.962551815772304e+01   1.087496461902802e+02    -2.961645451947392e+01   1.092546895710026e+02    -1.895425006150683e+01   -1.535432194918098e+02   
