[Version] 2.0
! Rohde & Schwarz Vector Network Analyzer
! Rohde-Schwarz,ZNL20-2Port,1323001220200009,1.71.1.10-23.02.1.238
! 
! Port Assignments:
! Nominal Port -> Actual Test Port
! --------------------------------
!   1 -> 1
!   2 -> 2

! Created: GMT+3 2024-09-24 15:15:39

# Hz S DB R 50

[Number of Ports] 2
[Two-Port Data Order] 21_12
[Number of Frequencies] 6001

[Network Data] 
! freq[Hz]               S11[mag dB]              S11[ang]                 S21[mag dB]              S21[ang]                 S12[mag dB]              S12[ang]                 S22[mag dB]              S22[ang]                 
7.000000000000000e+09    -1.729877176120462e+01   -1.525494136923632e+02   -2.542530814803277e+01   -1.778901864682278e+02   -2.541349865452049e+01   -1.772569614914042e+02   -1.875441217907923e+01   -1.451395157713537e+02   
7.001000000000000e+09    -1.731033879399060e+01   -1.526203133101830e+02   -2.544446066891149e+01   -1.786656812625737e+02   -2.545267531400264e+01   -1.781236377246520e+02   -1.878553299879270e+01   -1.451135496085177e+02   
7.002000000000000e+09    -1.731521517481084e+01   -1.526388170264234e+02   -2.547393822296377e+01   -1.793874187155983e+02   -2.546679504179496e+01   -1.789577929682144e+02   -1.881769530852002e+01   -1.450953405996148e+02   
7.003000000000000e+09    -1.732602993301630e+01   -1.527328244317609e+02   -2.553580173132317e+01   1.797929394376349e+02    -2.548841545176484e+01   -1.797327372273270e+02   -1.885256575867996e+01   -1.451096802945983e+02   
7.004000000000000e+09    -1.732939754843101e+01   -1.527682985429245e+02   -2.556070463722453e+01   1.791221527843993e+02    -2.552657160634871e+01   1.795015220480047e+02    -1.888214100708441e+01   -1.451275902214606e+02   
7.005000000000000e+09    -1.733471980379005e+01   -1.528333965152869e+02   -2.556906944417739e+01   1.783203820844657e+02    -2.554927552980335e+01   1.787968755142466e+02    -1.891442250036903e+01   -1.451755104185426e+02   
7.006000000000000e+09    -1.734358952850640e+01   -1.528970306894238e+02   -2.559096284933248e+01   1.775268661288688e+02    -2.558580776172479e+01   1.780518772771989e+02    -1.894817932249968e+01   -1.452685298606847e+02   
7.007000000000000e+09    -1.734761240165798e+01   -1.529504884487500e+02   -2.562590012331931e+01   1.768459262938031e+02    -2.560899773610743e+01   1.772760828422764e+02    -1.898366771250829e+01   -1.453693827531897e+02   
7.008000000000000e+09    -1.735352009526851e+01   -1.529998551255586e+02   -2.564823233322839e+01   1.760658596551672e+02    -2.563016098993107e+01   1.764745499713898e+02    -1.901134850889449e+01   -1.455205617716812e+02   
7.009000000000000e+09    -1.735541759176714e+01   -1.531097977133842e+02   -2.569039394196576e+01   1.752855384895469e+02    -2.566266570202025e+01   1.757136067854359e+02    -1.903957325429642e+01   -1.456180140476921e+02   
7.010000000000000e+09    -1.736408269697127e+01   -1.532051002982006e+02   -2.571093425472714e+01   1.744930166117926e+02    -2.569022082018159e+01   1.748609311146956e+02    -1.906725727832351e+01   -1.457970135340352e+02   
7.011000000000000e+09    -1.736259719231141e+01   -1.532457755243585e+02   -2.575489027829114e+01   1.739294243033674e+02    -2.571758071444369e+01   1.741439647529958e+02    -1.909643442093428e+01   -1.460284970495269e+02   
7.012000000000000e+09    -1.737078330253239e+01   -1.533236739613731e+02   -2.577549465048890e+01   1.729231841277240e+02    -2.574672550289552e+01   1.732886239795968e+02    -1.912448775475740e+01   -1.462307483545885e+02   
7.013000000000000e+09    -1.737395142991821e+01   -1.534282882103730e+02   -2.580363101302562e+01   1.723624762521836e+02    -2.577967836715137e+01   1.725340569218986e+02    -1.915286396055536e+01   -1.464862595603283e+02   
7.014000000000000e+09    -1.738777103717546e+01   -1.535203308006635e+02   -2.582473761445947e+01   1.713923958648031e+02    -2.581070943743152e+01   1.717318512873569e+02    -1.917400739193273e+01   -1.467870231393206e+02   
7.015000000000000e+09    -1.739040466404235e+01   -1.536460902590931e+02   -2.586518098847314e+01   1.706096094727856e+02    -2.583865333595620e+01   1.709541316334198e+02    -1.919211337569454e+01   -1.470330932044899e+02   
7.016000000000000e+09    -1.740246701348185e+01   -1.536824152856990e+02   -2.589795833139881e+01   1.698891857444482e+02    -2.587394371330753e+01   1.701495679137593e+02    -1.921632201431827e+01   -1.473714466955721e+02   
7.017000000000000e+09    -1.741592359416172e+01   -1.537971774194623e+02   -2.591017502414563e+01   1.690679874696579e+02    -2.588686306628689e+01   1.692661957324411e+02    -1.922772910436460e+01   -1.477026994665638e+02   
7.018000000000000e+09    -1.741752303512610e+01   -1.539544315419559e+02   -2.595048345760136e+01   1.682858605544739e+02    -2.592104180199039e+01   1.684313857241082e+02    -1.924226412009712e+01   -1.480287339651998e+02   
7.019000000000000e+09    -1.743219584644318e+01   -1.540232607951611e+02   -2.597031927658302e+01   1.674107199590077e+02    -2.596091400198973e+01   1.676685870358377e+02    -1.924497638175673e+01   -1.483432973904886e+02   
7.020000000000000e+09    -1.743749852515821e+01   -1.541277819872593e+02   -2.600215277960150e+01   1.666971921780827e+02    -2.598986341354290e+01   1.667198463526944e+02    -1.926081525671712e+01   -1.487581354996079e+02   
7.021000000000000e+09    -1.745276146269702e+01   -1.542580771847566e+02   -2.601274844694922e+01   1.658880945777644e+02    -2.603676597126749e+01   1.659693578457106e+02    -1.926674177788681e+01   -1.491265983745030e+02   
7.022000000000000e+09    -1.745593781480258e+01   -1.543616545976501e+02   -2.605795048072161e+01   1.649698439011964e+02    -2.606094737857960e+01   1.652302619628650e+02    -1.928034325293866e+01   -1.494921846505858e+02   
7.023000000000000e+09    -1.746822194652592e+01   -1.544619010992376e+02   -2.610155948215786e+01   1.640944890593991e+02    -2.608587734460260e+01   1.642721848008621e+02    -1.927170224486701e+01   -1.498891403290633e+02   
7.024000000000000e+09    -1.747642385190582e+01   -1.546353086412577e+02   -2.613770786559468e+01   1.632663618640580e+02    -2.614029676163933e+01   1.633258731563302e+02    -1.928300946996776e+01   -1.502461094040286e+02   
7.025000000000000e+09    -1.748889747593609e+01   -1.547295531985409e+02   -2.617161123484485e+01   1.624917666336543e+02    -2.617824619564369e+01   1.625882897067620e+02    -1.927961539098314e+01   -1.506545114346767e+02   
7.026000000000000e+09    -1.749374180102541e+01   -1.549276004383585e+02   -2.621166350807442e+01   1.615555702255149e+02    -2.622680800279958e+01   1.616998847493206e+02    -1.927167699195900e+01   -1.510570700272533e+02   
7.027000000000000e+09    -1.750662813869258e+01   -1.550433676930553e+02   -2.624666065264801e+01   1.607170478492465e+02    -2.625426367742363e+01   1.609501258995202e+02    -1.927244292035098e+01   -1.514342325313180e+02   
7.028000000000000e+09    -1.751029179536066e+01   -1.551582546256716e+02   -2.628105274214668e+01   1.599577915738470e+02    -2.629359239839765e+01   1.600942042486459e+02    -1.926454480122405e+01   -1.518803026007520e+02   
7.029000000000000e+09    -1.752481439281198e+01   -1.553199443165830e+02   -2.631301231544940e+01   1.590316274903237e+02    -2.631541426188497e+01   1.590599880673731e+02    -1.926001261475311e+01   -1.523019045225520e+02   
7.030000000000000e+09    -1.752603548545909e+01   -1.554538495574030e+02   -2.633869938458082e+01   1.582114162867472e+02    -2.638313232927216e+01   1.583039993112697e+02    -1.925271918196658e+01   -1.526780096972429e+02   
7.031000000000000e+09    -1.753658779029759e+01   -1.556374092325643e+02   -2.638798436976349e+01   1.575113695191012e+02    -2.642147924090216e+01   1.573629928611186e+02    -1.924262741923906e+01   -1.530736006011721e+02   
7.032000000000000e+09    -1.753981228774125e+01   -1.557368062859906e+02   -2.641354739246898e+01   1.565053739162207e+02    -2.645037484904870e+01   1.566270646434627e+02    -1.924507485981867e+01   -1.534655504456136e+02   
7.033000000000000e+09    -1.754537976962354e+01   -1.558910610248970e+02   -2.649066285976744e+01   1.556735022829436e+02    -2.649613576624141e+01   1.555281410485513e+02    -1.923038823446393e+01   -1.538841091142081e+02   
7.034000000000000e+09    -1.755809350133918e+01   -1.560416606680079e+02   -2.652143899193624e+01   1.547603140536119e+02    -2.653731686106547e+01   1.547573580699286e+02    -1.921242476408649e+01   -1.542006941918744e+02   
7.035000000000000e+09    -1.755966619549165e+01   -1.562140106581702e+02   -2.657417111753034e+01   1.539370620067196e+02    -2.660248931079929e+01   1.537390377247528e+02    -1.919512489554662e+01   -1.545865593919091e+02   
7.036000000000000e+09    -1.756860013378402e+01   -1.563159290501657e+02   -2.662277944600225e+01   1.530057369617120e+02    -2.661048689663211e+01   1.530008095906578e+02    -1.918377931968251e+01   -1.549144440170848e+02   
7.037000000000000e+09    -1.757218250757887e+01   -1.564648080996206e+02   -2.665373909006615e+01   1.520705479914082e+02    -2.667115731257901e+01   1.521896499770146e+02    -1.917088843953776e+01   -1.552283130523121e+02   
7.038000000000000e+09    -1.757397890013049e+01   -1.565623930528880e+02   -2.671463590681568e+01   1.511344035825256e+02    -2.672042416757412e+01   1.512037729761753e+02    -1.914650162702165e+01   -1.556483283753915e+02   
7.039000000000000e+09    -1.757754616285870e+01   -1.566673602950734e+02   -2.675460679524168e+01   1.502913424548624e+02    -2.678835459642377e+01   1.503112091284888e+02    -1.912615152285052e+01   -1.559469809928441e+02   
7.040000000000000e+09    -1.758266886850359e+01   -1.568003171151563e+02   -2.679698832183679e+01   1.493997130872262e+02    -2.683391529873134e+01   1.495084992326025e+02    -1.911108039314876e+01   -1.562492414333413e+02   
7.041000000000000e+09    -1.759565029372035e+01   -1.569283403735761e+02   -2.684293405417863e+01   1.484551916203593e+02    -2.688254575502814e+01   1.484033584176442e+02    -1.909187307243068e+01   -1.565588491027741e+02   
7.042000000000000e+09    -1.759642132990692e+01   -1.569949736356051e+02   -2.688995927940057e+01   1.475270989154252e+02    -2.693248037813705e+01   1.476058783147130e+02    -1.907462852609808e+01   -1.568478521454027e+02   
7.043000000000000e+09    -1.760245656419402e+01   -1.571396075087631e+02   -2.696033867009600e+01   1.465018857681886e+02    -2.698592435290985e+01   1.467159566113797e+02    -1.904845212502077e+01   -1.571651449587586e+02   
7.044000000000000e+09    -1.760877040177030e+01   -1.571677941589944e+02   -2.701880867976724e+01   1.457540288626591e+02    -2.704616471522762e+01   1.457768241164462e+02    -1.901517081667793e+01   -1.574932992064031e+02   
7.045000000000000e+09    -1.761197367748419e+01   -1.572842059887583e+02   -2.705693233440766e+01   1.448307458000141e+02    -2.708602314724642e+01   1.449332416794764e+02    -1.899895586539111e+01   -1.576527044011858e+02   
7.046000000000000e+09    -1.760778944183000e+01   -1.573519872332629e+02   -2.713235161378531e+01   1.437844058340549e+02    -2.714492997563442e+01   1.439156107804986e+02    -1.897993950026775e+01   -1.579227289680312e+02   
7.047000000000000e+09    -1.761593125784704e+01   -1.573947908605598e+02   -2.716790093466702e+01   1.430233718735508e+02    -2.721734463549236e+01   1.430468382107989e+02    -1.896086002695905e+01   -1.581122963704058e+02   
7.048000000000000e+09    -1.762534043124901e+01   -1.575237327140682e+02   -2.723317744282888e+01   1.420342764698159e+02    -2.727103347767951e+01   1.420701380735049e+02    -1.893387070965738e+01   -1.582879528688631e+02   
7.049000000000000e+09    -1.763867189142611e+01   -1.575600092014871e+02   -2.728803994943881e+01   1.411747379604922e+02    -2.732824617723375e+01   1.412555335003506e+02    -1.890632238385234e+01   -1.585181137151805e+02   
7.050000000000000e+09    -1.764235440468823e+01   -1.575429551581636e+02   -2.736053429012941e+01   1.399858971069415e+02    -2.738186057065059e+01   1.403492487570431e+02    -1.888199780390049e+01   -1.586249528630641e+02   
7.051000000000000e+09    -1.765535926795746e+01   -1.575754124420392e+02   -2.741782326261823e+01   1.390483326240513e+02    -2.743484168999210e+01   1.393556350643064e+02    -1.885881826377761e+01   -1.588736429169782e+02   
7.052000000000000e+09    -1.766695241273010e+01   -1.576346333248502e+02   -2.746362866300389e+01   1.382757943229796e+02    -2.750393987626320e+01   1.385531777623078e+02    -1.884262895984894e+01   -1.589979380846590e+02   
7.053000000000000e+09    -1.768484977704809e+01   -1.576977764804959e+02   -2.754964556260265e+01   1.372202552973584e+02    -2.757939758428022e+01   1.373789944184661e+02    -1.882120293849146e+01   -1.590842034326719e+02   
7.054000000000000e+09    -1.770709039939455e+01   -1.577315174738841e+02   -2.760080365758208e+01   1.362700169785002e+02    -2.761572200277453e+01   1.363430870924084e+02    -1.879664887499056e+01   -1.591927589360259e+02   
7.055000000000000e+09    -1.772089574404146e+01   -1.577311634399139e+02   -2.765991181630380e+01   1.351928038968859e+02    -2.769595710560960e+01   1.354407901234432e+02    -1.877074733832756e+01   -1.592769874002728e+02   
7.056000000000000e+09    -1.774764656553844e+01   -1.576661921626487e+02   -2.775233799063429e+01   1.342636679557750e+02    -2.777247717170326e+01   1.345930411589364e+02    -1.875672958743884e+01   -1.593253253810020e+02   
7.057000000000000e+09    -1.776149529730154e+01   -1.576367836842204e+02   -2.780230555563311e+01   1.333023461606774e+02    -2.783363963918239e+01   1.336330243914724e+02    -1.874246660664209e+01   -1.594030823836567e+02   
7.058000000000000e+09    -1.778544765331464e+01   -1.576262777425936e+02   -2.787721505275581e+01   1.322330093566125e+02    -2.791586428538419e+01   1.326588176961351e+02    -1.873007142810012e+01   -1.594268209395572e+02   
7.059000000000000e+09    -1.781195659856832e+01   -1.575882256015267e+02   -2.794230267345071e+01   1.311981745051943e+02    -2.796038947000924e+01   1.317254786285272e+02    -1.871118151891717e+01   -1.593943679510516e+02   
7.060000000000000e+09    -1.783426345707845e+01   -1.575363396612420e+02   -2.800595465654798e+01   1.303319192907448e+02    -2.803554777462109e+01   1.307091251561574e+02    -1.869785704822081e+01   -1.594232993060208e+02   
7.061000000000000e+09    -1.786063751096636e+01   -1.575049336529621e+02   -2.808740511447299e+01   1.292935023421254e+02    -2.811094655847200e+01   1.297585278424468e+02    -1.868320783515113e+01   -1.593062637371839e+02   
7.062000000000000e+09    -1.788195506434670e+01   -1.574849253149806e+02   -2.816014694558406e+01   1.283336788987522e+02    -2.816621220114541e+01   1.286777033470291e+02    -1.866775786952491e+01   -1.592707758250430e+02   
7.063000000000000e+09    -1.790440819376342e+01   -1.574367108289117e+02   -2.823009991326306e+01   1.271354966136621e+02    -2.826320434015654e+01   1.275715562837215e+02    -1.866738503161049e+01   -1.591775371901303e+02   
7.064000000000000e+09    -1.794599197361734e+01   -1.573411303666464e+02   -2.831560075010831e+01   1.262599798945864e+02    -2.834516805664343e+01   1.266651430324814e+02    -1.866249911942568e+01   -1.590272911869467e+02   
7.065000000000000e+09    -1.796167180226890e+01   -1.573579123530436e+02   -2.839559485172500e+01   1.253363177299376e+02    -2.843974054248290e+01   1.255105259942471e+02    -1.866138662504003e+01   -1.589516673918295e+02   
7.066000000000000e+09    -1.799760642336307e+01   -1.573020735567074e+02   -2.847942116347941e+01   1.241242731719112e+02    -2.850253135911468e+01   1.246286092580085e+02    -1.865165946322282e+01   -1.587881247218194e+02   
7.067000000000000e+09    -1.802832251025256e+01   -1.571834843944319e+02   -2.854324114658610e+01   1.230291150949491e+02    -2.855421761049959e+01   1.236391380686576e+02    -1.865331994117936e+01   -1.585657884566665e+02   
7.068000000000000e+09    -1.805398793137687e+01   -1.571551609374433e+02   -2.863354463719214e+01   1.221386572115727e+02    -2.866970877207522e+01   1.225747139357182e+02    -1.866172117418612e+01   -1.584165584850841e+02   
7.069000000000000e+09    -1.809189434137445e+01   -1.571154882822810e+02   -2.870132872163349e+01   1.210347139382580e+02    -2.875956401332090e+01   1.215227537677197e+02    -1.866358468283158e+01   -1.582375760017449e+02   
7.070000000000000e+09    -1.812660134753745e+01   -1.569948210251450e+02   -2.883407481345223e+01   1.200353001028463e+02    -2.881602516798863e+01   1.204620349765379e+02    -1.867927253111142e+01   -1.579929329721530e+02   
7.071000000000000e+09    -1.815507311971030e+01   -1.569412921207612e+02   -2.890016478387778e+01   1.188836457131697e+02    -2.892511461773965e+01   1.194158746133924e+02    -1.868258970564543e+01   -1.577804622778639e+02   
7.072000000000000e+09    -1.820108919461561e+01   -1.568648714947506e+02   -2.898622879020132e+01   1.178244973224008e+02    -2.900055074914995e+01   1.181656391696601e+02    -1.869668748376664e+01   -1.575767691898453e+02   
7.073000000000000e+09    -1.823153375728618e+01   -1.568089567034388e+02   -2.908651705702214e+01   1.165635236120849e+02    -2.911425426188121e+01   1.170660396601461e+02    -1.871393941788424e+01   -1.573434048960403e+02   
7.074000000000000e+09    -1.827602619544460e+01   -1.567098052991577e+02   -2.919435289968402e+01   1.155540738628714e+02    -2.920038166254550e+01   1.161890889435760e+02    -1.873199525786348e+01   -1.570934622780744e+02   
7.075000000000000e+09    -1.830333582530284e+01   -1.566691328126454e+02   -2.928871567761878e+01   1.145916746430375e+02    -2.928449370419123e+01   1.148934611684563e+02    -1.876391229252061e+01   -1.568311322207375e+02   
7.076000000000000e+09    -1.834991018890675e+01   -1.565442145753660e+02   -2.938940597567900e+01   1.136369943956086e+02    -2.939278175226208e+01   1.139751891078369e+02    -1.878729268425456e+01   -1.565049896381747e+02   
7.077000000000000e+09    -1.838009622184072e+01   -1.564215922736398e+02   -2.945767914401708e+01   1.122449059533746e+02    -2.947983703620736e+01   1.126463528227931e+02    -1.882137657387080e+01   -1.561923235245701e+02   
7.078000000000000e+09    -1.842183506040875e+01   -1.563692778006771e+02   -2.958522645075169e+01   1.112823564729598e+02    -2.955096806587278e+01   1.116063132444402e+02    -1.885330768576211e+01   -1.559584854091804e+02   
7.079000000000000e+09    -1.845512158766223e+01   -1.562789689343539e+02   -2.967468317411018e+01   1.100351248396994e+02    -2.970811705806718e+01   1.105762748932473e+02    -1.889170575705775e+01   -1.556486544526926e+02   
7.080000000000000e+09    -1.850113040611425e+01   -1.562553760632817e+02   -2.979302107504555e+01   1.090480020710390e+02    -2.979578594972401e+01   1.093051199280627e+02    -1.892890963172858e+01   -1.553700588154224e+02   
7.081000000000000e+09    -1.854258111886285e+01   -1.561211534481844e+02   -2.990157030685450e+01   1.078555984470395e+02    -2.988286450093664e+01   1.082388030292843e+02    -1.897879768253547e+01   -1.550328511146276e+02   
7.082000000000000e+09    -1.858723850542655e+01   -1.560787803033863e+02   -3.002134847820028e+01   1.066895637491627e+02    -2.998119969198861e+01   1.070380985153655e+02    -1.902697347505789e+01   -1.546784589214098e+02   
7.083000000000000e+09    -1.863942564487733e+01   -1.559303322804977e+02   -3.011281024449742e+01   1.055922273290575e+02    -3.008442877825805e+01   1.057759795648252e+02    -1.908120036658662e+01   -1.543307225694398e+02   
7.084000000000000e+09    -1.868284086076844e+01   -1.558370965115787e+02   -3.020978822096632e+01   1.042377978879123e+02    -3.021561894632778e+01   1.047792062730943e+02    -1.913068190436315e+01   -1.539804453474158e+02   
