[Version] 2.0
! Rohde & Schwarz Vector Network Analyzer
! Rohde-Schwarz,ZNL20-2Port,1323001220200009,1.71.1.10-23.02.1.238
! 
! Port Assignments:
! Nominal Port -> Actual Test Port
! --------------------------------
!   1 -> 1
!   2 -> 2

! Created: GMT+3 2024-09-24 15:06:33

# Hz S DB R 50

[Number of Ports] 2
[Two-Port Data Order] 21_12
[Number of Frequencies] 6001

[Network Data] 
! freq[Hz]               S11[mag dB]              S11[ang]                 S21[mag dB]              S21[ang]                 S12[mag dB]              S12[ang]                 S22[mag dB]              S22[ang]                 
7.000000000000000e+09    -1.895875914022765e+01   -1.476853334388623e+02   -2.511677668512766e+01   -1.385429338822780e+02   -2.512306949013451e+01   -1.375447560643800e+02   -2.117758534050192e+01   -1.405502048266847e+02   
7.001000000000000e+09    -1.894683235489451e+01   -1.475342329179856e+02   -2.511448346727102e+01   -1.392026760883885e+02   -2.512864720976608e+01   -1.383145279337151e+02   -2.121338464232322e+01   -1.401256497341531e+02   
7.002000000000000e+09    -1.894186217930138e+01   -1.473417413005277e+02   -2.511844886382730e+01   -1.399134142866837e+02   -2.511530381776091e+01   -1.389479767553249e+02   -2.124655157369229e+01   -1.396676514148479e+02   
7.003000000000000e+09    -1.893943823510406e+01   -1.471336402736118e+02   -2.515259756969584e+01   -1.402914728308704e+02   -2.510205597505488e+01   -1.397137530734879e+02   -2.127425049104766e+01   -1.392635864271026e+02   
7.004000000000000e+09    -1.893624565480364e+01   -1.469107284564261e+02   -2.511529845678364e+01   -1.411280360944572e+02   -2.510627898549116e+01   -1.403793381840103e+02   -2.130042314166303e+01   -1.388611492798657e+02   
7.005000000000000e+09    -1.892847696813407e+01   -1.466866681858582e+02   -2.511775929038421e+01   -1.417861579176327e+02   -2.509338157598205e+01   -1.409976343047014e+02   -2.133961834404675e+01   -1.384609052172573e+02   
7.006000000000000e+09    -1.892275106290846e+01   -1.465451292408628e+02   -2.512162878671957e+01   -1.423967247658483e+02   -2.508512061281673e+01   -1.416423444358376e+02   -2.136435404882733e+01   -1.381012931657850e+02   
7.007000000000000e+09    -1.890815090926004e+01   -1.463842777196629e+02   -2.511370108612037e+01   -1.429337841470243e+02   -2.507953968279395e+01   -1.422325653349118e+02   -2.137350843629406e+01   -1.378522887074467e+02   
7.008000000000000e+09    -1.889348692345378e+01   -1.462219846420533e+02   -2.510080116031747e+01   -1.437409238815502e+02   -2.507328297053389e+01   -1.429777227203075e+02   -2.140030195261559e+01   -1.375401316354402e+02   
7.009000000000000e+09    -1.888055588323099e+01   -1.460224606195457e+02   -2.510898378723045e+01   -1.442803837675315e+02   -2.506680819343540e+01   -1.436544468848486e+02   -2.141853734314551e+01   -1.373716654098289e+02   
7.010000000000000e+09    -1.887580036766959e+01   -1.458794104914394e+02   -2.510520127928536e+01   -1.450024781991967e+02   -2.507097907516003e+01   -1.442486461738756e+02   -2.144240465819125e+01   -1.371471867226865e+02   
7.011000000000000e+09    -1.886346789715443e+01   -1.457483569206714e+02   -2.509654212309969e+01   -1.453543999608825e+02   -2.505362237752185e+01   -1.448888224174515e+02   -2.145245572770526e+01   -1.369921892538447e+02   
7.012000000000000e+09    -1.884816299738768e+01   -1.455487740057974e+02   -2.508786485574669e+01   -1.461698759114223e+02   -2.504809449725225e+01   -1.455720471857154e+02   -2.147213863718913e+01   -1.368463413992354e+02   
7.013000000000000e+09    -1.883177269377467e+01   -1.454633280679695e+02   -2.507209680231269e+01   -1.467776155307312e+02   -2.505312716487397e+01   -1.463419229399762e+02   -2.149195778491821e+01   -1.367255262244526e+02   
7.014000000000000e+09    -1.882249609518234e+01   -1.453707215214817e+02   -2.506600237910252e+01   -1.474080792105299e+02   -2.504750044042423e+01   -1.469880197694463e+02   -2.150740458595533e+01   -1.366663954852690e+02   
7.015000000000000e+09    -1.880638256198266e+01   -1.452247595389382e+02   -2.508371360931591e+01   -1.481397444335352e+02   -2.503704899159157e+01   -1.474280187561032e+02   -2.150623152223912e+01   -1.365846388195715e+02   
7.016000000000000e+09    -1.878974470875573e+01   -1.450926564616866e+02   -2.507133220799737e+01   -1.486342543332190e+02   -2.504559525181134e+01   -1.482021257893988e+02   -2.150800580114916e+01   -1.365020585308748e+02   
7.017000000000000e+09    -1.877962231842195e+01   -1.449253776728176e+02   -2.506767315485062e+01   -1.493185744971846e+02   -2.501584914420640e+01   -1.490227612123529e+02   -2.150975850914208e+01   -1.365352040893611e+02   
7.018000000000000e+09    -1.876512746697312e+01   -1.448806458834810e+02   -2.506077496959882e+01   -1.499563012833470e+02   -2.503095282097657e+01   -1.495896251377162e+02   -2.150145681650704e+01   -1.365229194054156e+02   
7.019000000000000e+09    -1.874939122973995e+01   -1.447375868303677e+02   -2.505766691367000e+01   -1.506911862645104e+02   -2.502720474752991e+01   -1.503164944760434e+02   -2.148033192652988e+01   -1.364762144687428e+02   
7.020000000000000e+09    -1.872986687102585e+01   -1.446740257925433e+02   -2.505068445460545e+01   -1.512996816811987e+02   -2.500962914832663e+01   -1.510385714504724e+02   -2.147741783349799e+01   -1.366593200586803e+02   
7.021000000000000e+09    -1.871957090784844e+01   -1.446444033925163e+02   -2.502625147511996e+01   -1.519376370212934e+02   -2.499865982442768e+01   -1.515675612862014e+02   -2.146271262061650e+01   -1.366968176128198e+02   
7.022000000000000e+09    -1.869634647566922e+01   -1.445557435835543e+02   -2.503999606869538e+01   -1.525806487364697e+02   -2.499343468006344e+01   -1.523086779169376e+02   -2.144898460231581e+01   -1.367385140319908e+02   
7.023000000000000e+09    -1.868287348224029e+01   -1.444284380755542e+02   -2.504027228498997e+01   -1.532502244019942e+02   -2.499996444175208e+01   -1.530534817687025e+02   -2.141953544691163e+01   -1.368979364273324e+02   
7.024000000000000e+09    -1.865995298956442e+01   -1.444439178992105e+02   -2.502878790010895e+01   -1.539476073242544e+02   -2.499613981114267e+01   -1.537159207187306e+02   -2.139532583752699e+01   -1.369799708379382e+02   
7.025000000000000e+09    -1.863711649334819e+01   -1.443839298678521e+02   -2.503181970199398e+01   -1.545651905311379e+02   -2.500324249200371e+01   -1.543159119695318e+02   -2.137406414065519e+01   -1.370975941572740e+02   
7.026000000000000e+09    -1.862453585406401e+01   -1.443682336763846e+02   -2.503497829153221e+01   -1.551917913995977e+02   -2.498651945958482e+01   -1.550617880888788e+02   -2.133128423347743e+01   -1.372432428753086e+02   
7.027000000000000e+09    -1.860928238416591e+01   -1.443045932844478e+02   -2.501662147795594e+01   -1.558952198742560e+02   -2.499077728138218e+01   -1.557137080885718e+02   -2.129492903472463e+01   -1.373385586804228e+02   
7.028000000000000e+09    -1.858504545603748e+01   -1.442728569725145e+02   -2.500329153042338e+01   -1.567659165285410e+02   -2.498915575216584e+01   -1.565033532225703e+02   -2.125913833957231e+01   -1.376300988264339e+02   
7.029000000000000e+09    -1.855686474447385e+01   -1.442554082975654e+02   -2.501526171910457e+01   -1.573349629186653e+02   -2.498318505572112e+01   -1.572483918066189e+02   -2.121470829473839e+01   -1.377916777045998e+02   
7.030000000000000e+09    -1.853501031045317e+01   -1.442400991493731e+02   -2.500785864803808e+01   -1.580425344242041e+02   -2.499630560997609e+01   -1.577818052477747e+02   -2.118689896268915e+01   -1.379142198622238e+02   
7.031000000000000e+09    -1.851168650927733e+01   -1.442465081071749e+02   -2.500819737884751e+01   -1.586316812884574e+02   -2.498951339511746e+01   -1.584788058121834e+02   -2.113327677391309e+01   -1.381161185584821e+02   
7.032000000000000e+09    -1.848193442928124e+01   -1.442436921857106e+02   -2.500666843338358e+01   -1.594155185903231e+02   -2.499384291550492e+01   -1.591023400900486e+02   -2.109129913369379e+01   -1.383076507308924e+02   
7.033000000000000e+09    -1.846041857673979e+01   -1.442104576647243e+02   -2.503236709577417e+01   -1.599556114540133e+02   -2.501790513046400e+01   -1.599553006392606e+02   -2.104014887091169e+01   -1.385881081469197e+02   
7.034000000000000e+09    -1.843327686134558e+01   -1.442453432559870e+02   -2.503282963377320e+01   -1.606829587043541e+02   -2.499138120632664e+01   -1.606044380905676e+02   -2.098694354587232e+01   -1.387194939180220e+02   
7.035000000000000e+09    -1.840717269807747e+01   -1.442267093997819e+02   -2.502271877251082e+01   -1.613109707142435e+02   -2.500666967161238e+01   -1.612855760659304e+02   -2.092269015237112e+01   -1.388790711739632e+02   
7.036000000000000e+09    -1.837535464220331e+01   -1.442603254911101e+02   -2.503939025511468e+01   -1.618444897458087e+02   -2.500345347531989e+01   -1.619858940595380e+02   -2.088187300386686e+01   -1.390722723110285e+02   
7.037000000000000e+09    -1.834382423151547e+01   -1.442933400689137e+02   -2.501485426455533e+01   -1.625715823912800e+02   -2.500150815588854e+01   -1.625443955049149e+02   -2.082136967921354e+01   -1.392232640862479e+02   
7.038000000000000e+09    -1.831386733457320e+01   -1.442698561932019e+02   -2.503088765485709e+01   -1.634074370536489e+02   -2.500827517697683e+01   -1.632668619565598e+02   -2.074644600200163e+01   -1.394394180384252e+02   
7.039000000000000e+09    -1.827988519144607e+01   -1.442768065315474e+02   -2.502909604060649e+01   -1.639979728707147e+02   -2.501092074858985e+01   -1.638767340559692e+02   -2.069600476944239e+01   -1.396470953781449e+02   
7.040000000000000e+09    -1.824495228069920e+01   -1.442484451074941e+02   -2.503205058453480e+01   -1.646111681949395e+02   -2.502023456506896e+01   -1.644984001490662e+02   -2.062148109680176e+01   -1.398173277911200e+02   
7.041000000000000e+09    -1.822095773275543e+01   -1.442535955799890e+02   -2.502959022845909e+01   -1.653394152908234e+02   -2.502276107956066e+01   -1.653243486739952e+02   -2.055073153551117e+01   -1.399785239953433e+02   
7.042000000000000e+09    -1.818344128468022e+01   -1.442834746274290e+02   -2.502965736858695e+01   -1.660214508850679e+02   -2.503187154345899e+01   -1.659136960298171e+02   -2.048682696915436e+01   -1.401232250198511e+02   
7.043000000000000e+09    -1.815669447960119e+01   -1.442733354868446e+02   -2.503601734330245e+01   -1.667023667735050e+02   -2.501365007075604e+01   -1.666299351960114e+02   -2.041125405963872e+01   -1.403134968907720e+02   
7.044000000000000e+09    -1.811453505932799e+01   -1.442332612333003e+02   -2.503610694186250e+01   -1.672696653588220e+02   -2.503823877916467e+01   -1.672558905248492e+02   -2.032859823338895e+01   -1.405310736002019e+02   
7.045000000000000e+09    -1.807556109892215e+01   -1.442529051254090e+02   -2.503008087870274e+01   -1.680361793952077e+02   -2.502513064686089e+01   -1.679985388786725e+02   -2.026546923641630e+01   -1.406464216595099e+02   
7.046000000000000e+09    -1.803798151373258e+01   -1.442853376819154e+02   -2.504159647980319e+01   -1.687082467067632e+02   -2.504274510063847e+01   -1.686695396864307e+02   -2.017642979403118e+01   -1.407571502780653e+02   
7.047000000000000e+09    -1.800075134398261e+01   -1.442294064200871e+02   -2.503918790115824e+01   -1.693892062901838e+02   -2.504556617922916e+01   -1.693750126412823e+02   -2.011039645562004e+01   -1.409332472596164e+02   
7.048000000000000e+09    -1.796645122132616e+01   -1.442583994707808e+02   -2.504860662886896e+01   -1.700071796654945e+02   -2.504106889150093e+01   -1.699589405128097e+02   -2.003291665074664e+01   -1.411134242078894e+02   
7.049000000000000e+09    -1.794048473579291e+01   -1.442223652695260e+02   -2.504923901757678e+01   -1.707018929336243e+02   -2.503840929551312e+01   -1.706914186178458e+02   -1.995017805058317e+01   -1.412171110823881e+02   
7.050000000000000e+09    -1.790465311828550e+01   -1.442138929538218e+02   -2.507005144786808e+01   -1.713595944370612e+02   -2.504139469660888e+01   -1.713003927381141e+02   -1.988367631720306e+01   -1.412987898911644e+02   
7.051000000000000e+09    -1.787075845968854e+01   -1.441707210930856e+02   -2.506183099637326e+01   -1.721169424578606e+02   -2.504490978119954e+01   -1.720578900887975e+02   -1.979795863062396e+01   -1.414362250273143e+02   
7.052000000000000e+09    -1.784997859565536e+01   -1.441874641093218e+02   -2.505880028929489e+01   -1.727972574213162e+02   -2.503450466396588e+01   -1.726126205274365e+02   -1.972803936175594e+01   -1.415632342644321e+02   
7.053000000000000e+09    -1.781643657560331e+01   -1.441770454733299e+02   -2.508195268044915e+01   -1.734102455039861e+02   -2.506373936910555e+01   -1.733937792692510e+02   -1.965874284891715e+01   -1.416289919658729e+02   
7.054000000000000e+09    -1.779667340235052e+01   -1.441379910136304e+02   -2.505482741098586e+01   -1.741972506562184e+02   -2.507063145567547e+01   -1.741368884019478e+02   -1.956870314622132e+01   -1.416382312887860e+02   
7.055000000000000e+09    -1.776841151311293e+01   -1.440904896643318e+02   -2.507533020592495e+01   -1.749291662291929e+02   -2.507586067389184e+01   -1.748113322684220e+02   -1.949024092112047e+01   -1.417495117584962e+02   
7.056000000000000e+09    -1.774217196767572e+01   -1.440126883191486e+02   -2.508410176319557e+01   -1.755514800147355e+02   -2.507271306744916e+01   -1.755184687015916e+02   -1.941262638232818e+01   -1.417121373069715e+02   
7.057000000000000e+09    -1.771739493948451e+01   -1.439494736562710e+02   -2.509411870642446e+01   -1.763835167596613e+02   -2.508247321843377e+01   -1.762429490175468e+02   -1.932556650357805e+01   -1.418531714572769e+02   
7.058000000000000e+09    -1.769788815183909e+01   -1.439302656714218e+02   -2.509707915800918e+01   -1.770547788706616e+02   -2.509654367512185e+01   -1.769857816406075e+02   -1.925958597697922e+01   -1.417909259903136e+02   
7.059000000000000e+09    -1.767511600979318e+01   -1.438643433632586e+02   -2.510809367724717e+01   -1.777407001763095e+02   -2.508609179179672e+01   -1.777019296101276e+02   -1.917431737408040e+01   -1.418200168079128e+02   
7.060000000000000e+09    -1.765308618227785e+01   -1.438213335949628e+02   -2.511337659839889e+01   -1.785142668759910e+02   -2.510165691420567e+01   -1.783988722054928e+02   -1.910470468979071e+01   -1.418474822602803e+02   
7.061000000000000e+09    -1.762877713472392e+01   -1.437789736461571e+02   -2.511748970002163e+01   -1.791356722111853e+02   -2.510694955322776e+01   -1.791115131941688e+02   -1.902902065441803e+01   -1.417907551674540e+02   
7.062000000000000e+09    -1.760965453820024e+01   -1.437111815158122e+02   -2.513252404445794e+01   -1.798796680388212e+02   -2.511918365640170e+01   -1.798861163794687e+02   -1.895910315253668e+01   -1.418146112906423e+02   
7.063000000000000e+09    -1.759056297540214e+01   -1.436573653642474e+02   -2.513591074080695e+01   1.793689740498607e+02    -2.515186891907522e+01   1.793530080188341e+02    -1.888523850532127e+01   -1.417147049369395e+02   
7.064000000000000e+09    -1.758077876900198e+01   -1.435785651768969e+02   -2.514559963558095e+01   1.786564100536900e+02    -2.514464751870088e+01   1.788351692892253e+02    -1.881402288252887e+01   -1.416120744912739e+02   
7.065000000000000e+09    -1.756378415377235e+01   -1.436175469089506e+02   -2.515517880840163e+01   1.780016679924723e+02    -2.517801298490508e+01   1.780181707435228e+02    -1.875727624900850e+01   -1.415669471533457e+02   
7.066000000000000e+09    -1.753940610199604e+01   -1.435820295458942e+02   -2.517732206721134e+01   1.772623250400427e+02    -2.517323253285662e+01   1.773094793121285e+02    -1.868968544752769e+01   -1.414988974551757e+02   
7.067000000000000e+09    -1.752651599271474e+01   -1.435067832446659e+02   -2.517796333871902e+01   1.764643225762981e+02    -2.519094049588677e+01   1.765298636845707e+02    -1.862671070376101e+01   -1.413716563223438e+02   
7.068000000000000e+09    -1.751242909935989e+01   -1.435219555472789e+02   -2.519878264899238e+01   1.757307673675805e+02    -2.520841928956427e+01   1.759143118760644e+02    -1.856232073098657e+01   -1.412448693934542e+02   
7.069000000000000e+09    -1.749984406735598e+01   -1.435331676130376e+02   -2.521122302348899e+01   1.750881278440075e+02    -2.521391876128753e+01   1.752264741739991e+02    -1.850978233978700e+01   -1.411392179002839e+02   
7.070000000000000e+09    -1.749786361631517e+01   -1.434849588049813e+02   -2.523095050535456e+01   1.745314994621365e+02    -2.523841253039389e+01   1.744479655137011e+02    -1.845960906082297e+01   -1.409483803408788e+02   
7.071000000000000e+09    -1.747655568261418e+01   -1.434704368808629e+02   -2.523577654447441e+01   1.736723485114614e+02    -2.525243338370925e+01   1.737849136369536e+02    -1.840827188267933e+01   -1.408074853588638e+02   
7.072000000000000e+09    -1.747125539847240e+01   -1.434242684111309e+02   -2.523834638719973e+01   1.730199148981818e+02    -2.527430754645092e+01   1.730348753315376e+02    -1.835656824678460e+01   -1.407158268399561e+02   
7.073000000000000e+09    -1.746229837245494e+01   -1.434753664988032e+02   -2.529232851358972e+01   1.721952575965019e+02    -2.529711475647916e+01   1.723081222320342e+02    -1.831327059062895e+01   -1.405301258104423e+02   
7.074000000000000e+09    -1.746486908500327e+01   -1.434253928576885e+02   -2.528498935290652e+01   1.715537328798039e+02    -2.528451174478004e+01   1.716433551830937e+02    -1.827265148652437e+01   -1.403411944916629e+02   
7.075000000000000e+09    -1.744470962139600e+01   -1.434456496702440e+02   -2.530212300252489e+01   1.708360989453854e+02    -2.531411374171217e+01   1.708486840438574e+02    -1.823029897141071e+01   -1.401460516630107e+02   
7.076000000000000e+09    -1.743087777843748e+01   -1.434168092154511e+02   -2.531657841199389e+01   1.701784571207409e+02    -2.533195025942599e+01   1.701462314556246e+02    -1.819531115547687e+01   -1.399240221043652e+02   
7.077000000000000e+09    -1.742477915592393e+01   -1.434559753071652e+02   -2.532546480103880e+01   1.693409012304565e+02    -2.534515333923242e+01   1.693850503646500e+02    -1.815971486806430e+01   -1.397206571559544e+02   
7.078000000000000e+09    -1.741933279441098e+01   -1.434841454592038e+02   -2.534592093749150e+01   1.687670787596850e+02    -2.536893446226984e+01   1.686250862400092e+02    -1.814097887696798e+01   -1.395194500949360e+02   
7.079000000000000e+09    -1.741283058051987e+01   -1.434907097464370e+02   -2.536132266821987e+01   1.679204752106149e+02    -2.538214779138315e+01   1.680431193562319e+02    -1.810834169619255e+01   -1.393595357191862e+02   
7.080000000000000e+09    -1.741051742382974e+01   -1.435830121242428e+02   -2.537618649506005e+01   1.672231560776272e+02    -2.541421218215743e+01   1.671878299798302e+02    -1.808815285436128e+01   -1.390908514592475e+02   
7.081000000000000e+09    -1.740592862136631e+01   -1.435759879905816e+02   -2.539810110858915e+01   1.664981663386821e+02    -2.543537114236351e+01   1.664851974858545e+02    -1.806778694247004e+01   -1.389216966959593e+02   
7.082000000000000e+09    -1.740641851291069e+01   -1.436378750780028e+02   -2.543546157742208e+01   1.657660011447966e+02    -2.545297040037538e+01   1.657187580729979e+02    -1.805219405753612e+01   -1.387047257021618e+02   
7.083000000000000e+09    -1.740630135333474e+01   -1.436007652032748e+02   -2.544031392590955e+01   1.650410702665357e+02    -2.547529189077120e+01   1.650025605030910e+02    -1.803732275012965e+01   -1.384965990858790e+02   
7.084000000000000e+09    -1.740559349097851e+01   -1.436691498598441e+02   -2.546822493271780e+01   1.642083029574956e+02    -2.548753876511226e+01   1.642741104403713e+02    -1.802999932006721e+01   -1.383030338400391e+02   
