[Version] 2.0
! Rohde & Schwarz Vector Network Analyzer
! Rohde-Schwarz,ZNL20-2Port,1323001220200009,1.71.1.10-23.02.1.238
! 
! Port Assignments:
! Nominal Port -> Actual Test Port
! --------------------------------
!   1 -> 1
!   2 -> 2

! Created: GMT+3 2024-09-24 15:07:45

# Hz S DB R 50

[Number of Ports] 2
[Two-Port Data Order] 21_12
[Number of Frequencies] 6001

[Network Data] 
! freq[Hz]               S11[mag dB]              S11[ang]                 S21[mag dB]              S21[ang]                 S12[mag dB]              S12[ang]                 S22[mag dB]              S22[ang]                 
7.000000000000000e+09    -1.894921160053589e+01   -1.475035577681709e+02   -2.520487966115894e+01   -1.382206511169453e+02   -2.520408574939304e+01   -1.377763530700780e+02   -2.120833140607223e+01   -1.404850738385677e+02   
7.001000000000000e+09    -1.893950553194491e+01   -1.472962834071532e+02   -2.518880180273491e+01   -1.388891850431993e+02   -2.520568605326257e+01   -1.384727248989444e+02   -2.124364598731900e+01   -1.400160300785828e+02   
7.002000000000000e+09    -1.893173966815838e+01   -1.471329142043521e+02   -2.520212729480384e+01   -1.394987397211206e+02   -2.519137006477071e+01   -1.391066789277227e+02   -2.126666140307027e+01   -1.395287116165762e+02   
7.003000000000000e+09    -1.893072228001911e+01   -1.469698646430714e+02   -2.520609675178746e+01   -1.400306895267757e+02   -2.518782654719280e+01   -1.398410801902952e+02   -2.129638947631700e+01   -1.391318485431354e+02   
7.004000000000000e+09    -1.892930592190614e+01   -1.468241739178863e+02   -2.520892577153667e+01   -1.406949738153496e+02   -2.518772613502595e+01   -1.405172447504064e+02   -2.132715848012566e+01   -1.387195489671951e+02   
7.005000000000000e+09    -1.892545247748117e+01   -1.465795510130399e+02   -2.519697043727987e+01   -1.413829577568971e+02   -2.519045868081387e+01   -1.411090364340563e+02   -2.136007563850987e+01   -1.383748060218861e+02   
7.006000000000000e+09    -1.892616238748271e+01   -1.464526372994348e+02   -2.517694704017762e+01   -1.420996919684856e+02   -2.516568969087980e+01   -1.417108676967540e+02   -2.137751969718056e+01   -1.379590577961927e+02   
7.007000000000000e+09    -1.891007019596702e+01   -1.462571298453805e+02   -2.518457360757417e+01   -1.425713983300961e+02   -2.516569626073219e+01   -1.424519333330431e+02   -2.139776642836312e+01   -1.376955923616825e+02   
7.008000000000000e+09    -1.889957384187958e+01   -1.460698051414167e+02   -2.517822007686761e+01   -1.433570816494470e+02   -2.516532905263463e+01   -1.430957534819358e+02   -2.141984465962024e+01   -1.374522276151162e+02   
7.009000000000000e+09    -1.887767062615219e+01   -1.459166771112615e+02   -2.516373893444768e+01   -1.440057327380687e+02   -2.515809227099518e+01   -1.438185122342591e+02   -2.144109504020807e+01   -1.371464237175620e+02   
7.010000000000000e+09    -1.887354034919366e+01   -1.457662935121948e+02   -2.515983855427374e+01   -1.446438271001854e+02   -2.517054467444576e+01   -1.444955925052024e+02   -2.146305860172388e+01   -1.369689301049970e+02   
7.011000000000000e+09    -1.885801251141906e+01   -1.456214251672998e+02   -2.517116179309220e+01   -1.451093192537347e+02   -2.515960257947237e+01   -1.450859208050633e+02   -2.146954446424066e+01   -1.368056070127347e+02   
7.012000000000000e+09    -1.884083794667472e+01   -1.454409556870576e+02   -2.515088263607818e+01   -1.458759662425107e+02   -2.515894593566397e+01   -1.457474341061267e+02   -2.148130210147718e+01   -1.366894931777598e+02   
7.013000000000000e+09    -1.882521794816905e+01   -1.453388751288992e+02   -2.514449433259499e+01   -1.464635554194355e+02   -2.515458288850027e+01   -1.464619957265332e+02   -2.149833159382364e+01   -1.365623438058207e+02   
7.014000000000000e+09    -1.882495286379245e+01   -1.452700204512656e+02   -2.514318855262328e+01   -1.471203336789798e+02   -2.515351288924033e+01   -1.470473779085097e+02   -2.151756787116290e+01   -1.365501447780461e+02   
7.015000000000000e+09    -1.880623354341803e+01   -1.451034764411451e+02   -2.515701518871384e+01   -1.478723064039925e+02   -2.514380252120303e+01   -1.476707882589643e+02   -2.150711600666348e+01   -1.364815874764692e+02   
7.016000000000000e+09    -1.878740623429046e+01   -1.449694371989287e+02   -2.513745842190157e+01   -1.483636372234739e+02   -2.514447669480664e+01   -1.483271456080479e+02   -2.151139562611800e+01   -1.364362801508795e+02   
7.017000000000000e+09    -1.878029562329820e+01   -1.448391556610420e+02   -2.513757014995426e+01   -1.490508019222665e+02   -2.514049944409090e+01   -1.490498876854161e+02   -2.151958368370593e+01   -1.363996864091681e+02   
7.018000000000000e+09    -1.875956206862288e+01   -1.447523754511824e+02   -2.511724599798383e+01   -1.495924199831439e+02   -2.513461912667769e+01   -1.497082419846368e+02   -2.151683973000401e+01   -1.364220413823867e+02   
7.019000000000000e+09    -1.875209072543598e+01   -1.446462842500813e+02   -2.511359421820741e+01   -1.504059476606879e+02   -2.513576277751393e+01   -1.502981265035034e+02   -2.149569482798698e+01   -1.363878864614359e+02   
7.020000000000000e+09    -1.872671948302316e+01   -1.445339444401153e+02   -2.512007163528339e+01   -1.509547337084753e+02   -2.514118808378544e+01   -1.510609608508124e+02   -2.148977092363042e+01   -1.364740807004019e+02   
7.021000000000000e+09    -1.872193315708250e+01   -1.444792550918622e+02   -2.509514196422039e+01   -1.517146694400585e+02   -2.512270653527348e+01   -1.517073021580878e+02   -2.146713044098058e+01   -1.365380950867068e+02   
7.022000000000000e+09    -1.870136150798547e+01   -1.443738259280253e+02   -2.510148265014017e+01   -1.523161500127055e+02   -2.512534522923215e+01   -1.524216883415051e+02   -2.145957607845254e+01   -1.365796517731020e+02   
7.023000000000000e+09    -1.868264096864361e+01   -1.442838250964688e+02   -2.509248303882826e+01   -1.530675852175805e+02   -2.511450272825187e+01   -1.531053137612218e+02   -2.142888268952575e+01   -1.367099644409373e+02   
7.024000000000000e+09    -1.866141647496782e+01   -1.442832796525419e+02   -2.509388056622565e+01   -1.537327043946070e+02   -2.512147656805776e+01   -1.537435817389824e+02   -2.139610459073236e+01   -1.368215974286172e+02   
7.025000000000000e+09    -1.864536266722371e+01   -1.441848520020729e+02   -2.508830646035398e+01   -1.543211498101710e+02   -2.512552542080063e+01   -1.544301195162263e+02   -2.137675630911275e+01   -1.369698057266463e+02   
7.026000000000000e+09    -1.862119796012479e+01   -1.442042615076293e+02   -2.509247959550396e+01   -1.550253776505806e+02   -2.512149854567982e+01   -1.550844998504326e+02   -2.132957112056788e+01   -1.371735145142550e+02   
7.027000000000000e+09    -1.860445953875222e+01   -1.441024856317734e+02   -2.508089811986844e+01   -1.557112159969101e+02   -2.511181245402636e+01   -1.557684456124077e+02   -2.129168785670995e+01   -1.372116360135137e+02   
7.028000000000000e+09    -1.857892147640538e+01   -1.440734513194497e+02   -2.507654079386740e+01   -1.563851757403971e+02   -2.511435172208591e+01   -1.564688685298386e+02   -2.126148610885046e+01   -1.375004861816500e+02   
7.029000000000000e+09    -1.855325043187464e+01   -1.440767146091744e+02   -2.508411404886770e+01   -1.572125903631963e+02   -2.511494555273087e+01   -1.571742252054393e+02   -2.121986097488365e+01   -1.376004395835272e+02   
7.030000000000000e+09    -1.852853489476661e+01   -1.440726172969373e+02   -2.506758990014966e+01   -1.578676271588913e+02   -2.513106967660177e+01   -1.577263368898650e+02   -2.117856875000317e+01   -1.377673941241555e+02   
7.031000000000000e+09    -1.850414732722803e+01   -1.440789315829284e+02   -2.506306028704461e+01   -1.584265065281540e+02   -2.513010248019355e+01   -1.585209671261808e+02   -2.113224275102867e+01   -1.379073092965291e+02   
7.032000000000000e+09    -1.847698178050677e+01   -1.440182859648845e+02   -2.505771181554982e+01   -1.591892302620788e+02   -2.512569352834748e+01   -1.590793492801538e+02   -2.108761802687004e+01   -1.381731020982748e+02   
7.033000000000000e+09    -1.845170427242136e+01   -1.440027009064197e+02   -2.507419832649148e+01   -1.597594253845068e+02   -2.513741881298469e+01   -1.598737894699229e+02   -2.103420003312297e+01   -1.384337480380625e+02   
7.034000000000000e+09    -1.841859157313765e+01   -1.440400407596161e+02   -2.506785681815046e+01   -1.605765210326604e+02   -2.512025287620436e+01   -1.605092729569106e+02   -2.097632759577572e+01   -1.385618346969072e+02   
7.035000000000000e+09    -1.839087970671191e+01   -1.440638468793165e+02   -2.507764781573056e+01   -1.611020146923729e+02   -2.514469039593152e+01   -1.611743519571962e+02   -2.092306905865941e+01   -1.387496820712738e+02   
7.036000000000000e+09    -1.835714110987413e+01   -1.439903444876851e+02   -2.508172443307222e+01   -1.617697954663381e+02   -2.513012991197439e+01   -1.618312390633060e+02   -2.087475860483933e+01   -1.389186461461096e+02   
7.037000000000000e+09    -1.833338527544186e+01   -1.440920036254493e+02   -2.508570359880630e+01   -1.624652350955162e+02   -2.513914799552543e+01   -1.625060308139677e+02   -2.080816458739840e+01   -1.391134833658855e+02   
7.038000000000000e+09    -1.829968105997111e+01   -1.440525336859957e+02   -2.508291062367009e+01   -1.632519622399236e+02   -2.514196899392538e+01   -1.631179544747654e+02   -2.073610013976300e+01   -1.393158634918014e+02   
7.039000000000000e+09    -1.826058784251505e+01   -1.440346558299671e+02   -2.508593844772599e+01   -1.638664431592153e+02   -2.514782896673731e+01   -1.637721307528356e+02   -2.068355010855944e+01   -1.394800720295867e+02   
7.040000000000000e+09    -1.822456598591362e+01   -1.440484614121212e+02   -2.509201384259788e+01   -1.644895258851162e+02   -2.514126237153855e+01   -1.643362017585427e+02   -2.061084221673444e+01   -1.397221942063245e+02   
7.041000000000000e+09    -1.819662793497135e+01   -1.440356170256981e+02   -2.507895056564031e+01   -1.651934837150094e+02   -2.514931455000905e+01   -1.651204598038516e+02   -2.055604083758263e+01   -1.398121650437644e+02   
7.042000000000000e+09    -1.815346206707861e+01   -1.440561966767569e+02   -2.508539425777082e+01   -1.658973128093172e+02   -2.515285887058208e+01   -1.657052054261591e+02   -2.048634722516372e+01   -1.400094764960075e+02   
7.043000000000000e+09    -1.812597026881632e+01   -1.441238629155686e+02   -2.509388879251315e+01   -1.667232410603971e+02   -2.514971438815464e+01   -1.663848408549392e+02   -2.041554549856560e+01   -1.402265737965222e+02   
7.044000000000000e+09    -1.808701217664446e+01   -1.440737404807949e+02   -2.507375855109496e+01   -1.672531756199930e+02   -2.516348032574044e+01   -1.670674064866406e+02   -2.033464616684114e+01   -1.404548320781051e+02   
7.045000000000000e+09    -1.804831518873197e+01   -1.440382406446152e+02   -2.508998547680462e+01   -1.680505075833519e+02   -2.514097589760178e+01   -1.677674362781417e+02   -2.026627335046530e+01   -1.405753496006436e+02   
7.046000000000000e+09    -1.801152796042154e+01   -1.440373862644391e+02   -2.511168299490239e+01   -1.687323288413690e+02   -2.517100206514020e+01   -1.684830298960465e+02   -2.018849514296146e+01   -1.407131067924473e+02   
7.047000000000000e+09    -1.797408138677082e+01   -1.440625320905828e+02   -2.509967520117268e+01   -1.693334342268273e+02   -2.517655291677443e+01   -1.691041104564443e+02   -2.011278364180262e+01   -1.408686105369218e+02   
7.048000000000000e+09    -1.794071898108379e+01   -1.440945104620119e+02   -2.510993529326523e+01   -1.701100438827045e+02   -2.517270752538134e+01   -1.697020966032001e+02   -2.003572427935704e+01   -1.409996008278026e+02   
7.049000000000000e+09    -1.790777534647034e+01   -1.440788218834993e+02   -2.511788652660783e+01   -1.707453656283131e+02   -2.517733741750938e+01   -1.704562485145416e+02   -1.995299717263888e+01   -1.411067910813648e+02   
7.050000000000000e+09    -1.786802752772685e+01   -1.440625878140847e+02   -2.513378003245859e+01   -1.715709172005029e+02   -2.518938103028373e+01   -1.711019794779084e+02   -1.987673024982306e+01   -1.412338706993488e+02   
7.051000000000000e+09    -1.784358790753405e+01   -1.440363246261622e+02   -2.513297242881116e+01   -1.722323465000286e+02   -2.517663854188565e+01   -1.717931146070192e+02   -1.980144843128663e+01   -1.413392498678396e+02   
7.052000000000000e+09    -1.781457786463152e+01   -1.440550803495110e+02   -2.513127084957075e+01   -1.728635276472336e+02   -2.519123335183789e+01   -1.724122784337275e+02   -1.972482122463945e+01   -1.414723910845916e+02   
7.053000000000000e+09    -1.778261288703969e+01   -1.440168848882182e+02   -2.515290297109063e+01   -1.734774544580553e+02   -2.519415061146423e+01   -1.731666662822731e+02   -1.964937506302142e+01   -1.415415391449009e+02   
7.054000000000000e+09    -1.776120238712248e+01   -1.440585399683005e+02   -2.514353730986173e+01   -1.742712498545661e+02   -2.520044288833780e+01   -1.738532314807983e+02   -1.956465967611891e+01   -1.415692778955059e+02   
7.055000000000000e+09    -1.773751752422615e+01   -1.440022744002893e+02   -2.515580369860940e+01   -1.749780587625879e+02   -2.520379851494285e+01   -1.744890051715269e+02   -1.948304432079255e+01   -1.416548789851618e+02   
7.056000000000000e+09    -1.771000415722552e+01   -1.439207519288871e+02   -2.516872804902887e+01   -1.756068188238311e+02   -2.520192567177342e+01   -1.751288242691702e+02   -1.940386799674012e+01   -1.416844682427073e+02   
7.057000000000000e+09    -1.768998392711151e+01   -1.438816292969704e+02   -2.518452763580790e+01   -1.764518734505483e+02   -2.521628469635649e+01   -1.759633384642800e+02   -1.931810443718231e+01   -1.417889145797180e+02   
7.058000000000000e+09    -1.766478652749065e+01   -1.438903073706214e+02   -2.518428278436004e+01   -1.771064605032313e+02   -2.521361247236941e+01   -1.765233619307208e+02   -1.925760806351981e+01   -1.417622928646078e+02   
7.059000000000000e+09    -1.763447944125265e+01   -1.437883872478581e+02   -2.519905831120770e+01   -1.778835653128300e+02   -2.522351560217611e+01   -1.773586068604166e+02   -1.917231925973458e+01   -1.417664979543858e+02   
7.060000000000000e+09    -1.762650349515398e+01   -1.437473934841806e+02   -2.521630844603983e+01   -1.785518764699530e+02   -2.524020867414184e+01   -1.780334870496719e+02   -1.910445119722408e+01   -1.418023193441153e+02   
7.061000000000000e+09    -1.760262064890661e+01   -1.437096793047307e+02   -2.521061497263406e+01   -1.793329479541748e+02   -2.524041758653379e+01   -1.787218961219920e+02   -1.902814867578453e+01   -1.416820265340323e+02   
7.062000000000000e+09    -1.758027957375594e+01   -1.436182142504372e+02   -2.523860478168766e+01   -1.799802642054811e+02   -2.525303219589480e+01   -1.794819424104607e+02   -1.895568226786919e+01   -1.417251620549164e+02   
7.063000000000000e+09    -1.756238841028575e+01   -1.435940487884680e+02   -2.523469526501722e+01   1.792237067274433e+02    -2.528289504801255e+01   1.798981975599544e+02    -1.887211428824023e+01   -1.417042989412991e+02   
7.064000000000000e+09    -1.754334784205109e+01   -1.435428709793082e+02   -2.526011989907805e+01   1.786029292126459e+02    -2.527123438515969e+01   1.792247841283794e+02    -1.881164492530518e+01   -1.415757900141413e+02   
7.065000000000000e+09    -1.752873974328544e+01   -1.435148002791751e+02   -2.526527097881754e+01   1.779011274036852e+02    -2.530516214426813e+01   1.783405690657435e+02    -1.874903676092450e+01   -1.415252312460511e+02   
7.066000000000000e+09    -1.751322457803562e+01   -1.434747532695451e+02   -2.528700547694329e+01   1.771793661313823e+02    -2.531153884747341e+01   1.777824003804690e+02    -1.868234253720010e+01   -1.414357644873820e+02   
7.067000000000000e+09    -1.749228766713407e+01   -1.434811511780589e+02   -2.529897834967183e+01   1.763688714658707e+02    -2.530312915152281e+01   1.769921443496026e+02    -1.861669953423489e+01   -1.413047309356470e+02   
7.068000000000000e+09    -1.747608420071489e+01   -1.434891684276490e+02   -2.531067784868340e+01   1.756462614125957e+02    -2.533491486810728e+01   1.763477394593139e+02    -1.855669383965610e+01   -1.411729804215412e+02   
7.069000000000000e+09    -1.747232357981818e+01   -1.434808986079856e+02   -2.532641268149859e+01   1.749597014329244e+02    -2.533974499255265e+01   1.757426224881470e+02    -1.850434091098763e+01   -1.411321298978358e+02   
7.070000000000000e+09    -1.746103482868998e+01   -1.434496297605099e+02   -2.534802154443176e+01   1.743984475846663e+02    -2.536307696921760e+01   1.749677368241329e+02    -1.844947312606635e+01   -1.408992686609772e+02   
7.071000000000000e+09    -1.744251774964510e+01   -1.434277996028087e+02   -2.535637347404246e+01   1.735886937778757e+02    -2.536293396023275e+01   1.742677162454286e+02    -1.840736577157310e+01   -1.407765555901643e+02   
7.072000000000000e+09    -1.743147356190195e+01   -1.434334684748522e+02   -2.536947339768595e+01   1.729415430094079e+02    -2.539941924354803e+01   1.734942510928642e+02    -1.835706829235037e+01   -1.406197112330406e+02   
7.073000000000000e+09    -1.743098063974609e+01   -1.434643152224021e+02   -2.542628392893635e+01   1.722191249413573e+02    -2.541743211563408e+01   1.728724036465157e+02    -1.831580344815963e+01   -1.404759657662250e+02   
7.074000000000000e+09    -1.742297632183860e+01   -1.434549985288954e+02   -2.541775019571246e+01   1.714299314081026e+02    -2.541934852066490e+01   1.721262113403717e+02    -1.826694558503815e+01   -1.402508526646670e+02   
7.075000000000000e+09    -1.741250665489144e+01   -1.434374262819507e+02   -2.545842123727774e+01   1.708229203812936e+02    -2.541963393412566e+01   1.714310775698502e+02    -1.823266627447041e+01   -1.400400438842236e+02   
7.076000000000000e+09    -1.740021527971500e+01   -1.434236925602573e+02   -2.546166711528828e+01   1.701166709150444e+02    -2.545599806700655e+01   1.708160019141062e+02    -1.820195192731532e+01   -1.398035384913131e+02   
7.077000000000000e+09    -1.738701626454324e+01   -1.434702288948291e+02   -2.549375011737133e+01   1.692340175755936e+02    -2.546530132620256e+01   1.699135277147933e+02    -1.816332776002246e+01   -1.396382600961816e+02   
7.078000000000000e+09    -1.738232454814072e+01   -1.434581567194437e+02   -2.551539784271970e+01   1.687172709374773e+02    -2.547328107757237e+01   1.691845537220959e+02    -1.813958539466486e+01   -1.394923722928785e+02   
7.079000000000000e+09    -1.737682721638026e+01   -1.434792740389255e+02   -2.553766483649736e+01   1.679283059589321e+02    -2.550518750603839e+01   1.685935027818761e+02    -1.810797053267231e+01   -1.392323946767278e+02   
7.080000000000000e+09    -1.737031659866278e+01   -1.435770985110016e+02   -2.554727831943724e+01   1.672420808907655e+02    -2.553865722800661e+01   1.677635797639174e+02    -1.808702081580243e+01   -1.390034731051085e+02   
7.081000000000000e+09    -1.736831157652230e+01   -1.435724418092815e+02   -2.557415854536825e+01   1.665466034839134e+02    -2.555422413812249e+01   1.670801346508478e+02    -1.806928778125502e+01   -1.388210919210084e+02   
7.082000000000000e+09    -1.736983606407720e+01   -1.436196867529227e+02   -2.561383833300473e+01   1.658112057595708e+02    -2.557236648125299e+01   1.663053174067393e+02    -1.804965989813436e+01   -1.386048554898290e+02   
7.083000000000000e+09    -1.737065454425102e+01   -1.436263088004436e+02   -2.563118295709459e+01   1.651294254138417e+02    -2.560645643834643e+01   1.656196088055761e+02    -1.803114355213149e+01   -1.383806930907838e+02   
7.084000000000000e+09    -1.737134349080680e+01   -1.436973939490994e+02   -2.566731261479777e+01   1.643245969508557e+02    -2.560599579625189e+01   1.649448105325668e+02    -1.802162034947485e+01   -1.381828547380736e+02   
