[Version] 2.0
! Rohde & Schwarz Vector Network Analyzer
! Rohde-Schwarz,ZNL20-2Port,1323001220200009,1.71.1.10-23.02.1.238
! 
! Port Assignments:
! Nominal Port -> Actual Test Port
! --------------------------------
!   1 -> 1
!   2 -> 2

! Created: GMT+3 2024-09-24 15:08:02

# Hz S DB R 50

[Number of Ports] 2
[Two-Port Data Order] 21_12
[Number of Frequencies] 6001

[Network Data] 
! freq[Hz]               S11[mag dB]              S11[ang]                 S21[mag dB]              S21[ang]                 S12[mag dB]              S12[ang]                 S22[mag dB]              S22[ang]                 
7.000000000000000e+09    -1.897276930202808e+01   -1.475493885094328e+02   -2.517685331200854e+01   -1.375265686701296e+02   -2.519214820882071e+01   -1.368574011991693e+02   -2.122645661180140e+01   -1.405799428678321e+02   
7.001000000000000e+09    -1.896072422208245e+01   -1.473555466612654e+02   -2.517334990821210e+01   -1.381652588216188e+02   -2.519784586873748e+01   -1.374921130045705e+02   -2.126289922812629e+01   -1.401193761489835e+02   
7.002000000000000e+09    -1.895359244057187e+01   -1.471957826572195e+02   -2.517407496759038e+01   -1.387941239943824e+02   -2.519075032476130e+01   -1.382051194808918e+02   -2.129275708987707e+01   -1.396552847231398e+02   
7.003000000000000e+09    -1.895505609415171e+01   -1.470084141134824e+02   -2.518983762048706e+01   -1.393884344051064e+02   -2.518232719254247e+01   -1.389023838854857e+02   -2.132043224729649e+01   -1.392431322999336e+02   
7.004000000000000e+09    -1.895061952742448e+01   -1.468475186255363e+02   -2.518317573562636e+01   -1.401167424247673e+02   -2.518664148148481e+01   -1.395606825987155e+02   -2.134566955365883e+01   -1.388722178005622e+02   
7.005000000000000e+09    -1.894468995179829e+01   -1.466338670289753e+02   -2.516608729849411e+01   -1.408230334156979e+02   -2.518264128335129e+01   -1.403050387233175e+02   -2.137297103160950e+01   -1.384427358004608e+02   
7.006000000000000e+09    -1.894385814345842e+01   -1.464572652697880e+02   -2.515162502429222e+01   -1.415740811385972e+02   -2.516917063162600e+01   -1.409530463526600e+02   -2.139537100993901e+01   -1.381103574512253e+02   
7.007000000000000e+09    -1.893447199185923e+01   -1.463410484379432e+02   -2.516058914928555e+01   -1.421051902711281e+02   -2.514233519640006e+01   -1.416027248589216e+02   -2.142966593386555e+01   -1.378646245262157e+02   
7.008000000000000e+09    -1.892449456994333e+01   -1.461518370677729e+02   -2.514145918927355e+01   -1.429212525501149e+02   -2.515160397037524e+01   -1.423400752020391e+02   -2.144546285695124e+01   -1.375738307276746e+02   
7.009000000000000e+09    -1.890844630814662e+01   -1.459642207480514e+02   -2.515215058400845e+01   -1.434795342503504e+02   -2.513077826026893e+01   -1.429258548019556e+02   -2.147230343906251e+01   -1.372802678334722e+02   
7.010000000000000e+09    -1.889979547318199e+01   -1.458524127816990e+02   -2.514976042449684e+01   -1.441919126639616e+02   -2.513721078570165e+01   -1.436481693674217e+02   -2.148911992549221e+01   -1.371880249292020e+02   
7.011000000000000e+09    -1.888989580656502e+01   -1.456250804576889e+02   -2.514193038271945e+01   -1.447170081016958e+02   -2.512559535215279e+01   -1.443498897414057e+02   -2.149701579841359e+01   -1.370179991323095e+02   
7.012000000000000e+09    -1.887230232405933e+01   -1.455114977963724e+02   -2.514667495572286e+01   -1.454727069581805e+02   -2.513274000888342e+01   -1.448950671635034e+02   -2.151186700222631e+01   -1.368875489338114e+02   
7.013000000000000e+09    -1.886023446142434e+01   -1.453466258666386e+02   -2.512494167240875e+01   -1.459829494310076e+02   -2.513056878298718e+01   -1.456865602514280e+02   -2.152971745257383e+01   -1.367931175604964e+02   
7.014000000000000e+09    -1.885381230910386e+01   -1.452368656797472e+02   -2.513359846122551e+01   -1.467427681002168e+02   -2.512598406013016e+01   -1.463389194862822e+02   -2.154566776319285e+01   -1.367499967368312e+02   
7.015000000000000e+09    -1.884345944541172e+01   -1.450966722904984e+02   -2.512409113032513e+01   -1.474867024712157e+02   -2.511615352116998e+01   -1.469483604458924e+02   -2.155384817925383e+01   -1.366735785341462e+02   
7.016000000000000e+09    -1.882253484832586e+01   -1.449234849560785e+02   -2.512670441851112e+01   -1.479667995229363e+02   -2.512467112182168e+01   -1.475946918398815e+02   -2.155523021997359e+01   -1.366453290449272e+02   
7.017000000000000e+09    -1.881541859120343e+01   -1.448211423956269e+02   -2.511751681387066e+01   -1.487181593613911e+02   -2.510443493454627e+01   -1.484290045356532e+02   -2.155747984750512e+01   -1.366958288049110e+02   
7.018000000000000e+09    -1.879338101243680e+01   -1.447630454476027e+02   -2.512207551080295e+01   -1.493229953866021e+02   -2.510483978505770e+01   -1.490465254637859e+02   -2.155253810562375e+01   -1.366951010687932e+02   
7.019000000000000e+09    -1.878418560264485e+01   -1.446012321194021e+02   -2.511162945229186e+01   -1.500744047846348e+02   -2.510580685958979e+01   -1.496608091308048e+02   -2.153870612241113e+01   -1.366476476559711e+02   
7.020000000000000e+09    -1.876715938385308e+01   -1.445194764356296e+02   -2.510931435049666e+01   -1.506564782366883e+02   -2.510715111112849e+01   -1.504451212138702e+02   -2.153987392738730e+01   -1.367626246075596e+02   
7.021000000000000e+09    -1.875781879152111e+01   -1.444732528590631e+02   -2.508111923990117e+01   -1.514222362035516e+02   -2.509343901102087e+01   -1.511223772862451e+02   -2.151889979214051e+01   -1.368854003667725e+02   
7.022000000000000e+09    -1.873236586204192e+01   -1.444088192224821e+02   -2.508660841938534e+01   -1.520346230596718e+02   -2.508829389513339e+01   -1.518461557658778e+02   -2.150954695601059e+01   -1.368308053016704e+02   
7.023000000000000e+09    -1.871893615445669e+01   -1.442585337247622e+02   -2.509337493714968e+01   -1.526700981462225e+02   -2.508567664880337e+01   -1.525594026666129e+02   -2.148994621298407e+01   -1.370873820023350e+02   
7.024000000000000e+09    -1.870120110151903e+01   -1.442505151238128e+02   -2.508540766202634e+01   -1.534092761704877e+02   -2.509387897709179e+01   -1.532605609653983e+02   -2.146107617204528e+01   -1.371729964483605e+02   
7.025000000000000e+09    -1.868423077304094e+01   -1.441796926363148e+02   -2.510461328676499e+01   -1.539865565280998e+02   -2.509801538033995e+01   -1.540044846717361e+02   -2.144082907697380e+01   -1.372104722501002e+02   
7.026000000000000e+09    -1.867046907247941e+01   -1.441445362394505e+02   -2.509514942106698e+01   -1.546804859149655e+02   -2.508463179986900e+01   -1.545998465653983e+02   -2.139448358817400e+01   -1.374191667389155e+02   
7.027000000000000e+09    -1.864388336602929e+01   -1.440510038111848e+02   -2.509318375309722e+01   -1.553529520760806e+02   -2.509782434066148e+01   -1.551990132798458e+02   -2.136331235847926e+01   -1.375662715656712e+02   
7.028000000000000e+09    -1.861472058866565e+01   -1.440379747680333e+02   -2.508142551316967e+01   -1.561771290100959e+02   -2.509872048596723e+01   -1.559568606710455e+02   -2.132897800427631e+01   -1.377893298593251e+02   
7.029000000000000e+09    -1.859721333213284e+01   -1.439835247622978e+02   -2.509593149770207e+01   -1.568209845203476e+02   -2.509582571168507e+01   -1.566902233497260e+02   -2.130032390335023e+01   -1.379574704944239e+02   
7.030000000000000e+09    -1.856285920730030e+01   -1.439847825278630e+02   -2.508331278237306e+01   -1.574550684685431e+02   -2.511678186034113e+01   -1.572999967461725e+02   -2.124824937369244e+01   -1.380556806894525e+02   
7.031000000000000e+09    -1.854398819655220e+01   -1.439489600558356e+02   -2.508852409063811e+01   -1.580725133441159e+02   -2.510186643074844e+01   -1.580163465290176e+02   -2.121103913347440e+01   -1.382067099541133e+02   
7.032000000000000e+09    -1.851553683969556e+01   -1.439352428464805e+02   -2.509147472027297e+01   -1.588242710001382e+02   -2.510347209934519e+01   -1.586744430373046e+02   -2.117364231431149e+01   -1.384770705760054e+02   
7.033000000000000e+09    -1.848493481752875e+01   -1.439360416340787e+02   -2.510158565557099e+01   -1.593086132444037e+02   -2.511423376761390e+01   -1.594395116630922e+02   -2.111477587926353e+01   -1.386814426913240e+02   
7.034000000000000e+09    -1.846026928249135e+01   -1.439290444450510e+02   -2.509347015623938e+01   -1.602230113703090e+02   -2.510044691487037e+01   -1.600841449893128e+02   -2.106511171744365e+01   -1.388687903862915e+02   
7.035000000000000e+09    -1.843497207712063e+01   -1.439478996797837e+02   -2.510674164937237e+01   -1.608518575065091e+02   -2.512620365931017e+01   -1.608514454842910e+02   -2.100909525521705e+01   -1.389841031285816e+02   
7.036000000000000e+09    -1.840322651923680e+01   -1.439542123962480e+02   -2.509549568484362e+01   -1.614429448713649e+02   -2.512572604470246e+01   -1.614474207633810e+02   -2.096824866452969e+01   -1.391653096821058e+02   
7.037000000000000e+09    -1.837335667389478e+01   -1.439911745613092e+02   -2.511192454614765e+01   -1.621573682598066e+02   -2.512269683291102e+01   -1.621216490049833e+02   -2.090260924810862e+01   -1.393454002805776e+02   
7.038000000000000e+09    -1.834007311606761e+01   -1.439972591473634e+02   -2.510333581426233e+01   -1.628712502810177e+02   -2.511902990814336e+01   -1.627806475136165e+02   -2.083824888220658e+01   -1.395435464347055e+02   
7.039000000000000e+09    -1.829795298265867e+01   -1.439325305000726e+02   -2.510795107168081e+01   -1.634454802383814e+02   -2.512763910269447e+01   -1.633429187203623e+02   -2.078421723896351e+01   -1.396827091416545e+02   
7.040000000000000e+09    -1.827239692033365e+01   -1.439507770391964e+02   -2.512041499011343e+01   -1.641484807487801e+02   -2.513741761580864e+01   -1.640599016594543e+02   -2.070491201026313e+01   -1.398854520309727e+02   
7.041000000000000e+09    -1.823997918504264e+01   -1.439495612418301e+02   -2.511653643966336e+01   -1.649342968712486e+02   -2.514936680065975e+01   -1.647799545197199e+02   -2.064284951794484e+01   -1.399180302952512e+02   
7.042000000000000e+09    -1.820123385710137e+01   -1.439437028208956e+02   -2.512059605143708e+01   -1.656144497367175e+02   -2.514502537356041e+01   -1.654034102712471e+02   -2.058877476400213e+01   -1.401239123146880e+02   
7.043000000000000e+09    -1.816730925458845e+01   -1.440021384132029e+02   -2.513315558631871e+01   -1.662663480794004e+02   -2.514113094052732e+01   -1.661329680284016e+02   -2.051582973680824e+01   -1.403479568676522e+02   
7.044000000000000e+09    -1.812812564058505e+01   -1.439090100603347e+02   -2.512464993126860e+01   -1.667925385533996e+02   -2.516978833352184e+01   -1.667433047721921e+02   -2.043033889849879e+01   -1.404803772365093e+02   
7.045000000000000e+09    -1.809481238335310e+01   -1.439841898934257e+02   -2.513443713473531e+01   -1.675981628985132e+02   -2.515597201322312e+01   -1.674220109438056e+02   -2.036727131248223e+01   -1.405937577271726e+02   
7.046000000000000e+09    -1.805576094247605e+01   -1.439989525162989e+02   -2.515759839053980e+01   -1.683718137190845e+02   -2.516156178321394e+01   -1.681910242339523e+02   -2.028535181601564e+01   -1.407429440213312e+02   
7.047000000000000e+09    -1.801742893974444e+01   -1.439342345504930e+02   -2.514731455107335e+01   -1.688819595301721e+02   -2.517345147060495e+01   -1.688178031498158e+02   -2.021644615466892e+01   -1.408665005619666e+02   
7.048000000000000e+09    -1.798352862715401e+01   -1.439571102617451e+02   -2.515964427950599e+01   -1.695356445460337e+02   -2.518821651532804e+01   -1.693903305849121e+02   -2.014233281265686e+01   -1.409710841030214e+02   
7.049000000000000e+09    -1.795977533623558e+01   -1.439377896897571e+02   -2.516343033612916e+01   -1.703263270866363e+02   -2.518672089906649e+01   -1.700887946470600e+02   -2.006358388144772e+01   -1.410587073710173e+02   
7.050000000000000e+09    -1.791429761603096e+01   -1.439163204961073e+02   -2.518933256300342e+01   -1.710266469089836e+02   -2.519010299505528e+01   -1.707116576785434e+02   -1.997753532053487e+01   -1.411452143723731e+02   
7.051000000000000e+09    -1.788311850674188e+01   -1.439069547168675e+02   -2.517868042341554e+01   -1.716502220012007e+02   -2.519825199372650e+01   -1.714363174541358e+02   -1.990308374745397e+01   -1.412587184843755e+02   
7.052000000000000e+09    -1.786183715994141e+01   -1.438202116381800e+02   -2.518592779028865e+01   -1.724312088761513e+02   -2.520710142084724e+01   -1.719048406737707e+02   -1.983164033878734e+01   -1.413220567154737e+02   
7.053000000000000e+09    -1.782730845329362e+01   -1.438556343554359e+02   -2.520097076091726e+01   -1.729394789585431e+02   -2.521255350153791e+01   -1.727028225699837e+02   -1.975274428673215e+01   -1.413314275331957e+02   
7.054000000000000e+09    -1.780188744831549e+01   -1.438291861348071e+02   -2.520179640493661e+01   -1.737143763473203e+02   -2.522922791343170e+01   -1.733747818670323e+02   -1.966856013143889e+01   -1.413906612828245e+02   
7.055000000000000e+09    -1.778364742013269e+01   -1.437656049480945e+02   -2.520694886132164e+01   -1.743971306210951e+02   -2.522650242828294e+01   -1.741708580155225e+02   -1.958718758539516e+01   -1.414104500487477e+02   
7.056000000000000e+09    -1.775419582939954e+01   -1.436990636751150e+02   -2.521198151751023e+01   -1.750605007075624e+02   -2.522963233485261e+01   -1.747943719712337e+02   -1.950370182724892e+01   -1.414289717169671e+02   
7.057000000000000e+09    -1.772795138875786e+01   -1.436146108407333e+02   -2.523535411867945e+01   -1.758148801968038e+02   -2.523523468348569e+01   -1.754204788997360e+02   -1.942123776583000e+01   -1.414962705491569e+02   
7.058000000000000e+09    -1.770291970841425e+01   -1.436236716609494e+02   -2.523420039055893e+01   -1.765320898214694e+02   -2.526127781318385e+01   -1.761702369498148e+02   -1.934895580180886e+01   -1.414580719079401e+02   
7.059000000000000e+09    -1.767640337735619e+01   -1.435700790851224e+02   -2.524784431670859e+01   -1.771694079082014e+02   -2.525146650336964e+01   -1.768542372841048e+02   -1.926329189266158e+01   -1.413766131443978e+02   
7.060000000000000e+09    -1.766078005096183e+01   -1.434837488511401e+02   -2.524924318419389e+01   -1.779375917917936e+02   -2.526259350516404e+01   -1.775465100421029e+02   -1.919317166174546e+01   -1.414592400282034e+02   
7.061000000000000e+09    -1.764375639331292e+01   -1.434076237255268e+02   -2.525834174416791e+01   -1.787244141122815e+02   -2.525528919906530e+01   -1.782823450052574e+02   -1.911471396915211e+01   -1.413727995124128e+02   
7.062000000000000e+09    -1.762079074218402e+01   -1.433973799561576e+02   -2.528501674161966e+01   -1.792938665657991e+02   -2.529516021524341e+01   -1.789541526744512e+02   -1.904311180761117e+01   -1.413398703130083e+02   
7.063000000000000e+09    -1.759214184985175e+01   -1.433349117512053e+02   -2.527596587525916e+01   1.798653229778042e+02    -2.530371564022497e+01   -1.797545355241741e+02   -1.895745520981666e+01   -1.412170486171202e+02   
7.064000000000000e+09    -1.758273631974788e+01   -1.432554570893564e+02   -2.530286636699003e+01   1.792479824781806e+02    -2.530098619434407e+01   1.797597185369778e+02    -1.888734655350569e+01   -1.411498080415737e+02   
7.065000000000000e+09    -1.756091957507651e+01   -1.432584527954575e+02   -2.531633545240348e+01   1.785079878097516e+02    -2.534135681284528e+01   1.789582801554508e+02    -1.882537488237130e+01   -1.410925705728704e+02   
7.066000000000000e+09    -1.754532971642818e+01   -1.431510305990095e+02   -2.533951419724335e+01   1.778361560331918e+02    -2.534269527842138e+01   1.782880014412211e+02    -1.875230100174191e+01   -1.409588033684499e+02   
7.067000000000000e+09    -1.752862974836959e+01   -1.431527997722401e+02   -2.533885766149589e+01   1.771020813437595e+02    -2.535283697414405e+01   1.774767432280786e+02    -1.868266156067875e+01   -1.408172335636256e+02   
7.068000000000000e+09    -1.750488449591202e+01   -1.431563655712070e+02   -2.535402853100052e+01   1.764658609783685e+02    -2.537762668900866e+01   1.768761278844038e+02    -1.862606760215185e+01   -1.406705161426026e+02   
7.069000000000000e+09    -1.749872097465025e+01   -1.431211933214804e+02   -2.538643192193513e+01   1.756815295684239e+02    -2.538369084067903e+01   1.762623948108078e+02    -1.856646349485768e+01   -1.405533875864697e+02   
7.070000000000000e+09    -1.748831295752989e+01   -1.430942937211737e+02   -2.539266523303072e+01   1.752580221153985e+02    -2.540637421644310e+01   1.753789262248918e+02    -1.851247698250360e+01   -1.403930350624632e+02   
7.071000000000000e+09    -1.747058913506907e+01   -1.430684663168129e+02   -2.540338400216754e+01   1.744364729655156e+02    -2.542106375699800e+01   1.748068138977089e+02    -1.845465549573640e+01   -1.402167415900912e+02   
7.072000000000000e+09    -1.746428936005230e+01   -1.430653033908361e+02   -2.541648086657045e+01   1.736745336514740e+02    -2.544887342491832e+01   1.740702957650148e+02    -1.840517019540975e+01   -1.400199047218678e+02   
7.073000000000000e+09    -1.745159657151411e+01   -1.430832031046133e+02   -2.545485551096208e+01   1.730834849846516e+02    -2.547042924290929e+01   1.733808507375578e+02    -1.835942317883190e+01   -1.398669754708380e+02   
7.074000000000000e+09    -1.744066630316119e+01   -1.430673842142838e+02   -2.546084743989153e+01   1.724203941362511e+02    -2.546275240394022e+01   1.728090816300479e+02    -1.831217337632139e+01   -1.396249926983444e+02   
7.075000000000000e+09    -1.742648165106533e+01   -1.430870571512935e+02   -2.549429167307060e+01   1.717346092858090e+02    -2.547677741739188e+01   1.721270437641698e+02    -1.827496776027652e+01   -1.394583928509609e+02   
7.076000000000000e+09    -1.741908775318102e+01   -1.430325481564719e+02   -2.549865508667116e+01   1.711352665665468e+02    -2.550862110879208e+01   1.715021316256263e+02    -1.823508558294665e+01   -1.392061619455014e+02   
7.077000000000000e+09    -1.740431365462577e+01   -1.430344910560710e+02   -2.551464969280708e+01   1.702435678650455e+02    -2.550885654058545e+01   1.706015370230819e+02    -1.819617743808506e+01   -1.390121307699724e+02   
7.078000000000000e+09    -1.739640442499148e+01   -1.430704880380958e+02   -2.553165861214072e+01   1.696705081648433e+02    -2.553413440785855e+01   1.698998772731059e+02    -1.815802374272871e+01   -1.388034154779360e+02   
7.079000000000000e+09    -1.737863068855444e+01   -1.431092233612236e+02   -2.556777830287476e+01   1.689492992418941e+02    -2.556043256703011e+01   1.693461265065375e+02    -1.813254121359888e+01   -1.386027355667465e+02   
7.080000000000000e+09    -1.738663270340105e+01   -1.431444339809802e+02   -2.557408743664664e+01   1.682495232301349e+02    -2.559890541106866e+01   1.685906277372387e+02    -1.810030592593897e+01   -1.384047702911363e+02   
7.081000000000000e+09    -1.737297808440144e+01   -1.432320480338350e+02   -2.559462256130770e+01   1.675942223265045e+02    -2.559709970514433e+01   1.678839234638824e+02    -1.808480595735009e+01   -1.382075135455499e+02   
7.082000000000000e+09    -1.736972953912496e+01   -1.432330754072678e+02   -2.562978966295621e+01   1.668047984449828e+02    -2.561838464712394e+01   1.671681948702031e+02    -1.806249310979828e+01   -1.379410702293613e+02   
7.083000000000000e+09    -1.737456060306210e+01   -1.432424009247997e+02   -2.563356111983927e+01   1.661987343534188e+02    -2.563230689495488e+01   1.663588840384436e+02    -1.804012640569958e+01   -1.377682161463713e+02   
7.084000000000000e+09    -1.736827722208314e+01   -1.433189927438644e+02   -2.566436468935564e+01   1.653658571141383e+02    -2.564722077110524e+01   1.657967119075962e+02    -1.803289148834312e+01   -1.375816451686803e+02   
