[Version] 2.0
! Rohde & Schwarz Vector Network Analyzer
! Rohde-Schwarz,ZNL20-2Port,1323001220200009,1.71.1.10-23.02.1.238
! 
! Port Assignments:
! Nominal Port -> Actual Test Port
! --------------------------------
!   1 -> 1
!   2 -> 2

! Created: GMT+3 2024-09-24 15:08:36

# Hz S DB R 50

[Number of Ports] 2
[Two-Port Data Order] 21_12
[Number of Frequencies] 6001

[Network Data] 
! freq[Hz]               S11[mag dB]              S11[ang]                 S21[mag dB]              S21[ang]                 S12[mag dB]              S12[ang]                 S22[mag dB]              S22[ang]                 
7.000000000000000e+09    -1.904177618152773e+01   -1.477840164400888e+02   -2.525161753331306e+01   -1.366489678545015e+02   -2.526752866563314e+01   -1.360048398191813e+02   -2.130186384894815e+01   -1.410519960022290e+02   
7.001000000000000e+09    -1.903935383352032e+01   -1.475904545062751e+02   -2.523340827945752e+01   -1.374008413951831e+02   -2.526709250119075e+01   -1.367864925842707e+02   -2.133086518065429e+01   -1.405076451518698e+02   
7.002000000000000e+09    -1.903758419912955e+01   -1.474244637104399e+02   -2.523845337792386e+01   -1.380814218792683e+02   -2.527037739617559e+01   -1.374152036672470e+02   -2.136872582826845e+01   -1.401484697962027e+02   
7.003000000000000e+09    -1.902393299605906e+01   -1.472426740332328e+02   -2.524634906754903e+01   -1.385758721294052e+02   -2.525196229545157e+01   -1.381172271888596e+02   -2.140047626682973e+01   -1.397093584404776e+02   
7.004000000000000e+09    -1.902579509556836e+01   -1.470181692823997e+02   -2.523640270061461e+01   -1.392078051858027e+02   -2.525650948204937e+01   -1.388466715179397e+02   -2.142246210451982e+01   -1.392901672121623e+02   
7.005000000000000e+09    -1.902108290551805e+01   -1.468332178623059e+02   -2.522286702702255e+01   -1.399460254515078e+02   -2.525569366977129e+01   -1.394180518477787e+02   -2.145830436500690e+01   -1.389540238794403e+02   
7.006000000000000e+09    -1.901288408919292e+01   -1.466496041219869e+02   -2.523980753104070e+01   -1.406326363615098e+02   -2.526168389954243e+01   -1.401642012955855e+02   -2.148060231103920e+01   -1.386169345603530e+02   
7.007000000000000e+09    -1.900749716006575e+01   -1.464288694261489e+02   -2.522722811366757e+01   -1.412804552802692e+02   -2.523665386691764e+01   -1.407812467056081e+02   -2.150806721864899e+01   -1.382882550528622e+02   
7.008000000000000e+09    -1.900021997493345e+01   -1.462530159284563e+02   -2.520940566090647e+01   -1.419525953534362e+02   -2.524601231838125e+01   -1.415182863550258e+02   -2.154238379365347e+01   -1.380390215958629e+02   
7.009000000000000e+09    -1.898344240216282e+01   -1.460563063428957e+02   -2.522563427137005e+01   -1.425826032685999e+02   -2.523520058153935e+01   -1.421213532517245e+02   -2.156707414951515e+01   -1.378082980619859e+02   
7.010000000000000e+09    -1.897665674661134e+01   -1.459430958741995e+02   -2.522692261783543e+01   -1.432814301785259e+02   -2.523357401071008e+01   -1.428917004297256e+02   -2.158438721936007e+01   -1.376273435791207e+02   
7.011000000000000e+09    -1.895160273175607e+01   -1.457033647374816e+02   -2.521229024980380e+01   -1.438559592381962e+02   -2.523015605342469e+01   -1.434771651264152e+02   -2.160965218211821e+01   -1.374294964610665e+02   
7.012000000000000e+09    -1.894105624653203e+01   -1.455773134293951e+02   -2.521625069276744e+01   -1.445224255589188e+02   -2.523758117198635e+01   -1.442049786765321e+02   -2.162514481280184e+01   -1.372491709357471e+02   
7.013000000000000e+09    -1.893066474166296e+01   -1.454115108815647e+02   -2.520153636760011e+01   -1.451067391695554e+02   -2.522896958488904e+01   -1.448681802254436e+02   -2.163964119824156e+01   -1.371607480704697e+02   
7.014000000000000e+09    -1.892073630022528e+01   -1.453084427167862e+02   -2.521572816905745e+01   -1.458085274648064e+02   -2.524064635608691e+01   -1.453819661876949e+02   -2.165695686401389e+01   -1.370930739225153e+02   
7.015000000000000e+09    -1.890848521944495e+01   -1.452153286359149e+02   -2.522989453652179e+01   -1.464989419263451e+02   -2.523300060735329e+01   -1.459877479374394e+02   -2.165931623340088e+01   -1.369836022686176e+02   
7.016000000000000e+09    -1.889222050260098e+01   -1.450100707906494e+02   -2.521676081773514e+01   -1.469414956126099e+02   -2.521958610379840e+01   -1.465613622616554e+02   -2.166967290969530e+01   -1.369933224706666e+02   
7.017000000000000e+09    -1.888377775294224e+01   -1.448958976014207e+02   -2.520092872507588e+01   -1.476381421174585e+02   -2.521307377704559e+01   -1.473962416920390e+02   -2.167311725419228e+01   -1.369385013612940e+02   
7.018000000000000e+09    -1.887100701733345e+01   -1.448101271469170e+02   -2.520041147014629e+01   -1.482996561332752e+02   -2.521946793381534e+01   -1.479809794886654e+02   -2.167333728527696e+01   -1.369268744613315e+02   
7.019000000000000e+09    -1.885910074217519e+01   -1.446501331072107e+02   -2.519430539104437e+01   -1.490090965251046e+02   -2.520875906259313e+01   -1.487546971394033e+02   -2.166665409302695e+01   -1.369115761568370e+02   
7.020000000000000e+09    -1.883617506843910e+01   -1.445612703146449e+02   -2.519056546202553e+01   -1.495305879670834e+02   -2.520935255003654e+01   -1.494962497156040e+02   -2.165919015714779e+01   -1.370509651480509e+02   
7.021000000000000e+09    -1.883213820026965e+01   -1.445042662956187e+02   -2.516132293922137e+01   -1.503481820323552e+02   -2.518445194544247e+01   -1.499789705053332e+02   -2.165121066417253e+01   -1.370955895359910e+02   
7.022000000000000e+09    -1.880538825192401e+01   -1.444135940368660e+02   -2.518138295091329e+01   -1.509916534229925e+02   -2.519529580312274e+01   -1.507591285665814e+02   -2.164416444869766e+01   -1.370665730850632e+02   
7.023000000000000e+09    -1.879354364841389e+01   -1.443092762298863e+02   -2.518041617164626e+01   -1.516911277372394e+02   -2.518892712514837e+01   -1.513890731235906e+02   -2.161661846508970e+01   -1.371883418033168e+02   
7.024000000000000e+09    -1.877027291693451e+01   -1.442831403655937e+02   -2.517599603221452e+01   -1.524327637233066e+02   -2.518351440271608e+01   -1.521062586880066e+02   -2.159335611970805e+01   -1.372236458634602e+02   
7.025000000000000e+09    -1.875240930828237e+01   -1.441593217327733e+02   -2.517135422967719e+01   -1.529683409233286e+02   -2.518524602367507e+01   -1.527418615742300e+02   -2.157100926216729e+01   -1.373209129462199e+02   
7.026000000000000e+09    -1.873492547614412e+01   -1.441881050167542e+02   -2.517597892692228e+01   -1.536771122418548e+02   -2.519256912397243e+01   -1.534028812351688e+02   -2.152601284901700e+01   -1.374444996512316e+02   
7.027000000000000e+09    -1.872209448156927e+01   -1.441077596753821e+02   -2.517758298913792e+01   -1.543754777311944e+02   -2.518592875966135e+01   -1.540648949101707e+02   -2.149965347585216e+01   -1.375583180385693e+02   
7.028000000000000e+09    -1.868959283437966e+01   -1.440467194220779e+02   -2.517206786177348e+01   -1.550067762247825e+02   -2.518865968468184e+01   -1.546783748368383e+02   -2.146314038368372e+01   -1.377986944356936e+02   
7.029000000000000e+09    -1.867292088834543e+01   -1.440081241049567e+02   -2.518263774211951e+01   -1.557743901698257e+02   -2.518740340813655e+01   -1.554926742210744e+02   -2.142608561970598e+01   -1.378797015042860e+02   
7.030000000000000e+09    -1.864730651097678e+01   -1.439704946777584e+02   -2.516761744753473e+01   -1.563899474720241e+02   -2.519600213772583e+01   -1.560833329445893e+02   -2.138249676874994e+01   -1.379690589957043e+02   
7.031000000000000e+09    -1.862334216154669e+01   -1.439766908476996e+02   -2.515846620702231e+01   -1.569310849672886e+02   -2.519096986135512e+01   -1.568471011974738e+02   -2.133822215825155e+01   -1.382393280409278e+02   
7.032000000000000e+09    -1.859294741170208e+01   -1.439383443143349e+02   -2.517035589593658e+01   -1.576951839476359e+02   -2.520379665467976e+01   -1.573711504827565e+02   -2.130743830794359e+01   -1.383509443792532e+02   
7.033000000000000e+09    -1.857064619154152e+01   -1.439507943052115e+02   -2.517682796484631e+01   -1.582335436628993e+02   -2.520591126919613e+01   -1.582417683205677e+02   -2.124810578717489e+01   -1.385979799153452e+02   
7.034000000000000e+09    -1.854228707867320e+01   -1.439341699904386e+02   -2.517211532896563e+01   -1.588980542024222e+02   -2.520435197616607e+01   -1.588601856914514e+02   -2.120213956451643e+01   -1.387452679878794e+02   
7.035000000000000e+09    -1.851481438584715e+01   -1.439091865073105e+02   -2.518078073064319e+01   -1.596571781547530e+02   -2.521065824390680e+01   -1.595342038900496e+02   -2.114001975698848e+01   -1.388339915295286e+02   
7.036000000000000e+09    -1.848844822132881e+01   -1.438641628064756e+02   -2.518881954530648e+01   -1.601605228204517e+02   -2.519578973052513e+01   -1.601522019559298e+02   -2.109074660873343e+01   -1.390138858016809e+02   
7.037000000000000e+09    -1.845341897949175e+01   -1.438853492547585e+02   -2.517011648350805e+01   -1.609800387419039e+02   -2.520220559156513e+01   -1.607298172037030e+02   -2.102626096942448e+01   -1.390703531554047e+02   
7.038000000000000e+09    -1.841812338529131e+01   -1.437992211658021e+02   -2.518162868867346e+01   -1.616100578961099e+02   -2.520688702505513e+01   -1.615100802416943e+02   -2.095027951017518e+01   -1.393312642368773e+02   
7.039000000000000e+09    -1.837827877873186e+01   -1.437867036039740e+02   -2.517053782550386e+01   -1.623020510709993e+02   -2.521338212407471e+01   -1.619398113330614e+02   -2.089716426299859e+01   -1.394671524879219e+02   
7.040000000000000e+09    -1.834456362643331e+01   -1.438057417368535e+02   -2.519111115705618e+01   -1.628816589486070e+02   -2.520708374876852e+01   -1.627777452449386e+02   -2.081975786554943e+01   -1.395906571688457e+02   
7.041000000000000e+09    -1.832218022839938e+01   -1.438134778599565e+02   -2.519003457097080e+01   -1.635469458831216e+02   -2.522370921744753e+01   -1.633956602235849e+02   -2.076029402093659e+01   -1.397127230920711e+02   
7.042000000000000e+09    -1.827733516872830e+01   -1.438232206338075e+02   -2.519401428628457e+01   -1.643057188546888e+02   -2.521920264564893e+01   -1.639828448098688e+02   -2.069493125959281e+01   -1.399129476892363e+02   
7.043000000000000e+09    -1.824523843366285e+01   -1.438137341773183e+02   -2.519546573816792e+01   -1.650972025969660e+02   -2.522091328295300e+01   -1.647056074741433e+02   -2.062258970941854e+01   -1.400614589210342e+02   
7.044000000000000e+09    -1.820041856488919e+01   -1.437578352012655e+02   -2.520449099764382e+01   -1.656411689220965e+02   -2.523548144529103e+01   -1.653817003390167e+02   -2.053195112545037e+01   -1.402050418627521e+02   
7.045000000000000e+09    -1.816859469408550e+01   -1.437029609436577e+02   -2.519265323542819e+01   -1.662972501517811e+02   -2.521748010348957e+01   -1.660235931798106e+02   -2.047006667555341e+01   -1.402756639447666e+02   
7.046000000000000e+09    -1.812825091286538e+01   -1.437393756787164e+02   -2.522163360631777e+01   -1.670490478131261e+02   -2.523856387368000e+01   -1.667447050878997e+02   -2.038367788339849e+01   -1.404360010160453e+02   
7.047000000000000e+09    -1.808914747915543e+01   -1.436770997043922e+02   -2.521692034432895e+01   -1.675789948929517e+02   -2.525384186599856e+01   -1.672625843800146e+02   -2.030673505870855e+01   -1.405477874143631e+02   
7.048000000000000e+09    -1.805350835943053e+01   -1.436972234266962e+02   -2.522576116816029e+01   -1.683285934946360e+02   -2.526226925118659e+01   -1.679805030974988e+02   -2.022830328568940e+01   -1.405772216455939e+02   
7.049000000000000e+09    -1.801913412947701e+01   -1.436361397070535e+02   -2.522164277368780e+01   -1.689691295023511e+02   -2.524919829085020e+01   -1.685757337496364e+02   -2.014470879381139e+01   -1.407287756432601e+02   
7.050000000000000e+09    -1.798673212388869e+01   -1.436174470175366e+02   -2.524014875693968e+01   -1.696550546358545e+02   -2.526939517908601e+01   -1.692266297660189e+02   -2.005596018872622e+01   -1.407890711764120e+02   
7.051000000000000e+09    -1.795428050696787e+01   -1.435966206239248e+02   -2.523870119600389e+01   -1.702933985387690e+02   -2.526079513704362e+01   -1.699472243404962e+02   -1.997041976404886e+01   -1.409626127065218e+02   
7.052000000000000e+09    -1.792244029571477e+01   -1.435691434066659e+02   -2.524069771449410e+01   -1.708985976987240e+02   -2.525573317358987e+01   -1.704291188669967e+02   -1.990430646867692e+01   -1.409555355308597e+02   
7.053000000000000e+09    -1.788839372869894e+01   -1.435332236859825e+02   -2.526694925616719e+01   -1.715045025301770e+02   -2.526582308746422e+01   -1.712078214650726e+02   -1.982528210523327e+01   -1.410443604522959e+02   
7.054000000000000e+09    -1.786531437228879e+01   -1.434382152379118e+02   -2.523989112150949e+01   -1.722426421330001e+02   -2.528441326518719e+01   -1.718730420112691e+02   -1.973509323194076e+01   -1.410434408503451e+02   
7.055000000000000e+09    -1.783379678370875e+01   -1.434538071998092e+02   -2.525684927203841e+01   -1.730039416194189e+02   -2.527122548711053e+01   -1.725026651483508e+02   -1.965190538824752e+01   -1.410981680222430e+02   
7.056000000000000e+09    -1.780756324506152e+01   -1.433741318850852e+02   -2.526054749481782e+01   -1.735213291763928e+02   -2.526942029174596e+01   -1.730721307130135e+02   -1.956947941941606e+01   -1.411028446781953e+02   
7.057000000000000e+09    -1.778234005158243e+01   -1.432937053065682e+02   -2.528187158378646e+01   -1.743666480337513e+02   -2.528193701539733e+01   -1.738779079440039e+02   -1.948720467374586e+01   -1.411469862978712e+02   
7.058000000000000e+09    -1.775352931731162e+01   -1.432337122207657e+02   -2.527592891353124e+01   -1.749883673152331e+02   -2.528777669105707e+01   -1.745318336880227e+02   -1.941973040709624e+01   -1.410851432051809e+02   
7.059000000000000e+09    -1.773181333382409e+01   -1.431688734978327e+02   -2.528549451109733e+01   -1.756405332646274e+02   -2.529462621917574e+01   -1.752470142329561e+02   -1.933621330925217e+01   -1.410625372729899e+02   
7.060000000000000e+09    -1.771013980434338e+01   -1.431293379123425e+02   -2.528212275583211e+01   -1.763576595066353e+02   -2.530681479138600e+01   -1.758227883231907e+02   -1.925363341067772e+01   -1.410729525296882e+02   
7.061000000000000e+09    -1.768616648059131e+01   -1.430515412547041e+02   -2.530509701070378e+01   -1.771905135177546e+02   -2.529865065767864e+01   -1.765618683690721e+02   -1.917753645586309e+01   -1.409753586248761e+02   
7.062000000000000e+09    -1.766441165009409e+01   -1.429661200031186e+02   -2.531355910347523e+01   -1.778526593765514e+02   -2.532312717987640e+01   -1.772852587903204e+02   -1.909199076276203e+01   -1.409173171514816e+02   
7.063000000000000e+09    -1.764341767391805e+01   -1.429261952590371e+02   -2.531818425843509e+01   -1.784262871109657e+02   -2.534029636937867e+01   -1.779736242544111e+02   -1.901673038542154e+01   -1.408587133147076e+02   
7.064000000000000e+09    -1.763075860763547e+01   -1.428537465582505e+02   -2.532446921492194e+01   -1.791333063405480e+02   -2.532119314864940e+01   -1.785154426494128e+02   -1.894330790714378e+01   -1.407095323452416e+02   
7.065000000000000e+09    -1.760322126349812e+01   -1.428284849270256e+02   -2.532922681466489e+01   -1.797995712597814e+02   -2.535397566771900e+01   -1.792488564732033e+02   -1.887411346010811e+01   -1.406327704519944e+02   
7.066000000000000e+09    -1.758156663667279e+01   -1.427732619007176e+02   -2.536214882038328e+01   1.794722961862730e+02    -2.534886726598850e+01   1.799975764143669e+02    -1.880056287925718e+01   -1.405375552983747e+02   
7.067000000000000e+09    -1.756902500819010e+01   -1.427135727144281e+02   -2.536022312555777e+01   1.787341473669063e+02    -2.534634470902283e+01   1.793450765796901e+02    -1.872915915715506e+01   -1.403865220177251e+02   
7.068000000000000e+09    -1.754564466962244e+01   -1.427388844592502e+02   -2.535693464487072e+01   1.781301915606851e+02    -2.537710752652155e+01   1.787418321672547e+02    -1.866179175331840e+01   -1.402392818385622e+02   
7.069000000000000e+09    -1.752742745104669e+01   -1.427378475908138e+02   -2.537013249562155e+01   1.774262971535557e+02    -2.537501983865058e+01   1.779268268737177e+02    -1.860787916343798e+01   -1.401309191518079e+02   
7.070000000000000e+09    -1.752321041344201e+01   -1.426651470904664e+02   -2.538096450896929e+01   1.768215920130801e+02    -2.538815833039549e+01   1.771743569640000e+02    -1.853707014847909e+01   -1.399077983112380e+02   
7.071000000000000e+09    -1.750292708601377e+01   -1.427226346111129e+02   -2.541610762706970e+01   1.760655061107500e+02    -2.540069120711185e+01   1.765891625242939e+02    -1.848520755609653e+01   -1.398005916347499e+02   
7.072000000000000e+09    -1.749903863859516e+01   -1.426751432687053e+02   -2.540406503355445e+01   1.754489549165873e+02    -2.541867667569430e+01   1.758166927485552e+02    -1.843496304417005e+01   -1.396555550899637e+02   
7.073000000000000e+09    -1.748601580897880e+01   -1.426684687461534e+02   -2.545029087297612e+01   1.747134336946818e+02    -2.543403264587118e+01   1.751258697023809e+02    -1.838209307854756e+01   -1.394486311141937e+02   
7.074000000000000e+09    -1.747378518277071e+01   -1.426206142705476e+02   -2.544853542354080e+01   1.739932212332905e+02    -2.543284079451612e+01   1.744383119253776e+02    -1.833504624635392e+01   -1.392375549951558e+02   
7.075000000000000e+09    -1.745579113422134e+01   -1.426828094953258e+02   -2.546349848061892e+01   1.732930609867424e+02    -2.544312468551782e+01   1.738147638954623e+02    -1.829397495112867e+01   -1.390450596529509e+02   
7.076000000000000e+09    -1.745060184690292e+01   -1.426422550172666e+02   -2.548319278275246e+01   1.726861604885787e+02    -2.546660397674866e+01   1.730502683748950e+02    -1.825200834401304e+01   -1.387944339953699e+02   
7.077000000000000e+09    -1.743189726335924e+01   -1.426609391806483e+02   -2.549470501872003e+01   1.717649548089192e+02    -2.547682902006969e+01   1.722708089100339e+02    -1.821085691566596e+01   -1.385963608850156e+02   
7.078000000000000e+09    -1.742208295839319e+01   -1.426469349000654e+02   -2.549886536611688e+01   1.712451670197776e+02    -2.548147656907785e+01   1.715085512791789e+02    -1.817464864558802e+01   -1.384672023867080e+02   
7.079000000000000e+09    -1.741377756263948e+01   -1.426747011901049e+02   -2.553830965797728e+01   1.704835011622592e+02    -2.551528421253713e+01   1.709612393919550e+02    -1.814374079539083e+01   -1.382122609695712e+02   
7.080000000000000e+09    -1.740561062924849e+01   -1.427312091718538e+02   -2.553332229408541e+01   1.699100584325356e+02    -2.554489082597676e+01   1.701530980080918e+02    -1.811003846381102e+01   -1.380438702881258e+02   
7.081000000000000e+09    -1.739174338051512e+01   -1.427421748037372e+02   -2.555657274654703e+01   1.692032770007330e+02    -2.554808331203402e+01   1.695277726611797e+02    -1.809678242479919e+01   -1.378320599617272e+02   
7.082000000000000e+09    -1.738527099987638e+01   -1.427812335827184e+02   -2.559626973701664e+01   1.684003895138349e+02    -2.556071026287912e+01   1.687048310929483e+02    -1.806916957702110e+01   -1.376082608708339e+02   
7.083000000000000e+09    -1.738926733519082e+01   -1.428217840450106e+02   -2.559406318577038e+01   1.677253140972642e+02    -2.557088442678766e+01   1.680642158197834e+02    -1.805008364547531e+01   -1.374408951945152e+02   
7.084000000000000e+09    -1.738827050662576e+01   -1.428010280943850e+02   -2.562099401480179e+01   1.669552085089835e+02    -2.558039098165462e+01   1.674595517161361e+02    -1.803112080631545e+01   -1.372259773658958e+02   
