[Version] 2.0
! Rohde & Schwarz Vector Network Analyzer
! Rohde-Schwarz,ZNL20-2Port,1323001220200009,1.71.1.10-23.02.1.238
! 
! Port Assignments:
! Nominal Port -> Actual Test Port
! --------------------------------
!   1 -> 1
!   2 -> 2

! Created: GMT+3 2024-09-24 15:09:59

# Hz S DB R 50

[Number of Ports] 2
[Two-Port Data Order] 21_12
[Number of Frequencies] 6001

[Network Data] 
! freq[Hz]               S11[mag dB]              S11[ang]                 S21[mag dB]              S21[ang]                 S12[mag dB]              S12[ang]                 S22[mag dB]              S22[ang]                 
7.000000000000000e+09    -1.915747672484943e+01   -1.480927752081599e+02   -2.540520430528197e+01   -1.344395102215096e+02   -2.533636621612357e+01   -1.338137776197808e+02   -2.138507010577001e+01   -1.417723459988366e+02   
7.001000000000000e+09    -1.915558429822588e+01   -1.478360576867679e+02   -2.539146448067972e+01   -1.350905391760039e+02   -2.533076500282232e+01   -1.344214720766410e+02   -2.142685005214990e+01   -1.413826573607593e+02   
7.002000000000000e+09    -1.915581812473769e+01   -1.476820708751884e+02   -2.539204423968128e+01   -1.357429384238206e+02   -2.533246135269427e+01   -1.352078888443869e+02   -2.147308431672116e+01   -1.408458670457337e+02   
7.003000000000000e+09    -1.915076052021993e+01   -1.474418066397977e+02   -2.539936894904247e+01   -1.362049895131494e+02   -2.530249327825103e+01   -1.359083366823498e+02   -2.149837600961639e+01   -1.404517251467981e+02   
7.004000000000000e+09    -1.914562930433475e+01   -1.472199932082010e+02   -2.538193994157460e+01   -1.369320978800932e+02   -2.530930998190833e+01   -1.366532673330689e+02   -2.152931142979233e+01   -1.400151548810470e+02   
7.005000000000000e+09    -1.914235508137140e+01   -1.469569560371723e+02   -2.536622984752506e+01   -1.376162656096919e+02   -2.529919141158576e+01   -1.372155564687000e+02   -2.157070828727882e+01   -1.396616609485993e+02   
7.006000000000000e+09    -1.914544478513926e+01   -1.467897888870475e+02   -2.535457570444983e+01   -1.382996029728206e+02   -2.528544203531425e+01   -1.379904800708327e+02   -2.160271086919087e+01   -1.392748403320579e+02   
7.007000000000000e+09    -1.912791402401998e+01   -1.465917690664465e+02   -2.536214500623214e+01   -1.389587087804597e+02   -2.527330286570389e+01   -1.386714586259004e+02   -2.162828316033218e+01   -1.390516945638988e+02   
7.008000000000000e+09    -1.911953092180368e+01   -1.464011571992296e+02   -2.534594812119607e+01   -1.397308233358502e+02   -2.527296414186900e+01   -1.393091653132049e+02   -2.165994482694521e+01   -1.387462756336865e+02   
7.009000000000000e+09    -1.911110390363500e+01   -1.462018883808464e+02   -2.535179214651384e+01   -1.403352497055681e+02   -2.525631519296687e+01   -1.400752882532160e+02   -2.168867288948722e+01   -1.385511424837539e+02   
7.010000000000000e+09    -1.910018118734418e+01   -1.460263310292292e+02   -2.533479185916487e+01   -1.409277853731503e+02   -2.525736467530308e+01   -1.407360708826749e+02   -2.171439528507283e+01   -1.382860960191065e+02   
7.011000000000000e+09    -1.908206636908936e+01   -1.458118351689019e+02   -2.532789819241647e+01   -1.414698427916809e+02   -2.526059132236853e+01   -1.413797039030480e+02   -2.173686481768812e+01   -1.380973881510573e+02   
7.012000000000000e+09    -1.907238960014146e+01   -1.456593322240153e+02   -2.533604834393824e+01   -1.421779638333111e+02   -2.526346395013264e+01   -1.420722384402245e+02   -2.175674711422293e+01   -1.379330387439199e+02   
7.013000000000000e+09    -1.906144788578090e+01   -1.454678800683640e+02   -2.531043725246809e+01   -1.427774128923792e+02   -2.524870987116307e+01   -1.428164579793460e+02   -2.178058921893038e+01   -1.378601525845990e+02   
7.014000000000000e+09    -1.904964563296850e+01   -1.453580042366145e+02   -2.531699855535888e+01   -1.434170392761706e+02   -2.523971421755750e+01   -1.434714836450123e+02   -2.180642552033951e+01   -1.376970916779580e+02   
7.015000000000000e+09    -1.904188434377559e+01   -1.452300958115747e+02   -2.532636344837230e+01   -1.441358503926615e+02   -2.523834597113832e+01   -1.440005021314702e+02   -2.179874983325359e+01   -1.376457898134327e+02   
7.016000000000000e+09    -1.901421148251687e+01   -1.449933957201499e+02   -2.531130251805832e+01   -1.446049034047984e+02   -2.524310199213023e+01   -1.447059440634978e+02   -2.181118543261044e+01   -1.375840342933064e+02   
7.017000000000000e+09    -1.901454182179340e+01   -1.448400864284976e+02   -2.529300548235412e+01   -1.453227690535894e+02   -2.522787157780153e+01   -1.455482291747336e+02   -2.182027851816840e+01   -1.375594834643496e+02   
7.018000000000000e+09    -1.898959463772365e+01   -1.447858759669242e+02   -2.529159109534874e+01   -1.459661808407246e+02   -2.523320747153370e+01   -1.461510019907221e+02   -2.182218731514981e+01   -1.375530016945856e+02   
7.019000000000000e+09    -1.898154265197953e+01   -1.445823353253332e+02   -2.527192493338197e+01   -1.466633964293968e+02   -2.522844228605369e+01   -1.467943405987488e+02   -2.181443111696866e+01   -1.374307506359388e+02   
7.020000000000000e+09    -1.896371170764247e+01   -1.444726260582420e+02   -2.526951035766043e+01   -1.472682335302573e+02   -2.522462365703079e+01   -1.476395709596070e+02   -2.182150266200770e+01   -1.375606467304129e+02   
7.021000000000000e+09    -1.895272410773605e+01   -1.443825896145075e+02   -2.524072605158366e+01   -1.479423301505176e+02   -2.520484722292259e+01   -1.482290051988629e+02   -2.180083426805063e+01   -1.375793580905762e+02   
7.022000000000000e+09    -1.892564723971046e+01   -1.442762931287368e+02   -2.525097569963712e+01   -1.487197506995542e+02   -2.520571115784386e+01   -1.489069373422668e+02   -2.180342538806173e+01   -1.375873519027624e+02   
7.023000000000000e+09    -1.891089067872408e+01   -1.441366070949206e+02   -2.523801669029665e+01   -1.493448984369207e+02   -2.521016292299993e+01   -1.497065636773391e+02   -2.177863799598154e+01   -1.376705052862193e+02   
7.024000000000000e+09    -1.889337030318012e+01   -1.441037775976168e+02   -2.523973358848540e+01   -1.499660012905710e+02   -2.522180715146115e+01   -1.503404374594557e+02   -2.175325903279779e+01   -1.377178409476690e+02   
7.025000000000000e+09    -1.887296577238027e+01   -1.439873536823334e+02   -2.523347788134801e+01   -1.506613637524770e+02   -2.522158535371717e+01   -1.510120463640698e+02   -2.173953621125726e+01   -1.378599259520047e+02   
7.026000000000000e+09    -1.885259712415374e+01   -1.439665954608110e+02   -2.523910092573558e+01   -1.512465675263813e+02   -2.523879513524754e+01   -1.517194710543800e+02   -2.169724862089629e+01   -1.379143608692843e+02   
7.027000000000000e+09    -1.883169961867387e+01   -1.438289035098190e+02   -2.523619307429577e+01   -1.519778432459379e+02   -2.521504629860476e+01   -1.522561835855727e+02   -2.166334470749230e+01   -1.379830825078269e+02   
7.028000000000000e+09    -1.880276347012768e+01   -1.437941653302578e+02   -2.521278683034571e+01   -1.526938292912323e+02   -2.522485205989678e+01   -1.530277688177099e+02   -2.163670109505049e+01   -1.381975037328544e+02   
7.029000000000000e+09    -1.878036960960851e+01   -1.437479533470377e+02   -2.522338965157802e+01   -1.533570021009931e+02   -2.521269746888905e+01   -1.537978199626431e+02   -2.160516006675201e+01   -1.383521066599943e+02   
7.030000000000000e+09    -1.874722897332496e+01   -1.436965036351448e+02   -2.519603294839197e+01   -1.541025663682129e+02   -2.522913141372868e+01   -1.543326046787467e+02   -2.156005056511670e+01   -1.384637971772854e+02   
7.031000000000000e+09    -1.872724800764867e+01   -1.437016384176959e+02   -2.519483106307297e+01   -1.546408952206084e+02   -2.521866533201450e+01   -1.550408759459246e+02   -2.152707722222025e+01   -1.385504881813114e+02   
7.032000000000000e+09    -1.869445653172308e+01   -1.436368317251328e+02   -2.518081543921948e+01   -1.554323232200155e+02   -2.522588223083728e+01   -1.556905224563095e+02   -2.148408670872431e+01   -1.387427378769182e+02   
7.033000000000000e+09    -1.866987148853299e+01   -1.436115207841432e+02   -2.519450296224037e+01   -1.559348196965727e+02   -2.523060925409979e+01   -1.565055071287849e+02   -2.143821069786019e+01   -1.388944986175765e+02   
7.034000000000000e+09    -1.864058817065698e+01   -1.435822710193230e+02   -2.519598715396143e+01   -1.567099003593767e+02   -2.522179825398226e+01   -1.570725107515853e+02   -2.138714449665858e+01   -1.389241380152552e+02   
7.035000000000000e+09    -1.861434227533593e+01   -1.435483976404472e+02   -2.519534491336771e+01   -1.573649807777175e+02   -2.524284414857696e+01   -1.577600266571521e+02   -2.132994538338709e+01   -1.390434055738522e+02   
7.036000000000000e+09    -1.857986626705989e+01   -1.435176005519458e+02   -2.520144572398589e+01   -1.579639510585307e+02   -2.523650115650906e+01   -1.584019621682769e+02   -2.128665949362321e+01   -1.392373349933341e+02   
7.037000000000000e+09    -1.854579051558806e+01   -1.435407463660669e+02   -2.519609424040862e+01   -1.586971972855567e+02   -2.523101582569432e+01   -1.590752720651948e+02   -2.123054376941280e+01   -1.393159301410816e+02   
7.038000000000000e+09    -1.851047005552558e+01   -1.435036482350805e+02   -2.519968069308443e+01   -1.593332245029715e+02   -2.523798784616024e+01   -1.597587287696215e+02   -2.115615891288196e+01   -1.394378381321158e+02   
7.039000000000000e+09    -1.846596702081532e+01   -1.434714733570624e+02   -2.518703635325828e+01   -1.599618957932761e+02   -2.524504615732429e+01   -1.603834122370141e+02   -2.109693346032500e+01   -1.396071058104203e+02   
7.040000000000000e+09    -1.843552780709959e+01   -1.434485226083686e+02   -2.518922962161486e+01   -1.606007403794031e+02   -2.524211138708864e+01   -1.609843966975803e+02   -2.103141043574631e+01   -1.397601786717084e+02   
7.041000000000000e+09    -1.840317243784208e+01   -1.434429129393900e+02   -2.518562354977016e+01   -1.613544383865312e+02   -2.525989661905648e+01   -1.615968206272128e+02   -2.096634122417255e+01   -1.397615618038790e+02   
7.042000000000000e+09    -1.835686269923914e+01   -1.434242455647085e+02   -2.518274427334054e+01   -1.620263510761876e+02   -2.526914422945973e+01   -1.622491178961631e+02   -2.090098721124548e+01   -1.398875449496353e+02   
7.043000000000000e+09    -1.833054454403345e+01   -1.434687846464525e+02   -2.519138989316293e+01   -1.627942958345352e+02   -2.525247597996771e+01   -1.629602732695971e+02   -2.081937987536459e+01   -1.400120177719820e+02   
7.044000000000000e+09    -1.827930378606719e+01   -1.434071748193347e+02   -2.518677471235216e+01   -1.633737860379015e+02   -2.526928013254743e+01   -1.635276035921546e+02   -2.074115300525994e+01   -1.401200367409429e+02   
7.045000000000000e+09    -1.824509570524483e+01   -1.433874883335390e+02   -2.517755532361301e+01   -1.640878329959544e+02   -2.525069325226941e+01   -1.642685786020867e+02   -2.067583783104080e+01   -1.401902471350152e+02   
7.046000000000000e+09    -1.820364155000349e+01   -1.433506555940048e+02   -2.519114198695704e+01   -1.647240633641950e+02   -2.527829610835876e+01   -1.649905523392174e+02   -2.059040622328325e+01   -1.403037874049815e+02   
7.047000000000000e+09    -1.816190963252327e+01   -1.433002953338190e+02   -2.519223079957990e+01   -1.653799058764394e+02   -2.527470108263913e+01   -1.655715542968980e+02   -2.051565240337602e+01   -1.403879294132960e+02   
7.048000000000000e+09    -1.811908464805655e+01   -1.433271463959246e+02   -2.519494007615046e+01   -1.661488711653115e+02   -2.528356666900271e+01   -1.661990721860342e+02   -2.043495605403852e+01   -1.403788333423170e+02   
7.049000000000000e+09    -1.809265636964574e+01   -1.432946233131227e+02   -2.519677451660825e+01   -1.668360741879062e+02   -2.528326314573671e+01   -1.669051819038493e+02   -2.034621996003505e+01   -1.404511394616389e+02   
7.050000000000000e+09    -1.805213503359383e+01   -1.432636099227217e+02   -2.520361935565264e+01   -1.675520499883956e+02   -2.529256628264147e+01   -1.674548692001628e+02   -2.024992092607943e+01   -1.405027695365567e+02   
7.051000000000000e+09    -1.801783607719992e+01   -1.432173441397240e+02   -2.520377171313798e+01   -1.682832744169848e+02   -2.529238496725844e+01   -1.681905581751045e+02   -2.017653725919418e+01   -1.405353804658240e+02   
7.052000000000000e+09    -1.798999199975718e+01   -1.432004754005127e+02   -2.519775700353070e+01   -1.689328888599876e+02   -2.528472117419764e+01   -1.687299079678619e+02   -2.010255147796380e+01   -1.406050371435649e+02   
7.053000000000000e+09    -1.795393692281836e+01   -1.431814360682515e+02   -2.521061906160499e+01   -1.694840110715148e+02   -2.531919123007832e+01   -1.694988070967354e+02   -2.001962651388972e+01   -1.405293361835698e+02   
7.054000000000000e+09    -1.792808955466277e+01   -1.431349174343862e+02   -2.520369621192678e+01   -1.703367822702463e+02   -2.530164974024541e+01   -1.702583138062372e+02   -1.991836842009210e+01   -1.405749652012049e+02   
7.055000000000000e+09    -1.790365880511908e+01   -1.430820030193035e+02   -2.521395798751437e+01   -1.709680121347873e+02   -2.531529501239745e+01   -1.708350354374545e+02   -1.982982090137005e+01   -1.405223016598322e+02   
7.056000000000000e+09    -1.787220393778399e+01   -1.429881823562437e+02   -2.521619065970168e+01   -1.716002696893308e+02   -2.530997516309430e+01   -1.714329501891834e+02   -1.974861274516222e+01   -1.405553485986809e+02   
7.057000000000000e+09    -1.784875448437242e+01   -1.429203329066182e+02   -2.522907505341920e+01   -1.723997559293086e+02   -2.531690012864045e+01   -1.721405497295808e+02   -1.965557439874419e+01   -1.406055526905168e+02   
7.058000000000000e+09    -1.782418318081927e+01   -1.428850664513422e+02   -2.522793647098480e+01   -1.730987056554120e+02   -2.533871980914047e+01   -1.727744393707013e+02   -1.958800242841694e+01   -1.405235227588794e+02   
7.059000000000000e+09    -1.779395789668523e+01   -1.427901322250017e+02   -2.523074480719320e+01   -1.737922745131873e+02   -2.532989253975369e+01   -1.735522801371858e+02   -1.949624516433983e+01   -1.404363210543740e+02   
7.060000000000000e+09    -1.777034721621290e+01   -1.427631636932470e+02   -2.524724591073593e+01   -1.744968650336445e+02   -2.533618499113080e+01   -1.741985627872585e+02   -1.941237720738699e+01   -1.404327230947952e+02   
7.061000000000000e+09    -1.775116046726177e+01   -1.426332231121985e+02   -2.525578509734166e+01   -1.752535792732050e+02   -2.533992006029031e+01   -1.748384644438455e+02   -1.933664756757167e+01   -1.403818153375266e+02   
7.062000000000000e+09    -1.772087151154721e+01   -1.425748333125870e+02   -2.527044757752032e+01   -1.758774079832188e+02   -2.534736118375737e+01   -1.755352268602232e+02   -1.924736838664268e+01   -1.402850810661314e+02   
7.063000000000000e+09    -1.769556860412344e+01   -1.425180275933068e+02   -2.526522768374430e+01   -1.766542325241195e+02   -2.538157640201128e+01   -1.762089726164468e+02   -1.916951624974275e+01   -1.401970379343854e+02   
7.064000000000000e+09    -1.768059224688555e+01   -1.424797184153065e+02   -2.528034386563960e+01   -1.772516605735159e+02   -2.536801860343714e+01   -1.768162835994482e+02   -1.908477711569299e+01   -1.399938969308615e+02   
7.065000000000000e+09    -1.766010549807745e+01   -1.424548200573834e+02   -2.527383014360923e+01   -1.779726132117519e+02   -2.540380421738212e+01   -1.775565891361469e+02   -1.901579986726434e+01   -1.399415026135787e+02   
7.066000000000000e+09    -1.764139541820631e+01   -1.424001587825151e+02   -2.529560929558239e+01   -1.786230204617489e+02   -2.540487869124158e+01   -1.781326343653758e+02   -1.894289555976059e+01   -1.398048627704652e+02   
7.067000000000000e+09    -1.761784684628246e+01   -1.423275958658978e+02   -2.530442556214666e+01   -1.795393263348797e+02   -2.539979790102723e+01   -1.788356970280869e+02   -1.886135288335529e+01   -1.396216000082206e+02   
7.068000000000000e+09    -1.759610103089966e+01   -1.422837723031121e+02   -2.531690174308054e+01   1.799509693213270e+02    -2.542203438949693e+01   -1.794500918766366e+02   -1.879150635554013e+01   -1.394672840510126e+02   
7.069000000000000e+09    -1.758806212627665e+01   -1.423042495277340e+02   -2.533248006490015e+01   1.791474907994896e+02    -2.542968436748372e+01   1.799032933118831e+02    -1.872966858382585e+01   -1.393566533361128e+02   
7.070000000000000e+09    -1.757933157474346e+01   -1.422402515949771e+02   -2.533803472486316e+01   1.786072823837028e+02    -2.544020405296829e+01   1.791799487025792e+02    -1.866129521729245e+01   -1.390787518988568e+02   
7.071000000000000e+09    -1.755783198448907e+01   -1.422453541948659e+02   -2.534759262296831e+01   1.777479914806094e+02    -2.543855762875942e+01   1.786111134252637e+02    -1.860558357895246e+01   -1.389431619991546e+02   
7.072000000000000e+09    -1.754612860538429e+01   -1.422193578967830e+02   -2.535869587695719e+01   1.771204784491755e+02    -2.547949236185833e+01   1.778525951867146e+02    -1.854183439556937e+01   -1.387874805285077e+02   
7.073000000000000e+09    -1.753534118882003e+01   -1.421930016706515e+02   -2.540267293500726e+01   1.764076746289022e+02    -2.548905390420385e+01   1.771106010893477e+02    -1.848891987044366e+01   -1.386008130458240e+02   
7.074000000000000e+09    -1.752186713292809e+01   -1.421880800317402e+02   -2.540296489905054e+01   1.756701758988772e+02    -2.548139919778403e+01   1.765560695395276e+02    -1.843688042009022e+01   -1.383878246285733e+02   
7.075000000000000e+09    -1.750229581610474e+01   -1.421955101999509e+02   -2.542119940468143e+01   1.750499278652653e+02    -2.549884582253153e+01   1.758094603164463e+02    -1.839170837250805e+01   -1.381693150132786e+02   
7.076000000000000e+09    -1.748784163477153e+01   -1.421734128489938e+02   -2.544240437414326e+01   1.743587314167291e+02    -2.551365895190818e+01   1.751806833377305e+02    -1.834313494937802e+01   -1.379480325899220e+02   
7.077000000000000e+09    -1.747256967402241e+01   -1.422010747792501e+02   -2.546154660256857e+01   1.734884072545873e+02    -2.553027289095163e+01   1.743605314093716e+02    -1.829469843754260e+01   -1.377221854638205e+02   
7.078000000000000e+09    -1.746686688716650e+01   -1.421798238032467e+02   -2.546248600516330e+01   1.730124269098334e+02    -2.554245808301035e+01   1.737143309077240e+02    -1.825447983341364e+01   -1.375919566207037e+02   
7.079000000000000e+09    -1.745277125460099e+01   -1.421615794491142e+02   -2.549291561319962e+01   1.721904872597117e+02    -2.555386600420407e+01   1.730865162757652e+02    -1.821612368635553e+01   -1.373328740846277e+02   
7.080000000000000e+09    -1.745215362428123e+01   -1.422419628067153e+02   -2.550065205723401e+01   1.715726797996538e+02    -2.558671660470058e+01   1.723064872520045e+02    -1.817990401725414e+01   -1.371059945378205e+02   
7.081000000000000e+09    -1.743419959478109e+01   -1.422845288177619e+02   -2.552911811993315e+01   1.709377624047951e+02    -2.558541118324077e+01   1.717766459243281e+02    -1.815497693867689e+01   -1.369384304718790e+02   
7.082000000000000e+09    -1.743391160704666e+01   -1.422654576566876e+02   -2.555076758012651e+01   1.701136210324632e+02    -2.561035345246924e+01   1.709374646293699e+02    -1.812631896213206e+01   -1.366965874983007e+02   
7.083000000000000e+09    -1.743196640817607e+01   -1.422350609778855e+02   -2.556270841259737e+01   1.693827180641558e+02    -2.562703687556485e+01   1.702538355923786e+02    -1.810532205331773e+01   -1.364993669197090e+02   
7.084000000000000e+09    -1.742300351750317e+01   -1.423187502413607e+02   -2.559004308049377e+01   1.686956956654442e+02    -2.561725954710965e+01   1.696647241066791e+02    -1.808117003724221e+01   -1.362940182949931e+02   
