[Version] 2.0
! Rohde & Schwarz Vector Network Analyzer
! Rohde-Schwarz,ZNL20-2Port,1323001220200009,1.71.1.10-23.02.1.238
! 
! Port Assignments:
! Nominal Port -> Actual Test Port
! --------------------------------
!   1 -> 1
!   2 -> 2

! Created: GMT+3 2024-09-24 15:10:15

# Hz S DB R 50

[Number of Ports] 2
[Two-Port Data Order] 21_12
[Number of Frequencies] 6001

[Network Data] 
! freq[Hz]               S11[mag dB]              S11[ang]                 S21[mag dB]              S21[ang]                 S12[mag dB]              S12[ang]                 S22[mag dB]              S22[ang]                 
7.000000000000000e+09    -1.933533380020518e+01   -1.487932615203526e+02   -2.558465740748930e+01   -1.310755075136819e+02   -2.557411463443689e+01   -1.304000428402281e+02   -2.158495825389835e+01   -1.430584346048954e+02   
7.001000000000000e+09    -1.933205281209804e+01   -1.485644248304804e+02   -2.557476107543243e+01   -1.317989562343952e+02   -2.558465141041853e+01   -1.311736341597759e+02   -2.161803712367275e+01   -1.426244826947498e+02   
7.002000000000000e+09    -1.933445873115704e+01   -1.483328147481512e+02   -2.556106924519053e+01   -1.323448905008626e+02   -2.556252470110186e+01   -1.317635581408158e+02   -2.167258744688159e+01   -1.421786306948682e+02   
7.003000000000000e+09    -1.932787347463447e+01   -1.481135634535048e+02   -2.556904803281114e+01   -1.329515481398115e+02   -2.556339048564946e+01   -1.325421052580020e+02   -2.170801546267088e+01   -1.417108873557719e+02   
7.004000000000000e+09    -1.933127087227951e+01   -1.478165228358481e+02   -2.554161780190764e+01   -1.336270447219181e+02   -2.554676237378917e+01   -1.331871952316450e+02   -2.175000722611729e+01   -1.413173713425838e+02   
7.005000000000000e+09    -1.933243476870716e+01   -1.476392030142506e+02   -2.553435117686590e+01   -1.343290628754183e+02   -2.553841138671025e+01   -1.339081001019244e+02   -2.179270444699679e+01   -1.408843870914678e+02   
7.006000000000000e+09    -1.933267059645520e+01   -1.473748429551438e+02   -2.552506204908478e+01   -1.351012089390161e+02   -2.552218316908565e+01   -1.345273372829948e+02   -2.183820341174666e+01   -1.404677504618269e+02   
7.007000000000000e+09    -1.932292904587628e+01   -1.471391209091164e+02   -2.551178467921001e+01   -1.356624546030791e+02   -2.550336005144686e+01   -1.352431874878440e+02   -2.186170625614500e+01   -1.401533240878379e+02   
7.008000000000000e+09    -1.932007615610856e+01   -1.469151463875180e+02   -2.550964082886548e+01   -1.363740104712392e+02   -2.550596463843653e+01   -1.358195803688018e+02   -2.191393948277218e+01   -1.399060632135902e+02   
7.009000000000000e+09    -1.929208771444575e+01   -1.467131838435490e+02   -2.549154191511457e+01   -1.369569428857324e+02   -2.548887806075253e+01   -1.365241492395565e+02   -2.194658328084547e+01   -1.395468652328208e+02   
7.010000000000000e+09    -1.929507833326750e+01   -1.465118519896175e+02   -2.548797069497545e+01   -1.376919735323894e+02   -2.548009296413186e+01   -1.372251862603244e+02   -2.197609064739476e+01   -1.393201302730057e+02   
7.011000000000000e+09    -1.928268656491407e+01   -1.462799334419298e+02   -2.547908460170314e+01   -1.382448722786197e+02   -2.546285892200116e+01   -1.379376519369739e+02   -2.199821561626414e+01   -1.391055359094302e+02   
7.012000000000000e+09    -1.926652736283094e+01   -1.460401406523553e+02   -2.547554418854455e+01   -1.389418079582834e+02   -2.545853390480088e+01   -1.385669824964313e+02   -2.202527455542942e+01   -1.388343860974392e+02   
7.013000000000000e+09    -1.925137495820690e+01   -1.458602867718813e+02   -2.547525822709018e+01   -1.394931065113371e+02   -2.545392059593363e+01   -1.392313874877345e+02   -2.205288250381485e+01   -1.387670604150858e+02   
7.014000000000000e+09    -1.924962559928687e+01   -1.457402095463277e+02   -2.545247104775674e+01   -1.402048676092483e+02   -2.544426238084814e+01   -1.399618504504166e+02   -2.207080458499178e+01   -1.386368531352854e+02   
7.015000000000000e+09    -1.923161374449348e+01   -1.455423269689350e+02   -2.545514446518908e+01   -1.409242318550025e+02   -2.543026121996335e+01   -1.404892845566104e+02   -2.209531583049205e+01   -1.384482551911997e+02   
7.016000000000000e+09    -1.921266588108818e+01   -1.453268139080039e+02   -2.543670826677970e+01   -1.415107468997047e+02   -2.541249496057638e+01   -1.411258851549867e+02   -2.211114706904167e+01   -1.383985123801940e+02   
7.017000000000000e+09    -1.920795300722889e+01   -1.451591817146531e+02   -2.542425054705535e+01   -1.421519563361126e+02   -2.541100407911595e+01   -1.420111823905619e+02   -2.212777613632700e+01   -1.383712753810440e+02   
7.018000000000000e+09    -1.919704158573863e+01   -1.450626885681626e+02   -2.540939211707973e+01   -1.426885605967609e+02   -2.540787916386737e+01   -1.425649351070307e+02   -2.212514431097043e+01   -1.382847368802531e+02   
7.019000000000000e+09    -1.918305515202779e+01   -1.448444182422907e+02   -2.539967967758188e+01   -1.435131506978257e+02   -2.541116350271327e+01   -1.432187155535954e+02   -2.211768074038856e+01   -1.381711012264031e+02   
7.020000000000000e+09    -1.915984700159991e+01   -1.447478744690689e+02   -2.540702037570153e+01   -1.441657452699378e+02   -2.540800958401035e+01   -1.440757858889565e+02   -2.212414794614315e+01   -1.381781643237078e+02   
7.021000000000000e+09    -1.915468806759745e+01   -1.446324132561455e+02   -2.537836847621130e+01   -1.448377236645596e+02   -2.537501959951673e+01   -1.446802713318145e+02   -2.210558947968874e+01   -1.381683997884646e+02   
7.022000000000000e+09    -1.913205666035275e+01   -1.444418200212455e+02   -2.538286802884347e+01   -1.454803465152165e+02   -2.537659460932386e+01   -1.452694049238808e+02   -2.211522051694187e+01   -1.380987844634934e+02   
7.023000000000000e+09    -1.911731086486949e+01   -1.443249650662587e+02   -2.537088732979952e+01   -1.461954750852328e+02   -2.537402907724897e+01   -1.459846754641389e+02   -2.208073529617231e+01   -1.382387109316594e+02   
7.024000000000000e+09    -1.909972730722592e+01   -1.442610828219391e+02   -2.536394999206735e+01   -1.468714023335383e+02   -2.537713369790449e+01   -1.467706501771258e+02   -2.206808742119823e+01   -1.382318095558862e+02   
7.025000000000000e+09    -1.907923626963527e+01   -1.440803864069345e+02   -2.536849281200301e+01   -1.472979872004676e+02   -2.536499012279209e+01   -1.473556592639672e+02   -2.206062340592148e+01   -1.382253117642782e+02   
7.026000000000000e+09    -1.905469886032695e+01   -1.440338906216187e+02   -2.535569925300337e+01   -1.480916727309727e+02   -2.536986909810521e+01   -1.480658727885453e+02   -2.200608958310591e+01   -1.383137441561908e+02   
7.027000000000000e+09    -1.903678006563900e+01   -1.438978601549886e+02   -2.536882078513990e+01   -1.487698192555468e+02   -2.534386460886156e+01   -1.486375246760318e+02   -2.198330568780009e+01   -1.383998531177737e+02   
7.028000000000000e+09    -1.900934706769127e+01   -1.437980850089936e+02   -2.533881898665916e+01   -1.495426073206337e+02   -2.535062130636596e+01   -1.493282031125088e+02   -2.195001044839016e+01   -1.384871074766070e+02   
7.029000000000000e+09    -1.898853338200727e+01   -1.437535680985522e+02   -2.535774416749348e+01   -1.502264285679917e+02   -2.534261954813524e+01   -1.501546885946912e+02   -2.192521571556763e+01   -1.386005672682488e+02   
7.030000000000000e+09    -1.895739055989931e+01   -1.436438532371338e+02   -2.533404580310328e+01   -1.508873241049091e+02   -2.535311635789537e+01   -1.506621007295316e+02   -2.187818867749619e+01   -1.386177884129566e+02   
7.031000000000000e+09    -1.893109415773279e+01   -1.435679776819584e+02   -2.531987714142809e+01   -1.514926517812353e+02   -2.533951844813538e+01   -1.514176434201241e+02   -2.184021940451665e+01   -1.387357193887950e+02   
7.032000000000000e+09    -1.890027539999566e+01   -1.435258900369187e+02   -2.531718075950929e+01   -1.522353028026220e+02   -2.534652475750143e+01   -1.520176087058042e+02   -2.179222212685971e+01   -1.388794739882835e+02   
7.033000000000000e+09    -1.888216626430873e+01   -1.434869174325992e+02   -2.532527957535779e+01   -1.527608028111956e+02   -2.533743170922993e+01   -1.528465571202140e+02   -2.174826221361131e+01   -1.390255526668389e+02   
7.034000000000000e+09    -1.884962177713636e+01   -1.434012207115731e+02   -2.531836407473302e+01   -1.534887104471923e+02   -2.533749523772390e+01   -1.535149513475589e+02   -2.168876917191672e+01   -1.390533811521382e+02   
7.035000000000000e+09    -1.881727813734269e+01   -1.433871728852640e+02   -2.531829249789953e+01   -1.541320511750692e+02   -2.535402651415598e+01   -1.541745178890051e+02   -2.162900765145432e+01   -1.391173184415771e+02   
7.036000000000000e+09    -1.878484902696171e+01   -1.432892621646662e+02   -2.532116224680386e+01   -1.547189044000412e+02   -2.532924900961625e+01   -1.548059847437363e+02   -2.159537266416194e+01   -1.392030762036975e+02   
7.037000000000000e+09    -1.875703304864769e+01   -1.433382776799337e+02   -2.531243171243860e+01   -1.554388188742910e+02   -2.532520169779903e+01   -1.554301255988684e+02   -2.151616717734624e+01   -1.392713254096484e+02   
7.038000000000000e+09    -1.871957880722455e+01   -1.432162735432242e+02   -2.531501385053742e+01   -1.561707133161410e+02   -2.532848613671965e+01   -1.560885919760035e+02   -2.145096446744974e+01   -1.393866511761912e+02   
7.039000000000000e+09    -1.867310457834729e+01   -1.431744293927287e+02   -2.529614917810659e+01   -1.567094029822530e+02   -2.533771122907473e+01   -1.566275526349370e+02   -2.139188795630195e+01   -1.394528646795469e+02   
7.040000000000000e+09    -1.864341849371545e+01   -1.431001308112605e+02   -2.530628333091553e+01   -1.574593069168227e+02   -2.534096358432127e+01   -1.573787022642760e+02   -2.131119042648272e+01   -1.396174463815811e+02   
7.041000000000000e+09    -1.860881276685909e+01   -1.430666227491747e+02   -2.530105304778814e+01   -1.580966621038956e+02   -2.535011285887625e+01   -1.580239013285443e+02   -2.124208301254422e+01   -1.396194527807597e+02   
7.042000000000000e+09    -1.856638453626506e+01   -1.430098860909837e+02   -2.529559014756639e+01   -1.588502619762916e+02   -2.532682979966339e+01   -1.586096931501534e+02   -2.117271887161762e+01   -1.396513104294074e+02   
7.043000000000000e+09    -1.852921134955382e+01   -1.430169070255556e+02   -2.531213924222080e+01   -1.595908005365695e+02   -2.533349002684314e+01   -1.592672663585617e+02   -2.110017646957314e+01   -1.398317213775819e+02   
7.044000000000000e+09    -1.848335913350350e+01   -1.428368606626282e+02   -2.530863128075177e+01   -1.601412795097710e+02   -2.534886081588670e+01   -1.599834351159898e+02   -2.100864224297028e+01   -1.398422271749633e+02   
7.045000000000000e+09    -1.844375001759871e+01   -1.428290969964039e+02   -2.529330233590079e+01   -1.607738759581339e+02   -2.532876641650386e+01   -1.606120320185347e+02   -2.092985481493171e+01   -1.399315108791376e+02   
7.046000000000000e+09    -1.839122905444366e+01   -1.427653517262043e+02   -2.532185411666793e+01   -1.615155452894377e+02   -2.533992444988266e+01   -1.612823410771513e+02   -2.083873449401853e+01   -1.399927890801509e+02   
7.047000000000000e+09    -1.835323107807488e+01   -1.427197174643953e+02   -2.529947717217574e+01   -1.620689416683533e+02   -2.533386405793911e+01   -1.618407653045594e+02   -2.075630114278121e+01   -1.400197232462852e+02   
7.048000000000000e+09    -1.831546499204574e+01   -1.427153036923463e+02   -2.530194958046549e+01   -1.627907182134025e+02   -2.534136439665620e+01   -1.625362609440519e+02   -2.068230310641984e+01   -1.400965946085689e+02   
7.049000000000000e+09    -1.827531808726104e+01   -1.426314214028687e+02   -2.529909935090161e+01   -1.634511593709131e+02   -2.533898976968953e+01   -1.631878441317027e+02   -2.058936814778166e+01   -1.400835407441769e+02   
7.050000000000000e+09    -1.822931557927809e+01   -1.425895538474552e+02   -2.530730850612290e+01   -1.641297765493535e+02   -2.533537243087388e+01   -1.638926248658627e+02   -2.050552258499199e+01   -1.400869500332026e+02   
7.051000000000000e+09    -1.819550261968340e+01   -1.425065305347692e+02   -2.530248575731662e+01   -1.648120065728162e+02   -2.532451656373192e+01   -1.645480929271794e+02   -2.040517331166778e+01   -1.401894809414694e+02   
7.052000000000000e+09    -1.816151291337592e+01   -1.424625661495554e+02   -2.530956814393269e+01   -1.654612318929294e+02   -2.531479502186619e+01   -1.649820396178375e+02   -2.032660369418700e+01   -1.401465566278987e+02   
7.053000000000000e+09    -1.812747938053353e+01   -1.423906321665962e+02   -2.531714719284437e+01   -1.660601345858925e+02   -2.534330146276307e+01   -1.658416831302402e+02   -2.023412546831964e+01   -1.401254075249937e+02   
7.054000000000000e+09    -1.810529825632754e+01   -1.423634241551219e+02   -2.530496385792453e+01   -1.668528205777072e+02   -2.533606106069607e+01   -1.664827100866902e+02   -2.014465445084202e+01   -1.401117062431958e+02   
7.055000000000000e+09    -1.806638173551168e+01   -1.422859774695341e+02   -2.529919907689582e+01   -1.674375696066647e+02   -2.534299745136803e+01   -1.671592810741620e+02   -2.005285732233924e+01   -1.401392156922177e+02   
7.056000000000000e+09    -1.803491742958816e+01   -1.421971670854864e+02   -2.531614392675564e+01   -1.680819568873360e+02   -2.533691473721749e+01   -1.677269458452737e+02   -1.996610203529486e+01   -1.400870998508898e+02   
7.057000000000000e+09    -1.800670047280630e+01   -1.421390583146138e+02   -2.532292537079080e+01   -1.688155887836326e+02   -2.533512103793671e+01   -1.684369949569740e+02   -1.987161910381902e+01   -1.400416751755914e+02   
7.058000000000000e+09    -1.797099136857891e+01   -1.420603822427387e+02   -2.532475698660163e+01   -1.695646192545626e+02   -2.534747226241423e+01   -1.691270997553524e+02   -1.978923505052245e+01   -1.399713487458436e+02   
7.059000000000000e+09    -1.794579396873338e+01   -1.419477822154558e+02   -2.532760959699672e+01   -1.701672891279539e+02   -2.535076285435296e+01   -1.698641975212528e+02   -1.968913261846137e+01   -1.398993091963947e+02   
7.060000000000000e+09    -1.791649212801953e+01   -1.418430083169023e+02   -2.532438976337274e+01   -1.708828579240961e+02   -2.534277375360641e+01   -1.704992020153557e+02   -1.961380344638312e+01   -1.399086290236023e+02   
7.061000000000000e+09    -1.789012822436156e+01   -1.417307745319526e+02   -2.531485909320227e+01   -1.716654511346863e+02   -2.534014124154034e+01   -1.711462439791589e+02   -1.951863293505148e+01   -1.397059522814782e+02   
7.062000000000000e+09    -1.786513794608748e+01   -1.417044427582878e+02   -2.534340501130614e+01   -1.722281164656014e+02   -2.534576781640956e+01   -1.719145188559889e+02   -1.943400191004449e+01   -1.396877352524914e+02   
7.063000000000000e+09    -1.783545725521887e+01   -1.416006809877676e+02   -2.533097280518168e+01   -1.729129048209978e+02   -2.537097843687427e+01   -1.725463576002265e+02   -1.935251370723017e+01   -1.395706119679615e+02   
7.064000000000000e+09    -1.781379500590082e+01   -1.415076838974564e+02   -2.533795319404957e+01   -1.735367821410779e+02   -2.534719034180971e+01   -1.730703957145801e+02   -1.925806158165911e+01   -1.394073999066165e+02   
7.065000000000000e+09    -1.778751818403434e+01   -1.414821340493904e+02   -2.533559198879014e+01   -1.742468743502345e+02   -2.536635022178675e+01   -1.739209368300986e+02   -1.919287239226311e+01   -1.393283053325239e+02   
7.066000000000000e+09    -1.776209061266653e+01   -1.414174298799800e+02   -2.537524745317167e+01   -1.748466675498316e+02   -2.537784378503382e+01   -1.744041828430210e+02   -1.910793247163760e+01   -1.392043887365386e+02   
7.067000000000000e+09    -1.774327738816705e+01   -1.413883510487075e+02   -2.535982969594310e+01   -1.757319902290762e+02   -2.536601031434568e+01   -1.751534876624094e+02   -1.903757769589574e+01   -1.389371621361520e+02   
7.068000000000000e+09    -1.771956044600377e+01   -1.413246142748210e+02   -2.535459904310418e+01   -1.763301626873642e+02   -2.538834891585956e+01   -1.758493835619952e+02   -1.895767673434474e+01   -1.387836574605335e+02   
7.069000000000000e+09    -1.770071494118732e+01   -1.413304157555786e+02   -2.536505558528562e+01   -1.770089999459684e+02   -2.538270483293592e+01   -1.765426922288813e+02   -1.888456313724101e+01   -1.386251726053482e+02   
7.070000000000000e+09    -1.769065951140535e+01   -1.412554031916494e+02   -2.537355081815954e+01   -1.775765708755881e+02   -2.540112948738854e+01   -1.772365591969118e+02   -1.881749029861246e+01   -1.384282392807564e+02   
7.071000000000000e+09    -1.766380480135409e+01   -1.412227427441105e+02   -2.537331921056992e+01   -1.783430228869190e+02   -2.539934076656539e+01   -1.778818553074653e+02   -1.875286514322191e+01   -1.382330963384161e+02   
7.072000000000000e+09    -1.764880026026868e+01   -1.411957419417413e+02   -2.538266829507865e+01   -1.789717837983869e+02   -2.542715987393634e+01   -1.785765969198464e+02   -1.869887951881547e+01   -1.380666562513427e+02   
7.073000000000000e+09    -1.763065292067700e+01   -1.412081476958823e+02   -2.541876855263057e+01   -1.797088463856108e+02   -2.542573661340857e+01   -1.792677895496488e+02   -1.863991682831015e+01   -1.378495990001788e+02   
7.074000000000000e+09    -1.762088460523397e+01   -1.410892722685823e+02   -2.540435306295975e+01   1.796481967839343e+02    -2.541922647780508e+01   -1.799415622631998e+02   -1.857830072730600e+01   -1.376324486481580e+02   
7.075000000000000e+09    -1.760551671541604e+01   -1.411174850172505e+02   -2.542384470064334e+01   1.789261607723151e+02    -2.543025668314213e+01   1.794154725516469e+02    -1.852824027053498e+01   -1.374294892355888e+02   
7.076000000000000e+09    -1.758568628505272e+01   -1.410802167097438e+02   -2.543036623242715e+01   1.782889609740868e+02    -2.543428644596098e+01   1.787145054880925e+02    -1.847692152528042e+01   -1.371560098610595e+02   
7.077000000000000e+09    -1.756418796145333e+01   -1.410648613928664e+02   -2.545459809262379e+01   1.775102172971414e+02    -2.545528316167033e+01   1.779442356328471e+02    -1.842851050232552e+01   -1.369099809920314e+02   
7.078000000000000e+09    -1.755237680750805e+01   -1.410884984008321e+02   -2.544069440157913e+01   1.768964461377944e+02    -2.546603247814809e+01   1.771728788214374e+02    -1.838528347597275e+01   -1.367578467597864e+02   
7.079000000000000e+09    -1.753034749453097e+01   -1.410439548844785e+02   -2.546564721018468e+01   1.761195417887269e+02    -2.547793199894493e+01   1.765665753763289e+02    -1.834581093140152e+01   -1.365153779279903e+02   
7.080000000000000e+09    -1.752857932351227e+01   -1.411173684391899e+02   -2.547777716540896e+01   1.754264351987010e+02    -2.549340274697385e+01   1.757922543977409e+02    -1.831067722749309e+01   -1.363160900054679e+02   
7.081000000000000e+09    -1.750710374012885e+01   -1.410998336679309e+02   -2.550500612593794e+01   1.748052165519975e+02    -2.549291859660148e+01   1.752121140845603e+02    -1.828268675069882e+01   -1.360889181871833e+02   
7.082000000000000e+09    -1.750114538504958e+01   -1.411636767357180e+02   -2.551113523587198e+01   1.740335612440930e+02    -2.550983920394868e+01   1.744939092872785e+02    -1.824998297445875e+01   -1.358273867996961e+02   
7.083000000000000e+09    -1.749363468845952e+01   -1.411652815380328e+02   -2.552014784973077e+01   1.734599732815423e+02    -2.550962674820305e+01   1.737854641811069e+02    -1.822553514778122e+01   -1.356475955668739e+02   
7.084000000000000e+09    -1.749411490010477e+01   -1.411863915218583e+02   -2.554271163238980e+01   1.725325835858156e+02    -2.551470785407380e+01   1.731229761856482e+02    -1.820276620728281e+01   -1.353928714742925e+02   
