[Version] 2.0
! Rohde & Schwarz Vector Network Analyzer
! Rohde-Schwarz,ZNL20-2Port,1323001220200009,1.71.1.10-23.02.1.238
! 
! Port Assignments:
! Nominal Port -> Actual Test Port
! --------------------------------
!   1 -> 1
!   2 -> 2

! Created: GMT+3 2024-09-24 15:10:28

# Hz S DB R 50

[Number of Ports] 2
[Two-Port Data Order] 21_12
[Number of Frequencies] 6001

[Network Data] 
! freq[Hz]               S11[mag dB]              S11[ang]                 S21[mag dB]              S21[ang]                 S12[mag dB]              S12[ang]                 S22[mag dB]              S22[ang]                 
7.000000000000000e+09    -1.953897229621901e+01   -1.499865046451311e+02   -2.599130518117374e+01   -1.255252514426932e+02   -2.600735932686927e+01   -1.253482608650053e+02   -2.178634161579502e+01   -1.451794352012252e+02   
7.001000000000000e+09    -1.954561644332905e+01   -1.496800596574019e+02   -2.597128291110730e+01   -1.261991359414689e+02   -2.598678734743549e+01   -1.259358574704676e+02   -2.184022687169361e+01   -1.447218292058688e+02   
7.002000000000000e+09    -1.954905629934876e+01   -1.494329761400948e+02   -2.595920941030915e+01   -1.268872445283681e+02   -2.598556101461016e+01   -1.265973037418507e+02   -2.189765295774214e+01   -1.441897503240178e+02   
7.003000000000000e+09    -1.954677328411756e+01   -1.491883381802134e+02   -2.594868316623586e+01   -1.273846157863889e+02   -2.596918374505477e+01   -1.273823870918269e+02   -2.194590782382704e+01   -1.436929842750957e+02   
7.004000000000000e+09    -1.954839099416914e+01   -1.489029124061803e+02   -2.591949474662268e+01   -1.281887513486536e+02   -2.595094160538221e+01   -1.280565217947417e+02   -2.200524811351101e+01   -1.431512206923899e+02   
7.005000000000000e+09    -1.955743719035585e+01   -1.486278796408844e+02   -2.590193435935889e+01   -1.288557588099837e+02   -2.592182110193549e+01   -1.286796836421472e+02   -2.205029963249997e+01   -1.427336028636040e+02   
7.006000000000000e+09    -1.955352397896511e+01   -1.483750179893061e+02   -2.587998683129927e+01   -1.295825756719749e+02   -2.591175350142095e+01   -1.293458912610900e+02   -2.210019146149584e+01   -1.422934835542254e+02   
7.007000000000000e+09    -1.955260464016528e+01   -1.481257347469629e+02   -2.584883864350733e+01   -1.301401969082790e+02   -2.587882612611322e+01   -1.299116510332902e+02   -2.214121031509558e+01   -1.419779393355264e+02   
7.008000000000000e+09    -1.954786062258817e+01   -1.478822593843940e+02   -2.584657308643415e+01   -1.309909071221938e+02   -2.587698233587005e+01   -1.307178957965605e+02   -2.218826844796378e+01   -1.416460453048979e+02   
7.009000000000000e+09    -1.954028591935773e+01   -1.475979991213852e+02   -2.583519067971022e+01   -1.315972103843737e+02   -2.584926937909090e+01   -1.313628620344791e+02   -2.222801739771798e+01   -1.413028077973401e+02   
7.010000000000000e+09    -1.954775189094946e+01   -1.473971022425150e+02   -2.581457658408329e+01   -1.322421655525204e+02   -2.583815346417347e+01   -1.321622090359876e+02   -2.226627271661791e+01   -1.410325966716576e+02   
7.011000000000000e+09    -1.952376522016722e+01   -1.470633792033347e+02   -2.579173135900376e+01   -1.328201837208057e+02   -2.584099516771079e+01   -1.327735110608684e+02   -2.230336635128442e+01   -1.407540566219829e+02   
7.012000000000000e+09    -1.951651103954057e+01   -1.468229518622491e+02   -2.579310182319627e+01   -1.335499093102299e+02   -2.580976728950255e+01   -1.334486706759025e+02   -2.233079349068583e+01   -1.405228110452036e+02   
7.013000000000000e+09    -1.950228596966537e+01   -1.466130839014159e+02   -2.575642548909698e+01   -1.341513501152153e+02   -2.580696038858502e+01   -1.341339938822208e+02   -2.236829490756236e+01   -1.403408501605651e+02   
7.014000000000000e+09    -1.950094022059308e+01   -1.464321950523678e+02   -2.574840796819220e+01   -1.349292390634492e+02   -2.579443549166470e+01   -1.346729571961831e+02   -2.239714200710208e+01   -1.402047455816701e+02   
7.015000000000000e+09    -1.948420992264974e+01   -1.461896906115971e+02   -2.575349788223555e+01   -1.355741553070042e+02   -2.576445900949563e+01   -1.353004279270508e+02   -2.241340966545932e+01   -1.400339987902007e+02   
7.016000000000000e+09    -1.947288110405979e+01   -1.459579115606626e+02   -2.573587614984415e+01   -1.360921568692116e+02   -2.575296373964542e+01   -1.360381146441255e+02   -2.243461912865475e+01   -1.398655994753326e+02   
7.017000000000000e+09    -1.946697170835977e+01   -1.457268968664659e+02   -2.571103336467216e+01   -1.368217446879048e+02   -2.574170176454182e+01   -1.367561819945421e+02   -2.245313506300050e+01   -1.398029674666922e+02   
7.018000000000000e+09    -1.945311766208268e+01   -1.456009030100753e+02   -2.569696366414770e+01   -1.374914378305185e+02   -2.572244627247142e+01   -1.373874168271311e+02   -2.245191238567447e+01   -1.397007330304982e+02   
7.019000000000000e+09    -1.944303485317363e+01   -1.453596875621984e+02   -2.568145689301084e+01   -1.381522241094683e+02   -2.571770821721874e+01   -1.380527755344433e+02   -2.245994639257223e+01   -1.395349149586868e+02   
7.020000000000000e+09    -1.942174250243665e+01   -1.451733375364263e+02   -2.566798645020278e+01   -1.387683596862657e+02   -2.570731562058033e+01   -1.388049679986640e+02   -2.247466384121041e+01   -1.395988242702364e+02   
7.021000000000000e+09    -1.940485761743106e+01   -1.450120976898567e+02   -2.563265346824512e+01   -1.395431850580267e+02   -2.567436410810958e+01   -1.394677096374924e+02   -2.246016582236155e+01   -1.394917589609280e+02   
7.022000000000000e+09    -1.938525479258036e+01   -1.448681362688925e+02   -2.562508974163094e+01   -1.401309323537251e+02   -2.566155287243092e+01   -1.400897038041187e+02   -2.246613085441911e+01   -1.394382136106322e+02   
7.023000000000000e+09    -1.938177159120055e+01   -1.446707856479085e+02   -2.561001757278179e+01   -1.409313895287321e+02   -2.565913628865589e+01   -1.408144034982826e+02   -2.245182570659531e+01   -1.394624127576465e+02   
7.024000000000000e+09    -1.935734498697128e+01   -1.445239679130967e+02   -2.560609724367591e+01   -1.415681448602843e+02   -2.565171141648453e+01   -1.415447633879389e+02   -2.243796816432139e+01   -1.393630965679814e+02   
7.025000000000000e+09    -1.933404751064442e+01   -1.443791866403324e+02   -2.560177777174875e+01   -1.421664260182293e+02   -2.564539755757638e+01   -1.422804736226596e+02   -2.242495774600674e+01   -1.394311917850341e+02   
7.026000000000000e+09    -1.931847735105010e+01   -1.442855521696808e+02   -2.558171225076848e+01   -1.429335019915986e+02   -2.563769863926073e+01   -1.428622653551277e+02   -2.238049109602486e+01   -1.394789191816681e+02   
7.027000000000000e+09    -1.929175636587839e+01   -1.441380886775398e+02   -2.556799594203356e+01   -1.435299148803383e+02   -2.562341358673278e+01   -1.435204513498160e+02   -2.235749829833023e+01   -1.394441900288481e+02   
7.028000000000000e+09    -1.926409768528293e+01   -1.440409492290380e+02   -2.556090520679117e+01   -1.442723933596195e+02   -2.560636270958060e+01   -1.441387604767056e+02   -2.233200273131335e+01   -1.395516754323233e+02   
7.029000000000000e+09    -1.924590211157091e+01   -1.439286835392188e+02   -2.554762404529129e+01   -1.449759561585435e+02   -2.559425735793369e+01   -1.450284340147898e+02   -2.229475197837624e+01   -1.396578986613852e+02   
7.030000000000000e+09    -1.921873436071376e+01   -1.438507887166704e+02   -2.552885642187990e+01   -1.456849575863739e+02   -2.559759279686885e+01   -1.454226793622543e+02   -2.224847075059980e+01   -1.395821887752861e+02   
7.031000000000000e+09    -1.919206412876774e+01   -1.437421879268775e+02   -2.551112857144773e+01   -1.462660165395754e+02   -2.558626368148146e+01   -1.463551023273046e+02   -2.221351386598711e+01   -1.396941336231918e+02   
7.032000000000000e+09    -1.915961496451807e+01   -1.436440780768314e+02   -2.551553731931783e+01   -1.470282073973066e+02   -2.556737457837506e+01   -1.468819032205867e+02   -2.218161040222058e+01   -1.397562008859929e+02   
7.033000000000000e+09    -1.913570321475924e+01   -1.435788535851603e+02   -2.550481883959716e+01   -1.475856410387778e+02   -2.557466654691136e+01   -1.476675231716691e+02   -2.212759818432282e+01   -1.398938485777590e+02   
7.034000000000000e+09    -1.910135700692792e+01   -1.434965001786808e+02   -2.549016005819221e+01   -1.483553826829719e+02   -2.555643305724097e+01   -1.482801406576292e+02   -2.207380839259593e+01   -1.397583299490793e+02   
7.035000000000000e+09    -1.907758486358988e+01   -1.434160249079966e+02   -2.548524926489719e+01   -1.489977111018447e+02   -2.556150952486203e+01   -1.490056713642535e+02   -2.200919221657378e+01   -1.398680564837677e+02   
7.036000000000000e+09    -1.903781766267579e+01   -1.433244270481037e+02   -2.548904044802163e+01   -1.496158513301609e+02   -2.555386363302804e+01   -1.496665743444065e+02   -2.195626894461439e+01   -1.399710126264446e+02   
7.037000000000000e+09    -1.901121218933796e+01   -1.432804839069185e+02   -2.546950371527734e+01   -1.504235612075784e+02   -2.553543533870027e+01   -1.502756342407042e+02   -2.189271407546753e+01   -1.399462626655960e+02   
7.038000000000000e+09    -1.897191625148859e+01   -1.431655291108215e+02   -2.546300109109461e+01   -1.510059733857751e+02   -2.554269989631275e+01   -1.508994033004508e+02   -2.182353100655455e+01   -1.400725718541392e+02   
7.039000000000000e+09    -1.892841212900475e+01   -1.430952605036203e+02   -2.545263678065195e+01   -1.516627818281135e+02   -2.551971252234772e+01   -1.514591936484291e+02   -2.176747076757678e+01   -1.400830980358332e+02   
7.040000000000000e+09    -1.889181571507586e+01   -1.430030561999060e+02   -2.544195333434911e+01   -1.523928320542744e+02   -2.551408438373455e+01   -1.521076125894771e+02   -2.169149297657733e+01   -1.401176363139953e+02   
7.041000000000000e+09    -1.885915111537090e+01   -1.428973727609700e+02   -2.543982853054971e+01   -1.530581296036992e+02   -2.550433226567986e+01   -1.528647756211079e+02   -2.161367265437889e+01   -1.401032590997408e+02   
7.042000000000000e+09    -1.880691109662933e+01   -1.428454705226378e+02   -2.544732113427148e+01   -1.538500871938602e+02   -2.551012664277710e+01   -1.534433312620635e+02   -2.154237642598463e+01   -1.401331080329540e+02   
7.043000000000000e+09    -1.877123014296307e+01   -1.428182215913440e+02   -2.544020961896548e+01   -1.545595769728027e+02   -2.548679411316558e+01   -1.541480789313848e+02   -2.145746581201794e+01   -1.402276413332701e+02   
7.044000000000000e+09    -1.872872402227819e+01   -1.426636606296060e+02   -2.543999559904222e+01   -1.551496977057552e+02   -2.551116572643384e+01   -1.548144352696132e+02   -2.137449951327146e+01   -1.402541190287494e+02   
7.045000000000000e+09    -1.868380970130472e+01   -1.426513021496347e+02   -2.543502073078656e+01   -1.558540261864309e+02   -2.548101584075847e+01   -1.554363798989593e+02   -2.128910271681332e+01   -1.402665868068866e+02   
7.046000000000000e+09    -1.864105485497228e+01   -1.425419172601067e+02   -2.543599169288948e+01   -1.565139164839630e+02   -2.547852856347241e+01   -1.561007750848999e+02   -2.120053680298286e+01   -1.402825698994772e+02   
7.047000000000000e+09    -1.860190293589970e+01   -1.424691094309446e+02   -2.542369358618165e+01   -1.571517214865419e+02   -2.547975528095462e+01   -1.568509726920664e+02   -2.111820164722887e+01   -1.403057290371191e+02   
7.048000000000000e+09    -1.855724791232666e+01   -1.424168020845396e+02   -2.541450672441892e+01   -1.578043589394182e+02   -2.548207090882432e+01   -1.573752793753203e+02   -2.103634328617877e+01   -1.402804937963244e+02   
7.049000000000000e+09    -1.852219531161364e+01   -1.423485511749840e+02   -2.540937052411850e+01   -1.585307335969303e+02   -2.547406352043885e+01   -1.580718115402496e+02   -2.093437704506454e+01   -1.402492515737996e+02   
7.050000000000000e+09    -1.848197178418935e+01   -1.422381361719779e+02   -2.542450167111097e+01   -1.592081562397059e+02   -2.546300318396424e+01   -1.587114502590028e+02   -2.084909929581183e+01   -1.402313719809716e+02   
7.051000000000000e+09    -1.844333887386275e+01   -1.421127818936746e+02   -2.541695534107523e+01   -1.599385007263016e+02   -2.545642652814777e+01   -1.594514737478226e+02   -2.076422723570647e+01   -1.401855594524285e+02   
7.052000000000000e+09    -1.841281007834956e+01   -1.420797207254970e+02   -2.541733967048516e+01   -1.605756112469748e+02   -2.543472587841794e+01   -1.599541269689123e+02   -2.066736134037473e+01   -1.401676120517828e+02   
7.053000000000000e+09    -1.836395630116107e+01   -1.419651068636399e+02   -2.541992214613104e+01   -1.611421346463917e+02   -2.545481562233778e+01   -1.606290631532707e+02   -2.058241704475775e+01   -1.401520580818579e+02   
7.054000000000000e+09    -1.834032464977794e+01   -1.418834021947366e+02   -2.539187332607062e+01   -1.619972105777308e+02   -2.544195594391382e+01   -1.613820466902712e+02   -2.048526948615022e+01   -1.399880647294950e+02   
7.055000000000000e+09    -1.830360188131997e+01   -1.417613836064108e+02   -2.539528675837575e+01   -1.627046892685592e+02   -2.544341063603072e+01   -1.620402577989703e+02   -2.039596511132598e+01   -1.399617180456889e+02   
7.056000000000000e+09    -1.826642380955758e+01   -1.416094156252066e+02   -2.541248433935575e+01   -1.632696060956373e+02   -2.542743388751557e+01   -1.626976910362033e+02   -2.030392283156512e+01   -1.398512091527577e+02   
7.057000000000000e+09    -1.823561259786135e+01   -1.415233691044620e+02   -2.539768529117513e+01   -1.640308851533015e+02   -2.543799409746665e+01   -1.634119253894927e+02   -2.020191780794058e+01   -1.398130315743509e+02   
7.058000000000000e+09    -1.820154631667968e+01   -1.413982155008079e+02   -2.540155074900316e+01   -1.646905693420371e+02   -2.544009343502016e+01   -1.640448069462647e+02   -2.011486438060822e+01   -1.396681673582824e+02   
7.059000000000000e+09    -1.816812858964166e+01   -1.413157482744384e+02   -2.540553217709328e+01   -1.653033989487907e+02   -2.542309767140163e+01   -1.647737730907058e+02   -2.002330086216729e+01   -1.395778312539925e+02   
7.060000000000000e+09    -1.814117646263443e+01   -1.411839311416796e+02   -2.539414741612623e+01   -1.660527686255483e+02   -2.542768640674528e+01   -1.654801852237148e+02   -1.993197910843537e+01   -1.395005650712770e+02   
7.061000000000000e+09    -1.811214106263633e+01   -1.411129046254143e+02   -2.538230955221292e+01   -1.668341540812569e+02   -2.542003802971312e+01   -1.661253745766707e+02   -1.983934427571885e+01   -1.393563736929611e+02   
7.062000000000000e+09    -1.808498297494828e+01   -1.409840889219785e+02   -2.539481218427925e+01   -1.673772142922037e+02   -2.543769876760456e+01   -1.668331383881066e+02   -1.975363883783468e+01   -1.392046812251327e+02   
7.063000000000000e+09    -1.805443692457135e+01   -1.408762397073865e+02   -2.540691709524041e+01   -1.682430159391529e+02   -2.544076377379185e+01   -1.674978609398745e+02   -1.965617375669990e+01   -1.390592568582029e+02   
7.064000000000000e+09    -1.803339815518675e+01   -1.406974952157607e+02   -2.541621268081900e+01   -1.688536532215557e+02   -2.541932041037204e+01   -1.681561045437801e+02   -1.957212791947889e+01   -1.388081537616852e+02   
7.065000000000000e+09    -1.800807658068128e+01   -1.407165894728342e+02   -2.541233882891474e+01   -1.695491644355249e+02   -2.545533253230650e+01   -1.688235356355897e+02   -1.949311027816800e+01   -1.386713788155150e+02   
7.066000000000000e+09    -1.797593010663713e+01   -1.405643449375618e+02   -2.541120544357588e+01   -1.701313334508365e+02   -2.543014593294892e+01   -1.694813755494655e+02   -1.940368252871682e+01   -1.384980176362959e+02   
7.067000000000000e+09    -1.795598555854604e+01   -1.404528426402665e+02   -2.542410137792660e+01   -1.709498218334574e+02   -2.542311577660918e+01   -1.701863197146100e+02   -1.931659530974810e+01   -1.382691557341761e+02   
7.068000000000000e+09    -1.793263326115744e+01   -1.404016820481671e+02   -2.542916924592473e+01   -1.716047013536091e+02   -2.543531371787231e+01   -1.707918824414543e+02   -1.924195801664111e+01   -1.380445634155802e+02   
7.069000000000000e+09    -1.790079611038616e+01   -1.403865839813014e+02   -2.542199278209020e+01   -1.723112653627487e+02   -2.543715830272001e+01   -1.715780008462683e+02   -1.916737591473263e+01   -1.378919818058492e+02   
7.070000000000000e+09    -1.788882089509604e+01   -1.402823138816897e+02   -2.542877986629536e+01   -1.728842820200023e+02   -2.544644413897114e+01   -1.722990509245801e+02   -1.909858226562888e+01   -1.375782398753991e+02   
7.071000000000000e+09    -1.786534769114652e+01   -1.402810476513177e+02   -2.543111433748864e+01   -1.735692964661373e+02   -2.543583557948264e+01   -1.729578791230864e+02   -1.903112656165542e+01   -1.373750098949367e+02   
7.072000000000000e+09    -1.784190882451236e+01   -1.401695096251660e+02   -2.543693391983545e+01   -1.743523246533163e+02   -2.545179973004038e+01   -1.736420005630935e+02   -1.896191988678202e+01   -1.372096205985276e+02   
7.073000000000000e+09    -1.782686155935901e+01   -1.401061013800186e+02   -2.547236931290339e+01   -1.749981364732917e+02   -2.547248864404607e+01   -1.742591456978270e+02   -1.889997783048826e+01   -1.369381940711084e+02   
7.074000000000000e+09    -1.781339508620498e+01   -1.400438008657376e+02   -2.545980184275850e+01   -1.757152384431154e+02   -2.545640489685322e+01   -1.749554388544684e+02   -1.884179094205263e+01   -1.366797325845910e+02   
7.075000000000000e+09    -1.779041022329003e+01   -1.400624005548228e+02   -2.547703298506894e+01   -1.763635290852192e+02   -2.545379968250408e+01   -1.756488838949766e+02   -1.879197430867059e+01   -1.364318157318174e+02   
7.076000000000000e+09    -1.776819078330756e+01   -1.399372801680163e+02   -2.547557837448109e+01   -1.769020175144459e+02   -2.547221066236823e+01   -1.762850455990248e+02   -1.872487575527438e+01   -1.361037526223358e+02   
7.077000000000000e+09    -1.775025088641128e+01   -1.398854088402204e+02   -2.549989400526605e+01   -1.778619854934122e+02   -2.547488012289537e+01   -1.771264057308160e+02   -1.867408108470976e+01   -1.358419235212055e+02   
7.078000000000000e+09    -1.773352730813784e+01   -1.398881470716886e+02   -2.549577136927369e+01   -1.783227804792380e+02   -2.547129594758102e+01   -1.778019353489018e+02   -1.862150444279505e+01   -1.356355361953843e+02   
7.079000000000000e+09    -1.770925860890186e+01   -1.398901653221356e+02   -2.550913482233047e+01   -1.791372723614686e+02   -2.548539359430745e+01   -1.783586069274302e+02   -1.858000574192186e+01   -1.353761872175268e+02   
7.080000000000000e+09    -1.770542572811029e+01   -1.398599883023586e+02   -2.551920136321925e+01   -1.797591900741172e+02   -2.549893281619740e+01   -1.791644297052008e+02   -1.853974393674342e+01   -1.351267522381093e+02   
7.081000000000000e+09    -1.768356820171612e+01   -1.398909128075267e+02   -2.554414497684796e+01   1.796401813407550e+02    -2.549450165868287e+01   -1.797648138534240e+02   -1.850382008490250e+01   -1.348722041761941e+02   
7.082000000000000e+09    -1.767400423168683e+01   -1.398534858058348e+02   -2.555003731295976e+01   1.789109641381059e+02    -2.551968581076840e+01   1.794480551879325e+02    -1.846751047379885e+01   -1.346190583552239e+02   
7.083000000000000e+09    -1.766378339026907e+01   -1.398322514223080e+02   -2.556507579284361e+01   1.782134049896112e+02    -2.551692957633911e+01   1.787271383551742e+02    -1.844049887011967e+01   -1.343461581510972e+02   
7.084000000000000e+09    -1.764370248345576e+01   -1.398467103036235e+02   -2.557919552460253e+01   1.775190627232524e+02    -2.551485268297869e+01   1.781735188214586e+02    -1.840758254193456e+01   -1.340881669675258e+02   
