[Version] 2.0
! Rohde & Schwarz Vector Network Analyzer
! Rohde-Schwarz,ZNL20-2Port,1323001220200009,1.71.1.10-23.02.1.238
! 
! Port Assignments:
! Nominal Port -> Actual Test Port
! --------------------------------
!   1 -> 1
!   2 -> 2

! Created: GMT+3 2024-09-24 15:10:45

# Hz S DB R 50

[Number of Ports] 2
[Two-Port Data Order] 21_12
[Number of Frequencies] 6001

[Network Data] 
! freq[Hz]               S11[mag dB]              S11[ang]                 S21[mag dB]              S21[ang]                 S12[mag dB]              S12[ang]                 S22[mag dB]              S22[ang]                 
7.000000000000000e+09    -1.975563128116111e+01   -1.522138224878092e+02   -2.669117960683998e+01   -1.181164211874991e+02   -2.668679074706160e+01   -1.176946309263241e+02   -2.196011715618637e+01   -1.483311087081499e+02   
7.001000000000000e+09    -1.975219250212122e+01   -1.518982726830584e+02   -2.666806665378100e+01   -1.189598924032386e+02   -2.666251441812943e+01   -1.182281527763335e+02   -2.202566619636488e+01   -1.478133997000234e+02   
7.002000000000000e+09    -1.977170222029348e+01   -1.516639544324697e+02   -2.664782917042719e+01   -1.195373643586815e+02   -2.663163184310719e+01   -1.189530224899236e+02   -2.209374901723709e+01   -1.473175867646849e+02   
7.003000000000000e+09    -1.977319008830472e+01   -1.513016146887469e+02   -2.662128972631217e+01   -1.200593262053939e+02   -2.660766894176693e+01   -1.197621524950290e+02   -2.215832490992508e+01   -1.468472196484580e+02   
7.004000000000000e+09    -1.978409052886813e+01   -1.510527846691463e+02   -2.660073168319975e+01   -1.208052997616409e+02   -2.658327792950130e+01   -1.204799293382413e+02   -2.222990520582647e+01   -1.463290038550723e+02   
7.005000000000000e+09    -1.978300848176506e+01   -1.506871771089719e+02   -2.657436307897536e+01   -1.216485487717843e+02   -2.654847838748834e+01   -1.210485698023672e+02   -2.229938942371147e+01   -1.458801270534370e+02   
7.006000000000000e+09    -1.980810032001525e+01   -1.504549880528520e+02   -2.654183340411109e+01   -1.222898945489180e+02   -2.652409582401522e+01   -1.217818303082623e+02   -2.235401941952440e+01   -1.454655211856299e+02   
7.007000000000000e+09    -1.980328796418828e+01   -1.501457649492124e+02   -2.652345498450828e+01   -1.229000861065322e+02   -2.648126102849632e+01   -1.225834781050356e+02   -2.240553000346045e+01   -1.450487074055040e+02   
7.008000000000000e+09    -1.981038977042004e+01   -1.498450909145490e+02   -2.648657346879252e+01   -1.237167416873637e+02   -2.646884708422645e+01   -1.232789451510025e+02   -2.246380021621635e+01   -1.447278224192759e+02   
7.009000000000000e+09    -1.980669277028903e+01   -1.495693750738012e+02   -2.646165910613359e+01   -1.243533784757561e+02   -2.643900626205908e+01   -1.239604033480585e+02   -2.251464645024013e+01   -1.443404515361817e+02   
7.010000000000000e+09    -1.981331934498640e+01   -1.492558079473877e+02   -2.643276017543085e+01   -1.251273040222227e+02   -2.641240666629389e+01   -1.246861101020018e+02   -2.256826490617048e+01   -1.440483690086555e+02   
7.011000000000000e+09    -1.980873600691594e+01   -1.489524390105212e+02   -2.639852088017339e+01   -1.255390513856520e+02   -2.639973186435009e+01   -1.254213511238428e+02   -2.261057357712063e+01   -1.437859201440557e+02   
7.012000000000000e+09    -1.980186734978783e+01   -1.486755781696466e+02   -2.638130810159639e+01   -1.262565586306928e+02   -2.636715355466762e+01   -1.260374970877027e+02   -2.266164945814531e+01   -1.434496752156036e+02   
7.013000000000000e+09    -1.979758932587752e+01   -1.484363486127164e+02   -2.634662115072565e+01   -1.269849329555238e+02   -2.634582507744598e+01   -1.267744016907839e+02   -2.271418938856028e+01   -1.432359089371491e+02   
7.014000000000000e+09    -1.979910078572045e+01   -1.481791895798731e+02   -2.632678788235426e+01   -1.277278066143359e+02   -2.632244971849251e+01   -1.275023486788126e+02   -2.274504703812854e+01   -1.430150044366117e+02   
7.015000000000000e+09    -1.979497472593004e+01   -1.478757229808998e+02   -2.631116235586049e+01   -1.283971504519233e+02   -2.630286184917195e+01   -1.279963374274118e+02   -2.277139355104448e+01   -1.427973785028048e+02   
7.016000000000000e+09    -1.978613070501667e+01   -1.476190532985364e+02   -2.627801548365086e+01   -1.289916815749397e+02   -2.626676005858110e+01   -1.287463757670229e+02   -2.281357416123821e+01   -1.426531869420273e+02   
7.017000000000000e+09    -1.979036053252964e+01   -1.473414345017717e+02   -2.624875204482719e+01   -1.298003271633001e+02   -2.626257658524644e+01   -1.295845362693117e+02   -2.282829030690483e+01   -1.425455266855458e+02   
7.018000000000000e+09    -1.978193865910847e+01   -1.471549209464299e+02   -2.623179966097995e+01   -1.303547479696957e+02   -2.622674864874847e+01   -1.302824324537731e+02   -2.284777539268831e+01   -1.423522891947184e+02   
7.019000000000000e+09    -1.976519476663846e+01   -1.468989404998321e+02   -2.619914177030439e+01   -1.311413117482937e+02   -2.620734310113949e+01   -1.309479059089579e+02   -2.286536057130732e+01   -1.421246276343599e+02   
7.020000000000000e+09    -1.975587589571269e+01   -1.466893753841428e+02   -2.617663186325509e+01   -1.317618354543440e+02   -2.619771542359502e+01   -1.317763250546344e+02   -2.287776281379357e+01   -1.421781954319943e+02   
7.021000000000000e+09    -1.975188720974613e+01   -1.464350393422941e+02   -2.614632242211650e+01   -1.325620984000714e+02   -2.615115514946956e+01   -1.323768685185592e+02   -2.287178626013929e+01   -1.419877694166809e+02   
7.022000000000000e+09    -1.973656062506152e+01   -1.462609564284360e+02   -2.612343913698002e+01   -1.332235882335892e+02   -2.612715106961678e+01   -1.329905428935896e+02   -2.289032834198284e+01   -1.419132786072189e+02   
7.023000000000000e+09    -1.972554991104230e+01   -1.459986474974014e+02   -2.611493069510405e+01   -1.339477916556691e+02   -2.611520126561742e+01   -1.338137884511512e+02   -2.288449189536872e+01   -1.419276780146901e+02   
7.024000000000000e+09    -1.971138695098862e+01   -1.458725357695430e+02   -2.609627146172259e+01   -1.345495271699443e+02   -2.612007840915485e+01   -1.346016560379437e+02   -2.287193132822963e+01   -1.418297538892778e+02   
7.025000000000000e+09    -1.970002893565628e+01   -1.456277197604985e+02   -2.609069287196570e+01   -1.351768617585081e+02   -2.608137881656640e+01   -1.352423016820065e+02   -2.286565912501369e+01   -1.417632430163265e+02   
7.026000000000000e+09    -1.967612768556220e+01   -1.455006410750077e+02   -2.607437097140366e+01   -1.360162338242049e+02   -2.606941611826509e+01   -1.359284585715353e+02   -2.283257988102738e+01   -1.417651541191444e+02   
7.027000000000000e+09    -1.966097581961732e+01   -1.452813443821752e+02   -2.604991194522119e+01   -1.366558964061798e+02   -2.604467271117081e+01   -1.365711720518161e+02   -2.281125994512749e+01   -1.416801125714543e+02   
7.028000000000000e+09    -1.963880126269875e+01   -1.451193533926932e+02   -2.602827399749039e+01   -1.374594296559336e+02   -2.604268398445927e+01   -1.372776472611606e+02   -2.278489606146112e+01   -1.416936520374169e+02   
7.029000000000000e+09    -1.962070139436712e+01   -1.449739656023029e+02   -2.602177408803247e+01   -1.381585635851609e+02   -2.602493503178774e+01   -1.381739713134689e+02   -2.276214905855502e+01   -1.417236314116555e+02   
7.030000000000000e+09    -1.959290311707128e+01   -1.447457038600087e+02   -2.599471269403019e+01   -1.388466042763822e+02   -2.602221873731013e+01   -1.386280959224787e+02   -2.273140751064763e+01   -1.416647032415297e+02   
7.031000000000000e+09    -1.957034270504247e+01   -1.446405974766604e+02   -2.597054137660661e+01   -1.394297557002413e+02   -2.600139832004474e+01   -1.394748055665672e+02   -2.268359654081033e+01   -1.416467912103937e+02   
7.032000000000000e+09    -1.953652393119716e+01   -1.444973457259446e+02   -2.595981289896956e+01   -1.402150906651899e+02   -2.599211636495156e+01   -1.400234125407769e+02   -2.264975203424844e+01   -1.417789017888729e+02   
7.033000000000000e+09    -1.951793252746301e+01   -1.443225094824159e+02   -2.594439859537844e+01   -1.406804695255101e+02   -2.599733746891966e+01   -1.407508376800609e+02   -2.260714089646745e+01   -1.417596321716318e+02   
7.034000000000000e+09    -1.948294772507986e+01   -1.441890741435057e+02   -2.593543405708070e+01   -1.414869604788232e+02   -2.597087561560977e+01   -1.414402714833623e+02   -2.255034591188226e+01   -1.416588729058613e+02   
7.035000000000000e+09    -1.945835883374116e+01   -1.440770103577454e+02   -2.592318661601141e+01   -1.421253628295534e+02   -2.597270946279020e+01   -1.422131926417964e+02   -2.249526512972259e+01   -1.415968395876239e+02   
7.036000000000000e+09    -1.941925647828745e+01   -1.439111784206228e+02   -2.590791000658324e+01   -1.427993140025190e+02   -2.593626947458074e+01   -1.427766271836400e+02   -2.246213358397810e+01   -1.415888702022679e+02   
7.037000000000000e+09    -1.939384404323114e+01   -1.437998548132929e+02   -2.588895171524888e+01   -1.434317066063109e+02   -2.591021260481487e+01   -1.433774273096649e+02   -2.239182359727403e+01   -1.416146392454329e+02   
7.038000000000000e+09    -1.935444090737184e+01   -1.436811324515796e+02   -2.589397178255760e+01   -1.441784365942538e+02   -2.592386001108512e+01   -1.441363057705005e+02   -2.231479978130533e+01   -1.416262108766479e+02   
7.039000000000000e+09    -1.931081268340060e+01   -1.435139815219088e+02   -2.586610370606457e+01   -1.448474581428671e+02   -2.589630555632396e+01   -1.447442192236112e+02   -2.225684146977363e+01   -1.415665255984459e+02   
7.040000000000000e+09    -1.927977316400928e+01   -1.433693975612711e+02   -2.585497252889919e+01   -1.455124271447035e+02   -2.589108277331164e+01   -1.454044773399284e+02   -2.217888621637471e+01   -1.416198579421000e+02   
7.041000000000000e+09    -1.924331199323245e+01   -1.432429671132190e+02   -2.584273446373362e+01   -1.461423321593221e+02   -2.588020185431716e+01   -1.459984437263377e+02   -2.209823892693674e+01   -1.415275465615101e+02   
7.042000000000000e+09    -1.919686435557070e+01   -1.431200856753830e+02   -2.582636402690766e+01   -1.468848504232562e+02   -2.587747769890157e+01   -1.466718999759938e+02   -2.203993939659332e+01   -1.414526186439110e+02   
7.043000000000000e+09    -1.916316835511127e+01   -1.430431891134094e+02   -2.583538033733159e+01   -1.475709034317265e+02   -2.584605839393771e+01   -1.474102610197526e+02   -2.196015722518623e+01   -1.415298056344583e+02   
7.044000000000000e+09    -1.911805105294484e+01   -1.428459099077950e+02   -2.579645790288829e+01   -1.481544419039142e+02   -2.585083674109775e+01   -1.480249128298749e+02   -2.186161395567648e+01   -1.414985387410795e+02   
7.045000000000000e+09    -1.906976512415213e+01   -1.427097449217251e+02   -2.578825313665111e+01   -1.488867060249574e+02   -2.581366943488363e+01   -1.487724180858939e+02   -2.178580005478093e+01   -1.413364151242064e+02   
7.046000000000000e+09    -1.902441342667732e+01   -1.425878921062747e+02   -2.578969930122700e+01   -1.495472694674486e+02   -2.581774349932244e+01   -1.493838051550375e+02   -2.170396963553931e+01   -1.413158474874205e+02   
7.047000000000000e+09    -1.898499996444087e+01   -1.424513189566221e+02   -2.577416455328133e+01   -1.501948822757120e+02   -2.582809186176048e+01   -1.499823111999280e+02   -2.161569168387821e+01   -1.412294446609725e+02   
7.048000000000000e+09    -1.894222934589844e+01   -1.423848611787003e+02   -2.576057984842936e+01   -1.509236411830767e+02   -2.579095500749025e+01   -1.506538755573717e+02   -2.152787010942012e+01   -1.411234105553528e+02   
7.049000000000000e+09    -1.890539766212756e+01   -1.422004054090955e+02   -2.574500457159785e+01   -1.515650006604003e+02   -2.579103911208296e+01   -1.513034785709052e+02   -2.142856914309763e+01   -1.410347515670677e+02   
7.050000000000000e+09    -1.885662847141356e+01   -1.420456502165806e+02   -2.574195826851407e+01   -1.522211295160509e+02   -2.577802452832083e+01   -1.519502013991923e+02   -2.133947037247591e+01   -1.409192454411011e+02   
7.051000000000000e+09    -1.882024812052827e+01   -1.418823441634014e+02   -2.572294746456948e+01   -1.529754775235278e+02   -2.575874400540381e+01   -1.526978388147959e+02   -2.124639944078437e+01   -1.408901158268680e+02   
7.052000000000000e+09    -1.878256371568596e+01   -1.417862931595365e+02   -2.571729132754377e+01   -1.536264370364761e+02   -2.576112740927033e+01   -1.532067043593851e+02   -2.115858186019765e+01   -1.407754142704108e+02   
7.053000000000000e+09    -1.874008938045410e+01   -1.416616435398334e+02   -2.571838621492035e+01   -1.541961995757537e+02   -2.574513792207111e+01   -1.539391026312291e+02   -2.105222125829127e+01   -1.406403742250260e+02   
7.054000000000000e+09    -1.871051399674586e+01   -1.414956053795874e+02   -2.569070900964658e+01   -1.550805655101233e+02   -2.575260282146658e+01   -1.546713413819846e+02   -2.095922107642359e+01   -1.405060899922738e+02   
7.055000000000000e+09    -1.867021520801093e+01   -1.413332391041043e+02   -2.570032039405152e+01   -1.556393831085201e+02   -2.572912845245676e+01   -1.552983584046763e+02   -2.085908280920233e+01   -1.403695706223447e+02   
7.056000000000000e+09    -1.863207433020936e+01   -1.411213271642953e+02   -2.568342201970802e+01   -1.563037893915957e+02   -2.571655616882154e+01   -1.558198598728668e+02   -2.076804640337084e+01   -1.402033171455003e+02   
7.057000000000000e+09    -1.859799824787994e+01   -1.409283409359707e+02   -2.568503098217252e+01   -1.570341191184773e+02   -2.571303814837663e+01   -1.566326015474472e+02   -2.066364199947128e+01   -1.401036920907374e+02   
7.058000000000000e+09    -1.856077065366936e+01   -1.408013684096989e+02   -2.568343509165063e+01   -1.577405237634812e+02   -2.570690942584343e+01   -1.572683547111635e+02   -2.057332184901595e+01   -1.398816786404292e+02   
7.059000000000000e+09    -1.852925554688456e+01   -1.406448167081428e+02   -2.567687580497852e+01   -1.583630958914854e+02   -2.568804403218304e+01   -1.580410845036312e+02   -2.046637366025208e+01   -1.397121730566631e+02   
7.060000000000000e+09    -1.849747587596395e+01   -1.404995819580447e+02   -2.567309561483920e+01   -1.591649561189271e+02   -2.569253378873339e+01   -1.586642207669589e+02   -2.037707640468045e+01   -1.395726350063971e+02   
7.061000000000000e+09    -1.846163467446233e+01   -1.403017764082538e+02   -2.565274969846077e+01   -1.597473767948042e+02   -2.566590563447640e+01   -1.592981459229552e+02   -2.028017861337861e+01   -1.393533410756617e+02   
7.062000000000000e+09    -1.843232263951743e+01   -1.401579533084519e+02   -2.563641470101541e+01   -1.605216201703849e+02   -2.567762729070690e+01   -1.601370610912463e+02   -2.019688523649288e+01   -1.391679589356478e+02   
7.063000000000000e+09    -1.839320843366077e+01   -1.399819313413080e+02   -2.565327373691669e+01   -1.610976423204948e+02   -2.568291788987437e+01   -1.608420211987393e+02   -2.009401735600211e+01   -1.389660876767662e+02   
7.064000000000000e+09    -1.837013221976114e+01   -1.398320750685991e+02   -2.564848545867478e+01   -1.617564463345056e+02   -2.564680570087876e+01   -1.612540157321274e+02   -2.000508185659798e+01   -1.386242535963915e+02   
7.065000000000000e+09    -1.833913941052265e+01   -1.397555810963229e+02   -2.563455938444361e+01   -1.625144918215267e+02   -2.566757405058211e+01   -1.619757228884696e+02   -1.992189091073395e+01   -1.384656743644617e+02   
7.066000000000000e+09    -1.830151101184575e+01   -1.396104921777187e+02   -2.563294014912007e+01   -1.631262445364601e+02   -2.564769164428397e+01   -1.626866965219272e+02   -1.982424382197584e+01   -1.382363038623708e+02   
7.067000000000000e+09    -1.827174816233322e+01   -1.394533695274904e+02   -2.563148399342978e+01   -1.640078979239071e+02   -2.565729441051425e+01   -1.635151907663571e+02   -1.973080999173595e+01   -1.379274562899591e+02   
7.068000000000000e+09    -1.825159228910839e+01   -1.393390450295948e+02   -2.564375857971770e+01   -1.645333296179769e+02   -2.566313256611460e+01   -1.640457556230346e+02   -1.964829002970546e+01   -1.376164565374641e+02   
7.069000000000000e+09    -1.822337990161780e+01   -1.392948826505332e+02   -2.564371530364450e+01   -1.651559894755000e+02   -2.565506760453946e+01   -1.646923887415771e+02   -1.957527604044198e+01   -1.373793635759106e+02   
7.070000000000000e+09    -1.820529374476003e+01   -1.391228092770047e+02   -2.562890194051162e+01   -1.657463695044333e+02   -2.564753150062735e+01   -1.654131674500764e+02   -1.949744616158662e+01   -1.370800785719341e+02   
7.071000000000000e+09    -1.817267390461949e+01   -1.390568430211341e+02   -2.563352301206832e+01   -1.665710406554530e+02   -2.563814559744536e+01   -1.660944772180371e+02   -1.942909560873411e+01   -1.367939043829752e+02   
7.072000000000000e+09    -1.814477151887659e+01   -1.389260237362276e+02   -2.562387051034029e+01   -1.673164997926468e+02   -2.564205862809168e+01   -1.667167960071328e+02   -1.935210298655169e+01   -1.365277759706386e+02   
7.073000000000000e+09    -1.811778434142746e+01   -1.388508039975287e+02   -2.564922196736021e+01   -1.679934381276900e+02   -2.565288452388166e+01   -1.673935287059325e+02   -1.928347447041554e+01   -1.362387248984234e+02   
7.074000000000000e+09    -1.810418452016217e+01   -1.387304192692501e+02   -2.562482508247849e+01   -1.685800040670626e+02   -2.563216981259298e+01   -1.681478303479774e+02   -1.922828203533254e+01   -1.359312898411912e+02   
7.075000000000000e+09    -1.807143531075034e+01   -1.387101892272801e+02   -2.563459946373074e+01   -1.692235222722401e+02   -2.564012415286962e+01   -1.687456476704316e+02   -1.917080789977569e+01   -1.355639238392918e+02   
7.076000000000000e+09    -1.804950962507318e+01   -1.385307665589051e+02   -2.562488311700411e+01   -1.699080643883111e+02   -2.564023260056358e+01   -1.694288892221568e+02   -1.910252330920192e+01   -1.352371019121019e+02   
7.077000000000000e+09    -1.802699108690490e+01   -1.385060974304331e+02   -2.565455356398791e+01   -1.706511904024836e+02   -2.564691348877730e+01   -1.701589465523826e+02   -1.904864543771372e+01   -1.349139763035382e+02   
7.078000000000000e+09    -1.800307884318714e+01   -1.384167564508538e+02   -2.563951081229114e+01   -1.712111927226853e+02   -2.563412077653382e+01   -1.708699165595974e+02   -1.899125558880180e+01   -1.346322666958815e+02   
7.079000000000000e+09    -1.797791124070581e+01   -1.383903093858859e+02   -2.564797522136318e+01   -1.719649620947204e+02   -2.564690684099720e+01   -1.713253218747777e+02   -1.894249521751468e+01   -1.342793564454262e+02   
7.080000000000000e+09    -1.796636755260058e+01   -1.383368010651126e+02   -2.564392132919802e+01   -1.725168145998329e+02   -2.566672236353369e+01   -1.721483572511196e+02   -1.888850404465034e+01   -1.339608319418199e+02   
7.081000000000000e+09    -1.794080573756745e+01   -1.382674215978979e+02   -2.565281637257754e+01   -1.732488293849226e+02   -2.565858505862945e+01   -1.729076417171793e+02   -1.885221428136460e+01   -1.336560467819643e+02   
7.082000000000000e+09    -1.791234455502257e+01   -1.382132421124863e+02   -2.566244387232591e+01   -1.739363875802002e+02   -2.565008589448981e+01   -1.734739031451572e+02   -1.881560535880595e+01   -1.333655633277905e+02   
7.083000000000000e+09    -1.789273692055840e+01   -1.381879306761339e+02   -2.565039809825193e+01   -1.746350679737253e+02   -2.566032368243424e+01   -1.743113539621547e+02   -1.877676208695516e+01   -1.330371595317100e+02   
7.084000000000000e+09    -1.788053087294372e+01   -1.381423281127075e+02   -2.567496017918072e+01   -1.753138477182530e+02   -2.565191791562068e+01   -1.748788263898241e+02   -1.874519939285999e+01   -1.327154766562142e+02   
