[Version] 2.0
! Rohde & Schwarz Vector Network Analyzer
! Rohde-Schwarz,ZNL20-2Port,1323001220200009,1.71.1.10-23.02.1.238
! 
! Port Assignments:
! Nominal Port -> Actual Test Port
! --------------------------------
!   1 -> 1
!   2 -> 2

! Created: GMT+3 2024-09-24 12:38:28

# Hz S DB R 50

[Number of Ports] 2
[Two-Port Data Order] 21_12
[Number of Frequencies] 6001

[Network Data] 
! freq[Hz]               S11[mag dB]              S11[ang]                 S21[mag dB]              S21[ang]                 S12[mag dB]              S12[ang]                 S22[mag dB]              S22[ang]                 
7.000000000000000e+09    -2.003210919859018e+01   -1.506133910938331e+02   -2.611706705896511e+01   -1.184119057679926e+02   -2.608146327951288e+01   -1.185741811316733e+02   -2.243954960158005e+01   -1.471381781624863e+02   
7.001000000000000e+09    -2.003922024934012e+01   -1.502573319707016e+02   -2.609769045193817e+01   -1.191390656266137e+02   -2.605824542239061e+01   -1.192582267118137e+02   -2.251270210742672e+01   -1.465779056070956e+02   
7.002000000000000e+09    -2.004285970272436e+01   -1.499195750361052e+02   -2.607843406968552e+01   -1.197903327103116e+02   -2.604475056925273e+01   -1.199989009705939e+02   -2.258897021361724e+01   -1.459325062603388e+02   
7.003000000000000e+09    -2.004709760081083e+01   -1.495827494571312e+02   -2.607745707407825e+01   -1.202524578094830e+02   -2.602395718297839e+01   -1.206144018210168e+02   -2.265694851928505e+01   -1.453311640626240e+02   
7.004000000000000e+09    -2.004698576006160e+01   -1.492707268409801e+02   -2.604106495804869e+01   -1.210203011611328e+02   -2.602420503030356e+01   -1.213483633159636e+02   -2.272292118475166e+01   -1.446987403707625e+02   
7.005000000000000e+09    -2.005662376799636e+01   -1.489334585280203e+02   -2.602962000972224e+01   -1.217402198318808e+02   -2.599783236453619e+01   -1.220763005691365e+02   -2.279373318102299e+01   -1.441309049277416e+02   
7.006000000000000e+09    -2.005447126215847e+01   -1.486560110569186e+02   -2.600567331891603e+01   -1.224161298237852e+02   -2.598674445612381e+01   -1.226843848109086e+02   -2.285671628791609e+01   -1.435108851178196e+02   
7.007000000000000e+09    -2.005412751864935e+01   -1.483332624335098e+02   -2.598649616602648e+01   -1.230055846495239e+02   -2.595728154527962e+01   -1.233838786696494e+02   -2.291319599075843e+01   -1.429883952068964e+02   
7.008000000000000e+09    -2.004553057318486e+01   -1.479776064676311e+02   -2.597403995883549e+01   -1.238565612481593e+02   -2.592059479300103e+01   -1.241473546694761e+02   -2.297318371271432e+01   -1.424809334514974e+02   
7.009000000000000e+09    -2.003727430719993e+01   -1.476828840049506e+02   -2.596086521205341e+01   -1.244506830155642e+02   -2.591829474046206e+01   -1.248529434496154e+02   -2.302819663032447e+01   -1.420279975054848e+02   
7.010000000000000e+09    -2.003518263120665e+01   -1.473932434759952e+02   -2.593529367316133e+01   -1.251203017751077e+02   -2.589925622001583e+01   -1.254663355646222e+02   -2.307327309114287e+01   -1.414786243056036e+02   
7.011000000000000e+09    -2.002969736488876e+01   -1.470761416477999e+02   -2.590505631011493e+01   -1.256039460991097e+02   -2.588930655022827e+01   -1.261786219759305e+02   -2.311511928965225e+01   -1.410880761355451e+02   
7.012000000000000e+09    -2.001952202592658e+01   -1.467267944681498e+02   -2.589667030367172e+01   -1.263040500724778e+02   -2.587438303338916e+01   -1.268888595014464e+02   -2.315726265866302e+01   -1.407022610684014e+02   
7.013000000000000e+09    -2.000732567919072e+01   -1.464414194831423e+02   -2.587172207048427e+01   -1.270181563240957e+02   -2.585412224179769e+01   -1.274872910667015e+02   -2.320476656324046e+01   -1.403480924504773e+02   
7.014000000000000e+09    -2.000415278228488e+01   -1.461914816092351e+02   -2.584721949053245e+01   -1.276717750447090e+02   -2.582952018036765e+01   -1.281879294508415e+02   -2.322908545175343e+01   -1.400909834564494e+02   
7.015000000000000e+09    -1.998217596461726e+01   -1.459597525282176e+02   -2.585380018455738e+01   -1.283319572744587e+02   -2.582437571283826e+01   -1.287699975159742e+02   -2.326005818039317e+01   -1.397424345944392e+02   
7.016000000000000e+09    -1.997631885321015e+01   -1.456584331342901e+02   -2.581621114791065e+01   -1.289752325887694e+02   -2.580276075742364e+01   -1.294375907635737e+02   -2.328826885973832e+01   -1.394337868883411e+02   
7.017000000000000e+09    -1.996076407187347e+01   -1.454057821720575e+02   -2.580302544038219e+01   -1.296635589768708e+02   -2.578961570862533e+01   -1.303212661073779e+02   -2.330959262428404e+01   -1.392837723022944e+02   
7.018000000000000e+09    -1.995139284230175e+01   -1.451910410649655e+02   -2.577736976136574e+01   -1.303350139188775e+02   -2.577229470548764e+01   -1.308708435370986e+02   -2.331770612217238e+01   -1.390514311018381e+02   
7.019000000000000e+09    -1.993681451883563e+01   -1.449131382478730e+02   -2.577629911967851e+01   -1.309707234045608e+02   -2.576878419355592e+01   -1.315736909589064e+02   -2.332838837579576e+01   -1.387186985040069e+02   
7.020000000000000e+09    -1.991341641527389e+01   -1.447161827978134e+02   -2.575647810635860e+01   -1.316338878308371e+02   -2.575170784829240e+01   -1.323763306044175e+02   -2.332752427454986e+01   -1.386376955511660e+02   
7.021000000000000e+09    -1.991090414282226e+01   -1.445244275657254e+02   -2.572025739308235e+01   -1.323898823702919e+02   -2.572818693628537e+01   -1.328673204024207e+02   -2.333420897732006e+01   -1.384739193748914e+02   
7.022000000000000e+09    -1.988649347913532e+01   -1.443043924645814e+02   -2.571032831208956e+01   -1.329512428265755e+02   -2.571255480898641e+01   -1.335824716950526e+02   -2.334124657222568e+01   -1.382717846978975e+02   
7.023000000000000e+09    -1.986713984295091e+01   -1.440401881842909e+02   -2.570327604804423e+01   -1.335755539142656e+02   -2.570724133375652e+01   -1.343203937632626e+02   -2.331138492099782e+01   -1.382117316746796e+02   
7.024000000000000e+09    -1.985131830821619e+01   -1.438634811035057e+02   -2.568585349916498e+01   -1.342862708013600e+02   -2.570968819812935e+01   -1.349611020186288e+02   -2.330040431964282e+01   -1.380884560236988e+02   
7.025000000000000e+09    -1.983464905145750e+01   -1.436054544682200e+02   -2.567984953291205e+01   -1.348528272794537e+02   -2.569669063175274e+01   -1.355635505368049e+02   -2.329015054709006e+01   -1.380226576068408e+02   
7.026000000000000e+09    -1.981560688827324e+01   -1.434971556788120e+02   -2.565927224845692e+01   -1.355242986296274e+02   -2.568008232430031e+01   -1.362862373590704e+02   -2.325147087957687e+01   -1.378856805161085e+02   
7.027000000000000e+09    -1.978975463974144e+01   -1.432006567669673e+02   -2.564207885379518e+01   -1.361940265140371e+02   -2.565707605634858e+01   -1.369821605436321e+02   -2.322575709634947e+01   -1.377884708065620e+02   
7.028000000000000e+09    -1.975977771444507e+01   -1.430513526926444e+02   -2.562092761118815e+01   -1.369311509757939e+02   -2.564903283341880e+01   -1.375072276651904e+02   -2.319581697253115e+01   -1.378131804709207e+02   
7.029000000000000e+09    -1.974023128460459e+01   -1.428672983868204e+02   -2.561174453574980e+01   -1.375938725882372e+02   -2.564149266723795e+01   -1.383000141901400e+02   -2.314956249936089e+01   -1.378000072451333e+02   
7.030000000000000e+09    -1.970119455076175e+01   -1.426861439098102e+02   -2.560139234750451e+01   -1.382802574876204e+02   -2.564536624480678e+01   -1.388619194590534e+02   -2.310582954650404e+01   -1.376604561178827e+02   
7.031000000000000e+09    -1.967342992680776e+01   -1.425646683290522e+02   -2.557524303519752e+01   -1.387708346719990e+02   -2.562618073801781e+01   -1.395731977688325e+02   -2.305888083596026e+01   -1.376327969982767e+02   
7.032000000000000e+09    -1.963434349955626e+01   -1.423427392359301e+02   -2.557240334651666e+01   -1.395919028968246e+02   -2.561906952757472e+01   -1.401030019726051e+02   -2.300267842951120e+01   -1.376525452965066e+02   
7.033000000000000e+09    -1.961084572464475e+01   -1.422200789694034e+02   -2.556910460550705e+01   -1.400842474918412e+02   -2.561886993110680e+01   -1.408297296338262e+02   -2.294963042508662e+01   -1.377089889712555e+02   
7.034000000000000e+09    -1.956932939536899e+01   -1.420845544013498e+02   -2.555222483766673e+01   -1.407795404431580e+02   -2.560654194099248e+01   -1.414915232441066e+02   -2.288977648318701e+01   -1.376194601928518e+02   
7.035000000000000e+09    -1.952788955399128e+01   -1.419564857542007e+02   -2.553353027528126e+01   -1.413710963862157e+02   -2.559729920336441e+01   -1.421283725220055e+02   -2.280200174707120e+01   -1.375572989040952e+02   
7.036000000000000e+09    -1.949140441838689e+01   -1.417862893062102e+02   -2.551311096854592e+01   -1.419713215392849e+02   -2.557002327997159e+01   -1.428116617893418e+02   -2.274440068119876e+01   -1.376325952872770e+02   
7.037000000000000e+09    -1.945975538559564e+01   -1.416965621903970e+02   -2.549301938660187e+01   -1.426978570469141e+02   -2.555661746109598e+01   -1.434023630816316e+02   -2.266814540165498e+01   -1.374982820569896e+02   
7.038000000000000e+09    -1.941272276121545e+01   -1.415499147657720e+02   -2.549608916018204e+01   -1.434153434036276e+02   -2.554396147510141e+01   -1.440622381323331e+02   -2.258259615850272e+01   -1.376340665515310e+02   
7.039000000000000e+09    -1.936642850312482e+01   -1.413839592650101e+02   -2.547813936560555e+01   -1.440151438706848e+02   -2.553107800023709e+01   -1.446012881236967e+02   -2.250158654725886e+01   -1.376564751037801e+02   
7.040000000000000e+09    -1.932164507700398e+01   -1.412256014402674e+02   -2.548004179762848e+01   -1.446709862451045e+02   -2.552580329275178e+01   -1.452880326083301e+02   -2.241763634688126e+01   -1.377244817053570e+02   
7.041000000000000e+09    -1.928091239197923e+01   -1.410478295483950e+02   -2.545399073998968e+01   -1.454038904038823e+02   -2.552324865247325e+01   -1.459107720819620e+02   -2.233246117945953e+01   -1.376299081293190e+02   
7.042000000000000e+09    -1.922834609157526e+01   -1.409508895818194e+02   -2.545095420492283e+01   -1.461742006133604e+02   -2.552323524282887e+01   -1.464576922718999e+02   -2.225720284764754e+01   -1.376217283971936e+02   
7.043000000000000e+09    -1.918580885543733e+01   -1.408571511745944e+02   -2.544169744172625e+01   -1.467394077245397e+02   -2.550357856728873e+01   -1.472176877335995e+02   -2.215441069036935e+01   -1.377010796000739e+02   
7.044000000000000e+09    -1.913284330688026e+01   -1.406392195858960e+02   -2.541016894385470e+01   -1.472501089104886e+02   -2.550603800150400e+01   -1.477846463871538e+02   -2.205005312345529e+01   -1.377141304912509e+02   
7.045000000000000e+09    -1.907931650375319e+01   -1.405152589078277e+02   -2.540887629537597e+01   -1.479268005588019e+02   -2.547882279526837e+01   -1.483656723842348e+02   -2.195949602125276e+01   -1.376643279864180e+02   
7.046000000000000e+09    -1.903328786281434e+01   -1.404245563861039e+02   -2.541568720367034e+01   -1.486688664852564e+02   -2.548431794472480e+01   -1.490620852631617e+02   -2.185467870855015e+01   -1.376205568304893e+02   
7.047000000000000e+09    -1.898221051897278e+01   -1.402470402276077e+02   -2.539366475135958e+01   -1.492107234138633e+02   -2.547235384561752e+01   -1.496655381518679e+02   -2.176306939493215e+01   -1.375529419849780e+02   
7.048000000000000e+09    -1.893060312797018e+01   -1.401499406993724e+02   -2.538095325162301e+01   -1.499236767046508e+02   -2.545283783031659e+01   -1.503481065153398e+02   -2.165295604128882e+01   -1.375514421847144e+02   
7.049000000000000e+09    -1.888490403946138e+01   -1.399401734820195e+02   -2.536253072496596e+01   -1.506049009597905e+02   -2.544964147405106e+01   -1.508499303127983e+02   -2.153784023357887e+01   -1.375344110096714e+02   
7.050000000000000e+09    -1.883455735413221e+01   -1.398381289136498e+02   -2.537413007005203e+01   -1.512290131296016e+02   -2.543406335885052e+01   -1.514906113529502e+02   -2.143336522087014e+01   -1.374681079587727e+02   
7.051000000000000e+09    -1.878630487871756e+01   -1.396472064280552e+02   -2.535754705781044e+01   -1.518984119114585e+02   -2.541828864042797e+01   -1.521777280391170e+02   -2.131044126268560e+01   -1.374573015398619e+02   
7.052000000000000e+09    -1.874201926817825e+01   -1.395120751356309e+02   -2.533850897854083e+01   -1.525205440883343e+02   -2.539889432750071e+01   -1.527008701298397e+02   -2.122354345343321e+01   -1.373624503461915e+02   
7.053000000000000e+09    -1.869191806465021e+01   -1.393636606679423e+02   -2.533402101319399e+01   -1.530875364130974e+02   -2.539287608688754e+01   -1.534692829205386e+02   -2.110946360219009e+01   -1.372535138045305e+02   
7.054000000000000e+09    -1.865402423484295e+01   -1.392079718243108e+02   -2.531540422036340e+01   -1.538676662507586e+02   -2.540139175380742e+01   -1.540445644011114e+02   -2.099029797936921e+01   -1.372144003345448e+02   
7.055000000000000e+09    -1.860351850913418e+01   -1.390830755536719e+02   -2.532199719305699e+01   -1.545476445264628e+02   -2.540272390731796e+01   -1.547225557550662e+02   -2.087983538732393e+01   -1.371152743990723e+02   
7.056000000000000e+09    -1.856105674586976e+01   -1.389034741908407e+02   -2.530852152505695e+01   -1.551954411017475e+02   -2.536618376591239e+01   -1.552484381745064e+02   -2.076256494817668e+01   -1.369921121138311e+02   
7.057000000000000e+09    -1.851350302778571e+01   -1.387056454967107e+02   -2.530246759504245e+01   -1.558797508466097e+02   -2.535349945964868e+01   -1.559354222648875e+02   -2.065124290247901e+01   -1.369690819583627e+02   
7.058000000000000e+09    -1.847109001042525e+01   -1.385994037227948e+02   -2.529772211249563e+01   -1.565276597951130e+02   -2.534707742152413e+01   -1.565587109167073e+02   -2.055428341195147e+01   -1.368127951471675e+02   
7.059000000000000e+09    -1.842945347475181e+01   -1.384507568146288e+02   -2.528326248496375e+01   -1.571527456279040e+02   -2.533706844060983e+01   -1.572353447265251e+02   -2.043203318514820e+01   -1.366608997286732e+02   
7.060000000000000e+09    -1.840007825598819e+01   -1.382951270269692e+02   -2.526799725697849e+01   -1.579239362284682e+02   -2.532791536017780e+01   -1.579200541414382e+02   -2.033457273314609e+01   -1.366285007670924e+02   
7.061000000000000e+09    -1.835144285511293e+01   -1.381654471194935e+02   -2.525967002327739e+01   -1.586386422593722e+02   -2.529724477619574e+01   -1.585205132638158e+02   -2.021801643853145e+01   -1.363436488222500e+02   
7.062000000000000e+09    -1.831295885030042e+01   -1.380331282870764e+02   -2.525521852861724e+01   -1.592697909711658e+02   -2.530525244927715e+01   -1.592139508464255e+02   -2.011414153263419e+01   -1.362633602380471e+02   
7.063000000000000e+09    -1.827148360979053e+01   -1.378634247222440e+02   -2.524654221814150e+01   -1.599764532903062e+02   -2.531031612157454e+01   -1.598868316045609e+02   -2.000520522280777e+01   -1.360693633621930e+02   
7.064000000000000e+09    -1.824134176211148e+01   -1.376912936399827e+02   -2.525443079773182e+01   -1.605949219092362e+02   -2.529675288712266e+01   -1.604339228194406e+02   -1.989412212565170e+01   -1.358255980867143e+02   
7.065000000000000e+09    -1.819814681829966e+01   -1.376480814003476e+02   -2.524193928828051e+01   -1.613600374723712e+02   -2.530795256180070e+01   -1.611491069409351e+02   -1.979330108115857e+01   -1.357403575280405e+02   
7.066000000000000e+09    -1.816313558732717e+01   -1.375193093015984e+02   -2.523888425637302e+01   -1.618823653138711e+02   -2.528572189922045e+01   -1.617168333047948e+02   -1.969112582642414e+01   -1.355851873787238e+02   
7.067000000000000e+09    -1.812899179123558e+01   -1.373617909786452e+02   -2.525474515791759e+01   -1.627773248052228e+02   -2.528554825130206e+01   -1.624870497181969e+02   -1.959989777713142e+01   -1.353054264900334e+02   
7.068000000000000e+09    -1.809435109392861e+01   -1.372350352606239e+02   -2.523517469931360e+01   -1.632543410812000e+02   -2.527576075436475e+01   -1.630588898070448e+02   -1.950158233016978e+01   -1.350974035759075e+02   
7.069000000000000e+09    -1.805439719378123e+01   -1.372467643831899e+02   -2.523533008543932e+01   -1.639099212209709e+02   -2.526574186967533e+01   -1.637052933649986e+02   -1.942463364296841e+01   -1.348934393163337e+02   
7.070000000000000e+09    -1.803481973797898e+01   -1.370672588881357e+02   -2.521158995357764e+01   -1.644604529258782e+02   -2.526394259094750e+01   -1.643572199387010e+02   -1.933368469146976e+01   -1.346133342078693e+02   
7.071000000000000e+09    -1.799461614179739e+01   -1.370375379659533e+02   -2.521546800235674e+01   -1.652815035542883e+02   -2.524195631398323e+01   -1.650404790493446e+02   -1.924705206946136e+01   -1.343990985430099e+02   
7.072000000000000e+09    -1.796800689851123e+01   -1.369226647124407e+02   -2.522039952677375e+01   -1.659427359379945e+02   -2.525021177495830e+01   -1.657970038623869e+02   -1.916428402912009e+01   -1.341674581427556e+02   
7.073000000000000e+09    -1.793855019667173e+01   -1.368659607892496e+02   -2.524883071635035e+01   -1.665434515433298e+02   -2.525144327794030e+01   -1.664100929480289e+02   -1.909145900192691e+01   -1.338897002834394e+02   
7.074000000000000e+09    -1.791348002127265e+01   -1.368061952795979e+02   -2.522269027231710e+01   -1.672849619746189e+02   -2.523306810018299e+01   -1.671339510958068e+02   -1.901823970047345e+01   -1.336312950043819e+02   
7.075000000000000e+09    -1.787391740963067e+01   -1.367587066976664e+02   -2.522986594690048e+01   -1.679898498715386e+02   -2.523074561938266e+01   -1.677872256655004e+02   -1.894501746762074e+01   -1.333763619513076e+02   
7.076000000000000e+09    -1.785349413750453e+01   -1.367102702633931e+02   -2.522069858049109e+01   -1.684767903132767e+02   -2.523228590349584e+01   -1.684791857330752e+02   -1.887395826486828e+01   -1.330235152578535e+02   
7.077000000000000e+09    -1.781985356004806e+01   -1.366596751180941e+02   -2.523352542895578e+01   -1.693097814691906e+02   -2.522509577711222e+01   -1.690462586860763e+02   -1.880369047310161e+01   -1.327525679803363e+02   
7.078000000000000e+09    -1.779041864972341e+01   -1.366260391659441e+02   -2.522084514144380e+01   -1.698650137995664e+02   -2.521755889625602e+01   -1.698104996694774e+02   -1.875185191220894e+01   -1.325480671526029e+02   
7.079000000000000e+09    -1.776483950004531e+01   -1.365888771330908e+02   -2.523524027656812e+01   -1.705133687715783e+02   -2.521978687631662e+01   -1.704916791279025e+02   -1.868758584050317e+01   -1.322737880601047e+02   
7.080000000000000e+09    -1.774309077188085e+01   -1.365938619912140e+02   -2.522442001832009e+01   -1.712376669145497e+02   -2.523714392329984e+01   -1.712250695795472e+02   -1.863172397779774e+01   -1.320236826087405e+02   
7.081000000000000e+09    -1.771226114217201e+01   -1.365749271994522e+02   -2.523279791454971e+01   -1.718006113684707e+02   -2.521762061776716e+01   -1.717832256698411e+02   -1.859436393864162e+01   -1.317099061304551e+02   
7.082000000000000e+09    -1.769648275184947e+01   -1.366038317857515e+02   -2.523734804268526e+01   -1.726595229616712e+02   -2.523071145178825e+01   -1.724707540312450e+02   -1.854427163405245e+01   -1.314375881112761e+02   
7.083000000000000e+09    -1.767540688866930e+01   -1.365642140494315e+02   -2.523418547742957e+01   -1.733397399126594e+02   -2.521336165256431e+01   -1.731649876341808e+02   -1.849587626058149e+01   -1.311855065498376e+02   
7.084000000000000e+09    -1.765483525182533e+01   -1.365541333862810e+02   -2.524699036969110e+01   -1.739952711207330e+02   -2.520235075728485e+01   -1.738632708984183e+02   -1.845569534243068e+01   -1.309007771328784e+02   
