[Version] 2.0
! Rohde & Schwarz Vector Network Analyzer
! Rohde-Schwarz,ZNL20-2Port,1323001220200009,1.71.1.10-23.02.1.238
! 
! Port Assignments:
! Nominal Port -> Actual Test Port
! --------------------------------
!   1 -> 1
!   2 -> 2

! Created: GMT+3 2024-09-24 12:12:07

# Hz S DB R 50

[Number of Ports] 2
[Two-Port Data Order] 21_12
[Number of Frequencies] 6001

[Network Data] 
! freq[Hz]               S11[mag dB]              S11[ang]                 S21[mag dB]              S21[ang]                 S12[mag dB]              S12[ang]                 S22[mag dB]              S22[ang]                 
7.000000000000000e+09    -1.866011551985713e+01   -1.598574380253653e+02   -3.214671043058031e+01   -1.512940451430845e+02   -3.214979803445480e+01   -1.513272841617243e+02   -2.004571522241960e+01   -1.563017138443707e+02   
7.001000000000000e+09    -1.867927735058634e+01   -1.597139256615455e+02   -3.214985598801925e+01   -1.516029594920133e+02   -3.214001578753698e+01   -1.515574269458970e+02   -2.013758004674954e+01   -1.561407213451265e+02   
7.002000000000000e+09    -1.872123014747545e+01   -1.595702645167445e+02   -3.213421649519785e+01   -1.518741628760818e+02   -3.216410872665129e+01   -1.520265156724559e+02   -2.022021912961436e+01   -1.559585137847409e+02   
7.003000000000000e+09    -1.875043893908016e+01   -1.594310089073595e+02   -3.219131476183416e+01   -1.518240712531532e+02   -3.214788527978575e+01   -1.522234332278853e+02   -2.030485681415662e+01   -1.558037410686798e+02   
7.004000000000000e+09    -1.877646888705563e+01   -1.593397081021927e+02   -3.216004112917672e+01   -1.523168055010262e+02   -3.215465166904384e+01   -1.525067309303129e+02   -2.038434399601311e+01   -1.556973963286379e+02   
7.005000000000000e+09    -1.880565731294727e+01   -1.591711366038236e+02   -3.216072943479620e+01   -1.526555451112478e+02   -3.216577308253962e+01   -1.525992639681664e+02   -2.046965983661635e+01   -1.555677304410534e+02   
7.006000000000000e+09    -1.883864151685994e+01   -1.590333941916731e+02   -3.213773265072341e+01   -1.529201215259431e+02   -3.213017657696783e+01   -1.528628696781937e+02   -2.054637831714597e+01   -1.554212617807326e+02   
7.007000000000000e+09    -1.885597323337493e+01   -1.589308868918215e+02   -3.216169710614954e+01   -1.528745738771603e+02   -3.214470152856624e+01   -1.531586201181259e+02   -2.062800417194318e+01   -1.553588877182358e+02   
7.008000000000000e+09    -1.887814148472500e+01   -1.587732243919110e+02   -3.213575467651513e+01   -1.533444077702464e+02   -3.213320202714971e+01   -1.537084292183371e+02   -2.070412646062065e+01   -1.553392139957198e+02   
7.009000000000000e+09    -1.890123489486113e+01   -1.587199351312940e+02   -3.217241250001093e+01   -1.537051478473215e+02   -3.213541545404195e+01   -1.538232941826003e+02   -2.077625591392822e+01   -1.552292481790019e+02   
7.010000000000000e+09    -1.892424552342641e+01   -1.585736073146319e+02   -3.215012051433369e+01   -1.541013424293709e+02   -3.215175647353144e+01   -1.543743975086888e+02   -2.085337872571874e+01   -1.552135479664433e+02   
7.011000000000000e+09    -1.895114423762538e+01   -1.584419167276848e+02   -3.218803333891844e+01   -1.540634538931450e+02   -3.213795043896959e+01   -1.545943352298039e+02   -2.092472383540933e+01   -1.552700543465348e+02   
7.012000000000000e+09    -1.897317834546881e+01   -1.583094218257328e+02   -3.217846337112854e+01   -1.546877592951880e+02   -3.212350327529802e+01   -1.549361612391878e+02   -2.099059912555534e+01   -1.552493045274796e+02   
7.013000000000000e+09    -1.899089668642223e+01   -1.582116370824577e+02   -3.215047594737626e+01   -1.548228054690642e+02   -3.215451043351284e+01   -1.552926827739587e+02   -2.106109408553159e+01   -1.552814870970800e+02   
7.014000000000000e+09    -1.901866163661045e+01   -1.581679267962715e+02   -3.217237690250461e+01   -1.550593894825589e+02   -3.214739575035404e+01   -1.554363992153638e+02   -2.112766710002517e+01   -1.553570680878535e+02   
7.015000000000000e+09    -1.903906127352970e+01   -1.580893772279047e+02   -3.219351837829529e+01   -1.555852321081054e+02   -3.217888679694978e+01   -1.557055248497827e+02   -2.118098091120529e+01   -1.554314187882033e+02   
7.016000000000000e+09    -1.906179991305391e+01   -1.579437024726579e+02   -3.218495611631303e+01   -1.556705233541638e+02   -3.218980008281890e+01   -1.560844693994629e+02   -2.122894388597026e+01   -1.555546849279006e+02   
7.017000000000000e+09    -1.908431667918178e+01   -1.578304421605789e+02   -3.219612023941977e+01   -1.561764915835357e+02   -3.216745255214482e+01   -1.567245271479940e+02   -2.128430687615133e+01   -1.556872414642105e+02   
7.018000000000000e+09    -1.910646181690115e+01   -1.577538143543068e+02   -3.221575934190069e+01   -1.564299784247321e+02   -3.218147493236253e+01   -1.569901314355820e+02   -2.133599109078870e+01   -1.557738463063267e+02   
7.019000000000000e+09    -1.913422344724190e+01   -1.576728098803350e+02   -3.222907790318294e+01   -1.569482365561145e+02   -3.220662536362096e+01   -1.572549879321333e+02   -2.137156960814837e+01   -1.558657372861651e+02   
7.020000000000000e+09    -1.915252455664130e+01   -1.576052215371721e+02   -3.224063930353095e+01   -1.569649071359655e+02   -3.223405893043083e+01   -1.577022907996093e+02   -2.141100841319769e+01   -1.560815409420950e+02   
7.021000000000000e+09    -1.917855224440027e+01   -1.575106210420226e+02   -3.220706922078842e+01   -1.572578451154203e+02   -3.219754587350729e+01   -1.578733239310014e+02   -2.144769065747438e+01   -1.561641398481099e+02   
7.022000000000000e+09    -1.919619777791667e+01   -1.574609637390519e+02   -3.225862122414338e+01   -1.577683779081410e+02   -3.223113801478064e+01   -1.582455608079589e+02   -2.150063383714070e+01   -1.563251643122494e+02   
7.023000000000000e+09    -1.922787238569994e+01   -1.572986688043015e+02   -3.225132441996951e+01   -1.580506703323908e+02   -3.224166863244615e+01   -1.586755403159423e+02   -2.151142819144202e+01   -1.565522419260811e+02   
7.024000000000000e+09    -1.924646751941366e+01   -1.572498227296558e+02   -3.228377474814715e+01   -1.583185715317274e+02   -3.230274911430801e+01   -1.589245803649531e+02   -2.153535953183223e+01   -1.567396327841563e+02   
7.025000000000000e+09    -1.927627859491351e+01   -1.571014302017650e+02   -3.231631316399248e+01   -1.584337556623305e+02   -3.233414830979860e+01   -1.591215353148962e+02   -2.156625696967528e+01   -1.569172516268290e+02   
7.026000000000000e+09    -1.929778830610431e+01   -1.570780742127641e+02   -3.233148447790656e+01   -1.588399545380558e+02   -3.230712287477932e+01   -1.595241605418365e+02   -2.157763472699035e+01   -1.570563824880167e+02   
7.027000000000000e+09    -1.932152503584717e+01   -1.568922179692235e+02   -3.233681280898983e+01   -1.592045279870719e+02   -3.233108590163530e+01   -1.596395917828608e+02   -2.159215010838894e+01   -1.572004008367389e+02   
7.028000000000000e+09    -1.933631409809524e+01   -1.567301910037682e+02   -3.232340603296598e+01   -1.595243876066581e+02   -3.233724086834159e+01   -1.598724821534514e+02   -2.159902231462473e+01   -1.573956491882726e+02   
7.029000000000000e+09    -1.935100098678547e+01   -1.566306644024010e+02   -3.239115810991559e+01   -1.600343210394661e+02   -3.235315514883789e+01   -1.604458124864100e+02   -2.161848789440490e+01   -1.575912934156421e+02   
7.030000000000000e+09    -1.936619009351103e+01   -1.564533948317121e+02   -3.236124286220574e+01   -1.601667607957892e+02   -3.238103738268445e+01   -1.604820871109007e+02   -2.162141606105464e+01   -1.576574315353834e+02   
7.031000000000000e+09    -1.938522967866631e+01   -1.563354216271945e+02   -3.236161259220553e+01   -1.601025764148029e+02   -3.236774696649338e+01   -1.609174114621009e+02   -2.162649447650868e+01   -1.578620795550417e+02   
7.032000000000000e+09    -1.938864043857855e+01   -1.561674733589705e+02   -3.238675834411867e+01   -1.604197243664341e+02   -3.239534501790197e+01   -1.609995989163025e+02   -2.163510064198515e+01   -1.581310005857045e+02   
7.033000000000000e+09    -1.939824132720359e+01   -1.560408016105487e+02   -3.239190066760193e+01   -1.606173844422352e+02   -3.243090115774442e+01   -1.614851040748186e+02   -2.162323408333972e+01   -1.582660862546349e+02   
7.034000000000000e+09    -1.940932822230952e+01   -1.558715450401241e+02   -3.241878066427675e+01   -1.610630936013073e+02   -3.245764384701113e+01   -1.614478934939810e+02   -2.161326931225637e+01   -1.583348654096066e+02   
7.035000000000000e+09    -1.941373442857684e+01   -1.557273899438462e+02   -3.242977577641772e+01   -1.610465447659352e+02   -3.247253331861798e+01   -1.620235779706539e+02   -2.160677383890407e+01   -1.583602028767448e+02   
7.036000000000000e+09    -1.941537793819510e+01   -1.555644038355994e+02   -3.243297640146881e+01   -1.611559236596689e+02   -3.247619407534661e+01   -1.621642759368515e+02   -2.160920864706164e+01   -1.585352127666476e+02   
7.037000000000000e+09    -1.942319349258999e+01   -1.554516532164801e+02   -3.247326994802388e+01   -1.616053933317615e+02   -3.246084195682924e+01   -1.622418838118103e+02   -2.159150558623659e+01   -1.585649606508933e+02   
7.038000000000000e+09    -1.941750656841847e+01   -1.552384076254810e+02   -3.245228578555971e+01   -1.617972960364163e+02   -3.248711192540209e+01   -1.627564838552076e+02   -2.156425355455408e+01   -1.587326331630169e+02   
7.039000000000000e+09    -1.941295360501832e+01   -1.550407938101833e+02   -3.246495081272062e+01   -1.619167695708920e+02   -3.250312542605429e+01   -1.625970796333211e+02   -2.155133961440821e+01   -1.587447399589973e+02   
7.040000000000000e+09    -1.940414720710411e+01   -1.548079898160161e+02   -3.251890983371576e+01   -1.622160328154031e+02   -3.246915919179390e+01   -1.628321460421329e+02   -2.152038749879747e+01   -1.587960595202160e+02   
7.041000000000000e+09    -1.940906656324030e+01   -1.546506388193551e+02   -3.248379939733447e+01   -1.625334415896120e+02   -3.253313253019870e+01   -1.631566873825136e+02   -2.150490283030321e+01   -1.588379884436378e+02   
7.042000000000000e+09    -1.939698807221125e+01   -1.544499636598324e+02   -3.249243549931610e+01   -1.627718419326436e+02   -3.253906433655759e+01   -1.632638801357860e+02   -2.148921529132829e+01   -1.587797045498392e+02   
7.043000000000000e+09    -1.938479433174030e+01   -1.543102518114773e+02   -3.253053321261135e+01   -1.632026410110022e+02   -3.255037175804613e+01   -1.635168427586789e+02   -2.145137030070802e+01   -1.587280311980848e+02   
7.044000000000000e+09    -1.937315531650088e+01   -1.540629037782326e+02   -3.251864163177431e+01   -1.630083867541062e+02   -3.259101606262157e+01   -1.637138209443919e+02   -2.141335012529068e+01   -1.587074274269374e+02   
7.045000000000000e+09    -1.936214318384871e+01   -1.538535732019050e+02   -3.248065815185494e+01   -1.634500244538709e+02   -3.255728063551030e+01   -1.640892509115476e+02   -2.139039636075979e+01   -1.586573654692872e+02   
7.046000000000000e+09    -1.934489928600397e+01   -1.536892211865585e+02   -3.256744900237640e+01   -1.635987634854456e+02   -3.255029493888566e+01   -1.641653591673782e+02   -2.135217849199158e+01   -1.585198101024124e+02   
7.047000000000000e+09    -1.933863333489293e+01   -1.535163349104657e+02   -3.252715234077530e+01   -1.637200977614472e+02   -3.257985249591205e+01   -1.643224208509631e+02   -2.131705512816493e+01   -1.584764915337068e+02   
7.048000000000000e+09    -1.933028096014271e+01   -1.533267592444267e+02   -3.253516821598452e+01   -1.642423072418332e+02   -3.255409892463439e+01   -1.646886784075492e+02   -2.128017720097594e+01   -1.582732288623125e+02   
7.049000000000000e+09    -1.931872482339112e+01   -1.530938846187238e+02   -3.254340045118533e+01   -1.642293666406108e+02   -3.258649877745943e+01   -1.649819628322275e+02   -2.123749612729010e+01   -1.581151816483878e+02   
7.050000000000000e+09    -1.930642100350492e+01   -1.529164807452411e+02   -3.255960362223290e+01   -1.646660153232839e+02   -3.257864829715835e+01   -1.652247129286852e+02   -2.119635666161705e+01   -1.579741488668630e+02   
7.051000000000000e+09    -1.929950813309600e+01   -1.526658783736840e+02   -3.254292832058045e+01   -1.650450831345570e+02   -3.256617780829969e+01   -1.654636538185679e+02   -2.114699710290445e+01   -1.578402673174472e+02   
7.052000000000000e+09    -1.929720298406927e+01   -1.524800697806460e+02   -3.256876116550892e+01   -1.652424859764565e+02   -3.257768994904594e+01   -1.654498560298812e+02   -2.111477671885638e+01   -1.576194650213432e+02   
7.053000000000000e+09    -1.929007655800450e+01   -1.523311528344077e+02   -3.258940712144109e+01   -1.653121359171688e+02   -3.261019182469889e+01   -1.658116117486221e+02   -2.106682602219547e+01   -1.574144718907540e+02   
7.054000000000000e+09    -1.929026541885263e+01   -1.521323717683099e+02   -3.256472354223035e+01   -1.658902973156177e+02   -3.263682048843146e+01   -1.661183045518753e+02   -2.102336962377457e+01   -1.570396744709601e+02   
7.055000000000000e+09    -1.927835223260045e+01   -1.518825110356914e+02   -3.261213410105991e+01   -1.661374126213533e+02   -3.264929048124836e+01   -1.665413676419086e+02   -2.097858623326157e+01   -1.568098625222970e+02   
7.056000000000000e+09    -1.928368622378134e+01   -1.516078265277056e+02   -3.259980624304880e+01   -1.663495656981280e+02   -3.262471675488857e+01   -1.665436482172849e+02   -2.093237493425797e+01   -1.565611060555561e+02   
7.057000000000000e+09    -1.927797791558454e+01   -1.513410842662567e+02   -3.262597954277913e+01   -1.665244697243895e+02   -3.265740017003284e+01   -1.667941821790303e+02   -2.087112261483291e+01   -1.562971842435506e+02   
7.058000000000000e+09    -1.927320667670585e+01   -1.511210974821920e+02   -3.266238674438152e+01   -1.668505060418086e+02   -3.270074399921366e+01   -1.670973121506358e+02   -2.084059590900655e+01   -1.559194057819833e+02   
7.059000000000000e+09    -1.927791665447328e+01   -1.508458272025383e+02   -3.267129786452946e+01   -1.669691990472578e+02   -3.266308342901537e+01   -1.675134243989765e+02   -2.078315593858897e+01   -1.556176340685042e+02   
7.060000000000000e+09    -1.928475124320309e+01   -1.505922719662334e+02   -3.264284654448591e+01   -1.673321912546749e+02   -3.267576196930404e+01   -1.675524675843968e+02   -2.073336679268751e+01   -1.553241949496856e+02   
7.061000000000000e+09    -1.928866142602608e+01   -1.503029452535031e+02   -3.264716629920734e+01   -1.676660744154553e+02   -3.266046775577403e+01   -1.677510330287901e+02   -2.068927003946753e+01   -1.548285234250502e+02   
7.062000000000000e+09    -1.928774323294980e+01   -1.500145614686650e+02   -3.267707487475979e+01   -1.676182920951632e+02   -3.269126804839945e+01   -1.681172401903919e+02   -2.063559941379226e+01   -1.544938506018324e+02   
7.063000000000000e+09    -1.929068271053063e+01   -1.497328232593457e+02   -3.270479082560725e+01   -1.681790242395049e+02   -3.275999651149199e+01   -1.682814942106688e+02   -2.059494636218412e+01   -1.540872330127819e+02   
7.064000000000000e+09    -1.929717333429312e+01   -1.494000515990416e+02   -3.269668844358510e+01   -1.680303365652580e+02   -3.269100290590155e+01   -1.682109673186745e+02   -2.055329333859271e+01   -1.536373265916148e+02   
7.065000000000000e+09    -1.929572579177850e+01   -1.491548488223438e+02   -3.272249523875451e+01   -1.684630640415029e+02   -3.274621573967107e+01   -1.686425714550166e+02   -2.051696946258379e+01   -1.532489798783174e+02   
7.066000000000000e+09    -1.930316730351408e+01   -1.488156794136393e+02   -3.273124043983011e+01   -1.684944639063722e+02   -3.277036566762807e+01   -1.687801777700403e+02   -2.047409822329543e+01   -1.528278817730821e+02   
7.067000000000000e+09    -1.930686081378555e+01   -1.485308671929205e+02   -3.276504316355253e+01   -1.688298749827560e+02   -3.275648939014046e+01   -1.689966865056054e+02   -2.043148733419234e+01   -1.523221160188117e+02   
7.068000000000000e+09    -1.930796448340658e+01   -1.482583710985856e+02   -3.273337606768391e+01   -1.689808590499145e+02   -3.281002034300387e+01   -1.689844468816424e+02   -2.040657401369937e+01   -1.518991468415860e+02   
7.069000000000000e+09    -1.930338707439054e+01   -1.479971250551951e+02   -3.273717250389892e+01   -1.690454727577185e+02   -3.276922306352219e+01   -1.691229926577128e+02   -2.036694405961676e+01   -1.514326669319216e+02   
7.070000000000000e+09    -1.931257053232013e+01   -1.476716834983920e+02   -3.274278562957594e+01   -1.690432413325013e+02   -3.279917695558655e+01   -1.694044767480042e+02   -2.034479013857231e+01   -1.508782996612780e+02   
7.071000000000000e+09    -1.930272492054977e+01   -1.474012728988622e+02   -3.277097786250381e+01   -1.691583483731724e+02   -3.274191069089607e+01   -1.694692418608642e+02   -2.031102368303920e+01   -1.504068861926456e+02   
7.072000000000000e+09    -1.930885913449519e+01   -1.471340350761255e+02   -3.274407018238060e+01   -1.695529913759675e+02   -3.281088464525455e+01   -1.696669361009289e+02   -2.029649987688900e+01   -1.499475548416166e+02   
7.073000000000000e+09    -1.930994980032011e+01   -1.467645154311974e+02   -3.278194631173329e+01   -1.696973592448259e+02   -3.281331917471600e+01   -1.698204467174192e+02   -2.026915904891244e+01   -1.494420267759531e+02   
7.074000000000000e+09    -1.931433716301540e+01   -1.465272824001005e+02   -3.277214085359805e+01   -1.698925620783157e+02   -3.276781707569076e+01   -1.699680289628680e+02   -2.024855683786035e+01   -1.488899944875596e+02   
7.075000000000000e+09    -1.930434721622629e+01   -1.462787878381673e+02   -3.276540411595888e+01   -1.700138898566778e+02   -3.276240674152025e+01   -1.703697127553247e+02   -2.023635233680583e+01   -1.483482930640227e+02   
7.076000000000000e+09    -1.930108938569474e+01   -1.460022773762186e+02   -3.275878097321068e+01   -1.700194098019796e+02   -3.277814284366841e+01   -1.704515874920293e+02   -2.022437720217908e+01   -1.477246590524196e+02   
7.077000000000000e+09    -1.929314008200987e+01   -1.456958213021585e+02   -3.279204251775381e+01   -1.706131505550968e+02   -3.276763393771603e+01   -1.707909157762433e+02   -2.021045325304136e+01   -1.472140058802359e+02   
7.078000000000000e+09    -1.929135903931664e+01   -1.454532819630305e+02   -3.272862830948164e+01   -1.704238887568317e+02   -3.275591923217640e+01   -1.711144713226268e+02   -2.020416308752976e+01   -1.466525014632184e+02   
7.079000000000000e+09    -1.928293175479177e+01   -1.452454926113029e+02   -3.274851611439509e+01   -1.708051484816038e+02   -3.273611784989263e+01   -1.711818511062992e+02   -2.020095796114649e+01   -1.460920253030944e+02   
7.080000000000000e+09    -1.929478627623757e+01   -1.450112149907204e+02   -3.272684374429281e+01   -1.711562826191376e+02   -3.278166527128261e+01   -1.714321389233442e+02   -2.019859777632411e+01   -1.455271287564497e+02   
7.081000000000000e+09    -1.927904935403891e+01   -1.447396103052169e+02   -3.272834860160901e+01   -1.712083775101850e+02   -3.272057751742072e+01   -1.716325581925761e+02   -2.020386761988492e+01   -1.449835201789805e+02   
7.082000000000000e+09    -1.928314372599573e+01   -1.445635237741546e+02   -3.275006970408187e+01   -1.716102378670761e+02   -3.274047221148621e+01   -1.718154318982847e+02   -2.020516035812730e+01   -1.443670910156724e+02   
7.083000000000000e+09    -1.928137989783884e+01   -1.443674337796155e+02   -3.273414002717691e+01   -1.719111756344664e+02   -3.271592086568027e+01   -1.723684188727495e+02   -2.021737151625334e+01   -1.437832537864509e+02   
7.084000000000000e+09    -1.928565820302257e+01   -1.441709088593450e+02   -3.274421982881407e+01   -1.721528986587042e+02   -3.269274957595370e+01   -1.724498585769717e+02   -2.022094045202902e+01   -1.431422461830709e+02   
