! TOUCHSTONE file generated by CST MICROWAVE STUDIO
! Date and time: Wed Sep 25 17:16:26 2024
! Project name: noDUT.cst
! Parameters = {A=1.40924; AB_sqInv=0.503371; B=0.025494; C0=2.097; Cj=0.183267; Cp=0.075; Ct=0.258061; ImZ=-61.6735; L=10; L1=0.3; L_back=16.1559; Lp=0.35; Lpad=0.75; M=1.199; R=5.41; R_cav=0.5; R_sogl=4.36377; ReZ=2.72324; Rt=2.72324; V=19.8; Vj=2.984; W=10; W1=-0.15; W2=-0.15; Wcoop=3.29; Wgap=1; Wline=1.42; Wpad=0.475; Wpadgap=0.35; Xpad1=1.6225; Xpad2=0.7975; Xpad3=1.6225; Xpad4=0.7975; Xvar_centre=1.21; angle_sogl=144.599; f=0.01; f0=11; fmax=11.25; fmin=10.75; h=0.8; phase=0; phi=0; sogl_proc=0.641844; th=0.035; theta=0}
! Header version: 2024
! Port assignment regex: !\s*Touchstone port\s*([0-9]+)\s*=\s*(CST MWS port|CST DES external port|CST DES block port)\s*(.+)\s* \(\"(.*)\"\)(\s*mode\s*([0-9]+))?.*
! Touchstone port assignment:
! Touchstone port 1 = CST MWS port Zmax ("") mode 1
! S-Parameters are not renormalized. Unphysical impedance of 50 will be written to the file.
# GHz S RI R 50
7                    0.771995292     0.635628247
7.006                  0.7733303     0.634006353
7.012                0.774661884     0.632381631
7.018                0.775990039     0.630754087
7.024                0.777314757     0.629123729
7.03                 0.778636035     0.627490565
7.036                0.779953864     0.625854602
7.042                0.781268241     0.624215847
7.048                0.782579158     0.622574309
7.054                0.783886611     0.620929995
7.06                 0.785190593     0.619282911
7.066                0.786491099     0.617633066
7.072                0.787788122     0.615980468
7.078                0.789081657     0.614325123
7.084                0.790371699      0.61266704
7.09                 0.791658242     0.611006226
7.096                0.792941279     0.609342688
7.102                0.794220806     0.607676435
7.108                0.795496816     0.606007473
7.114                0.796769305     0.604335811
7.12                 0.798038266     0.602661456
7.126                0.799303693     0.600984415
7.132                0.800565582     0.599304697
7.138                0.801823926     0.597622309
7.144                0.803078721     0.595937258
7.15                 0.804329959     0.594249553
7.156                0.805577637     0.592559202
7.162                0.806821749      0.59086621
7.168                0.808062288     0.589170588
7.174                 0.80929925     0.587472341
7.18                 0.810532629     0.585771479
7.186                 0.81176242     0.584068008
7.192                0.812988617     0.582361937
7.198                0.814211214     0.580653272
7.204                0.815430208     0.578942023
7.21                 0.816645591     0.577228197
7.216                0.817857359     0.575511801
7.222                0.819065506     0.573792843
7.228                0.820270028     0.572071332
7.234                0.821470918     0.570347275
7.24                 0.822668171     0.568620679
7.246                0.823861783     0.566891554
7.252                0.825051748     0.565159905
7.258                0.826238061     0.563425742
7.264                0.827420716     0.561689073
7.27                 0.828599708     0.559949904
7.276                0.829775033     0.558208244
7.282                0.830946685     0.556464102
7.288                0.832114658     0.554717484
7.294                0.833278948     0.552968399
7.3                   0.83443955     0.551216854
7.306                0.835596458     0.549462858
7.312                0.836749668     0.547706419
7.318                0.837899174     0.545947544
7.324                0.839044971     0.544186241
7.33                 0.840187054     0.542422519
7.336                0.841325419     0.540656385
7.342                 0.84246006     0.538887847
7.348                0.843590973     0.537116914
7.354                0.844718152     0.535343594
7.36                 0.845841592     0.533567893
7.366                0.846961288     0.531789821
7.372                0.848077237     0.530009386
7.378                0.849189432     0.528226595
7.384                0.850297868     0.526441456
7.39                 0.851402542     0.524653978
7.396                0.852503448     0.522864169
7.402                0.853600581     0.521072036
7.408                0.854693937     0.519277588
7.414                 0.85578351     0.517480833
7.42                 0.856869296     0.515681779
7.426                0.857951291     0.513880434
7.432                0.859029489     0.512076806
7.438                0.860103885     0.510270904
7.444                0.861174476     0.508462735
7.45                 0.862241256     0.506652307
7.456                0.863304221      0.50483963
7.462                0.864363366      0.50302471
7.468                0.865418686     0.501207556
7.474                0.866470177     0.499388177
7.48                 0.867517834      0.49756658
7.486                0.868561653     0.495742774
7.492                0.869601629     0.493916766
7.498                0.870637757     0.492088566
7.504                0.871670034     0.490258181
7.51                 0.872698453     0.488425619
7.516                0.873723012     0.486590889
7.522                0.874743706     0.484753999
7.528                0.875760529     0.482914957
7.534                0.876773478     0.481073772
7.54                 0.877782549     0.479230451
7.546                0.878787736     0.477385004
7.552                0.879789035     0.475537437
7.558                0.880786443      0.47368776
7.564                0.881779954     0.471835981
7.57                 0.882769565     0.469982109
7.576                0.883755271      0.46812615
7.582                0.884737067     0.466268115
7.588                 0.88571495      0.46440801
7.594                0.886688915     0.462545845
7.6                  0.887658958     0.460681628
7.606                0.888625075     0.458815367
7.612                0.889587261      0.45694707
7.618                0.890545512     0.455076746
7.624                0.891499825     0.453204404
7.63                 0.892450195     0.451330051
7.636                0.893396617     0.449453695
7.642                0.894339088     0.447575347
7.648                0.895277604     0.445695013
7.654                 0.89621216     0.443812702
7.66                 0.897142753     0.441928423
7.666                0.898069378     0.440042184
7.672                0.898992031     0.438153994
7.678                0.899910709      0.43626386
7.684                0.900825407     0.434371791
7.69                 0.901736122     0.432477797
7.696                0.902642849     0.430581884
7.702                0.903545584     0.428684063
7.708                0.904444324      0.42678434
7.714                0.905339064     0.424882725
7.72                 0.906229801     0.422979227
7.726                0.907116531     0.421073853
7.732                0.907999249     0.419166612
7.738                0.908877953     0.417257512
7.744                0.909752639     0.415346563
7.75                 0.910623301     0.413433773
7.756                0.911489938     0.411519149
7.762                0.912352544     0.409602702
7.768                0.913211116     0.407684439
7.774                0.914065651     0.405764368
7.78                 0.914916145     0.403842499
7.786                0.915762593      0.40191884
7.792                0.916604993     0.399993399
7.798                 0.91744334     0.398066186
7.804                0.918277632     0.396137208
7.81                 0.919107864     0.394206474
7.816                0.919934033     0.392273993
7.822                0.920756134     0.390339774
7.828                0.921574166     0.388403824
7.834                0.922388123     0.386466154
7.84                 0.923198003      0.38452677
7.846                0.924003802     0.382585683
7.852                0.924805517       0.3806429
7.858                0.925603143      0.37869843
7.864                0.926396678     0.376752282
7.87                 0.927186118     0.374804464
7.876                 0.92797146     0.372854986
7.882                  0.9287527     0.370903855
7.888                0.929529834     0.368951081
7.894                 0.93030286     0.366996672
7.9                  0.931071774     0.365040637
7.906                0.931836573     0.363082984
7.912                0.932597254     0.361123722
7.918                0.933353812     0.359162861
7.924                0.934106245     0.357200407
7.93                  0.93485455     0.355236371
7.936                0.935598723     0.353270762
7.942                0.936338761     0.351303586
7.948                 0.93707466     0.349334855
7.954                0.937806419     0.347364575
7.96                 0.938534033     0.345392757
7.966                0.939257499     0.343419408
7.972                0.939976814     0.341444537
7.978                0.940691975     0.339468154
7.984                0.941402979     0.337490267
7.99                 0.942109823     0.335510884
7.996                0.942812504     0.333530015
8.002                0.943511018     0.331547668
8.008                0.944205363     0.329563852
8.014                0.944895536     0.327578576
8.02                 0.945581533     0.325591849
8.026                0.946263351     0.323603679
8.032                0.946940989     0.321614075
8.038                0.947614442     0.319623047
8.044                0.948283707     0.317630602
8.05                 0.948948783      0.31563675
8.056                0.949609666     0.313641499
8.062                0.950266352     0.311644859
8.068                 0.95091884     0.309646838
8.074                0.951567126     0.307647445
8.08                 0.952211208     0.305646689
8.086                0.952851082     0.303644578
8.092                0.953486747     0.301641122
8.098                0.954118199      0.29963633
8.104                0.954745435      0.29763021
8.11                 0.955368452     0.295622771
8.116                0.955987249     0.293614022
8.122                0.956601822     0.291603972
8.128                0.957212169      0.28959263
8.134                0.957818287     0.287580004
8.14                 0.958420173     0.285566105
8.146                0.959017825     0.283550939
8.152                0.959611239     0.281534517
8.158                0.960200415     0.279516848
8.164                0.960785348     0.277497939
8.17                 0.961366037     0.275477801
8.176                0.961942478     0.273456442
8.182                 0.96251467     0.271433871
8.188                 0.96308261     0.269410097
8.194                0.963646295     0.267385129
8.2                  0.964205723     0.265358976
8.206                0.964760891     0.263331646
8.212                0.965311798     0.261303149
8.218                 0.96585844     0.259273494
8.224                0.966400815     0.257242689
8.23                 0.966938922     0.255210745
8.236                0.967472756     0.253177668
8.242                0.968002317      0.25114347
8.248                0.968527602     0.249108157
8.254                0.969048609     0.247071741
8.26                 0.969565335     0.245034228
8.266                0.970077778      0.24299563
8.272                0.970585936     0.240955953
8.278                0.971089806     0.238915209
8.284                0.971589387     0.236873404
8.29                 0.972084676      0.23483055
8.296                0.972575671     0.232786653
8.302                 0.97306237     0.230741725
8.308                0.973544771     0.228695772
8.314                0.974022871     0.226648806
8.32                 0.974496669     0.224600834
8.326                0.974966163     0.222551865
8.332                0.975431349     0.220501909
8.338                0.975892228     0.218450975
8.344                0.976348796     0.216399072
8.35                 0.976801051     0.214346208
8.356                0.977248991     0.212292393
8.362                0.977692615     0.210237636
8.368                0.978131921     0.208181946
8.374                0.978566906     0.206125332
8.38                 0.978997568     0.204067803
8.386                0.979423907     0.202009368
8.392                0.979845919     0.199950036
8.398                0.980263603     0.197889817
8.404                0.980676958     0.195828719
8.41                 0.981085981     0.193766751
8.416                0.981490671     0.191703923
8.422                0.981891025     0.189640243
8.428                0.982287042     0.187575721
8.434                0.982678721     0.185510366
8.44                 0.983066059     0.183444186
8.446                0.983449056     0.181377192
8.452                0.983827708     0.179309391
8.458                0.984202015     0.177240794
8.464                0.984571975     0.175171409
8.47                 0.984937586     0.173101245
8.476                0.985298846     0.171030312
8.482                0.985655755     0.168958619
8.488                 0.98600831     0.166886174
8.494                 0.98635651     0.164812987
8.5                  0.986700354     0.162739067
8.506                0.987039839     0.160664423
8.512                0.987374965     0.158589065
8.518                0.987705729        0.156513
8.524                0.988032131      0.15443624
8.53                 0.988354169     0.152358792
8.536                0.988671841     0.150280665
8.542                0.988985147      0.14820187
8.548                0.989294084     0.146122415
8.554                0.989598651     0.144042309
8.56                 0.989898848     0.141961561
8.566                0.990194672     0.139880181
8.572                0.990486123     0.137798178
8.578                0.990773198      0.13571556
8.584                0.991055898     0.133632338
8.59                  0.99133422     0.131548519
8.596                0.991608163     0.129464115
8.602                0.991877726     0.127379132
8.608                0.992142908     0.125293582
8.614                0.992403708     0.123207472
8.62                 0.992660124     0.121120812
8.626                0.992912156     0.119033612
8.632                0.993159801     0.116945879
8.638                 0.99340306     0.114857625
8.644                0.993641931     0.112768857
8.65                 0.993876413     0.110679586
8.656                0.994106505     0.108589819
8.662                0.994332206     0.106499567
8.668                0.994553514     0.104408838
8.674                0.994770429     0.102317642
8.68                 0.994982951     0.100225988
8.686                0.995191077    0.0981338854
8.692                0.995394807    0.0960413429
8.698                 0.99559414    0.0939483699
8.704                0.995789075    0.0918549757
8.71                 0.995979612    0.0897611694
8.716                0.996165748    0.0876669603
8.722                0.996347485    0.0855723575
8.728                 0.99652482    0.0834773703
8.734                0.996697753    0.0813820079
8.74                 0.996866283    0.0792862795
8.746                0.997030409    0.0771901944
8.752                0.997190131    0.0750937616
8.758                0.997345448    0.0729969905
8.764                0.997496359    0.0708998903
8.77                 0.997642863    0.0688024702
8.776                0.997784961    0.0667047394
8.782                 0.99792265    0.0646067071
8.788                 0.99805593    0.0625083826
8.794                0.998184802    0.0604097751
8.8                  0.998309263    0.0583108938
8.806                0.998429315    0.0562117479
8.812                0.998544955    0.0541123468
8.818                0.998656184    0.0520126995
8.824                0.998763001    0.0499128154
8.83                 0.998865405    0.0478127036
8.836                0.998963396    0.0457123735
8.842                0.999056974    0.0436118341
8.848                0.999146138    0.0415110949
8.854                0.999230888     0.039410165
8.86                 0.999311223    0.0373090536
8.866                0.999387142      0.03520777
8.872                0.999458646    0.0331063235
8.878                0.999525734    0.0310047232
8.884                0.999588406    0.0289029784
8.89                 0.999646661    0.0268010983
8.896                0.999700499    0.0246990923
8.902                0.999749921    0.0225969694
8.908                0.999794924    0.0204947391
8.914                 0.99983551    0.0183924105
8.92                 0.999871678    0.0162899928
8.926                0.999903429    0.0141874953
8.932                 0.99993076    0.0120849273
8.938                0.999953673   0.00998229801
8.944                0.999972168   0.00787961664
8.95                 0.999986244   0.00577689246
8.956                0.999995901   0.00367413471
8.962                 1.00000114   0.00157135263
8.968                 1.00000196 -0.000531444511
8.974                0.999998358  -0.00263424748
8.98                 0.999990338  -0.00473704703
8.986                  0.9999779  -0.00683983392
8.992                0.999961042  -0.00894259889
8.998                0.999939766   -0.0110453327
9.004                 0.99991407   -0.0131480261
9.01                 0.999883955   -0.0152506698
9.016                0.999849421   -0.0173532547
9.022                0.999810468   -0.0194557714
9.028                0.999767097   -0.0215582107
9.034                0.999719307   -0.0236605633
9.04                 0.999667098   -0.0257628201
9.046                0.999610471   -0.0278649717
9.052                0.999549426   -0.0299670089
9.058                0.999483963   -0.0320689226
9.064                0.999414082   -0.0341707033
9.07                 0.999339784   -0.0362723419
9.076                0.999261069   -0.0383738292
9.082                0.999177937   -0.0404751558
9.088                0.999090388   -0.0425763127
9.094                0.998998423   -0.0446772904
9.1                  0.998902042   -0.0467780798
9.106                0.998801245   -0.0488786716
9.112                0.998696034   -0.0509790566
9.118                0.998586407   -0.0530792255
9.124                0.998472366   -0.0551791692
9.13                 0.998353911   -0.0572788783
9.136                0.998231043   -0.0593783436
9.142                0.998103762   -0.0614775559
9.148                0.997972068    -0.063576506
9.154                0.997835962   -0.0656751846
9.16                 0.997695444   -0.0677735825
9.166                0.997550516   -0.0698716904
9.172                0.997401177   -0.0719694991
9.178                0.997247429   -0.0740669995
9.184                0.997089271   -0.0761641822
9.19                 0.996926705    -0.078261038
9.196                0.996759731   -0.0803575577
9.202                 0.99658835   -0.0824537321
9.208                0.996412562   -0.0845495519
9.214                0.996232368    -0.086645008
9.22                 0.996047769    -0.088740091
9.226                0.995858766   -0.0908347918
9.232                0.995665359   -0.0929291012
9.238                0.995467549   -0.0950230099
9.244                0.995265337   -0.0971165088
9.25                 0.995058724   -0.0992095885
9.256                0.994847711     -0.10130224
9.262                0.994632297    -0.103394454
9.268                0.994412486    -0.105486221
9.274                0.994188276    -0.107577532
9.28                 0.993959669    -0.109668378
9.286                0.993726667     -0.11175875
9.292                0.993489269    -0.113848638
9.298                0.993247478    -0.115938034
9.304                0.993001293    -0.118026927
9.31                 0.992750716    -0.120115309
9.316                0.992495748    -0.122203171
