[Version] 2.0
! Rohde & Schwarz Vector Network Analyzer
! Rohde-Schwarz,ZNL20-2Port,1323001220200009,1.71.1.10-23.02.1.238
! 
! Port Assignments:
! Nominal Port -> Actual Test Port
! --------------------------------
!   1 -> 1

! Created: GMT 2024-08-27 12:46:44

# Hz S DB R 50

[Number of Ports] 1
[Number of Frequencies] 2001

[Network Data] 
! freq[Hz]               S11[mag dB]              S11[ang]                 
1.000000000000000e+10    -1.663547509771601e+01   -1.609681525435609e+02   
1.000100000000000e+10    -1.667535366628187e+01   -1.610632398245061e+02   
1.000200000000000e+10    -1.670649922323124e+01   -1.611099022618417e+02   
1.000300000000000e+10    -1.673970809546887e+01   -1.613447764764641e+02   
1.000400000000000e+10    -1.675842721534871e+01   -1.615769776515943e+02   
1.000500000000000e+10    -1.678092861080079e+01   -1.617020084869531e+02   
1.000600000000000e+10    -1.681960967813220e+01   -1.618642178706982e+02   
1.000700000000000e+10    -1.685004894046728e+01   -1.619706861920590e+02   
1.000800000000000e+10    -1.687904501178509e+01   -1.621736105494664e+02   
1.000900000000000e+10    -1.690946701204868e+01   -1.624814928790589e+02   
1.001000000000000e+10    -1.694637861543395e+01   -1.625070280693722e+02   
1.001100000000000e+10    -1.697531193138985e+01   -1.627424462181308e+02   
1.001200000000000e+10    -1.699460603654916e+01   -1.629042503139220e+02   
1.001300000000000e+10    -1.704441711317387e+01   -1.631929617335865e+02   
1.001400000000000e+10    -1.705537938253671e+01   -1.633852571805355e+02   
1.001500000000000e+10    -1.709145564202560e+01   -1.635367771903451e+02   
1.001600000000000e+10    -1.710919780478244e+01   -1.636477821668514e+02   
1.001700000000000e+10    -1.714560011132281e+01   -1.639746469322690e+02   
1.001800000000000e+10    -1.716788397031715e+01   -1.641462950883181e+02   
1.001900000000000e+10    -1.720063116414163e+01   -1.643083865155766e+02   
1.002000000000000e+10    -1.722577982372527e+01   -1.646042212339470e+02   
1.002100000000000e+10    -1.725250342786523e+01   -1.648035494805176e+02   
1.002200000000000e+10    -1.728223713098679e+01   -1.649043014754135e+02   
1.002300000000000e+10    -1.729819475089670e+01   -1.650481707306861e+02   
1.002400000000000e+10    -1.731317060540551e+01   -1.652531314437033e+02   
1.002500000000000e+10    -1.736511957469330e+01   -1.654030814356944e+02   
1.002600000000000e+10    -1.737613407292705e+01   -1.657632320248541e+02   
1.002700000000000e+10    -1.739246995107152e+01   -1.659611109610658e+02   
1.002800000000000e+10    -1.743049706055826e+01   -1.660662550411635e+02   
1.002900000000000e+10    -1.745510314536735e+01   -1.661698071742415e+02   
1.003000000000000e+10    -1.750300423135962e+01   -1.663641004236939e+02   
1.003100000000000e+10    -1.749539119620756e+01   -1.665600465146948e+02   
1.003200000000000e+10    -1.752927696832664e+01   -1.668053005784724e+02   
1.003300000000000e+10    -1.753836731729369e+01   -1.668935933020227e+02   
1.003400000000000e+10    -1.757259395253401e+01   -1.669699414240307e+02   
1.003500000000000e+10    -1.761414336406708e+01   -1.672403326764077e+02   
1.003600000000000e+10    -1.761891247619548e+01   -1.671809666658488e+02   
1.003700000000000e+10    -1.765816485214892e+01   -1.674642655121782e+02   
1.003800000000000e+10    -1.768040662229626e+01   -1.676499599764206e+02   
1.003900000000000e+10    -1.771943136741137e+01   -1.678345477796008e+02   
1.004000000000000e+10    -1.772094958703377e+01   -1.679575583138776e+02   
1.004100000000000e+10    -1.776533277939036e+01   -1.681036911156972e+02   
1.004200000000000e+10    -1.777791958482005e+01   -1.681404281450708e+02   
1.004300000000000e+10    -1.781245447711948e+01   -1.683208185721123e+02   
1.004400000000000e+10    -1.784306966689047e+01   -1.685163714874400e+02   
1.004500000000000e+10    -1.785974653091326e+01   -1.685173822097589e+02   
1.004600000000000e+10    -1.790119184109140e+01   -1.686300333563206e+02   
1.004700000000000e+10    -1.792411502505494e+01   -1.687915219992391e+02   
1.004800000000000e+10    -1.794915365669834e+01   -1.688483910124049e+02   
1.004900000000000e+10    -1.797180436486714e+01   -1.689488183391805e+02   
1.005000000000000e+10    -1.800411060227829e+01   -1.691825284611321e+02   
1.005100000000000e+10    -1.799540863532462e+01   -1.690764733975440e+02   
1.005200000000000e+10    -1.805810894815988e+01   -1.691044180862856e+02   
1.005300000000000e+10    -1.807893382190920e+01   -1.692985565852475e+02   
1.005400000000000e+10    -1.810615912805866e+01   -1.693825623754703e+02   
1.005500000000000e+10    -1.813992792342421e+01   -1.694101873719451e+02   
1.005600000000000e+10    -1.818975506148944e+01   -1.695801391695146e+02   
1.005700000000000e+10    -1.819919727865909e+01   -1.695133438360963e+02   
1.005800000000000e+10    -1.822420073641569e+01   -1.696675491788226e+02   
1.005900000000000e+10    -1.825189684037161e+01   -1.698037916025575e+02   
1.006000000000000e+10    -1.827919175518163e+01   -1.697385591617227e+02   
1.006100000000000e+10    -1.832532141018363e+01   -1.697958876335219e+02   
1.006200000000000e+10    -1.835250555121355e+01   -1.698752763605374e+02   
1.006300000000000e+10    -1.839256359067755e+01   -1.699211063033035e+02   
1.006400000000000e+10    -1.840493195148157e+01   -1.699563248016649e+02   
1.006500000000000e+10    -1.844543765293191e+01   -1.700382440137836e+02   
1.006600000000000e+10    -1.848806292674576e+01   -1.700205645769977e+02   
1.006700000000000e+10    -1.851471791681693e+01   -1.702408975738489e+02   
1.006800000000000e+10    -1.855018404081295e+01   -1.701169543472392e+02   
1.006900000000000e+10    -1.859517235342251e+01   -1.701535985188484e+02   
1.007000000000000e+10    -1.861807967678441e+01   -1.702175578229983e+02   
1.007100000000000e+10    -1.864298992460987e+01   -1.702874186292821e+02   
1.007200000000000e+10    -1.869958245910761e+01   -1.702288977403614e+02   
1.007300000000000e+10    -1.873187777979850e+01   -1.704489549386303e+02   
1.007400000000000e+10    -1.876349422025112e+01   -1.702670393705297e+02   
1.007500000000000e+10    -1.882529705132163e+01   -1.703955917094368e+02   
1.007600000000000e+10    -1.887447421384254e+01   -1.704759197604777e+02   
1.007700000000000e+10    -1.889715197703767e+01   -1.703828599357057e+02   
1.007800000000000e+10    -1.894624714209708e+01   -1.703129917116387e+02   
1.007900000000000e+10    -1.897851846674942e+01   -1.704471728690726e+02   
1.008000000000000e+10    -1.905472270538789e+01   -1.705398441794851e+02   
1.008100000000000e+10    -1.908049637294706e+01   -1.703895725144306e+02   
1.008200000000000e+10    -1.911659032397559e+01   -1.702871544264102e+02   
1.008300000000000e+10    -1.916440414888551e+01   -1.704506936314776e+02   
1.008400000000000e+10    -1.923110788962919e+01   -1.705344562346215e+02   
1.008500000000000e+10    -1.924812388538352e+01   -1.704712694899401e+02   
1.008600000000000e+10    -1.930261829114136e+01   -1.704480670614562e+02   
1.008700000000000e+10    -1.934399159955220e+01   -1.705274647913353e+02   
1.008800000000000e+10    -1.938474472322867e+01   -1.705660292978785e+02   
1.008900000000000e+10    -1.945856013328687e+01   -1.706331244552929e+02   
1.009000000000000e+10    -1.949945528956705e+01   -1.706814973594763e+02   
1.009100000000000e+10    -1.957204230453319e+01   -1.706255159385747e+02   
1.009200000000000e+10    -1.961008679569023e+01   -1.708259902534012e+02   
1.009300000000000e+10    -1.963070708080146e+01   -1.707650157479127e+02   
1.009400000000000e+10    -1.970057040656194e+01   -1.708523889812651e+02   
1.009500000000000e+10    -1.975618442531156e+01   -1.707418162170080e+02   
1.009600000000000e+10    -1.979066923439284e+01   -1.707566061436824e+02   
1.009700000000000e+10    -1.984780539392667e+01   -1.708626797217173e+02   
1.009800000000000e+10    -1.987129893375192e+01   -1.708856147850748e+02   
1.009900000000000e+10    -1.995506945586488e+01   -1.708063048532178e+02   
1.010000000000000e+10    -1.998768652211805e+01   -1.710889785106238e+02   
1.010100000000000e+10    -2.004667286433348e+01   -1.710178748121246e+02   
1.010200000000000e+10    -2.008002422725993e+01   -1.710351552944674e+02   
1.010300000000000e+10    -2.015691437927330e+01   -1.709964095874815e+02   
1.010400000000000e+10    -2.018873582320356e+01   -1.710897490614479e+02   
1.010500000000000e+10    -2.021329937034388e+01   -1.712692285842619e+02   
1.010600000000000e+10    -2.029110521038522e+01   -1.712358394291030e+02   
1.010700000000000e+10    -2.033273651740473e+01   -1.712231343278339e+02   
1.010800000000000e+10    -2.034623431447761e+01   -1.713490005912881e+02   
1.010900000000000e+10    -2.040486798901134e+01   -1.713351366735157e+02   
1.011000000000000e+10    -2.044285119963633e+01   -1.714141460835988e+02   
1.011100000000000e+10    -2.050595819422568e+01   -1.714415607743860e+02   
1.011200000000000e+10    -2.054220018755343e+01   -1.716200387400873e+02   
1.011300000000000e+10    -2.061771071544990e+01   -1.715334142208190e+02   
1.011400000000000e+10    -2.063810035183829e+01   -1.713748158940312e+02   
1.011500000000000e+10    -2.070011363475137e+01   -1.714727415108161e+02   
1.011600000000000e+10    -2.073363057535736e+01   -1.716759927491395e+02   
1.011700000000000e+10    -2.078755628002647e+01   -1.713841123150730e+02   
1.011800000000000e+10    -2.083992731677580e+01   -1.716167384020378e+02   
1.011900000000000e+10    -2.085114983792268e+01   -1.715448681994478e+02   
1.012000000000000e+10    -2.089377185113506e+01   -1.714119316744220e+02   
1.012100000000000e+10    -2.095007511051727e+01   -1.716050828333257e+02   
1.012200000000000e+10    -2.098067554255035e+01   -1.714607713146620e+02   
1.012300000000000e+10    -2.101690007341477e+01   -1.715693754931862e+02   
1.012400000000000e+10    -2.107500970655783e+01   -1.713605270227399e+02   
1.012500000000000e+10    -2.113506959939059e+01   -1.713353703197692e+02   
1.012600000000000e+10    -2.116732851739505e+01   -1.713426782897093e+02   
1.012700000000000e+10    -2.118856255528225e+01   -1.713730722687647e+02   
1.012800000000000e+10    -2.124725951961623e+01   -1.713189863811759e+02   
1.012900000000000e+10    -2.127517838804308e+01   -1.711678877066122e+02   
1.013000000000000e+10    -2.133601660984866e+01   -1.714058178295523e+02   
1.013100000000000e+10    -2.138450474514414e+01   -1.709962368766623e+02   
1.013200000000000e+10    -2.139341189796377e+01   -1.711085207179484e+02   
1.013300000000000e+10    -2.144323002888621e+01   -1.708782782780065e+02   
1.013400000000000e+10    -2.148434687885798e+01   -1.710258097446203e+02   
1.013500000000000e+10    -2.153432913111018e+01   -1.708523866203998e+02   
1.013600000000000e+10    -2.155568251691000e+01   -1.708573510522911e+02   
1.013700000000000e+10    -2.161940850028994e+01   -1.705378151138833e+02   
1.013800000000000e+10    -2.163293153296621e+01   -1.706789933400749e+02   
1.013900000000000e+10    -2.166254078632141e+01   -1.704246485332327e+02   
1.014000000000000e+10    -2.174345020033405e+01   -1.705300185204754e+02   
1.014100000000000e+10    -2.177388307776496e+01   -1.703757833618824e+02   
1.014200000000000e+10    -2.181896857654199e+01   -1.703727005841133e+02   
1.014300000000000e+10    -2.184638319102632e+01   -1.701292050130351e+02   
1.014400000000000e+10    -2.190029444267971e+01   -1.702497810291556e+02   
1.014500000000000e+10    -2.191603218469220e+01   -1.699094506231935e+02   
1.014600000000000e+10    -2.195677228747179e+01   -1.697957671881052e+02   
1.014700000000000e+10    -2.200539736731093e+01   -1.697016482270913e+02   
1.014800000000000e+10    -2.203260282663740e+01   -1.697386681198292e+02   
1.014900000000000e+10    -2.207019576664229e+01   -1.692662967966805e+02   
1.015000000000000e+10    -2.212949229755267e+01   -1.693650179282531e+02   
1.015100000000000e+10    -2.215496268246439e+01   -1.690450303142943e+02   
1.015200000000000e+10    -2.220160370272957e+01   -1.689060046059346e+02   
1.015300000000000e+10    -2.220052075538238e+01   -1.687566128729414e+02   
1.015400000000000e+10    -2.228126472726748e+01   -1.687372552554314e+02   
1.015500000000000e+10    -2.230901864769745e+01   -1.684111299237913e+02   
1.015600000000000e+10    -2.237710924224009e+01   -1.681204482774301e+02   
1.015700000000000e+10    -2.239881608081573e+01   -1.678448363429986e+02   
1.015800000000000e+10    -2.243105054602129e+01   -1.675237672885141e+02   
1.015900000000000e+10    -2.243975744510047e+01   -1.675117271776467e+02   
1.016000000000000e+10    -2.249230391064849e+01   -1.675146075942681e+02   
1.016100000000000e+10    -2.255545135256938e+01   -1.672757595369480e+02   
1.016200000000000e+10    -2.259320400434017e+01   -1.670795759122259e+02   
1.016300000000000e+10    -2.262045413496015e+01   -1.666893289132026e+02   
1.016400000000000e+10    -2.267602369889893e+01   -1.664288026548079e+02   
1.016500000000000e+10    -2.271091363857003e+01   -1.660419998574466e+02   
1.016600000000000e+10    -2.277415845575428e+01   -1.659194679013567e+02   
1.016700000000000e+10    -2.279654463708415e+01   -1.657241499813409e+02   
1.016800000000000e+10    -2.284028500496497e+01   -1.652912024566586e+02   
1.016900000000000e+10    -2.288772678692566e+01   -1.652740858485710e+02   
1.017000000000000e+10    -2.290749807985752e+01   -1.649534547368962e+02   
1.017100000000000e+10    -2.296716144760477e+01   -1.649384268080870e+02   
1.017200000000000e+10    -2.301192720274852e+01   -1.643117049184833e+02   
1.017300000000000e+10    -2.304985477601626e+01   -1.639744938414637e+02   
1.017400000000000e+10    -2.307799596569678e+01   -1.637054209503464e+02   
1.017500000000000e+10    -2.317659023453656e+01   -1.635735260014219e+02   
1.017600000000000e+10    -2.313318533280954e+01   -1.633408092217802e+02   
1.017700000000000e+10    -2.320114116525336e+01   -1.631133927470697e+02   
1.017800000000000e+10    -2.324670320867597e+01   -1.626879645410755e+02   
1.017900000000000e+10    -2.325123622688945e+01   -1.623794279501377e+02   
1.018000000000000e+10    -2.336486123606656e+01   -1.621505692319299e+02   
1.018100000000000e+10    -2.336431486435139e+01   -1.618539165095081e+02   
1.018200000000000e+10    -2.345288744111743e+01   -1.617416347615179e+02   
1.018300000000000e+10    -2.346090462170569e+01   -1.614869546340756e+02   
1.018400000000000e+10    -2.345987087267886e+01   -1.611082503306115e+02   
1.018500000000000e+10    -2.351487529175776e+01   -1.610112645323265e+02   
1.018600000000000e+10    -2.355217373548871e+01   -1.605594801550527e+02   
1.018700000000000e+10    -2.360953566587870e+01   -1.603299801710704e+02   
1.018800000000000e+10    -2.365124968262183e+01   -1.597683642109658e+02   
1.018900000000000e+10    -2.367116206955601e+01   -1.594323096492529e+02   
1.019000000000000e+10    -2.370129987413396e+01   -1.592597549933402e+02   
1.019100000000000e+10    -2.373064472249855e+01   -1.590612621947559e+02   
1.019200000000000e+10    -2.373169050200383e+01   -1.587307693765225e+02   
1.019300000000000e+10    -2.375166757079798e+01   -1.583070613092466e+02   
1.019400000000000e+10    -2.380552322480197e+01   -1.581118948925019e+02   
1.019500000000000e+10    -2.384124931711806e+01   -1.576049412617739e+02   
1.019600000000000e+10    -2.388111860773367e+01   -1.575044596445508e+02   
1.019700000000000e+10    -2.388642733540300e+01   -1.570867863938435e+02   
1.019800000000000e+10    -2.389339319878232e+01   -1.569141111559938e+02   
1.019900000000000e+10    -2.392643736482382e+01   -1.564412157754211e+02   
1.020000000000000e+10    -2.399313170014278e+01   -1.562091043370663e+02   
1.020100000000000e+10    -2.397421054384053e+01   -1.557240964409768e+02   
1.020200000000000e+10    -2.401544848368870e+01   -1.553944547920312e+02   
1.020300000000000e+10    -2.402105492161495e+01   -1.547072754976264e+02   
1.020400000000000e+10    -2.407599145044141e+01   -1.544314167200049e+02   
1.020500000000000e+10    -2.409250965753451e+01   -1.543148987384841e+02   
1.020600000000000e+10    -2.407912801343966e+01   -1.538704050186539e+02   
1.020700000000000e+10    -2.407662921745073e+01   -1.536692769183531e+02   
1.020800000000000e+10    -2.411717362625636e+01   -1.531381263402137e+02   
1.020900000000000e+10    -2.418654627566103e+01   -1.529403835173829e+02   
1.021000000000000e+10    -2.419754650826330e+01   -1.525231683609441e+02   
1.021100000000000e+10    -2.419109078614679e+01   -1.519988223819658e+02   
1.021200000000000e+10    -2.425641705235975e+01   -1.515954289354415e+02   
1.021300000000000e+10    -2.425408120487689e+01   -1.512163878660421e+02   
1.021400000000000e+10    -2.426951340960800e+01   -1.507806918605291e+02   
1.021500000000000e+10    -2.426437625405530e+01   -1.502427437715180e+02   
1.021600000000000e+10    -2.427879648116533e+01   -1.500752087555161e+02   
1.021700000000000e+10    -2.427896683130577e+01   -1.496777694759586e+02   
1.021800000000000e+10    -2.429466835914368e+01   -1.491941267098209e+02   
1.021900000000000e+10    -2.433332295308924e+01   -1.486036124104424e+02   
1.022000000000000e+10    -2.434088409939767e+01   -1.483831449031576e+02   
1.022100000000000e+10    -2.431459683429743e+01   -1.480983082791479e+02   
1.022200000000000e+10    -2.439352304815496e+01   -1.473713130381449e+02   
1.022300000000000e+10    -2.438244815276387e+01   -1.469669303432394e+02   
1.022400000000000e+10    -2.439854213528089e+01   -1.467244423030961e+02   
1.022500000000000e+10    -2.437948414657004e+01   -1.460801557255453e+02   
1.022600000000000e+10    -2.444844147037927e+01   -1.460188126364797e+02   
1.022700000000000e+10    -2.442733423924117e+01   -1.455268556745582e+02   
1.022800000000000e+10    -2.442987739967342e+01   -1.451103462732391e+02   
1.022900000000000e+10    -2.444821454600796e+01   -1.448919865969575e+02   
1.023000000000000e+10    -2.441180519204624e+01   -1.444787552091826e+02   
1.023100000000000e+10    -2.441224580619156e+01   -1.442027490380238e+02   
1.023200000000000e+10    -2.444815528895757e+01   -1.438586934091531e+02   
1.023300000000000e+10    -2.445228757678670e+01   -1.432872804923963e+02   
1.023400000000000e+10    -2.444569119874849e+01   -1.430608956040517e+02   
1.023500000000000e+10    -2.450517152675683e+01   -1.423155721934323e+02   
1.023600000000000e+10    -2.440651740771452e+01   -1.420152701718692e+02   
1.023700000000000e+10    -2.445249702065360e+01   -1.418530180759505e+02   
1.023800000000000e+10    -2.442274789253027e+01   -1.412470991729317e+02   
1.023900000000000e+10    -2.443969018846458e+01   -1.413083104031039e+02   
1.024000000000000e+10    -2.446554300817769e+01   -1.405867242852925e+02   
1.024100000000000e+10    -2.438938786085645e+01   -1.400552628497023e+02   
1.024200000000000e+10    -2.439867549684792e+01   -1.398980946409975e+02   
1.024300000000000e+10    -2.441844323752564e+01   -1.394233583909108e+02   
1.024400000000000e+10    -2.441570003669129e+01   -1.391646487949758e+02   
1.024500000000000e+10    -2.436083895368750e+01   -1.388405495135969e+02   
1.024600000000000e+10    -2.437664111627168e+01   -1.386463711994474e+02   
1.024700000000000e+10    -2.435846478519566e+01   -1.382667884634767e+02   
1.024800000000000e+10    -2.433797082835160e+01   -1.377000334544301e+02   
1.024900000000000e+10    -2.439168593342986e+01   -1.375181239427827e+02   
1.025000000000000e+10    -2.432660438695469e+01   -1.372427597852233e+02   
1.025100000000000e+10    -2.427961571825360e+01   -1.367877427422435e+02   
1.025200000000000e+10    -2.431271006911289e+01   -1.366333385913366e+02   
1.025300000000000e+10    -2.423366126952690e+01   -1.361981708490732e+02   
1.025400000000000e+10    -2.422965199366306e+01   -1.358244167220070e+02   
1.025500000000000e+10    -2.426227611192356e+01   -1.354277102414293e+02   
1.025600000000000e+10    -2.422652708072540e+01   -1.351868669704992e+02   
