[Version] 2.0
! Rohde & Schwarz Vector Network Analyzer
! Rohde-Schwarz,ZNL20-2Port,1323001220200009,1.71.1.10-23.02.1.238
! 
! Port Assignments:
! Nominal Port -> Actual Test Port
! --------------------------------
!   1 -> 1

! Created: GMT 2024-08-27 12:51:31

# Hz S DB R 50

[Number of Ports] 1
[Number of Frequencies] 2001

[Network Data] 
! freq[Hz]               S11[mag dB]              S11[ang]                 
1.000000000000000e+10    -1.438625946442590e+01   -1.513630057775731e+02   
1.000100000000000e+10    -1.440636268579759e+01   -1.514770712414849e+02   
1.000200000000000e+10    -1.441805410820736e+01   -1.515644204075875e+02   
1.000300000000000e+10    -1.443421685405959e+01   -1.518153267754831e+02   
1.000400000000000e+10    -1.444229619546087e+01   -1.520390816123099e+02   
1.000500000000000e+10    -1.444876458418570e+01   -1.522083052874899e+02   
1.000600000000000e+10    -1.446983475975637e+01   -1.523774523207306e+02   
1.000700000000000e+10    -1.448149415985246e+01   -1.525160071454006e+02   
1.000800000000000e+10    -1.449430877091717e+01   -1.527420315360495e+02   
1.000900000000000e+10    -1.451223368939397e+01   -1.530162998733011e+02   
1.001000000000000e+10    -1.452805176171661e+01   -1.530952384468355e+02   
1.001100000000000e+10    -1.454128628160832e+01   -1.533371313681730e+02   
1.001200000000000e+10    -1.454652274188601e+01   -1.535114068667109e+02   
1.001300000000000e+10    -1.457411397286709e+01   -1.537845421238497e+02   
1.001400000000000e+10    -1.457331054460479e+01   -1.540049734130890e+02   
1.001500000000000e+10    -1.458921890376115e+01   -1.541828546251076e+02   
1.001600000000000e+10    -1.459281163240909e+01   -1.543537777947989e+02   
1.001700000000000e+10    -1.461377289485517e+01   -1.546570168037581e+02   
1.001800000000000e+10    -1.461997737483970e+01   -1.548684393767510e+02   
1.001900000000000e+10    -1.463300725928704e+01   -1.550643562138603e+02   
1.002000000000000e+10    -1.464425390808700e+01   -1.553531558212337e+02   
1.002100000000000e+10    -1.465448480792478e+01   -1.555770823501256e+02   
1.002200000000000e+10    -1.466594974506766e+01   -1.557444156550590e+02   
1.002300000000000e+10    -1.466966214371656e+01   -1.559523119988067e+02   
1.002400000000000e+10    -1.467189262657659e+01   -1.561878080947556e+02   
1.002500000000000e+10    -1.470004463544238e+01   -1.563791836683593e+02   
1.002600000000000e+10    -1.470141372471177e+01   -1.567275988313082e+02   
1.002700000000000e+10    -1.470641221291496e+01   -1.569412720139018e+02   
1.002800000000000e+10    -1.472377167131710e+01   -1.571024227507976e+02   
1.002900000000000e+10    -1.473057243504185e+01   -1.572649970766422e+02   
1.003000000000000e+10    -1.475596056791329e+01   -1.574665698894427e+02   
1.003100000000000e+10    -1.474121789566449e+01   -1.577386374851580e+02   
1.003200000000000e+10    -1.475806758503185e+01   -1.579902549592115e+02   
1.003300000000000e+10    -1.475406740806363e+01   -1.581844106951791e+02   
1.003400000000000e+10    -1.476690218352145e+01   -1.583183984745347e+02   
1.003500000000000e+10    -1.478885129643876e+01   -1.585869136290243e+02   
1.003600000000000e+10    -1.478064271081346e+01   -1.586491314018777e+02   
1.003700000000000e+10    -1.479901065553079e+01   -1.589379397024284e+02   
1.003800000000000e+10    -1.480688876732662e+01   -1.591694509280302e+02   
1.003900000000000e+10    -1.482203065804186e+01   -1.594055048966119e+02   
1.004000000000000e+10    -1.481343306558889e+01   -1.596138735854780e+02   
1.004100000000000e+10    -1.483834117321338e+01   -1.598181922894150e+02   
1.004200000000000e+10    -1.483518947863259e+01   -1.599523193837184e+02   
1.004300000000000e+10    -1.485007188550081e+01   -1.601645844881711e+02   
1.004400000000000e+10    -1.486438331617473e+01   -1.604349816257387e+02   
1.004500000000000e+10    -1.486414588737854e+01   -1.605391887818781e+02   
1.004600000000000e+10    -1.488345744833555e+01   -1.607306386158374e+02   
1.004700000000000e+10    -1.489286145700609e+01   -1.609595448384014e+02   
1.004800000000000e+10    -1.489830902227944e+01   -1.611042766235508e+02   
1.004900000000000e+10    -1.490674409720227e+01   -1.612988105489244e+02   
1.005000000000000e+10    -1.491876885733865e+01   -1.616020497350837e+02   
1.005100000000000e+10    -1.490691804646396e+01   -1.616275570465599e+02   
1.005200000000000e+10    -1.493812641073012e+01   -1.617778596141865e+02   
1.005300000000000e+10    -1.494650525381580e+01   -1.620419183174127e+02   
1.005400000000000e+10    -1.495505923527610e+01   -1.622300216997899e+02   
1.005500000000000e+10    -1.496928377167864e+01   -1.623907173543155e+02   
1.005600000000000e+10    -1.499760258283566e+01   -1.626180049640653e+02   
1.005700000000000e+10    -1.499608605517264e+01   -1.627196086985493e+02   
1.005800000000000e+10    -1.500630144954878e+01   -1.629457015737136e+02   
1.005900000000000e+10    -1.501928088442487e+01   -1.631595086136620e+02   
1.006000000000000e+10    -1.502899178155666e+01   -1.632736147107981e+02   
1.006100000000000e+10    -1.505696457900627e+01   -1.634249214243900e+02   
1.006200000000000e+10    -1.506806006736537e+01   -1.636244328916949e+02   
1.006300000000000e+10    -1.508670182998103e+01   -1.637816790863930e+02   
1.006400000000000e+10    -1.509114884544603e+01   -1.639355002579788e+02   
1.006500000000000e+10    -1.511012020722891e+01   -1.641242300229767e+02   
1.006600000000000e+10    -1.512978966454801e+01   -1.642414818204994e+02   
1.006700000000000e+10    -1.514065735824467e+01   -1.645079451189318e+02   
1.006800000000000e+10    -1.515715274650770e+01   -1.645684935975573e+02   
1.006900000000000e+10    -1.517961767320945e+01   -1.647271945034009e+02   
1.007000000000000e+10    -1.518947953914348e+01   -1.649518495627073e+02   
1.007100000000000e+10    -1.520041737149146e+01   -1.651242152964199e+02   
1.007200000000000e+10    -1.522972877157329e+01   -1.652344131783084e+02   
1.007300000000000e+10    -1.524667212714447e+01   -1.655201641993772e+02   
1.007400000000000e+10    -1.526170392849482e+01   -1.655407343410966e+02   
1.007500000000000e+10    -1.529946792404961e+01   -1.657624542110984e+02   
1.007600000000000e+10    -1.532505275884500e+01   -1.659764498913292e+02   
1.007700000000000e+10    -1.533469443976380e+01   -1.660574124001654e+02   
1.007800000000000e+10    -1.536252195840467e+01   -1.661771460970686e+02   
1.007900000000000e+10    -1.537894709586524e+01   -1.664152244398907e+02   
1.008000000000000e+10    -1.542371516964354e+01   -1.666064878824488e+02   
1.008100000000000e+10    -1.543833241519413e+01   -1.666868913611601e+02   
1.008200000000000e+10    -1.545638463322691e+01   -1.667606482649920e+02   
1.008300000000000e+10    -1.548601087049721e+01   -1.670202163762422e+02   
1.008400000000000e+10    -1.552552196069711e+01   -1.672234130468346e+02   
1.008500000000000e+10    -1.553625439870289e+01   -1.673281725394442e+02   
1.008600000000000e+10    -1.556701943749811e+01   -1.674609185922196e+02   
1.008700000000000e+10    -1.558978805884222e+01   -1.676682774222968e+02   
1.008800000000000e+10    -1.561581470508438e+01   -1.678520159044604e+02   
1.008900000000000e+10    -1.565932649287950e+01   -1.680289574202249e+02   
1.009000000000000e+10    -1.568168578500581e+01   -1.682090059315203e+02   
1.009100000000000e+10    -1.572603832593388e+01   -1.683376415725159e+02   
1.009200000000000e+10    -1.574773602639109e+01   -1.686302759008824e+02   
1.009300000000000e+10    -1.575661391987537e+01   -1.687479138206044e+02   
1.009400000000000e+10    -1.580035059573509e+01   -1.689564017654560e+02   
1.009500000000000e+10    -1.583492697601159e+01   -1.690435620177468e+02   
1.009600000000000e+10    -1.585433059228707e+01   -1.691946388751112e+02   
1.009700000000000e+10    -1.589049361785472e+01   -1.694320099627786e+02   
1.009800000000000e+10    -1.590506751984385e+01   -1.695779841460269e+02   
1.009900000000000e+10    -1.595515160392637e+01   -1.696981477051008e+02   
1.010000000000000e+10    -1.597417434397784e+01   -1.700292191294676e+02   
1.010100000000000e+10    -1.600928584325199e+01   -1.701043092825013e+02   
1.010200000000000e+10    -1.602861313657809e+01   -1.703028784213227e+02   
1.010300000000000e+10    -1.607111776688588e+01   -1.704424068352012e+02   
1.010400000000000e+10    -1.609096323589997e+01   -1.706606782739001e+02   
1.010500000000000e+10    -1.610212394438874e+01   -1.709248786668076e+02   
1.010600000000000e+10    -1.615150595606022e+01   -1.710768763775312e+02   
1.010700000000000e+10    -1.617387064526817e+01   -1.712283836264553e+02   
1.010800000000000e+10    -1.618304500978871e+01   -1.714775087061166e+02   
1.010900000000000e+10    -1.621601245345344e+01   -1.716383266237876e+02   
1.011000000000000e+10    -1.623857382478928e+01   -1.718438554086852e+02   
1.011100000000000e+10    -1.627436784339045e+01   -1.720079060982813e+02   
1.011200000000000e+10    -1.629254305399568e+01   -1.723031099688477e+02   
1.011300000000000e+10    -1.633682266840565e+01   -1.724206724519622e+02   
1.011400000000000e+10    -1.634917385271048e+01   -1.724862054097594e+02   
1.011500000000000e+10    -1.638709072653002e+01   -1.727159171105734e+02   
1.011600000000000e+10    -1.640709814146254e+01   -1.730035882732236e+02   
1.011700000000000e+10    -1.643848086233595e+01   -1.730272488315107e+02   
1.011800000000000e+10    -1.647283545254741e+01   -1.733229464506318e+02   
1.011900000000000e+10    -1.648249725407647e+01   -1.734307663472990e+02   
1.012000000000000e+10    -1.650679209781136e+01   -1.735217728050256e+02   
1.012100000000000e+10    -1.654123916432952e+01   -1.737941797292830e+02   
1.012200000000000e+10    -1.656131344124296e+01   -1.738506971976190e+02   
1.012300000000000e+10    -1.657975319544556e+01   -1.740819199989504e+02   
1.012400000000000e+10    -1.661485289824267e+01   -1.741331520070850e+02   
1.012500000000000e+10    -1.665169593425810e+01   -1.742841404657204e+02   
1.012600000000000e+10    -1.666847777861818e+01   -1.744522881820097e+02   
1.012700000000000e+10    -1.668239476592919e+01   -1.746150525377249e+02   
1.012800000000000e+10    -1.671734064867990e+01   -1.747696726616529e+02   
1.012900000000000e+10    -1.673455513856007e+01   -1.748584530874630e+02   
1.013000000000000e+10    -1.676678048845317e+01   -1.751616016358718e+02   
1.013100000000000e+10    -1.679640749961187e+01   -1.751104148266478e+02   
1.013200000000000e+10    -1.680186364060425e+01   -1.753426255087488e+02   
1.013300000000000e+10    -1.683537449064218e+01   -1.753932023549041e+02   
1.013400000000000e+10    -1.685900365756962e+01   -1.756475389820626e+02   
1.013500000000000e+10    -1.688779757764766e+01   -1.757500880278596e+02   
1.013600000000000e+10    -1.690011683948854e+01   -1.759161524710500e+02   
1.013700000000000e+10    -1.694390274782603e+01   -1.759449099741755e+02   
1.013800000000000e+10    -1.694967182091605e+01   -1.761768473489614e+02   
1.013900000000000e+10    -1.697327604089034e+01   -1.762152079971069e+02   
1.014000000000000e+10    -1.701761617851523e+01   -1.764931125925419e+02   
1.014100000000000e+10    -1.703824488505805e+01   -1.765738752470833e+02   
1.014200000000000e+10    -1.706718027485418e+01   -1.767701007275552e+02   
1.014300000000000e+10    -1.708786349256703e+01   -1.768214907277756e+02   
1.014400000000000e+10    -1.711465642397409e+01   -1.770509803160210e+02   
1.014500000000000e+10    -1.713168752077043e+01   -1.770589496704301e+02   
1.014600000000000e+10    -1.715393990154696e+01   -1.771928340437394e+02   
1.014700000000000e+10    -1.718360567698592e+01   -1.773444935754628e+02   
1.014800000000000e+10    -1.719990178135046e+01   -1.775434538023260e+02   
1.014900000000000e+10    -1.722990170387815e+01   -1.774832023302269e+02   
1.015000000000000e+10    -1.726094550542318e+01   -1.777733852683230e+02   
1.015100000000000e+10    -1.727817511668444e+01   -1.777372301131217e+02   
1.015200000000000e+10    -1.731153884306024e+01   -1.779118351202753e+02   
1.015300000000000e+10    -1.731647293014321e+01   -1.779874510411571e+02   
1.015400000000000e+10    -1.736244746215383e+01   -1.782135715475675e+02   
1.015500000000000e+10    -1.738821644730840e+01   -1.782526776647656e+02   
1.015600000000000e+10    -1.743097999860119e+01   -1.783034013100402e+02   
1.015700000000000e+10    -1.744973076949958e+01   -1.783402479152313e+02   
1.015800000000000e+10    -1.747892746800681e+01   -1.784106174328975e+02   
1.015900000000000e+10    -1.748654003470484e+01   -1.785501122705050e+02   
1.016000000000000e+10    -1.751818934403268e+01   -1.787544566992762e+02   
1.016100000000000e+10    -1.755825622825737e+01   -1.788676729518404e+02   
1.016200000000000e+10    -1.758502774792038e+01   -1.789521236610391e+02   
1.016300000000000e+10    -1.761374292032034e+01   -1.789829316949497e+02   
1.016400000000000e+10    -1.764946322726227e+01   -1.790968858522310e+02   
1.016500000000000e+10    -1.767857609953338e+01   -1.791122711363771e+02   
1.016600000000000e+10    -1.771834261730621e+01   -1.792739371469250e+02   
1.016700000000000e+10    -1.774316300033167e+01   -1.793991712332405e+02   
1.016800000000000e+10    -1.777407820698468e+01   -1.794020935081012e+02   
1.016900000000000e+10    -1.780504060087573e+01   -1.796525047723250e+02   
1.017000000000000e+10    -1.782879141538780e+01   -1.796820892539013e+02   
1.017100000000000e+10    -1.786641844518564e+01   -1.799516668062175e+02   
1.017200000000000e+10    -1.791390447148342e+01   -1.798625226607978e+02   
1.017300000000000e+10    -1.794885811438342e+01   -1.799276198300973e+02   
1.017400000000000e+10    -1.797653431396514e+01   -1.799926677639884e+02   
1.017500000000000e+10    -1.803509811941791e+01   1.797553694771973e+02    
1.017600000000000e+10    -1.802396460548269e+01   1.797466367734318e+02    
1.017700000000000e+10    -1.807301935857621e+01   1.795860712758429e+02    
1.017800000000000e+10    -1.811488123515086e+01   1.795330080435629e+02    
1.017900000000000e+10    -1.812996572028839e+01   1.795091090572344e+02    
1.018000000000000e+10    -1.819930917821230e+01   1.792628340923820e+02    
1.018100000000000e+10    -1.821573105134697e+01   1.792100242955156e+02    
1.018200000000000e+10    -1.826764377746198e+01   1.789594882072811e+02    
1.018300000000000e+10    -1.828367121398883e+01   1.788652061125973e+02    
1.018400000000000e+10    -1.830559707307325e+01   1.788085459102915e+02    
1.018500000000000e+10    -1.834004265913832e+01   1.785909287612353e+02    
1.018600000000000e+10    -1.838194453494117e+01   1.785383418345831e+02    
1.018700000000000e+10    -1.843307804693858e+01   1.783584268670450e+02    
1.018800000000000e+10    -1.847917964237892e+01   1.783451825184191e+02    
1.018900000000000e+10    -1.851159021585456e+01   1.782731088582332e+02    
1.019000000000000e+10    -1.854227186320887e+01   1.781485364096173e+02    
1.019100000000000e+10    -1.856984057233524e+01   1.779954713692180e+02    
1.019200000000000e+10    -1.858434950755653e+01   1.779490112410452e+02    
1.019300000000000e+10    -1.861657961082435e+01   1.779173090043474e+02    
1.019400000000000e+10    -1.866096284165165e+01   1.777270875065347e+02    
1.019500000000000e+10    -1.870394105590142e+01   1.776987602712758e+02    
1.019600000000000e+10    -1.873461994628411e+01   1.774853010061496e+02    
1.019700000000000e+10    -1.876103150599944e+01   1.774380643792391e+02    
1.019800000000000e+10    -1.877819040058474e+01   1.773064871499665e+02    
1.019900000000000e+10    -1.882279957862081e+01   1.772654789542302e+02    
1.020000000000000e+10    -1.887533814601900e+01   1.770022629303614e+02    
1.020100000000000e+10    -1.888739565807739e+01   1.771279450177110e+02    
1.020200000000000e+10    -1.893830415949895e+01   1.769643736641056e+02    
1.020300000000000e+10    -1.897825031279955e+01   1.770447800211105e+02    
1.020400000000000e+10    -1.902433194626745e+01   1.768277843020311e+02    
1.020500000000000e+10    -1.904745658771664e+01   1.766565633313698e+02    
1.020600000000000e+10    -1.907139842224336e+01   1.767007677726360e+02    
1.020700000000000e+10    -1.909172999502291e+01   1.765868427908924e+02    
1.020800000000000e+10    -1.914295829467054e+01   1.765237445929520e+02    
1.020900000000000e+10    -1.919682208582718e+01   1.762537079434442e+02    
1.021000000000000e+10    -1.923209699665234e+01   1.762014330089807e+02    
1.021100000000000e+10    -1.926458169596076e+01   1.762210764019105e+02    
1.021200000000000e+10    -1.932549275777543e+01   1.760230185708191e+02    
1.021300000000000e+10    -1.935544578565226e+01   1.759616431432132e+02    
1.021400000000000e+10    -1.940173994180040e+01   1.758807254258526e+02    
1.021500000000000e+10    -1.944072422416945e+01   1.759345697667134e+02    
1.021600000000000e+10    -1.947121637139382e+01   1.757259669712064e+02    
1.021700000000000e+10    -1.950755064479823e+01   1.756542251594028e+02    
1.021800000000000e+10    -1.955358101775163e+01   1.756419481830474e+02    
1.021900000000000e+10    -1.962084854777352e+01   1.755792900427567e+02    
1.022000000000000e+10    -1.964786963554641e+01   1.754276129202510e+02    
1.022100000000000e+10    -1.966822117767565e+01   1.753864410529493e+02    
1.022200000000000e+10    -1.976015712194613e+01   1.753050908938134e+02    
1.022300000000000e+10    -1.979015506344596e+01   1.752381580562806e+02    
1.022400000000000e+10    -1.982848129890843e+01   1.750680940674033e+02    
1.022500000000000e+10    -1.987767605219747e+01   1.751698652514820e+02    
1.022600000000000e+10    -1.992274896536118e+01   1.747946371844018e+02    
1.022700000000000e+10    -1.996523808600666e+01   1.748182941560212e+02    
1.022800000000000e+10    -2.000809098737165e+01   1.747433895589451e+02    
1.022900000000000e+10    -2.004673547805779e+01   1.745303137731356e+02    
1.023000000000000e+10    -2.007302181069185e+01   1.745542249920496e+02    
1.023100000000000e+10    -2.010659212404254e+01   1.744644822966245e+02    
1.023200000000000e+10    -2.016058499539939e+01   1.742574011596921e+02    
1.023300000000000e+10    -2.021687478703538e+01   1.742318018131013e+02    
1.023400000000000e+10    -2.024874899541867e+01   1.740767597637496e+02    
1.023500000000000e+10    -2.034826879398964e+01   1.739662825291780e+02    
1.023600000000000e+10    -2.034563547987295e+01   1.741161448436135e+02    
1.023700000000000e+10    -2.039307762968171e+01   1.738187525948975e+02    
1.023800000000000e+10    -2.044501464039878e+01   1.739329862728700e+02    
1.023900000000000e+10    -2.046607192898379e+01   1.735846653074251e+02    
1.024000000000000e+10    -2.055018341389346e+01   1.735350146488867e+02    
1.024100000000000e+10    -2.057684444957983e+01   1.737429698825890e+02    
1.024200000000000e+10    -2.061739585865640e+01   1.735018268094838e+02    
1.024300000000000e+10    -2.068675895699117e+01   1.733812176375992e+02    
1.024400000000000e+10    -2.072669202933984e+01   1.732437551471286e+02    
1.024500000000000e+10    -2.075063306631014e+01   1.733211986064662e+02    
1.024600000000000e+10    -2.079605302970287e+01   1.731064665109099e+02    
1.024700000000000e+10    -2.083781962886125e+01   1.730584405355444e+02    
1.024800000000000e+10    -2.089769634889434e+01   1.731231023623455e+02    
1.024900000000000e+10    -2.095521115252670e+01   1.727696114217850e+02    
1.025000000000000e+10    -2.097635766785217e+01   1.727809585601707e+02    
1.025100000000000e+10    -2.100935569874478e+01   1.729467822141883e+02    
1.025200000000000e+10    -2.106344924330339e+01   1.725841075861429e+02    
1.025300000000000e+10    -2.109632042353720e+01   1.727672064843166e+02    
1.025400000000000e+10    -2.114958876414292e+01   1.726496679911263e+02    
1.025500000000000e+10    -2.122279865050091e+01   1.724353468138411e+02    
1.025600000000000e+10    -2.125540194091940e+01   1.723874329137350e+02    
