[Version] 2.0
! Rohde & Schwarz Vector Network Analyzer
! Rohde-Schwarz,ZNL20-2Port,1323001220200009,1.71.1.10-23.02.1.238
! 
! Port Assignments:
! Nominal Port -> Actual Test Port
! --------------------------------
!   1 -> 1

! Created: GMT 2024-08-27 12:52:58

# Hz S DB R 50

[Number of Ports] 1
[Number of Frequencies] 2001

[Network Data] 
! freq[Hz]               S11[mag dB]              S11[ang]                 
1.000000000000000e+10    -1.403858563850515e+01   -1.488093721855413e+02   
1.000100000000000e+10    -1.405564877350492e+01   -1.489372676983033e+02   
1.000200000000000e+10    -1.406549413381940e+01   -1.490327363809418e+02   
1.000300000000000e+10    -1.408154411196117e+01   -1.492885164797180e+02   
1.000400000000000e+10    -1.408616325394295e+01   -1.495340762684971e+02   
1.000500000000000e+10    -1.409444853261674e+01   -1.497162762178488e+02   
1.000600000000000e+10    -1.411321492382266e+01   -1.498880815601790e+02   
1.000700000000000e+10    -1.412351849081622e+01   -1.500202172120080e+02   
1.000800000000000e+10    -1.413479128981175e+01   -1.502561139479051e+02   
1.000900000000000e+10    -1.415035204709020e+01   -1.505362344856167e+02   
1.001000000000000e+10    -1.416516580039140e+01   -1.506192923796468e+02   
1.001100000000000e+10    -1.417637024406845e+01   -1.508744876152890e+02   
1.001200000000000e+10    -1.418001387607805e+01   -1.510603737753401e+02   
1.001300000000000e+10    -1.420651291438338e+01   -1.513210807435973e+02   
1.001400000000000e+10    -1.420482608712231e+01   -1.515493882179476e+02   
1.001500000000000e+10    -1.421948895094408e+01   -1.517370119332652e+02   
1.001600000000000e+10    -1.422085459836114e+01   -1.519257203987206e+02   
1.001700000000000e+10    -1.423893480288780e+01   -1.522226370440206e+02   
1.001800000000000e+10    -1.424372447038682e+01   -1.524423769030142e+02   
1.001900000000000e+10    -1.425615190947364e+01   -1.526428322940941e+02   
1.002000000000000e+10    -1.426728384981295e+01   -1.529433766632793e+02   
1.002100000000000e+10    -1.427514757161434e+01   -1.531733630567174e+02   
1.002200000000000e+10    -1.428524469597265e+01   -1.533546131011669e+02   
1.002300000000000e+10    -1.428648886127310e+01   -1.535840301800314e+02   
1.002400000000000e+10    -1.429097459429192e+01   -1.538160275090204e+02   
1.002500000000000e+10    -1.431676266593262e+01   -1.540140605076519e+02   
1.002600000000000e+10    -1.431816071839706e+01   -1.543659264792831e+02   
1.002700000000000e+10    -1.432299714214405e+01   -1.545994086949302e+02   
1.002800000000000e+10    -1.433943711644164e+01   -1.547472540017513e+02   
1.002900000000000e+10    -1.434531723790957e+01   -1.549321451805971e+02   
1.003000000000000e+10    -1.436883851058481e+01   -1.551450943140171e+02   
1.003100000000000e+10    -1.435512853362328e+01   -1.554093202227746e+02   
1.003200000000000e+10    -1.437068415945236e+01   -1.556629477643009e+02   
1.003300000000000e+10    -1.436630758434322e+01   -1.558521715919140e+02   
1.003400000000000e+10    -1.437782756380504e+01   -1.560078215184225e+02   
1.003500000000000e+10    -1.439710194580508e+01   -1.562729542866604e+02   
1.003600000000000e+10    -1.438666044672322e+01   -1.563693280739120e+02   
1.003700000000000e+10    -1.440509281077281e+01   -1.566540444134406e+02   
1.003800000000000e+10    -1.440938508817552e+01   -1.568931087384921e+02   
1.003900000000000e+10    -1.442519581521572e+01   -1.571154964370132e+02   
1.004000000000000e+10    -1.441695770223573e+01   -1.573395783720415e+02   
1.004100000000000e+10    -1.443796065573412e+01   -1.575397978021262e+02   
1.004200000000000e+10    -1.443535765514980e+01   -1.577084203640882e+02   
1.004300000000000e+10    -1.444998989968151e+01   -1.579238345955096e+02   
1.004400000000000e+10    -1.446333295235581e+01   -1.581815537410513e+02   
1.004500000000000e+10    -1.446181720844032e+01   -1.583043463223871e+02   
1.004600000000000e+10    -1.448001617705803e+01   -1.585065000757877e+02   
1.004700000000000e+10    -1.448774305728870e+01   -1.587350448867091e+02   
1.004800000000000e+10    -1.449300665944119e+01   -1.588810186297397e+02   
1.004900000000000e+10    -1.450015827733319e+01   -1.590980548498949e+02   
1.005000000000000e+10    -1.451302669468597e+01   -1.594087859770428e+02   
1.005100000000000e+10    -1.449858256727028e+01   -1.594396907924313e+02   
1.005200000000000e+10    -1.453005609679764e+01   -1.595797416773494e+02   
1.005300000000000e+10    -1.453607355556309e+01   -1.598510923031152e+02   
1.005400000000000e+10    -1.454358404421477e+01   -1.600451079135844e+02   
1.005500000000000e+10    -1.455675185236781e+01   -1.602038811149436e+02   
1.005600000000000e+10    -1.458251349100854e+01   -1.604101281252092e+02   
1.005700000000000e+10    -1.458100133625023e+01   -1.605404109644562e+02   
1.005800000000000e+10    -1.459004665169043e+01   -1.607664504211108e+02   
1.005900000000000e+10    -1.460201353306180e+01   -1.609960722118150e+02   
1.006000000000000e+10    -1.460826441878951e+01   -1.611095587590552e+02   
1.006100000000000e+10    -1.463358902739780e+01   -1.612472613347976e+02   
1.006200000000000e+10    -1.464376923769818e+01   -1.614587462381529e+02   
1.006300000000000e+10    -1.466076713721028e+01   -1.616201004457727e+02   
1.006400000000000e+10    -1.466142224262026e+01   -1.617815641519371e+02   
1.006500000000000e+10    -1.467824256242046e+01   -1.619687400825479e+02   
1.006600000000000e+10    -1.469593232330667e+01   -1.620908686157642e+02   
1.006700000000000e+10    -1.470647804598523e+01   -1.623554780475913e+02   
1.006800000000000e+10    -1.471843648857396e+01   -1.624321267996474e+02   
1.006900000000000e+10    -1.473954867253015e+01   -1.625978947764063e+02   
1.007000000000000e+10    -1.474861394221309e+01   -1.628146402265997e+02   
1.007100000000000e+10    -1.475643826056275e+01   -1.630042227673645e+02   
1.007200000000000e+10    -1.478388226397715e+01   -1.631115788468640e+02   
1.007300000000000e+10    -1.479956929555148e+01   -1.633969570207905e+02   
1.007400000000000e+10    -1.480919056380295e+01   -1.634361321973304e+02   
1.007500000000000e+10    -1.484420350217195e+01   -1.636727509527095e+02   
1.007600000000000e+10    -1.486688349546413e+01   -1.638595108203257e+02   
1.007700000000000e+10    -1.487358326331761e+01   -1.639757797176600e+02   
1.007800000000000e+10    -1.490093800382365e+01   -1.640856820285385e+02   
1.007900000000000e+10    -1.491231954417235e+01   -1.643245711736048e+02   
1.008000000000000e+10    -1.495369985456072e+01   -1.645335794266430e+02   
1.008100000000000e+10    -1.496640384864538e+01   -1.646174701959065e+02   
1.008200000000000e+10    -1.498055460973047e+01   -1.647185980821888e+02   
1.008300000000000e+10    -1.500852360066030e+01   -1.649722285030534e+02   
1.008400000000000e+10    -1.504246167740031e+01   -1.651724583737270e+02   
1.008500000000000e+10    -1.505201099030021e+01   -1.652970130834104e+02   
1.008600000000000e+10    -1.508028758844868e+01   -1.654468058987408e+02   
1.008700000000000e+10    -1.510106623358201e+01   -1.656587858985141e+02   
1.008800000000000e+10    -1.512484815993845e+01   -1.658375939056095e+02   
1.008900000000000e+10    -1.516529158950906e+01   -1.660249826179500e+02   
1.009000000000000e+10    -1.518506316831194e+01   -1.662088314492386e+02   
1.009100000000000e+10    -1.522533208632811e+01   -1.663415360468120e+02   
1.009200000000000e+10    -1.524340575424377e+01   -1.666173767750986e+02   
1.009300000000000e+10    -1.525151738329553e+01   -1.667598873167629e+02   
1.009400000000000e+10    -1.529183815775474e+01   -1.669579776580273e+02   
1.009500000000000e+10    -1.532417905775894e+01   -1.670528408056840e+02   
1.009600000000000e+10    -1.534116358661951e+01   -1.672272242340510e+02   
1.009700000000000e+10    -1.537131239489524e+01   -1.674586093246915e+02   
1.009800000000000e+10    -1.538411441394093e+01   -1.676181785024177e+02   
1.009900000000000e+10    -1.543068972204319e+01   -1.677385177806462e+02   
1.010000000000000e+10    -1.544784044088891e+01   -1.680812407848068e+02   
1.010100000000000e+10    -1.547874208636999e+01   -1.681607728228510e+02   
1.010200000000000e+10    -1.549801307181627e+01   -1.683690184443986e+02   
1.010300000000000e+10    -1.553564281605663e+01   -1.685114873341371e+02   
1.010400000000000e+10    -1.555034004242288e+01   -1.687451804620978e+02   
1.010500000000000e+10    -1.556321661057341e+01   -1.690250684312431e+02   
1.010600000000000e+10    -1.560585792266949e+01   -1.691662553297634e+02   
1.010700000000000e+10    -1.562783848649804e+01   -1.693331624498700e+02   
1.010800000000000e+10    -1.563595582694972e+01   -1.695867185195824e+02   
1.010900000000000e+10    -1.566556614434044e+01   -1.697552926420777e+02   
1.011000000000000e+10    -1.568498538470074e+01   -1.699705069269563e+02   
1.011100000000000e+10    -1.571677014527327e+01   -1.701559241384013e+02   
1.011200000000000e+10    -1.573164035769905e+01   -1.704401267234395e+02   
1.011300000000000e+10    -1.577314795083787e+01   -1.705590635292140e+02   
1.011400000000000e+10    -1.578394138147405e+01   -1.706484121670720e+02   
1.011500000000000e+10    -1.581731602786897e+01   -1.709057161428778e+02   
1.011600000000000e+10    -1.583618300518022e+01   -1.711980364224022e+02   
1.011700000000000e+10    -1.586501329729197e+01   -1.712265044383687e+02   
1.011800000000000e+10    -1.589327659665841e+01   -1.715305520526809e+02   
1.011900000000000e+10    -1.590452892639598e+01   -1.716539380360314e+02   
1.012000000000000e+10    -1.592742145675184e+01   -1.717436798008188e+02   
1.012100000000000e+10    -1.595752367865419e+01   -1.720294490777272e+02   
1.012200000000000e+10    -1.597498421474345e+01   -1.721028380074446e+02   
1.012300000000000e+10    -1.599097157345065e+01   -1.723479928595433e+02   
1.012400000000000e+10    -1.602107122435931e+01   -1.724074484809048e+02   
1.012500000000000e+10    -1.605544677418223e+01   -1.725635225384047e+02   
1.012600000000000e+10    -1.607163354532268e+01   -1.727352685033536e+02   
1.012700000000000e+10    -1.608122620392184e+01   -1.729127584568118e+02   
1.012800000000000e+10    -1.611443630008258e+01   -1.730640344346590e+02   
1.012900000000000e+10    -1.612687448395654e+01   -1.731893111618648e+02   
1.013000000000000e+10    -1.615806398011252e+01   -1.734722554805506e+02   
1.013100000000000e+10    -1.618506017005035e+01   -1.734593188445745e+02   
1.013200000000000e+10    -1.618717869827745e+01   -1.736851908918074e+02   
1.013300000000000e+10    -1.621653455564786e+01   -1.737620279261995e+02   
1.013400000000000e+10    -1.623608950057810e+01   -1.740156190636235e+02   
1.013500000000000e+10    -1.626322490632781e+01   -1.741306439661689e+02   
1.013600000000000e+10    -1.627592312687268e+01   -1.743103002630350e+02   
1.013700000000000e+10    -1.631417315850269e+01   -1.743595306568658e+02   
1.013800000000000e+10    -1.631949766774218e+01   -1.746037064972986e+02   
1.013900000000000e+10    -1.634034225013576e+01   -1.746702267601735e+02   
1.014000000000000e+10    -1.637960682024077e+01   -1.749313921113372e+02   
1.014100000000000e+10    -1.639944026221200e+01   -1.750411715476382e+02   
1.014200000000000e+10    -1.642264327225748e+01   -1.752383420199604e+02   
1.014300000000000e+10    -1.644080438260961e+01   -1.752973692677951e+02   
1.014400000000000e+10    -1.646388419470744e+01   -1.755540457264143e+02   
1.014500000000000e+10    -1.647854800183275e+01   -1.755799400069285e+02   
1.014600000000000e+10    -1.649791122945494e+01   -1.757242842077914e+02   
1.014700000000000e+10    -1.652377030308387e+01   -1.758982215164659e+02   
1.014800000000000e+10    -1.653946599074912e+01   -1.761106133109373e+02   
1.014900000000000e+10    -1.656596969929681e+01   -1.760783668058280e+02   
1.015000000000000e+10    -1.659341241967957e+01   -1.763778043351990e+02   
1.015100000000000e+10    -1.661070916367427e+01   -1.763521852969467e+02   
1.015200000000000e+10    -1.664052196749677e+01   -1.765503883292627e+02   
1.015300000000000e+10    -1.664314441574552e+01   -1.766563938833648e+02   
1.015400000000000e+10    -1.668632753048906e+01   -1.768816439896786e+02   
1.015500000000000e+10    -1.670771858210546e+01   -1.769189475920379e+02   
1.015600000000000e+10    -1.674401746889171e+01   -1.770088710970187e+02   
1.015700000000000e+10    -1.676109568103220e+01   -1.770748144161112e+02   
1.015800000000000e+10    -1.678669034918189e+01   -1.771457744609855e+02   
1.015900000000000e+10    -1.679378168306357e+01   -1.773115752868627e+02   
1.016000000000000e+10    -1.682097507541486e+01   -1.775333753660219e+02   
1.016100000000000e+10    -1.685626614544816e+01   -1.776459943650606e+02   
1.016200000000000e+10    -1.688395641804282e+01   -1.777692809524040e+02   
1.016300000000000e+10    -1.690502254443401e+01   -1.778163686747349e+02   
1.016400000000000e+10    -1.693942761947455e+01   -1.779251111802038e+02   
1.016500000000000e+10    -1.696490285070848e+01   -1.779842272276914e+02   
1.016600000000000e+10    -1.700143879131515e+01   -1.781770629276787e+02   
1.016700000000000e+10    -1.702254990125172e+01   -1.782991651334908e+02   
1.016800000000000e+10    -1.705370337644076e+01   -1.783268945579614e+02   
1.016900000000000e+10    -1.707890014466800e+01   -1.785804086694003e+02   
1.017000000000000e+10    -1.710146885198053e+01   -1.786440565282232e+02   
1.017100000000000e+10    -1.713226745720304e+01   -1.788973133659847e+02   
1.017200000000000e+10    -1.717360838865225e+01   -1.788501093513198e+02   
1.017300000000000e+10    -1.720806716447947e+01   -1.789502540990356e+02   
1.017400000000000e+10    -1.723168317537057e+01   -1.790382133160162e+02   
1.017500000000000e+10    -1.728996875199302e+01   -1.792986531548232e+02   
1.017600000000000e+10    -1.727608121965786e+01   -1.793451314258975e+02   
1.017700000000000e+10    -1.731954853271671e+01   -1.795179925303921e+02   
1.017800000000000e+10    -1.735858170853296e+01   -1.795819921574378e+02   
1.017900000000000e+10    -1.737060056650698e+01   -1.796476872997067e+02   
1.018000000000000e+10    -1.743398412757563e+01   -1.798861297290571e+02   
1.018100000000000e+10    -1.744860691357679e+01   -1.799657703670676e+02   
1.018200000000000e+10    -1.749648850137925e+01   1.797885326192474e+02    
1.018300000000000e+10    -1.750965218135410e+01   1.796615507156293e+02    
1.018400000000000e+10    -1.753128956698290e+01   1.795906960874462e+02    
1.018500000000000e+10    -1.756211929203171e+01   1.793475899240207e+02    
1.018600000000000e+10    -1.759973010790586e+01   1.792680094105702e+02    
1.018700000000000e+10    -1.764289550777571e+01   1.790631861608597e+02    
1.018800000000000e+10    -1.768916342838471e+01   1.790172646524225e+02    
1.018900000000000e+10    -1.771755169413998e+01   1.789440522827841e+02    
1.019000000000000e+10    -1.774973268188796e+01   1.787575396603791e+02    
1.019100000000000e+10    -1.777100306260602e+01   1.786315623373677e+02    
1.019200000000000e+10    -1.778925161982310e+01   1.785698769557130e+02    
1.019300000000000e+10    -1.781860722721612e+01   1.785318616097672e+02    
1.019400000000000e+10    -1.785659937240613e+01   1.783203527601919e+02    
1.019500000000000e+10    -1.789358755759962e+01   1.782378677773987e+02    
1.019600000000000e+10    -1.792268762607661e+01   1.780417156803760e+02    
1.019700000000000e+10    -1.794582797628923e+01   1.779563803331696e+02    
1.019800000000000e+10    -1.795936154773263e+01   1.778072930231445e+02    
1.019900000000000e+10    -1.799988373229631e+01   1.777473730066985e+02    
1.020000000000000e+10    -1.804787644622283e+01   1.774777317653131e+02    
1.020100000000000e+10    -1.806021215170339e+01   1.775791335147808e+02    
1.020200000000000e+10    -1.809985575440603e+01   1.773809366159834e+02    
1.020300000000000e+10    -1.813742555031283e+01   1.774379123986521e+02    
1.020400000000000e+10    -1.817619056795536e+01   1.772123919932171e+02    
1.020500000000000e+10    -1.819869712751380e+01   1.770174079685757e+02    
1.020600000000000e+10    -1.821982740971023e+01   1.769965668403331e+02    
1.020700000000000e+10    -1.823930105195896e+01   1.768534903759558e+02    
1.020800000000000e+10    -1.828416008681435e+01   1.767794438042090e+02    
1.020900000000000e+10    -1.833614088422610e+01   1.764977236852582e+02    
1.021000000000000e+10    -1.836647343882896e+01   1.764229989076601e+02    
1.021100000000000e+10    -1.839202242751801e+01   1.763865828684312e+02    
1.021200000000000e+10    -1.844990316309568e+01   1.761730930106223e+02    
1.021300000000000e+10    -1.847825995260647e+01   1.760936633711203e+02    
1.021400000000000e+10    -1.852031296898269e+01   1.760059709349125e+02    
1.021500000000000e+10    -1.855713222466430e+01   1.760067672895410e+02    
1.021600000000000e+10    -1.858313779022473e+01   1.758088486604139e+02    
1.021700000000000e+10    -1.861826008220374e+01   1.757082085187388e+02    
1.021800000000000e+10    -1.865577595576547e+01   1.756656820944699e+02    
1.021900000000000e+10    -1.871592972675630e+01   1.755752422074753e+02    
1.022000000000000e+10    -1.873983015409338e+01   1.753932997974830e+02    
1.022100000000000e+10    -1.875869247877885e+01   1.753287131450379e+02    
1.022200000000000e+10    -1.884016404633958e+01   1.752129784014148e+02    
1.022300000000000e+10    -1.886554882746843e+01   1.751356765835089e+02    
1.022400000000000e+10    -1.890447501042220e+01   1.749450487333285e+02    
1.022500000000000e+10    -1.894209845037116e+01   1.749767764490243e+02    
1.022600000000000e+10    -1.898651477687437e+01   1.745944378930762e+02    
1.022700000000000e+10    -1.902484720408388e+01   1.745873014238703e+02    
1.022800000000000e+10    -1.906154290469306e+01   1.744991835433568e+02    
1.022900000000000e+10    -1.909752500087528e+01   1.742757978658076e+02    
1.023000000000000e+10    -1.911962253137158e+01   1.742843772679653e+02    
1.023100000000000e+10    -1.914943864666241e+01   1.741395486051717e+02    
1.023200000000000e+10    -1.919750575082124e+01   1.739295962285802e+02    
1.023300000000000e+10    -1.925301112506484e+01   1.738501741324152e+02    
1.023400000000000e+10    -1.927895839720833e+01   1.736970618265292e+02    
1.023500000000000e+10    -1.936711434426592e+01   1.735515174133263e+02    
1.023600000000000e+10    -1.936438549316554e+01   1.736643167826013e+02    
1.023700000000000e+10    -1.940505950454301e+01   1.733529285872712e+02    
1.023800000000000e+10    -1.945488742631150e+01   1.734110529773122e+02    
1.023900000000000e+10    -1.947385333569575e+01   1.731041681288694e+02    
1.024000000000000e+10    -1.954845077718605e+01   1.730264360111409e+02    
1.024100000000000e+10    -1.957038281623245e+01   1.731587669064435e+02    
1.024200000000000e+10    -1.960411567802405e+01   1.729158203802641e+02    
1.024300000000000e+10    -1.966850633270827e+01   1.727641590942085e+02    
1.024400000000000e+10    -1.969996222858554e+01   1.726069977474944e+02    
1.024500000000000e+10    -1.972182416368295e+01   1.726503769694845e+02    
1.024600000000000e+10    -1.976180657118285e+01   1.724204380009159e+02    
1.024700000000000e+10    -1.980264353079708e+01   1.723340350446118e+02    
1.024800000000000e+10    -1.985371612403620e+01   1.723356078133092e+02    
1.024900000000000e+10    -1.990523220621245e+01   1.720061807073818e+02    
1.025000000000000e+10    -1.992051152172315e+01   1.719618115381254e+02    
1.025100000000000e+10    -1.995066485800095e+01   1.721053359034107e+02    
1.025200000000000e+10    -1.999847800325679e+01   1.717560844316565e+02    
1.025300000000000e+10    -2.002349126084324e+01   1.718525289522594e+02    
1.025400000000000e+10    -2.007592105589689e+01   1.717440879431943e+02    
1.025500000000000e+10    -2.013905127631141e+01   1.715087294373990e+02    
1.025600000000000e+10    -2.016751437922134e+01   1.714528763237564e+02    
