[Version] 2.0
! Rohde & Schwarz Vector Network Analyzer
! Rohde-Schwarz,ZNL20-2Port,1323001220200009,1.71.1.10-23.02.1.238
! 
! Port Assignments:
! Nominal Port -> Actual Test Port
! --------------------------------
!   1 -> 1

! Created: GMT 2024-08-27 12:54:02

# Hz S DB R 50

[Number of Ports] 1
[Number of Frequencies] 2001

[Network Data] 
! freq[Hz]               S11[mag dB]              S11[ang]                 
1.000000000000000e+10    -1.395870336027068e+01   -1.475573530482130e+02   
1.000100000000000e+10    -1.397446154130725e+01   -1.476739011907669e+02   
1.000200000000000e+10    -1.398305535497809e+01   -1.477678704179735e+02   
1.000300000000000e+10    -1.399832764738274e+01   -1.480050481014496e+02   
1.000400000000000e+10    -1.400270014049103e+01   -1.482539649846864e+02   
1.000500000000000e+10    -1.400851250423217e+01   -1.484156408978638e+02   
1.000600000000000e+10    -1.402617049219375e+01   -1.485902928107270e+02   
1.000700000000000e+10    -1.403443140736034e+01   -1.487268042494743e+02   
1.000800000000000e+10    -1.404577669150852e+01   -1.489467965890942e+02   
1.000900000000000e+10    -1.406035587055452e+01   -1.492268966384658e+02   
1.001000000000000e+10    -1.407282275029817e+01   -1.493112314115034e+02   
1.001100000000000e+10    -1.408245041233916e+01   -1.495542961177725e+02   
1.001200000000000e+10    -1.408753683795854e+01   -1.497380619079717e+02   
1.001300000000000e+10    -1.411200646450974e+01   -1.500009819073568e+02   
1.001400000000000e+10    -1.411066453466425e+01   -1.502253445125848e+02   
1.001500000000000e+10    -1.412390582574639e+01   -1.504105669476145e+02   
1.001600000000000e+10    -1.412362753113261e+01   -1.505897660832776e+02   
1.001700000000000e+10    -1.414316209048266e+01   -1.508712851001011e+02   
1.001800000000000e+10    -1.414768138430420e+01   -1.510940539735689e+02   
1.001900000000000e+10    -1.415934564517840e+01   -1.512855774664983e+02   
1.002000000000000e+10    -1.416792856815050e+01   -1.515835963399749e+02   
1.002100000000000e+10    -1.417535974481707e+01   -1.518078639391720e+02   
1.002200000000000e+10    -1.418346139188337e+01   -1.519741224970654e+02   
1.002300000000000e+10    -1.418558332696766e+01   -1.521919787146239e+02   
1.002400000000000e+10    -1.418748539667861e+01   -1.524298296737837e+02   
1.002500000000000e+10    -1.421206386306313e+01   -1.526086955555601e+02   
1.002600000000000e+10    -1.421194543194716e+01   -1.529503660392605e+02   
1.002700000000000e+10    -1.421462713260908e+01   -1.531827280240388e+02   
1.002800000000000e+10    -1.422738480001733e+01   -1.533470836692866e+02   
1.002900000000000e+10    -1.423114102388866e+01   -1.535149173931240e+02   
1.003000000000000e+10    -1.425421753474723e+01   -1.537316688894232e+02   
1.003100000000000e+10    -1.423986111853672e+01   -1.539989401575131e+02   
1.003200000000000e+10    -1.425271965774790e+01   -1.542529980992725e+02   
1.003300000000000e+10    -1.424654049146025e+01   -1.544470552426323e+02   
1.003400000000000e+10    -1.425656179774550e+01   -1.546023705057552e+02   
1.003500000000000e+10    -1.427216524999203e+01   -1.548675220127564e+02   
1.003600000000000e+10    -1.426282184518720e+01   -1.549532920522105e+02   
1.003700000000000e+10    -1.427941811901390e+01   -1.552448348008123e+02   
1.003800000000000e+10    -1.428373009019126e+01   -1.554812076334152e+02   
1.003900000000000e+10    -1.429667353536764e+01   -1.557181988983563e+02   
1.004000000000000e+10    -1.428913528149567e+01   -1.559241251763819e+02   
1.004100000000000e+10    -1.430803111798276e+01   -1.561307953554006e+02   
1.004200000000000e+10    -1.430337642180518e+01   -1.562942369981802e+02   
1.004300000000000e+10    -1.431581232513129e+01   -1.565067441317256e+02   
1.004400000000000e+10    -1.432694370154135e+01   -1.567679889665331e+02   
1.004500000000000e+10    -1.432223974583939e+01   -1.568907770512562e+02   
1.004600000000000e+10    -1.433965700497751e+01   -1.570692936185217e+02   
1.004700000000000e+10    -1.434556418038856e+01   -1.573221648539674e+02   
1.004800000000000e+10    -1.434887456969381e+01   -1.574713322722520e+02   
1.004900000000000e+10    -1.435442475852329e+01   -1.576810415179170e+02   
1.005000000000000e+10    -1.436430421358401e+01   -1.579840096318520e+02   
1.005100000000000e+10    -1.434930458335254e+01   -1.580183969709058e+02   
1.005200000000000e+10    -1.437645036837566e+01   -1.581726845725238e+02   
1.005300000000000e+10    -1.438065383540229e+01   -1.584420928231661e+02   
1.005400000000000e+10    -1.438709093122202e+01   -1.586258168485778e+02   
1.005500000000000e+10    -1.439723692329969e+01   -1.588044899240410e+02   
1.005600000000000e+10    -1.442095604203445e+01   -1.590250721576691e+02   
1.005700000000000e+10    -1.441538643308166e+01   -1.591506302228872e+02   
1.005800000000000e+10    -1.442519102941015e+01   -1.593744150910289e+02   
1.005900000000000e+10    -1.443474861828651e+01   -1.595974920595669e+02   
1.006000000000000e+10    -1.443953712181726e+01   -1.597240148493152e+02   
1.006100000000000e+10    -1.446162040437289e+01   -1.598752121568068e+02   
1.006200000000000e+10    -1.446889230165326e+01   -1.600782038284543e+02   
1.006300000000000e+10    -1.448589134429880e+01   -1.602494297056011e+02   
1.006400000000000e+10    -1.448398246758511e+01   -1.604168252295614e+02   
1.006500000000000e+10    -1.449708443511738e+01   -1.606103751251395e+02   
1.006600000000000e+10    -1.451425432883319e+01   -1.607392176021323e+02   
1.006700000000000e+10    -1.452194439130581e+01   -1.610173555247802e+02   
1.006800000000000e+10    -1.453331633547496e+01   -1.611067023574264e+02   
1.006900000000000e+10    -1.455104630386023e+01   -1.612599145573675e+02   
1.007000000000000e+10    -1.455789447183746e+01   -1.614851075867145e+02   
1.007100000000000e+10    -1.456324728697236e+01   -1.616781535875041e+02   
1.007200000000000e+10    -1.458886586184106e+01   -1.618076025690496e+02   
1.007300000000000e+10    -1.460303120656517e+01   -1.620875966227155e+02   
1.007400000000000e+10    -1.461177168799362e+01   -1.621411397916792e+02   
1.007500000000000e+10    -1.464384135434320e+01   -1.623709416703352e+02   
1.007600000000000e+10    -1.466432908340770e+01   -1.625775247602300e+02   
1.007700000000000e+10    -1.466863874270460e+01   -1.626792506968036e+02   
1.007800000000000e+10    -1.469106714584997e+01   -1.628141356544362e+02   
1.007900000000000e+10    -1.470396051376055e+01   -1.630645427405290e+02   
1.008000000000000e+10    -1.474182451072161e+01   -1.632748090021039e+02   
1.008100000000000e+10    -1.475279488987065e+01   -1.633655393743237e+02   
1.008200000000000e+10    -1.476713253172290e+01   -1.634633980641671e+02   
1.008300000000000e+10    -1.478990416241331e+01   -1.637291965705445e+02   
1.008400000000000e+10    -1.482229087726298e+01   -1.639265847589766e+02   
1.008500000000000e+10    -1.482938680305156e+01   -1.640680488091434e+02   
1.008600000000000e+10    -1.485526926377151e+01   -1.642150568861956e+02   
1.008700000000000e+10    -1.487243038256792e+01   -1.644312114153615e+02   
1.008800000000000e+10    -1.489379813039451e+01   -1.646315827603968e+02   
1.008900000000000e+10    -1.493107690295942e+01   -1.648226529694719e+02   
1.009000000000000e+10    -1.494946873334918e+01   -1.650174440279571e+02   
1.009100000000000e+10    -1.498585790185435e+01   -1.651789109664889e+02   
1.009200000000000e+10    -1.500403214644717e+01   -1.654469252181139e+02   
1.009300000000000e+10    -1.500923164514349e+01   -1.656058808408743e+02   
1.009400000000000e+10    -1.504666348889214e+01   -1.658323974431242e+02   
1.009500000000000e+10    -1.507573232946200e+01   -1.659433965783251e+02   
1.009600000000000e+10    -1.509378080307251e+01   -1.661253302156821e+02   
1.009700000000000e+10    -1.512377167159674e+01   -1.663710193561321e+02   
1.009800000000000e+10    -1.513359424303135e+01   -1.665424416282385e+02   
1.009900000000000e+10    -1.517854111427935e+01   -1.666893682442284e+02   
1.010000000000000e+10    -1.519490732856357e+01   -1.670418392156946e+02   
1.010100000000000e+10    -1.522690910559039e+01   -1.671366290909269e+02   
1.010200000000000e+10    -1.524410220067349e+01   -1.673573969074667e+02   
1.010300000000000e+10    -1.528099065180565e+01   -1.675133941755248e+02   
1.010400000000000e+10    -1.529620002063654e+01   -1.677626182442886e+02   
1.010500000000000e+10    -1.530957371391166e+01   -1.680361931539558e+02   
1.010600000000000e+10    -1.534971017184122e+01   -1.681885128482197e+02   
1.010700000000000e+10    -1.537058093125902e+01   -1.683616503976323e+02   
1.010800000000000e+10    -1.537877515530339e+01   -1.686224049370996e+02   
1.010900000000000e+10    -1.540870015833885e+01   -1.688045097880603e+02   
1.011000000000000e+10    -1.542826973538862e+01   -1.690150094868684e+02   
1.011100000000000e+10    -1.545897504870569e+01   -1.692049836273009e+02   
1.011200000000000e+10    -1.547338910029873e+01   -1.695030391101547e+02   
1.011300000000000e+10    -1.551482824695347e+01   -1.696304315320251e+02   
1.011400000000000e+10    -1.552157838671435e+01   -1.697281953916034e+02   
1.011500000000000e+10    -1.555604906928618e+01   -1.699703773171660e+02   
1.011600000000000e+10    -1.557291793901013e+01   -1.702879186094662e+02   
1.011700000000000e+10    -1.560087552499981e+01   -1.703164641323559e+02   
1.011800000000000e+10    -1.562887282106642e+01   -1.706142426429869e+02   
1.011900000000000e+10    -1.563580557990206e+01   -1.707640164354143e+02   
1.012000000000000e+10    -1.566032185770549e+01   -1.708755296624310e+02   
1.012100000000000e+10    -1.568860607998959e+01   -1.711549979597715e+02   
1.012200000000000e+10    -1.570578928129503e+01   -1.712552906666186e+02   
1.012300000000000e+10    -1.572115442481751e+01   -1.715047807780285e+02   
1.012400000000000e+10    -1.575134983758385e+01   -1.715775215415519e+02   
1.012500000000000e+10    -1.578363960882918e+01   -1.717479276234635e+02   
1.012600000000000e+10    -1.579949849070726e+01   -1.719321645150033e+02   
1.012700000000000e+10    -1.580883730509728e+01   -1.721339463089668e+02   
1.012800000000000e+10    -1.584130089065648e+01   -1.722888654308044e+02   
1.012900000000000e+10    -1.585427020724209e+01   -1.724020862308848e+02   
1.013000000000000e+10    -1.588685172658021e+01   -1.727092199219168e+02   
1.013100000000000e+10    -1.591084058353221e+01   -1.727040797402196e+02   
1.013200000000000e+10    -1.591607477628656e+01   -1.729375493688987e+02   
1.013300000000000e+10    -1.594481278941477e+01   -1.730249484438065e+02   
1.013400000000000e+10    -1.596668853545923e+01   -1.732702432037487e+02   
1.013500000000000e+10    -1.599053932430010e+01   -1.734072083755069e+02   
1.013600000000000e+10    -1.600111534035724e+01   -1.736074009705858e+02   
1.013700000000000e+10    -1.603969964191723e+01   -1.736479229560435e+02   
1.013800000000000e+10    -1.604705535347387e+01   -1.738949915993648e+02   
1.013900000000000e+10    -1.606681029272418e+01   -1.739820510207857e+02   
1.014000000000000e+10    -1.610650901220821e+01   -1.742487954808467e+02   
1.014100000000000e+10    -1.612485526289780e+01   -1.743688778021910e+02   
1.014200000000000e+10    -1.614807206228677e+01   -1.745692656197256e+02   
1.014300000000000e+10    -1.616847102898019e+01   -1.746277198027616e+02   
1.014400000000000e+10    -1.619290274093826e+01   -1.748886034809427e+02   
1.014500000000000e+10    -1.620660206494846e+01   -1.749252232683531e+02   
1.014600000000000e+10    -1.622658788744660e+01   -1.750810756636747e+02   
1.014700000000000e+10    -1.625427469941209e+01   -1.752418565438129e+02   
1.014800000000000e+10    -1.626798080519015e+01   -1.754539191724767e+02   
1.014900000000000e+10    -1.629305430404110e+01   -1.754404910527495e+02   
1.015000000000000e+10    -1.632184502348406e+01   -1.757342718853986e+02   
1.015100000000000e+10    -1.633729300655832e+01   -1.757143900040636e+02   
1.015200000000000e+10    -1.636572019221424e+01   -1.759027392065981e+02   
1.015300000000000e+10    -1.636900239275750e+01   -1.760133203844857e+02   
1.015400000000000e+10    -1.640999894718780e+01   -1.762527127737486e+02   
1.015500000000000e+10    -1.643090835061435e+01   -1.763061412379307e+02   
1.015600000000000e+10    -1.646675770018569e+01   -1.763850919689734e+02   
1.015700000000000e+10    -1.648488687007879e+01   -1.764544438815816e+02   
1.015800000000000e+10    -1.650642292394636e+01   -1.765434935516430e+02   
1.015900000000000e+10    -1.651610225460050e+01   -1.767187556352523e+02   
1.016000000000000e+10    -1.654249372554943e+01   -1.769315156904117e+02   
1.016100000000000e+10    -1.657731790953085e+01   -1.770614909738455e+02   
1.016200000000000e+10    -1.660379579332166e+01   -1.771717932909012e+02   
1.016300000000000e+10    -1.662409986993065e+01   -1.772091611446888e+02   
1.016400000000000e+10    -1.665599490098163e+01   -1.773270350917852e+02   
1.016500000000000e+10    -1.668078514699294e+01   -1.773893764453829e+02   
1.016600000000000e+10    -1.671646656455400e+01   -1.775769379306757e+02   
1.016700000000000e+10    -1.673550849074955e+01   -1.777180235015620e+02   
1.016800000000000e+10    -1.676539030850762e+01   -1.777601676126862e+02   
1.016900000000000e+10    -1.678991295633189e+01   -1.780030094155065e+02   
1.017000000000000e+10    -1.680666196179392e+01   -1.780651733331948e+02   
1.017100000000000e+10    -1.684150606705003e+01   -1.783392328461831e+02   
1.017200000000000e+10    -1.687977342416025e+01   -1.783080153602712e+02   
1.017300000000000e+10    -1.691085025440602e+01   -1.783919571767311e+02   
1.017400000000000e+10    -1.693351321232294e+01   -1.784930998785490e+02   
1.017500000000000e+10    -1.698776401284321e+01   -1.787617255924566e+02   
1.017600000000000e+10    -1.697683817225372e+01   -1.787971221475653e+02   
1.017700000000000e+10    -1.702073908349373e+01   -1.789714443398855e+02   
1.017800000000000e+10    -1.705474544650367e+01   -1.790452199162102e+02   
1.017900000000000e+10    -1.706765962183535e+01   -1.791269946091115e+02   
1.018000000000000e+10    -1.712698444811898e+01   -1.793637800898774e+02   
1.018100000000000e+10    -1.713940124123813e+01   -1.794708210158485e+02   
1.018200000000000e+10    -1.718804777704435e+01   -1.797174334726870e+02   
1.018300000000000e+10    -1.720053159881034e+01   -1.798575828228599e+02   
1.018400000000000e+10    -1.722089850653699e+01   -1.799142928229914e+02   
1.018500000000000e+10    -1.725163177578610e+01   1.798300059868413e+02    
1.018600000000000e+10    -1.728793747240608e+01   1.797465324026524e+02    
1.018700000000000e+10    -1.733056403831425e+01   1.795624247065022e+02    
1.018800000000000e+10    -1.737225520672407e+01   1.795159436931922e+02    
1.018900000000000e+10    -1.739747670758970e+01   1.794291143406929e+02    
1.019000000000000e+10    -1.742705186951505e+01   1.792686340474182e+02    
1.019100000000000e+10    -1.744877276242428e+01   1.791148823935195e+02    
1.019200000000000e+10    -1.746355117686552e+01   1.790411542217612e+02    
1.019300000000000e+10    -1.749040892972544e+01   1.789571865167546e+02    
1.019400000000000e+10    -1.752897726417214e+01   1.787558840700368e+02    
1.019500000000000e+10    -1.755856884109170e+01   1.786563335657004e+02    
1.019600000000000e+10    -1.758451859492195e+01   1.784546863762565e+02    
1.019700000000000e+10    -1.761101343838166e+01   1.783669101729026e+02    
1.019800000000000e+10    -1.762346376726205e+01   1.781809463705224e+02    
1.019900000000000e+10    -1.766262998519090e+01   1.781163800537634e+02    
1.020000000000000e+10    -1.771023037153870e+01   1.778605998099057e+02    
1.020100000000000e+10    -1.771922773880396e+01   1.779390749924688e+02    
1.020200000000000e+10    -1.776048022224541e+01   1.777186969981280e+02    
1.020300000000000e+10    -1.779547227685924e+01   1.777527351836927e+02    
1.020400000000000e+10    -1.783688326781473e+01   1.775416188921745e+02    
1.020500000000000e+10    -1.785578464365472e+01   1.773399335188386e+02    
1.020600000000000e+10    -1.787879697604384e+01   1.773244974250715e+02    
1.020700000000000e+10    -1.789597804765418e+01   1.772025110883119e+02    
1.020800000000000e+10    -1.794113841153515e+01   1.771053947086460e+02    
1.020900000000000e+10    -1.798737127900905e+01   1.768498155075839e+02    
1.021000000000000e+10    -1.801735384735568e+01   1.767662875116238e+02    
1.021100000000000e+10    -1.804633573557549e+01   1.767482987719566e+02    
1.021200000000000e+10    -1.809573857412882e+01   1.765219671555466e+02    
1.021300000000000e+10    -1.812131655478522e+01   1.764521811805650e+02    
1.021400000000000e+10    -1.815790425754925e+01   1.763548177265542e+02    
1.021500000000000e+10    -1.819439187714065e+01   1.763499009816405e+02    
1.021600000000000e+10    -1.821550874704996e+01   1.761264038464233e+02    
1.021700000000000e+10    -1.824740548537691e+01   1.760296860087323e+02    
1.021800000000000e+10    -1.828600228205211e+01   1.759685608011536e+02    
1.021900000000000e+10    -1.833995014112754e+01   1.758749173293363e+02    
1.022000000000000e+10    -1.836171696212588e+01   1.756960954354280e+02    
1.022100000000000e+10    -1.837664895479850e+01   1.756178378354180e+02    
1.022200000000000e+10    -1.845695764132189e+01   1.754686701619197e+02    
1.022300000000000e+10    -1.848248923970177e+01   1.753795600444620e+02    
1.022400000000000e+10    -1.851612129404689e+01   1.751948180868063e+02    
1.022500000000000e+10    -1.855587334619199e+01   1.752060903499869e+02    
1.022600000000000e+10    -1.859424006686135e+01   1.748484503898777e+02    
1.022700000000000e+10    -1.862670842185567e+01   1.748288575418223e+02    
1.022800000000000e+10    -1.866109023435176e+01   1.747113534033768e+02    
1.022900000000000e+10    -1.869605576487911e+01   1.744982586899708e+02    
1.023000000000000e+10    -1.871612407847631e+01   1.744641684382010e+02    
1.023100000000000e+10    -1.874711214025141e+01   1.743140213701994e+02    
1.023200000000000e+10    -1.879191514104819e+01   1.740790685057300e+02    
1.023300000000000e+10    -1.884116236239287e+01   1.739886186885007e+02    
1.023400000000000e+10    -1.887034586779951e+01   1.738212417469566e+02    
1.023500000000000e+10    -1.895224704646549e+01   1.736854003629728e+02    
1.023600000000000e+10    -1.895294584149494e+01   1.737570216568514e+02    
1.023700000000000e+10    -1.899204996099149e+01   1.734435850406207e+02    
1.023800000000000e+10    -1.903725492913800e+01   1.735072235172070e+02    
1.023900000000000e+10    -1.905686440234928e+01   1.731888212819735e+02    
1.024000000000000e+10    -1.912744798439227e+01   1.731104159502808e+02    
1.024100000000000e+10    -1.914733480519365e+01   1.732210111739538e+02    
1.024200000000000e+10    -1.917700014111524e+01   1.729845171713179e+02    
1.024300000000000e+10    -1.923533615403518e+01   1.728173273228669e+02    
1.024400000000000e+10    -1.926625493426489e+01   1.726348469360185e+02    
1.024500000000000e+10    -1.929080112096330e+01   1.726776924278488e+02    
1.024600000000000e+10    -1.932627158017536e+01   1.724172954361543e+02    
1.024700000000000e+10    -1.936345471046792e+01   1.723166996621753e+02    
1.024800000000000e+10    -1.941439495439821e+01   1.723043305398909e+02    
1.024900000000000e+10    -1.946443860928038e+01   1.719558370564849e+02    
1.025000000000000e+10    -1.948026164470729e+01   1.719258131039215e+02    
1.025100000000000e+10    -1.951032710622098e+01   1.720425320651118e+02    
1.025200000000000e+10    -1.955335304285463e+01   1.716814371690681e+02    
1.025300000000000e+10    -1.957740053403286e+01   1.717783544165644e+02    
1.025400000000000e+10    -1.962273864052896e+01   1.716410868407199e+02    
1.025500000000000e+10    -1.968176614502192e+01   1.714071762486974e+02    
1.025600000000000e+10    -1.970632518871189e+01   1.713338970635904e+02    
