[Version] 2.0
! Rohde & Schwarz Vector Network Analyzer
! Rohde-Schwarz,ZNL20-2Port,1323001220200009,1.71.1.10-23.02.1.238
! 
! Port Assignments:
! Nominal Port -> Actual Test Port
! --------------------------------
!   1 -> 1

! Created: GMT 2024-08-27 12:54:34

# Hz S DB R 50

[Number of Ports] 1
[Number of Frequencies] 2001

[Network Data] 
! freq[Hz]               S11[mag dB]              S11[ang]                 
1.000000000000000e+10    -1.392203761194764e+01   -1.470026275414917e+02   
1.000100000000000e+10    -1.393711787718880e+01   -1.471249864105116e+02   
1.000200000000000e+10    -1.394416294675453e+01   -1.472236665478884e+02   
1.000300000000000e+10    -1.395855144406743e+01   -1.474645517568272e+02   
1.000400000000000e+10    -1.396321338147933e+01   -1.477069023851155e+02   
1.000500000000000e+10    -1.396971171564105e+01   -1.478791295299523e+02   
1.000600000000000e+10    -1.398611206021333e+01   -1.480467464459733e+02   
1.000700000000000e+10    -1.399453926039305e+01   -1.481855941718068e+02   
1.000800000000000e+10    -1.400506062874334e+01   -1.484062473149569e+02   
1.000900000000000e+10    -1.401841351342054e+01   -1.486869869456934e+02   
1.001000000000000e+10    -1.403018504878599e+01   -1.487691281126226e+02   
1.001100000000000e+10    -1.404120206595193e+01   -1.490065984171326e+02   
1.001200000000000e+10    -1.404382277581705e+01   -1.491955401230470e+02   
1.001300000000000e+10    -1.406884929784145e+01   -1.494656939105208e+02   
1.001400000000000e+10    -1.406606544748827e+01   -1.496904198146531e+02   
1.001500000000000e+10    -1.407930354492537e+01   -1.498710297503660e+02   
1.001600000000000e+10    -1.407821983866326e+01   -1.500506965515767e+02   
1.001700000000000e+10    -1.409697258399968e+01   -1.503323299718592e+02   
1.001800000000000e+10    -1.410048467064325e+01   -1.505582609494244e+02   
1.001900000000000e+10    -1.411113064659692e+01   -1.507507165968507e+02   
1.002000000000000e+10    -1.412067474881730e+01   -1.510402265112892e+02   
1.002100000000000e+10    -1.412763861243134e+01   -1.512722882776960e+02   
1.002200000000000e+10    -1.413543910550809e+01   -1.514390562818809e+02   
1.002300000000000e+10    -1.413786499000530e+01   -1.516665246036424e+02   
1.002400000000000e+10    -1.413819743253033e+01   -1.518994828432936e+02   
1.002500000000000e+10    -1.416186470393561e+01   -1.520913403543337e+02   
1.002600000000000e+10    -1.416172968809659e+01   -1.524385431079210e+02   
1.002700000000000e+10    -1.416333039076770e+01   -1.526657113887775e+02   
1.002800000000000e+10    -1.417752883511914e+01   -1.528213419844698e+02   
1.002900000000000e+10    -1.418025371311494e+01   -1.529849758443986e+02   
1.003000000000000e+10    -1.420296064011539e+01   -1.531992757610761e+02   
1.003100000000000e+10    -1.418712360636501e+01   -1.534805018651633e+02   
1.003200000000000e+10    -1.419986196271739e+01   -1.537330778518928e+02   
1.003300000000000e+10    -1.419340018724500e+01   -1.539282528579903e+02   
1.003400000000000e+10    -1.420322339957343e+01   -1.540773931581442e+02   
1.003500000000000e+10    -1.422029974785784e+01   -1.543508114502001e+02   
1.003600000000000e+10    -1.420815753166979e+01   -1.544421042755593e+02   
1.003700000000000e+10    -1.422508986772012e+01   -1.547267860227335e+02   
1.003800000000000e+10    -1.422905191017008e+01   -1.549701890938516e+02   
1.003900000000000e+10    -1.423947286657475e+01   -1.552054979749560e+02   
1.004000000000000e+10    -1.423105762807748e+01   -1.554239851391306e+02   
1.004100000000000e+10    -1.424941017249074e+01   -1.556331284767911e+02   
1.004200000000000e+10    -1.424411564001879e+01   -1.557915182556384e+02   
1.004300000000000e+10    -1.425581136749245e+01   -1.560132197519438e+02   
1.004400000000000e+10    -1.426752459503461e+01   -1.562728159055183e+02   
1.004500000000000e+10    -1.426332452722754e+01   -1.564021105140532e+02   
1.004600000000000e+10    -1.427881480141462e+01   -1.566024811657267e+02   
1.004700000000000e+10    -1.428559711131691e+01   -1.568435627751708e+02   
1.004800000000000e+10    -1.428834934660271e+01   -1.570005071903256e+02   
1.004900000000000e+10    -1.429390639787218e+01   -1.572098047436344e+02   
1.005000000000000e+10    -1.430358406407033e+01   -1.575202275816143e+02   
1.005100000000000e+10    -1.428916079328815e+01   -1.575625511674745e+02   
1.005200000000000e+10    -1.431504643385448e+01   -1.577292368638203e+02   
1.005300000000000e+10    -1.432042959245762e+01   -1.579904230173848e+02   
1.005400000000000e+10    -1.432665293876648e+01   -1.581776229328648e+02   
1.005500000000000e+10    -1.433650183281368e+01   -1.583673089807943e+02   
1.005600000000000e+10    -1.435970508071025e+01   -1.585797742573447e+02   
1.005700000000000e+10    -1.435516803720334e+01   -1.587024604321176e+02   
1.005800000000000e+10    -1.436260864246751e+01   -1.589337314123075e+02   
1.005900000000000e+10    -1.437432612357628e+01   -1.591633091813631e+02   
1.006000000000000e+10    -1.437809293008281e+01   -1.592944642707336e+02   
1.006100000000000e+10    -1.440119017685331e+01   -1.594337526287419e+02   
1.006200000000000e+10    -1.440732586881851e+01   -1.596506726685440e+02   
1.006300000000000e+10    -1.442390321591927e+01   -1.598245810528798e+02   
1.006400000000000e+10    -1.442173007668976e+01   -1.599844375954587e+02   
1.006500000000000e+10    -1.443683921454031e+01   -1.601774007385070e+02   
1.006600000000000e+10    -1.445296937558793e+01   -1.603049524692624e+02   
1.006700000000000e+10    -1.446044199235683e+01   -1.605752091873312e+02   
1.006800000000000e+10    -1.447010303062614e+01   -1.606672404123176e+02   
1.006900000000000e+10    -1.448891469806443e+01   -1.608316414087699e+02   
1.007000000000000e+10    -1.449452390462581e+01   -1.610615842436103e+02   
1.007100000000000e+10    -1.450166089683298e+01   -1.612542564649334e+02   
1.007200000000000e+10    -1.452618986037634e+01   -1.613765775763190e+02   
1.007300000000000e+10    -1.454100528156737e+01   -1.616636230908520e+02   
1.007400000000000e+10    -1.454813960745623e+01   -1.617229388767726e+02   
1.007500000000000e+10    -1.458083888678420e+01   -1.619489861015736e+02   
1.007600000000000e+10    -1.460191957383110e+01   -1.621536139063018e+02   
1.007700000000000e+10    -1.460680642497101e+01   -1.622566928849006e+02   
1.007800000000000e+10    -1.462703127156797e+01   -1.623901820751094e+02   
1.007900000000000e+10    -1.463833352016937e+01   -1.626354768007661e+02   
1.008000000000000e+10    -1.467814806998420e+01   -1.628391222141572e+02   
1.008100000000000e+10    -1.468758049908479e+01   -1.629371135583003e+02   
1.008200000000000e+10    -1.470097527034466e+01   -1.630376498227845e+02   
1.008300000000000e+10    -1.472469889914750e+01   -1.633026068235790e+02   
1.008400000000000e+10    -1.475723807025023e+01   -1.635086496829271e+02   
1.008500000000000e+10    -1.476160479848865e+01   -1.636432067835246e+02   
1.008600000000000e+10    -1.478803073495718e+01   -1.638043618528887e+02   
1.008700000000000e+10    -1.480800356373070e+01   -1.640138183274527e+02   
1.008800000000000e+10    -1.482899561309823e+01   -1.642114655809324e+02   
1.008900000000000e+10    -1.486344182580156e+01   -1.644068047114961e+02   
1.009000000000000e+10    -1.488321255794539e+01   -1.645986740242984e+02   
1.009100000000000e+10    -1.492043772378956e+01   -1.647443768188674e+02   
1.009200000000000e+10    -1.493967442733488e+01   -1.650242174103651e+02   
1.009300000000000e+10    -1.494354059602627e+01   -1.651870905866683e+02   
1.009400000000000e+10    -1.498311091618223e+01   -1.653948924724232e+02   
1.009500000000000e+10    -1.501212761616062e+01   -1.654979425678299e+02   
1.009600000000000e+10    -1.502745473832142e+01   -1.656810743863193e+02   
1.009700000000000e+10    -1.505989123099605e+01   -1.659262083423626e+02   
1.009800000000000e+10    -1.507087356249439e+01   -1.660898513201490e+02   
1.009900000000000e+10    -1.511326710526630e+01   -1.662162543358256e+02   
1.010000000000000e+10    -1.512959667508800e+01   -1.665698823762340e+02   
1.010100000000000e+10    -1.515954800450164e+01   -1.666561026013798e+02   
1.010200000000000e+10    -1.517700673439937e+01   -1.668768879340308e+02   
1.010300000000000e+10    -1.521355926083558e+01   -1.670120406830620e+02   
1.010400000000000e+10    -1.522735421012707e+01   -1.672539489792415e+02   
1.010500000000000e+10    -1.523685644059312e+01   -1.675332493333489e+02   
1.010600000000000e+10    -1.527784833566070e+01   -1.676872734040790e+02   
1.010700000000000e+10    -1.529716029659223e+01   -1.678533043571443e+02   
1.010800000000000e+10    -1.530306561644484e+01   -1.681245438189820e+02   
1.010900000000000e+10    -1.533136665279951e+01   -1.683004526349094e+02   
1.011000000000000e+10    -1.535122883053585e+01   -1.685156431887362e+02   
1.011100000000000e+10    -1.538215665816599e+01   -1.687030105799633e+02   
1.011200000000000e+10    -1.539524383473428e+01   -1.690065638989094e+02   
1.011300000000000e+10    -1.543351650233858e+01   -1.691344059673270e+02   
1.011400000000000e+10    -1.544030792663303e+01   -1.692471202201110e+02   
1.011500000000000e+10    -1.547418254263254e+01   -1.694918844919586e+02   
1.011600000000000e+10    -1.549105360114510e+01   -1.698012448916842e+02   
1.011700000000000e+10    -1.551946431699032e+01   -1.698444934542047e+02   
1.011800000000000e+10    -1.554599879505340e+01   -1.701424416357664e+02   
1.011900000000000e+10    -1.555525555821170e+01   -1.702787402777120e+02   
1.012000000000000e+10    -1.557643406401202e+01   -1.703928162954527e+02   
1.012100000000000e+10    -1.560570712376828e+01   -1.706782037823052e+02   
1.012200000000000e+10    -1.562125749863922e+01   -1.707740404558128e+02   
1.012300000000000e+10    -1.563673771759643e+01   -1.710179770903056e+02   
1.012400000000000e+10    -1.566583527217459e+01   -1.710964247357040e+02   
1.012500000000000e+10    -1.569815826988660e+01   -1.712654066478958e+02   
1.012600000000000e+10    -1.571411437123449e+01   -1.714345012013533e+02   
1.012700000000000e+10    -1.572546875900689e+01   -1.716322774187299e+02   
1.012800000000000e+10    -1.575533816054266e+01   -1.718006597064939e+02   
1.012900000000000e+10    -1.576732972070959e+01   -1.719104288228553e+02   
1.013000000000000e+10    -1.579785485322354e+01   -1.722020370934671e+02   
1.013100000000000e+10    -1.582213772318186e+01   -1.721857848545204e+02   
1.013200000000000e+10    -1.582759351872336e+01   -1.724375120999107e+02   
1.013300000000000e+10    -1.585371555720613e+01   -1.725184084106428e+02   
1.013400000000000e+10    -1.587408495243379e+01   -1.727717504482974e+02   
1.013500000000000e+10    -1.589956865882582e+01   -1.728980829599917e+02   
1.013600000000000e+10    -1.590729663098942e+01   -1.730922113710836e+02   
1.013700000000000e+10    -1.594330013057619e+01   -1.731382557755841e+02   
1.013800000000000e+10    -1.594784471988097e+01   -1.733798846972553e+02   
1.013900000000000e+10    -1.596938546152688e+01   -1.734639662262547e+02   
1.014000000000000e+10    -1.600658567946926e+01   -1.737224004817961e+02   
1.014100000000000e+10    -1.602328385168830e+01   -1.738411688441512e+02   
1.014200000000000e+10    -1.604545457529032e+01   -1.740529656735752e+02   
1.014300000000000e+10    -1.606053463007024e+01   -1.741220208191274e+02   
1.014400000000000e+10    -1.608660186197806e+01   -1.743840914739694e+02   
1.014500000000000e+10    -1.609777990129298e+01   -1.744302112429229e+02   
1.014600000000000e+10    -1.611804212493842e+01   -1.745701060091293e+02   
1.014700000000000e+10    -1.614141497312588e+01   -1.747587764618584e+02   
1.014800000000000e+10    -1.615539965793183e+01   -1.749697671772588e+02   
1.014900000000000e+10    -1.617761314849707e+01   -1.749563460123148e+02   
1.015000000000000e+10    -1.620506093054951e+01   -1.752689977579550e+02   
1.015100000000000e+10    -1.621884329840129e+01   -1.752680046875601e+02   
1.015200000000000e+10    -1.624647052763505e+01   -1.754575107402865e+02   
1.015300000000000e+10    -1.625019093254166e+01   -1.755740806749243e+02   
1.015400000000000e+10    -1.628912892653103e+01   -1.757951530237316e+02   
1.015500000000000e+10    -1.630902953281788e+01   -1.758754335072668e+02   
1.015600000000000e+10    -1.634474427563850e+01   -1.759622098873713e+02   
1.015700000000000e+10    -1.636150336509151e+01   -1.760429084787488e+02   
1.015800000000000e+10    -1.638381435836498e+01   -1.761386743220987e+02   
1.015900000000000e+10    -1.639271236582641e+01   -1.763071466284640e+02   
1.016000000000000e+10    -1.641826323142495e+01   -1.765204427166546e+02   
1.016100000000000e+10    -1.645255672783789e+01   -1.766509759948234e+02   
1.016200000000000e+10    -1.647566918644637e+01   -1.767831458466540e+02   
1.016300000000000e+10    -1.649768918427039e+01   -1.768354708437383e+02   
1.016400000000000e+10    -1.652707567141270e+01   -1.769676589452959e+02   
1.016500000000000e+10    -1.655201207227926e+01   -1.770201975156894e+02   
1.016600000000000e+10    -1.658823060108682e+01   -1.772175498715187e+02   
1.016700000000000e+10    -1.660495916510013e+01   -1.773677105292115e+02   
1.016800000000000e+10    -1.663261028953673e+01   -1.774025062006990e+02   
1.016900000000000e+10    -1.665910020244841e+01   -1.776634846223965e+02   
1.017000000000000e+10    -1.667721836205966e+01   -1.777277891370564e+02   
1.017100000000000e+10    -1.670843193618206e+01   -1.780231373547893e+02   
1.017200000000000e+10    -1.674895859717081e+01   -1.779879534774061e+02   
1.017300000000000e+10    -1.677962331430100e+01   -1.780948700093031e+02   
1.017400000000000e+10    -1.680155983626860e+01   -1.782001389732428e+02   
1.017500000000000e+10    -1.685444919479858e+01   -1.784519070822274e+02   
1.017600000000000e+10    -1.684643138550768e+01   -1.785094386805671e+02   
1.017700000000000e+10    -1.688831588295817e+01   -1.787168066343386e+02   
1.017800000000000e+10    -1.692471954922390e+01   -1.787703425151447e+02   
1.017900000000000e+10    -1.693727288090635e+01   -1.788659935475960e+02   
1.018000000000000e+10    -1.699736332899560e+01   -1.790929917466676e+02   
1.018100000000000e+10    -1.700908487277470e+01   -1.791949168441538e+02   
1.018200000000000e+10    -1.705585668168778e+01   -1.794460413776570e+02   
1.018300000000000e+10    -1.706794602733675e+01   -1.795585309579776e+02   
1.018400000000000e+10    -1.708900417360435e+01   -1.796522093071710e+02   
1.018500000000000e+10    -1.711907155626913e+01   -1.798859018865624e+02   
1.018600000000000e+10    -1.715280082060194e+01   -1.799772648539098e+02   
1.018700000000000e+10    -1.719383397922141e+01   1.798006055740162e+02    
1.018800000000000e+10    -1.723711825959629e+01   1.797767641348140e+02    
1.018900000000000e+10    -1.726372957567497e+01   1.796732469324675e+02    
1.019000000000000e+10    -1.729025738284475e+01   1.794937657439474e+02    
1.019100000000000e+10    -1.731323153582160e+01   1.793131354166838e+02    
1.019200000000000e+10    -1.732778785046411e+01   1.792464712834340e+02    
1.019300000000000e+10    -1.735537434190363e+01   1.791791284319401e+02    
1.019400000000000e+10    -1.739387319289965e+01   1.789739011462845e+02    
1.019500000000000e+10    -1.742652234591616e+01   1.788989254673480e+02    
1.019600000000000e+10    -1.745431668192829e+01   1.786815945102265e+02    
1.019700000000000e+10    -1.747578692863264e+01   1.786073012767105e+02    
1.019800000000000e+10    -1.749092833845114e+01   1.784284208531476e+02    
1.019900000000000e+10    -1.752950012075215e+01   1.783520837629062e+02    
1.020000000000000e+10    -1.757594667559924e+01   1.781073393699337e+02    
1.020100000000000e+10    -1.758397734877970e+01   1.781714042562062e+02    
1.020200000000000e+10    -1.762553710443323e+01   1.779717998051603e+02    
1.020300000000000e+10    -1.765524392526416e+01   1.780102324473596e+02    
1.020400000000000e+10    -1.769554796891711e+01   1.777814325942219e+02    
1.020500000000000e+10    -1.771551036020792e+01   1.775797576516382e+02    
1.020600000000000e+10    -1.773512536986883e+01   1.775676178753233e+02    
1.020700000000000e+10    -1.774758275925557e+01   1.774240312683406e+02    
1.020800000000000e+10    -1.779453311588001e+01   1.773428244737615e+02    
1.020900000000000e+10    -1.783913407727377e+01   1.770662659424876e+02    
1.021000000000000e+10    -1.786503379699158e+01   1.769757837926859e+02    
1.021100000000000e+10    -1.789242057965227e+01   1.769270030776190e+02    
1.021200000000000e+10    -1.794459285513029e+01   1.767257923888727e+02    
1.021300000000000e+10    -1.796873491341850e+01   1.766310492181060e+02    
1.021400000000000e+10    -1.800780842454888e+01   1.765192060955510e+02    
1.021500000000000e+10    -1.804222621275411e+01   1.765062368780922e+02    
1.021600000000000e+10    -1.806713824069103e+01   1.762960125535280e+02    
1.021700000000000e+10    -1.809640535973547e+01   1.761886708482531e+02    
1.021800000000000e+10    -1.813238857629405e+01   1.761489929804893e+02    
1.021900000000000e+10    -1.818618609303029e+01   1.760311302903948e+02    
1.022000000000000e+10    -1.820827118473742e+01   1.758647104613174e+02    
1.022100000000000e+10    -1.822584227950146e+01   1.757813814313406e+02    
1.022200000000000e+10    -1.830154050475634e+01   1.756243050369776e+02    
1.022300000000000e+10    -1.832509274181709e+01   1.755444582933092e+02    
1.022400000000000e+10    -1.835756722733313e+01   1.753380633564462e+02    
1.022500000000000e+10    -1.839665147719047e+01   1.753751548824798e+02    
1.022600000000000e+10    -1.843578584196013e+01   1.750067759819421e+02    
1.022700000000000e+10    -1.847047124396746e+01   1.749710603395576e+02    
1.022800000000000e+10    -1.850351305225864e+01   1.748602128507208e+02    
1.022900000000000e+10    -1.853507364080153e+01   1.746471289808775e+02    
1.023000000000000e+10    -1.855426343251776e+01   1.746022871810095e+02    
1.023100000000000e+10    -1.858162478461425e+01   1.744631270509158e+02    
1.023200000000000e+10    -1.862759302520954e+01   1.742409982663735e+02    
1.023300000000000e+10    -1.867635515013480e+01   1.741308394413608e+02    
1.023400000000000e+10    -1.869994415488074e+01   1.739591242473258e+02    
1.023500000000000e+10    -1.878178044730129e+01   1.738084143802854e+02    
1.023600000000000e+10    -1.877974439373199e+01   1.738820271726174e+02    
1.023700000000000e+10    -1.882163766379799e+01   1.735658522240004e+02    
1.023800000000000e+10    -1.886380263219318e+01   1.736036887653682e+02    
1.023900000000000e+10    -1.888052067903879e+01   1.732826727730915e+02    
1.024000000000000e+10    -1.895233806268629e+01   1.731981210015687e+02    
1.024100000000000e+10    -1.897240895996678e+01   1.733066547531333e+02    
1.024200000000000e+10    -1.900286979767816e+01   1.730544196775122e+02    
1.024300000000000e+10    -1.905826223421901e+01   1.728850845908291e+02    
1.024400000000000e+10    -1.909091710416088e+01   1.727136472880224e+02    
1.024500000000000e+10    -1.911221609471654e+01   1.727211925876109e+02    
1.024600000000000e+10    -1.914582358423136e+01   1.724878726243816e+02    
1.024700000000000e+10    -1.918432943691401e+01   1.723742501019351e+02    
1.024800000000000e+10    -1.923269151302000e+01   1.723643020971453e+02    
1.024900000000000e+10    -1.927759385317603e+01   1.720079319569247e+02    
1.025000000000000e+10    -1.929790204782854e+01   1.719512705721695e+02    
1.025100000000000e+10    -1.932233492434698e+01   1.720647018686758e+02    
1.025200000000000e+10    -1.936874823463816e+01   1.716910304005981e+02    
1.025300000000000e+10    -1.939292352997800e+01   1.717858881180708e+02    
1.025400000000000e+10    -1.943641191672831e+01   1.716423535191939e+02    
1.025500000000000e+10    -1.949414049593735e+01   1.713837697839059e+02    
1.025600000000000e+10    -1.952235512584650e+01   1.713157321970853e+02    
