[Version] 2.0
! Rohde & Schwarz Vector Network Analyzer
! Rohde-Schwarz,ZNL20-2Port,1323001220200009,1.71.1.10-23.02.1.238
! 
! Port Assignments:
! Nominal Port -> Actual Test Port
! --------------------------------
!   1 -> 1

! Created: GMT 2024-08-27 12:56:48

# Hz S DB R 50

[Number of Ports] 1
[Number of Frequencies] 2001

[Network Data] 
! freq[Hz]               S11[mag dB]              S11[ang]                 
1.000000000000000e+10    -1.379501491179699e+01   -1.455820072972358e+02   
1.000100000000000e+10    -1.381123976213588e+01   -1.457072568861734e+02   
1.000200000000000e+10    -1.381648019020956e+01   -1.457948513385435e+02   
1.000300000000000e+10    -1.383042474480960e+01   -1.460383537973395e+02   
1.000400000000000e+10    -1.383430807364073e+01   -1.462865794934038e+02   
1.000500000000000e+10    -1.383987405506483e+01   -1.464584102532373e+02   
1.000600000000000e+10    -1.385537456830648e+01   -1.466234589136073e+02   
1.000700000000000e+10    -1.386396220851633e+01   -1.467659800247281e+02   
1.000800000000000e+10    -1.387147947167638e+01   -1.469879552315262e+02   
1.000900000000000e+10    -1.388719151685197e+01   -1.472676125789502e+02   
1.001000000000000e+10    -1.389706306631459e+01   -1.473521208219779e+02   
1.001100000000000e+10    -1.390650171349493e+01   -1.475930131262610e+02   
1.001200000000000e+10    -1.390978054167595e+01   -1.477825469673813e+02   
1.001300000000000e+10    -1.393440807959615e+01   -1.480358787192328e+02   
1.001400000000000e+10    -1.393096581079715e+01   -1.482589458972009e+02   
1.001500000000000e+10    -1.394328659574939e+01   -1.484458156231983e+02   
1.001600000000000e+10    -1.394141815034925e+01   -1.486276958886935e+02   
1.001700000000000e+10    -1.396006750210205e+01   -1.489073444881114e+02   
1.001800000000000e+10    -1.396235994599130e+01   -1.491298043427923e+02   
1.001900000000000e+10    -1.397265388094646e+01   -1.493228324588149e+02   
1.002000000000000e+10    -1.398184979222797e+01   -1.496152205939352e+02   
1.002100000000000e+10    -1.398814070502405e+01   -1.498501112262155e+02   
1.002200000000000e+10    -1.399492014151190e+01   -1.500219930248838e+02   
1.002300000000000e+10    -1.399740597448818e+01   -1.502439552690292e+02   
1.002400000000000e+10    -1.399677646991145e+01   -1.504774823329958e+02   
1.002500000000000e+10    -1.402017772206607e+01   -1.506602314346240e+02   
1.002600000000000e+10    -1.402003087477135e+01   -1.510152091650768e+02   
1.002700000000000e+10    -1.402248773610815e+01   -1.512288822776807e+02   
1.002800000000000e+10    -1.403498926804575e+01   -1.513947838604871e+02   
1.002900000000000e+10    -1.403735719370030e+01   -1.515600953116177e+02   
1.003000000000000e+10    -1.405769132275867e+01   -1.517674009822960e+02   
1.003100000000000e+10    -1.404489203114384e+01   -1.520549601016908e+02   
1.003200000000000e+10    -1.405622741402169e+01   -1.523024122478157e+02   
1.003300000000000e+10    -1.404899148700600e+01   -1.525056120161163e+02   
1.003400000000000e+10    -1.405766614115896e+01   -1.526544815719088e+02   
1.003500000000000e+10    -1.407324979304883e+01   -1.529169555013913e+02   
1.003600000000000e+10    -1.406055999533839e+01   -1.530273724459726e+02   
1.003700000000000e+10    -1.407630243367543e+01   -1.533013572539174e+02   
1.003800000000000e+10    -1.407908467762685e+01   -1.535337457361532e+02   
1.003900000000000e+10    -1.409007441117710e+01   -1.537663829051864e+02   
1.004000000000000e+10    -1.408205217181090e+01   -1.540009818792717e+02   
1.004100000000000e+10    -1.409897171207495e+01   -1.541933052442455e+02   
1.004200000000000e+10    -1.409248092747630e+01   -1.543578622053674e+02   
1.004300000000000e+10    -1.410432398505908e+01   -1.545827129077883e+02   
1.004400000000000e+10    -1.411493227847588e+01   -1.548362969663815e+02   
1.004500000000000e+10    -1.411008992585512e+01   -1.549698923438103e+02   
1.004600000000000e+10    -1.412545852459892e+01   -1.551791691926498e+02   
1.004700000000000e+10    -1.413019070081327e+01   -1.554102406890796e+02   
1.004800000000000e+10    -1.413379282518569e+01   -1.555695259971950e+02   
1.004900000000000e+10    -1.413788020865418e+01   -1.557766615892360e+02   
1.005000000000000e+10    -1.414793467524114e+01   -1.560741472314892e+02   
1.005100000000000e+10    -1.413406212305517e+01   -1.561236548232940e+02   
1.005200000000000e+10    -1.415845925127357e+01   -1.562717889926138e+02   
1.005300000000000e+10    -1.416146126530973e+01   -1.565422280994937e+02   
1.005400000000000e+10    -1.416606787392262e+01   -1.567312953752605e+02   
1.005500000000000e+10    -1.417535056436226e+01   -1.569005435396458e+02   
1.005600000000000e+10    -1.419855395381084e+01   -1.571236122859477e+02   
1.005700000000000e+10    -1.419091274500422e+01   -1.572520372435171e+02   
1.005800000000000e+10    -1.419913028517123e+01   -1.574864031064255e+02   
1.005900000000000e+10    -1.421060343058645e+01   -1.577068308510225e+02   
1.006000000000000e+10    -1.421248059252502e+01   -1.578312866085254e+02   
1.006100000000000e+10    -1.423386004800152e+01   -1.579786446988180e+02   
1.006200000000000e+10    -1.424034453522830e+01   -1.581899230506939e+02   
1.006300000000000e+10    -1.425371983144183e+01   -1.583527886735210e+02   
1.006400000000000e+10    -1.425209582818080e+01   -1.585316440306023e+02   
1.006500000000000e+10    -1.426437299488644e+01   -1.587088973380111e+02   
1.006600000000000e+10    -1.428025747703636e+01   -1.588415043002878e+02   
1.006700000000000e+10    -1.428733095951090e+01   -1.591090368667011e+02   
1.006800000000000e+10    -1.429584315546390e+01   -1.592010660376609e+02   
1.006900000000000e+10    -1.431155645127582e+01   -1.593669477906238e+02   
1.007000000000000e+10    -1.431697110913232e+01   -1.595917380298848e+02   
1.007100000000000e+10    -1.432160253967867e+01   -1.597810175309284e+02   
1.007200000000000e+10    -1.434558325012561e+01   -1.599059568710437e+02   
1.007300000000000e+10    -1.435856590699731e+01   -1.601888750454021e+02   
1.007400000000000e+10    -1.436417408022979e+01   -1.602504953388339e+02   
1.007500000000000e+10    -1.439666324842218e+01   -1.604783188732521e+02   
1.007600000000000e+10    -1.441458758412070e+01   -1.606734519576510e+02   
1.007700000000000e+10    -1.441665047984847e+01   -1.607869096129005e+02   
1.007800000000000e+10    -1.443729202265155e+01   -1.609300733887055e+02   
1.007900000000000e+10    -1.444732600064024e+01   -1.611596519045612e+02   
1.008000000000000e+10    -1.448175172076481e+01   -1.613631721102167e+02   
1.008100000000000e+10    -1.449152286767284e+01   -1.614698055141169e+02   
1.008200000000000e+10    -1.450343750730815e+01   -1.615788811363128e+02   
1.008300000000000e+10    -1.452535354447224e+01   -1.618403941077711e+02   
1.008400000000000e+10    -1.455499467202109e+01   -1.620439774710325e+02   
1.008500000000000e+10    -1.456066977326598e+01   -1.621731258262110e+02   
1.008600000000000e+10    -1.458485082303118e+01   -1.623365827538035e+02   
1.008700000000000e+10    -1.460055900577378e+01   -1.625504527831554e+02   
1.008800000000000e+10    -1.462017794576501e+01   -1.627544971213012e+02   
1.008900000000000e+10    -1.465399009660288e+01   -1.629424582304694e+02   
1.009000000000000e+10    -1.467169621463761e+01   -1.631438277760524e+02   
1.009100000000000e+10    -1.470585440701113e+01   -1.632894899230171e+02   
1.009200000000000e+10    -1.472307954388990e+01   -1.635723932842189e+02   
1.009300000000000e+10    -1.472649406911460e+01   -1.637343347307647e+02   
1.009400000000000e+10    -1.476404780819481e+01   -1.639441772496979e+02   
1.009500000000000e+10    -1.478953005334521e+01   -1.640556328721715e+02   
1.009600000000000e+10    -1.480455203328548e+01   -1.642533747373739e+02   
1.009700000000000e+10    -1.483464907607258e+01   -1.644861465224598e+02   
1.009800000000000e+10    -1.484232063057403e+01   -1.646605697546840e+02   
1.009900000000000e+10    -1.488427679817983e+01   -1.647997378433238e+02   
1.010000000000000e+10    -1.489942128419162e+01   -1.651411925478748e+02   
1.010100000000000e+10    -1.492780913247123e+01   -1.652316865706655e+02   
1.010200000000000e+10    -1.494294543674881e+01   -1.654553366408572e+02   
1.010300000000000e+10    -1.497471903239413e+01   -1.656076509519113e+02   
1.010400000000000e+10    -1.498985768519389e+01   -1.658460468244204e+02   
1.010500000000000e+10    -1.500105185769834e+01   -1.661219488213558e+02   
1.010600000000000e+10    -1.503648631231465e+01   -1.662739708725119e+02   
1.010700000000000e+10    -1.505536684045220e+01   -1.664617297438704e+02   
1.010800000000000e+10    -1.506110363686324e+01   -1.667266336315275e+02   
1.010900000000000e+10    -1.508545445345675e+01   -1.669097261443034e+02   
1.011000000000000e+10    -1.510271095227432e+01   -1.671395272414633e+02   
1.011100000000000e+10    -1.513207637968574e+01   -1.673252388613291e+02   
1.011200000000000e+10    -1.514375630565629e+01   -1.676274458548040e+02   
1.011300000000000e+10    -1.518058864942784e+01   -1.677495867752765e+02   
1.011400000000000e+10    -1.518645254739206e+01   -1.678853567525539e+02   
1.011500000000000e+10    -1.521714297778104e+01   -1.681296925832711e+02   
1.011600000000000e+10    -1.523219779277652e+01   -1.684379234416917e+02   
1.011700000000000e+10    -1.526040414176424e+01   -1.684972498106435e+02   
1.011800000000000e+10    -1.528496693160544e+01   -1.688045645279218e+02   
1.011900000000000e+10    -1.529254859514569e+01   -1.689427923789225e+02   
1.012000000000000e+10    -1.531201643034844e+01   -1.690781253636974e+02   
1.012100000000000e+10    -1.533859652509560e+01   -1.693521559959520e+02   
1.012200000000000e+10    -1.535271617227985e+01   -1.694563849952674e+02   
1.012300000000000e+10    -1.536912287038769e+01   -1.697171880889490e+02   
1.012400000000000e+10    -1.539476480295860e+01   -1.697994639270888e+02   
1.012500000000000e+10    -1.542503055139586e+01   -1.699817156377000e+02   
1.012600000000000e+10    -1.544033622584345e+01   -1.701649134266816e+02   
1.012700000000000e+10    -1.545054627816002e+01   -1.703603542179967e+02   
1.012800000000000e+10    -1.547866535476358e+01   -1.705316457681042e+02   
1.012900000000000e+10    -1.549069479454137e+01   -1.706542098215324e+02   
1.013000000000000e+10    -1.551907889883889e+01   -1.709438454249914e+02   
1.013100000000000e+10    -1.554168984181611e+01   -1.709553678167379e+02   
1.013200000000000e+10    -1.554568689980145e+01   -1.711948183805600e+02   
1.013300000000000e+10    -1.557150778352890e+01   -1.712821284060215e+02   
1.013400000000000e+10    -1.559008674076816e+01   -1.715424068153531e+02   
1.013500000000000e+10    -1.561277979080606e+01   -1.716744152445062e+02   
1.013600000000000e+10    -1.562235578539954e+01   -1.718675914679715e+02   
1.013700000000000e+10    -1.565604436204961e+01   -1.719441117474289e+02   
1.013800000000000e+10    -1.566117780391858e+01   -1.721863500601325e+02   
1.013900000000000e+10    -1.567911898753477e+01   -1.722722227469396e+02   
1.014000000000000e+10    -1.571671729820556e+01   -1.725516508615958e+02   
1.014100000000000e+10    -1.573171539510169e+01   -1.726755862816973e+02   
1.014200000000000e+10    -1.575232396353099e+01   -1.728836808707967e+02   
1.014300000000000e+10    -1.576946158720464e+01   -1.729738695031708e+02   
1.014400000000000e+10    -1.579043324024010e+01   -1.732189957997382e+02   
1.014500000000000e+10    -1.580496876889382e+01   -1.732791958551897e+02   
1.014600000000000e+10    -1.582298780620662e+01   -1.734527927564324e+02   
1.014700000000000e+10    -1.584534128886382e+01   -1.736095656268157e+02   
1.014800000000000e+10    -1.586024298438977e+01   -1.738350709082246e+02   
1.014900000000000e+10    -1.588019492038267e+01   -1.738302466567003e+02   
1.015000000000000e+10    -1.590818099507554e+01   -1.741348165324088e+02   
1.015100000000000e+10    -1.592163789484170e+01   -1.741270459867979e+02   
1.015200000000000e+10    -1.594708059459963e+01   -1.743282166607984e+02   
1.015300000000000e+10    -1.594938386432445e+01   -1.744583833441913e+02   
1.015400000000000e+10    -1.598599426270670e+01   -1.747050765917299e+02   
1.015500000000000e+10    -1.600465544970051e+01   -1.747706113412700e+02   
1.015600000000000e+10    -1.603884476745403e+01   -1.748749810327735e+02   
1.015700000000000e+10    -1.605527138218524e+01   -1.749692354749008e+02   
1.015800000000000e+10    -1.607618948995209e+01   -1.750647933630627e+02   
1.015900000000000e+10    -1.608549719014864e+01   -1.752517680049361e+02   
1.016000000000000e+10    -1.610932037988497e+01   -1.754651212670297e+02   
1.016100000000000e+10    -1.614381408231311e+01   -1.756040607204222e+02   
1.016200000000000e+10    -1.616616415416191e+01   -1.757341688668091e+02   
1.016300000000000e+10    -1.618712475935288e+01   -1.757843576396101e+02   
1.016400000000000e+10    -1.621565418014116e+01   -1.759212951330328e+02   
1.016500000000000e+10    -1.623933486639617e+01   -1.760053303816540e+02   
1.016600000000000e+10    -1.627434019293301e+01   -1.761859222670913e+02   
1.016700000000000e+10    -1.629260064971732e+01   -1.763481176054600e+02   
1.016800000000000e+10    -1.631888581222091e+01   -1.763820719990336e+02   
1.016900000000000e+10    -1.634252503699421e+01   -1.766417501238001e+02   
1.017000000000000e+10    -1.636003874665360e+01   -1.767231101963243e+02   
1.017100000000000e+10    -1.639108868959394e+01   -1.769892733679149e+02   
1.017200000000000e+10    -1.643055702274144e+01   -1.769856601202867e+02   
1.017300000000000e+10    -1.645957295267923e+01   -1.770869734664769e+02   
1.017400000000000e+10    -1.648102225652567e+01   -1.772081231794626e+02   
1.017500000000000e+10    -1.653509312454405e+01   -1.774675834341232e+02   
1.017600000000000e+10    -1.652347010370060e+01   -1.775451765691168e+02   
1.017700000000000e+10    -1.656636396505314e+01   -1.777171752004660e+02   
1.017800000000000e+10    -1.660180479646887e+01   -1.777910287453884e+02   
1.017900000000000e+10    -1.661254888133104e+01   -1.778698818603756e+02   
1.018000000000000e+10    -1.667043201889587e+01   -1.781088329484984e+02   
1.018100000000000e+10    -1.667940727906800e+01   -1.782021770449073e+02   
1.018200000000000e+10    -1.672608800865292e+01   -1.784473481328989e+02   
1.018300000000000e+10    -1.673807176448574e+01   -1.785905166736190e+02   
1.018400000000000e+10    -1.675515596822768e+01   -1.786828119617595e+02   
1.018500000000000e+10    -1.678305720824210e+01   -1.789048198222901e+02   
1.018600000000000e+10    -1.681735435108324e+01   -1.790096764582001e+02   
1.018700000000000e+10    -1.685454955787500e+01   -1.792051182803937e+02   
1.018800000000000e+10    -1.689419867142621e+01   -1.792819266610120e+02   
1.018900000000000e+10    -1.692073756381477e+01   -1.793802518502487e+02   
1.019000000000000e+10    -1.694690332771890e+01   -1.795738963730487e+02   
1.019100000000000e+10    -1.697040739110028e+01   -1.797275725109151e+02   
1.019200000000000e+10    -1.698536081178324e+01   -1.798011300472514e+02   
1.019300000000000e+10    -1.701069638672241e+01   -1.798894505695912e+02   
1.019400000000000e+10    -1.704777552582840e+01   1.799146764879376e+02    
1.019500000000000e+10    -1.707925199903522e+01   1.798314183363749e+02    
1.019600000000000e+10    -1.710467980681159e+01   1.796127874638892e+02    
1.019700000000000e+10    -1.712519348181167e+01   1.795170728058453e+02    
1.019800000000000e+10    -1.713787849654895e+01   1.793489025872968e+02    
1.019900000000000e+10    -1.717317931127629e+01   1.792763672433629e+02    
1.020000000000000e+10    -1.721666172099636e+01   1.790195801711422e+02    
1.020100000000000e+10    -1.722490250267478e+01   1.790978799387193e+02    
1.020200000000000e+10    -1.726528823432908e+01   1.788793307375531e+02    
1.020300000000000e+10    -1.729705713371778e+01   1.789077201546949e+02    
1.020400000000000e+10    -1.733328493026070e+01   1.786976523237926e+02    
1.020500000000000e+10    -1.735076052411266e+01   1.785056734149902e+02    
1.020600000000000e+10    -1.736923328488601e+01   1.784666204464242e+02    
1.020700000000000e+10    -1.738225067588766e+01   1.783238660813204e+02    
1.020800000000000e+10    -1.742332142989581e+01   1.782314243490497e+02    
1.020900000000000e+10    -1.746771560691262e+01   1.779661410297132e+02    
1.021000000000000e+10    -1.749087225971265e+01   1.778509690434342e+02    
1.021100000000000e+10    -1.751699527775005e+01   1.778138911514517e+02    
1.021200000000000e+10    -1.756361598895028e+01   1.776271216625488e+02    
1.021300000000000e+10    -1.758496289444721e+01   1.775188320233767e+02    
1.021400000000000e+10    -1.762070043260590e+01   1.774161525357269e+02    
1.021500000000000e+10    -1.765340081990563e+01   1.773729874897808e+02    
1.021600000000000e+10    -1.767473915443904e+01   1.771609188687842e+02    
1.021700000000000e+10    -1.770575044392234e+01   1.770497942158420e+02    
1.021800000000000e+10    -1.773947992299472e+01   1.769930661931505e+02    
1.021900000000000e+10    -1.778796196276505e+01   1.768860493443914e+02    
1.022000000000000e+10    -1.780917332160087e+01   1.767027102384356e+02    
1.022100000000000e+10    -1.782337742330734e+01   1.766187403273942e+02    
1.022200000000000e+10    -1.789596888238656e+01   1.764730892536967e+02    
1.022300000000000e+10    -1.791817881580322e+01   1.763871979767113e+02    
1.022400000000000e+10    -1.794544619257933e+01   1.761763656429336e+02    
1.022500000000000e+10    -1.798171381759510e+01   1.761880839594735e+02    
1.022600000000000e+10    -1.801800198473462e+01   1.758267671996007e+02    
1.022700000000000e+10    -1.804990665180665e+01   1.757751791041801e+02    
1.022800000000000e+10    -1.807895480399307e+01   1.756632973970660e+02    
1.022900000000000e+10    -1.810681048217545e+01   1.754485127934202e+02    
1.023000000000000e+10    -1.812629157030381e+01   1.753903637019434e+02    
1.023100000000000e+10    -1.815205533063797e+01   1.752423732488269e+02    
1.023200000000000e+10    -1.819313806061690e+01   1.750235754854752e+02    
1.023300000000000e+10    -1.823630652336650e+01   1.749167700284171e+02    
1.023400000000000e+10    -1.825835224468720e+01   1.747380981786137e+02    
1.023500000000000e+10    -1.833248832293097e+01   1.746027856964452e+02    
1.023600000000000e+10    -1.833212004689321e+01   1.746497978555432e+02    
1.023700000000000e+10    -1.836901796802981e+01   1.743353565757580e+02    
1.023800000000000e+10    -1.841021186862518e+01   1.743438296543501e+02    
1.023900000000000e+10    -1.842160110575712e+01   1.740157663980210e+02    
1.024000000000000e+10    -1.848825592010920e+01   1.739400401248861e+02    
1.024100000000000e+10    -1.850458745170827e+01   1.740138188285677e+02    
1.024200000000000e+10    -1.853497971548722e+01   1.737560008880552e+02    
1.024300000000000e+10    -1.858865159312228e+01   1.735972011463234e+02    
1.024400000000000e+10    -1.861482592302387e+01   1.733906880359025e+02    
1.024500000000000e+10    -1.863515450901267e+01   1.734074871190688e+02    
1.024600000000000e+10    -1.866696003755389e+01   1.731482428278079e+02    
1.024700000000000e+10    -1.870026965382244e+01   1.730405301615512e+02    
1.024800000000000e+10    -1.874864131645631e+01   1.730356916274129e+02    
1.024900000000000e+10    -1.878847912618270e+01   1.726726458904600e+02    
1.025000000000000e+10    -1.880440601787475e+01   1.726048080172646e+02    
1.025100000000000e+10    -1.882640128220842e+01   1.727022815591084e+02    
1.025200000000000e+10    -1.886853732915229e+01   1.723313603462767e+02    
1.025300000000000e+10    -1.888897653924925e+01   1.724006931725403e+02    
1.025400000000000e+10    -1.893029485156153e+01   1.722362760513099e+02    
1.025500000000000e+10    -1.898598776680195e+01   1.719887258623313e+02    
1.025600000000000e+10    -1.901048937874478e+01   1.718984844430017e+02    
