[Version] 2.0
! Rohde & Schwarz Vector Network Analyzer
! Rohde-Schwarz,ZNL20-2Port,1323001220200009,1.71.1.10-23.02.1.238
! 
! Port Assignments:
! Nominal Port -> Actual Test Port
! --------------------------------
!   1 -> 1

! Created: GMT 2024-08-27 12:47:08

# Hz S DB R 50

[Number of Ports] 1
[Number of Frequencies] 2001

[Network Data] 
! freq[Hz]               S11[mag dB]              S11[ang]                 
1.000000000000000e+10    -1.637531643673674e+01   -1.603525717008192e+02   
1.000100000000000e+10    -1.641255365529302e+01   -1.604642270391601e+02   
1.000200000000000e+10    -1.644311957669236e+01   -1.605049150689081e+02   
1.000300000000000e+10    -1.647338151676571e+01   -1.607581140408571e+02   
1.000400000000000e+10    -1.649162281004815e+01   -1.609891732924785e+02   
1.000500000000000e+10    -1.650958684213423e+01   -1.611307775749684e+02   
1.000600000000000e+10    -1.654917869322451e+01   -1.612934615224676e+02   
1.000700000000000e+10    -1.657555766812803e+01   -1.613986097405770e+02   
1.000800000000000e+10    -1.660460140594958e+01   -1.616225224327748e+02   
1.000900000000000e+10    -1.663409437226239e+01   -1.619301501023174e+02   
1.001000000000000e+10    -1.666846314873337e+01   -1.619756982264233e+02   
1.001100000000000e+10    -1.669433647933604e+01   -1.622191396541166e+02   
1.001200000000000e+10    -1.671456726730821e+01   -1.623706636175620e+02   
1.001300000000000e+10    -1.676042873837149e+01   -1.626617873324038e+02   
1.001400000000000e+10    -1.677078185705689e+01   -1.628657709347348e+02   
1.001500000000000e+10    -1.680419996277401e+01   -1.630302476374692e+02   
1.001600000000000e+10    -1.682138406877768e+01   -1.631598418225612e+02   
1.001700000000000e+10    -1.685522282679509e+01   -1.634847232111951e+02   
1.001800000000000e+10    -1.687493561694661e+01   -1.636709312464332e+02   
1.001900000000000e+10    -1.690453211188484e+01   -1.638402087587585e+02   
1.002000000000000e+10    -1.692982091210565e+01   -1.641288547923591e+02   
1.002100000000000e+10    -1.695275652517786e+01   -1.643296941031635e+02   
1.002200000000000e+10    -1.698163005759782e+01   -1.644441214596622e+02   
1.002300000000000e+10    -1.699663672833633e+01   -1.646276338366052e+02   
1.002400000000000e+10    -1.701188279002129e+01   -1.648155761054246e+02   
1.002500000000000e+10    -1.706099197403862e+01   -1.649853377165194e+02   
1.002600000000000e+10    -1.706935069977689e+01   -1.653481497194705e+02   
1.002700000000000e+10    -1.708758045894319e+01   -1.655424762912574e+02   
1.002800000000000e+10    -1.712269886707169e+01   -1.656585102197938e+02   
1.002900000000000e+10    -1.714544745203784e+01   -1.657711595825601e+02   
1.003000000000000e+10    -1.719195220214751e+01   -1.659694861406079e+02   
1.003100000000000e+10    -1.718255403237943e+01   -1.661977293406266e+02   
1.003200000000000e+10    -1.721484205331895e+01   -1.664165238880279e+02   
1.003300000000000e+10    -1.722389260633976e+01   -1.665311125573769e+02   
1.003400000000000e+10    -1.725382039280745e+01   -1.666315150148602e+02   
1.003500000000000e+10    -1.729219289590290e+01   -1.668844419157706e+02   
1.003600000000000e+10    -1.729660030285905e+01   -1.668501526224682e+02   
1.003700000000000e+10    -1.733338193563840e+01   -1.671446679830729e+02   
1.003800000000000e+10    -1.735670803721250e+01   -1.673384076279909e+02   
1.003900000000000e+10    -1.738992245230175e+01   -1.675510096933886e+02   
1.004000000000000e+10    -1.739166535193355e+01   -1.676772064043655e+02   
1.004100000000000e+10    -1.743230062512428e+01   -1.678503962992093e+02   
1.004200000000000e+10    -1.744319448726825e+01   -1.678906767311842e+02   
1.004300000000000e+10    -1.747887305857436e+01   -1.680863407010630e+02   
1.004400000000000e+10    -1.750740951368233e+01   -1.682810999090902e+02   
1.004500000000000e+10    -1.752080351149119e+01   -1.682973990574230e+02   
1.004600000000000e+10    -1.756057591774355e+01   -1.684449897997880e+02   
1.004700000000000e+10    -1.758316404498713e+01   -1.686138547858723e+02   
1.004800000000000e+10    -1.760567044747046e+01   -1.686809269740560e+02   
1.004900000000000e+10    -1.762782783451163e+01   -1.687970206906046e+02   
1.005000000000000e+10    -1.765745497887666e+01   -1.690655427943551e+02   
1.005100000000000e+10    -1.765102391770827e+01   -1.689793545192307e+02   
1.005200000000000e+10    -1.771031038493232e+01   -1.690201499751381e+02   
1.005300000000000e+10    -1.773336664329076e+01   -1.692355924217249e+02   
1.005400000000000e+10    -1.775443138138527e+01   -1.693358075494108e+02   
1.005500000000000e+10    -1.778939247558559e+01   -1.693994707791212e+02   
1.005600000000000e+10    -1.783560053247074e+01   -1.695612195462823e+02   
1.005700000000000e+10    -1.784747809461901e+01   -1.695358077565496e+02   
1.005800000000000e+10    -1.787188475362984e+01   -1.696824885055552e+02   
1.005900000000000e+10    -1.789807786220408e+01   -1.698231792872988e+02   
1.006000000000000e+10    -1.792302004883705e+01   -1.698073150623935e+02   
1.006100000000000e+10    -1.797240214861578e+01   -1.698549337545364e+02   
1.006200000000000e+10    -1.799807133556756e+01   -1.699717034882875e+02   
1.006300000000000e+10    -1.803552364498653e+01   -1.700302536157371e+02   
1.006400000000000e+10    -1.804728618209448e+01   -1.700580656924753e+02   
1.006500000000000e+10    -1.808480899404995e+01   -1.701723229681637e+02   
1.006600000000000e+10    -1.812618382636867e+01   -1.701838775397841e+02   
1.006700000000000e+10    -1.815013885527780e+01   -1.703776710067038e+02   
1.006800000000000e+10    -1.818352593187330e+01   -1.702750053370974e+02   
1.006900000000000e+10    -1.823018887988697e+01   -1.703192429270996e+02   
1.007000000000000e+10    -1.825191419711605e+01   -1.704220537675319e+02   
1.007100000000000e+10    -1.827421351529889e+01   -1.704942409854019e+02   
1.007200000000000e+10    -1.832711300554358e+01   -1.704532768285578e+02   
1.007300000000000e+10    -1.835651682122482e+01   -1.706924506350988e+02   
1.007400000000000e+10    -1.838950393171190e+01   -1.705331815497011e+02   
1.007500000000000e+10    -1.844935088510969e+01   -1.706825306943716e+02   
1.007600000000000e+10    -1.849632368980102e+01   -1.707949363073254e+02   
1.007700000000000e+10    -1.851832241313306e+01   -1.707318144792867e+02   
1.007800000000000e+10    -1.856771494496693e+01   -1.706842776187762e+02   
1.007900000000000e+10    -1.859561579104256e+01   -1.708399085620776e+02   
1.008000000000000e+10    -1.867038197774242e+01   -1.709386943311260e+02   
1.008100000000000e+10    -1.869662216004085e+01   -1.708159963897393e+02   
1.008200000000000e+10    -1.873013868460943e+01   -1.707171733200913e+02   
1.008300000000000e+10    -1.877474951128102e+01   -1.708990548266617e+02   
1.008400000000000e+10    -1.883922180390144e+01   -1.710179103867526e+02   
1.008500000000000e+10    -1.885863670768057e+01   -1.709939359880447e+02   
1.008600000000000e+10    -1.890738647630160e+01   -1.709761775366970e+02   
1.008700000000000e+10    -1.894380786885374e+01   -1.710638749475547e+02   
1.008800000000000e+10    -1.898558790781642e+01   -1.711359807039658e+02   
1.008900000000000e+10    -1.905655469635717e+01   -1.712176029479489e+02   
1.009000000000000e+10    -1.909463397791814e+01   -1.712841176391441e+02   
1.009100000000000e+10    -1.916752880770001e+01   -1.712440876624039e+02   
1.009200000000000e+10    -1.920182623085878e+01   -1.714662048933288e+02   
1.009300000000000e+10    -1.921767932340274e+01   -1.714570522109741e+02   
1.009400000000000e+10    -1.928544221613986e+01   -1.715298604670347e+02   
1.009500000000000e+10    -1.934266032336768e+01   -1.714514760745158e+02   
1.009600000000000e+10    -1.937342274043541e+01   -1.714772975773411e+02   
1.009700000000000e+10    -1.942714678218044e+01   -1.716226432198837e+02   
1.009800000000000e+10    -1.945221521394044e+01   -1.716420815503948e+02   
1.009900000000000e+10    -1.953108620257784e+01   -1.716048000948086e+02   
1.010000000000000e+10    -1.956363669483098e+01   -1.718909730078863e+02   
1.010100000000000e+10    -1.961697279412851e+01   -1.718731744548111e+02   
1.010200000000000e+10    -1.964883882781493e+01   -1.719099716069131e+02   
1.010300000000000e+10    -1.972014697358642e+01   -1.718900140702063e+02   
1.010400000000000e+10    -1.975350946060210e+01   -1.720137413603303e+02   
1.010500000000000e+10    -1.977420459323502e+01   -1.722083857791757e+02   
1.010600000000000e+10    -1.984998611049484e+01   -1.721900986384418e+02   
1.010700000000000e+10    -1.988939458493092e+01   -1.722160444373372e+02   
1.010800000000000e+10    -1.990284948438224e+01   -1.723557194685758e+02   
1.010900000000000e+10    -1.995825495930676e+01   -1.723722869285484e+02   
1.011000000000000e+10    -1.999468438080183e+01   -1.724700111545542e+02   
1.011100000000000e+10    -2.005655869392136e+01   -1.725433002124244e+02   
1.011200000000000e+10    -2.008404061815882e+01   -1.727500455909578e+02   
1.011300000000000e+10    -2.015694844050723e+01   -1.726991083408249e+02   
1.011400000000000e+10    -2.017848780872782e+01   -1.725810074873923e+02   
1.011500000000000e+10    -2.024162672710721e+01   -1.727241398065206e+02   
1.011600000000000e+10    -2.027275294503345e+01   -1.729539067376133e+02   
1.011700000000000e+10    -2.032431339207646e+01   -1.727053144659282e+02   
1.011800000000000e+10    -2.037429303865701e+01   -1.729624787861366e+02   
1.011900000000000e+10    -2.039060128816777e+01   -1.728882670036852e+02   
1.012000000000000e+10    -2.043331143577295e+01   -1.728101016477987e+02   
1.012100000000000e+10    -2.048612040398876e+01   -1.730231113425737e+02   
1.012200000000000e+10    -2.051686335867733e+01   -1.728830806904362e+02   
1.012300000000000e+10    -2.055066837645021e+01   -1.730333622792637e+02   
1.012400000000000e+10    -2.060487810043163e+01   -1.728556682530567e+02   
1.012500000000000e+10    -2.066271277611535e+01   -1.728635617416861e+02   
1.012600000000000e+10    -2.069576141565609e+01   -1.728913449028709e+02   
1.012700000000000e+10    -2.071828503911036e+01   -1.729575531532048e+02   
1.012800000000000e+10    -2.077370858531305e+01   -1.729394234262640e+02   
1.012900000000000e+10    -2.080202781190764e+01   -1.728379868684258e+02   
1.013000000000000e+10    -2.085712190046056e+01   -1.730721322560580e+02   
1.013100000000000e+10    -2.090622738564720e+01   -1.727235116375392e+02   
1.013200000000000e+10    -2.091172457575412e+01   -1.728515040133448e+02   
1.013300000000000e+10    -2.096774675074392e+01   -1.726807714864002e+02   
1.013400000000000e+10    -2.100515467508841e+01   -1.728287912216610e+02   
1.013500000000000e+10    -2.104999784069275e+01   -1.727290795500787e+02   
1.013600000000000e+10    -2.107294385209649e+01   -1.727717222195186e+02   
1.013700000000000e+10    -2.113826390949894e+01   -1.725214260657096e+02   
1.013800000000000e+10    -2.114694748954398e+01   -1.726650514053795e+02   
1.013900000000000e+10    -2.118234483833263e+01   -1.724752247707586e+02   
1.014000000000000e+10    -2.125400290862153e+01   -1.726380614557316e+02   
1.014100000000000e+10    -2.128851081332119e+01   -1.725408206171983e+02   
1.014200000000000e+10    -2.133353248849995e+01   -1.725790543834766e+02   
1.014300000000000e+10    -2.136408297687687e+01   -1.723443371214855e+02   
1.014400000000000e+10    -2.141036651729383e+01   -1.725007853874561e+02   
1.014500000000000e+10    -2.143434496416239e+01   -1.722468750658514e+02   
1.014600000000000e+10    -2.147161872808015e+01   -1.721781555587667e+02   
1.014700000000000e+10    -2.152152981813724e+01   -1.721244967251612e+02   
1.014800000000000e+10    -2.155083124847310e+01   -1.721895129329835e+02   
1.014900000000000e+10    -2.159200222986436e+01   -1.717876699913040e+02   
1.015000000000000e+10    -2.164708723331423e+01   -1.719225008449531e+02   
1.015100000000000e+10    -2.167168645630836e+01   -1.716580140486421e+02   
1.015200000000000e+10    -2.172492932412105e+01   -1.715821500155855e+02   
1.015300000000000e+10    -2.172364862330868e+01   -1.714624327823045e+02   
1.015400000000000e+10    -2.180254424002901e+01   -1.715142115727342e+02   
1.015500000000000e+10    -2.183836249972251e+01   -1.712765136024481e+02   
1.015600000000000e+10    -2.190814708083903e+01   -1.709919628921751e+02   
1.015700000000000e+10    -2.193257892883130e+01   -1.708032925103233e+02   
1.015800000000000e+10    -2.196611163140654e+01   -1.705383188166344e+02   
1.015900000000000e+10    -2.197839140613835e+01   -1.705273135073188e+02   
1.016000000000000e+10    -2.203240403708108e+01   -1.705783400138195e+02   
1.016100000000000e+10    -2.209900487686518e+01   -1.704151385906376e+02   
1.016200000000000e+10    -2.214170678930709e+01   -1.702553855230480e+02   
1.016300000000000e+10    -2.217230511297532e+01   -1.699285930460759e+02   
1.016400000000000e+10    -2.223135416229533e+01   -1.697145831538419e+02   
1.016500000000000e+10    -2.227148529097972e+01   -1.694186977806007e+02   
1.016600000000000e+10    -2.232927275311820e+01   -1.693216493955500e+02   
1.016700000000000e+10    -2.236110838299449e+01   -1.692361930253701e+02   
1.016800000000000e+10    -2.240649384922355e+01   -1.688428163978567e+02   
1.016900000000000e+10    -2.245598250423375e+01   -1.688972748945252e+02   
1.017000000000000e+10    -2.248025775672336e+01   -1.686240944210614e+02   
1.017100000000000e+10    -2.253991117853314e+01   -1.686717188490007e+02   
1.017200000000000e+10    -2.259504147258721e+01   -1.681030102443821e+02   
1.017300000000000e+10    -2.264035166094851e+01   -1.678341568791415e+02   
1.017400000000000e+10    -2.266936761162216e+01   -1.676049276958854e+02   
1.017500000000000e+10    -2.276990349701826e+01   -1.675897027470797e+02   
1.017600000000000e+10    -2.272826696529345e+01   -1.673398139296926e+02   
1.017700000000000e+10    -2.280842992611248e+01   -1.672058850359784e+02   
1.017800000000000e+10    -2.286233544413875e+01   -1.668159542829850e+02   
1.017900000000000e+10    -2.287331613945424e+01   -1.665957353593521e+02   
1.018000000000000e+10    -2.299029770306981e+01   -1.664816670105205e+02   
1.018100000000000e+10    -2.299663153800065e+01   -1.662008787843602e+02   
1.018200000000000e+10    -2.308369446111965e+01   -1.661363555140234e+02   
1.018300000000000e+10    -2.309799949627765e+01   -1.659630436139142e+02   
1.018400000000000e+10    -2.311574078222586e+01   -1.656072022352625e+02   
1.018500000000000e+10    -2.317299639655612e+01   -1.655815074353143e+02   
1.018600000000000e+10    -2.321114772697943e+01   -1.651744917321963e+02   
1.018700000000000e+10    -2.328292592189379e+01   -1.650443124634728e+02   
1.018800000000000e+10    -2.333521285718798e+01   -1.645585306376244e+02   
1.018900000000000e+10    -2.336105019858230e+01   -1.642320140696727e+02   
1.019000000000000e+10    -2.339846274842139e+01   -1.640641483322007e+02   
1.019100000000000e+10    -2.343192791171634e+01   -1.639380505904295e+02   
1.019200000000000e+10    -2.343784537574993e+01   -1.636858747260806e+02   
1.019300000000000e+10    -2.347149081681269e+01   -1.632568804491328e+02   
1.019400000000000e+10    -2.353259240031826e+01   -1.631515759441069e+02   
1.019500000000000e+10    -2.357242370638160e+01   -1.627265379031464e+02   
1.019600000000000e+10    -2.361827207732554e+01   -1.626381539371493e+02   
1.019700000000000e+10    -2.363906177307100e+01   -1.622744573101510e+02   
1.019800000000000e+10    -2.365010992443740e+01   -1.621412316345908e+02   
1.019900000000000e+10    -2.369498294486536e+01   -1.616728358297586e+02   
1.020000000000000e+10    -2.376966613207502e+01   -1.615306827499031e+02   
1.020100000000000e+10    -2.375804315569356e+01   -1.610820363341451e+02   
1.020200000000000e+10    -2.381593955672357e+01   -1.607672705852218e+02   
1.020300000000000e+10    -2.383629812246014e+01   -1.601509056407530e+02   
1.020400000000000e+10    -2.389405527400829e+01   -1.599862167881022e+02   
1.020500000000000e+10    -2.391654101698025e+01   -1.598737577959373e+02   
1.020600000000000e+10    -2.391345420581540e+01   -1.594362257278738e+02   
1.020700000000000e+10    -2.392552088235198e+01   -1.592473827891882e+02   
1.020800000000000e+10    -2.397610023335816e+01   -1.587986860854596e+02   
1.020900000000000e+10    -2.405774478070730e+01   -1.586246631006972e+02   
1.021000000000000e+10    -2.407631301714515e+01   -1.582553142816880e+02   
1.021100000000000e+10    -2.408844807816305e+01   -1.577828286266827e+02   
1.021200000000000e+10    -2.416907393294143e+01   -1.574199717803803e+02   
1.021300000000000e+10    -2.417130566543614e+01   -1.570891034911403e+02   
1.021400000000000e+10    -2.420554955842807e+01   -1.566536364605907e+02   
1.021500000000000e+10    -2.421681321365204e+01   -1.561539562855511e+02   
1.021600000000000e+10    -2.424012743873319e+01   -1.559864202647939e+02   
1.021700000000000e+10    -2.425517720678197e+01   -1.556013052816045e+02   
1.021800000000000e+10    -2.428326810268707e+01   -1.551384995857164e+02   
1.021900000000000e+10    -2.434011545934673e+01   -1.545877807234333e+02   
1.022000000000000e+10    -2.435366497499700e+01   -1.544086767254374e+02   
1.022100000000000e+10    -2.434030888374466e+01   -1.540806571855219e+02   
1.022200000000000e+10    -2.443930978053860e+01   -1.534131368095821e+02   
1.022300000000000e+10    -2.444011352332964e+01   -1.530902705165359e+02   
1.022400000000000e+10    -2.447347996975764e+01   -1.528409267625429e+02   
1.022500000000000e+10    -2.446878478345747e+01   -1.522093377825350e+02   
1.022600000000000e+10    -2.454296777128080e+01   -1.522259877914391e+02   
1.022700000000000e+10    -2.454804163018989e+01   -1.516541270817522e+02   
1.022800000000000e+10    -2.456286772205594e+01   -1.512888025584422e+02   
1.022900000000000e+10    -2.459650033693217e+01   -1.510583705412548e+02   
1.023000000000000e+10    -2.457404428118698e+01   -1.506453432906049e+02   
1.023100000000000e+10    -2.458036123176570e+01   -1.502807135861250e+02   
1.023200000000000e+10    -2.463285603485198e+01   -1.499997209215467e+02   
1.023300000000000e+10    -2.465598545629117e+01   -1.494246701638756e+02   
1.023400000000000e+10    -2.466689483071027e+01   -1.491449313864584e+02   
1.023500000000000e+10    -2.474674660723173e+01   -1.484354552075071e+02   
1.023600000000000e+10    -2.465590984454525e+01   -1.480888400153579e+02   
1.023700000000000e+10    -2.471314778292728e+01   -1.479823035857577e+02   
1.023800000000000e+10    -2.469553667493442e+01   -1.473014743061863e+02   
1.023900000000000e+10    -2.472477612448931e+01   -1.473653228061333e+02   
1.024000000000000e+10    -2.477319833308232e+01   -1.466148588356590e+02   
1.024100000000000e+10    -2.470092862789372e+01   -1.460643596216360e+02   
1.024200000000000e+10    -2.473227190540526e+01   -1.458638874514963e+02   
1.024300000000000e+10    -2.476471087644736e+01   -1.453589850531905e+02   
1.024400000000000e+10    -2.477762500084463e+01   -1.451227128473985e+02   
1.024500000000000e+10    -2.473087378688558e+01   -1.447162502581532e+02   
1.024600000000000e+10    -2.475416160844335e+01   -1.445155345483983e+02   
1.024700000000000e+10    -2.475521536623722e+01   -1.440862738083108e+02   
1.024800000000000e+10    -2.475194932329693e+01   -1.435089694189774e+02   
1.024900000000000e+10    -2.481591455533904e+01   -1.433224259033753e+02   
1.025000000000000e+10    -2.476433095374365e+01   -1.430366405284952e+02   
1.025100000000000e+10    -2.472959746457864e+01   -1.424810656206483e+02   
1.025200000000000e+10    -2.477242151111368e+01   -1.423028997070632e+02   
1.025300000000000e+10    -2.471051606329234e+01   -1.417943652995433e+02   
1.025400000000000e+10    -2.471850379482544e+01   -1.413874945355640e+02   
1.025500000000000e+10    -2.476880272251085e+01   -1.409766423035329e+02   
1.025600000000000e+10    -2.474070857025991e+01   -1.406628082616155e+02   
