[Version] 2.0
! Rohde & Schwarz Vector Network Analyzer
! Rohde-Schwarz,ZNL20-2Port,1323001220200009,1.71.1.10-23.02.1.238
! 
! Port Assignments:
! Nominal Port -> Actual Test Port
! --------------------------------
!   1 -> 1

! Created: GMT 2024-08-27 12:47:36

# Hz S DB R 50

[Number of Ports] 1
[Number of Frequencies] 2001

[Network Data] 
! freq[Hz]               S11[mag dB]              S11[ang]                 
1.000000000000000e+10    -1.613846104145955e+01   -1.596991113706904e+02   
1.000100000000000e+10    -1.617357304163505e+01   -1.598085560550668e+02   
1.000200000000000e+10    -1.620101650510941e+01   -1.598523577485293e+02   
1.000300000000000e+10    -1.623024168192362e+01   -1.601160776269037e+02   
1.000400000000000e+10    -1.624503996882720e+01   -1.603493917936809e+02   
1.000500000000000e+10    -1.626540392848210e+01   -1.605068498341179e+02   
1.000600000000000e+10    -1.630080459614465e+01   -1.606636794164788e+02   
1.000700000000000e+10    -1.632522445581443e+01   -1.607857032638597e+02   
1.000800000000000e+10    -1.635081680771825e+01   -1.609985818099569e+02   
1.000900000000000e+10    -1.637910594261055e+01   -1.613071643056543e+02   
1.001000000000000e+10    -1.641105502737922e+01   -1.613515222193302e+02   
1.001100000000000e+10    -1.643648627797319e+01   -1.616032029550326e+02   
1.001200000000000e+10    -1.645308206784931e+01   -1.617610049026055e+02   
1.001300000000000e+10    -1.649568517208866e+01   -1.620698484766424e+02   
1.001400000000000e+10    -1.650672311339706e+01   -1.622700085355997e+02   
1.001500000000000e+10    -1.653625641862294e+01   -1.624503585986078e+02   
1.001600000000000e+10    -1.655254612483916e+01   -1.625819093811011e+02   
1.001700000000000e+10    -1.658438117865634e+01   -1.628979744226206e+02   
1.001800000000000e+10    -1.660247852041357e+01   -1.631002762200095e+02   
1.001900000000000e+10    -1.663244125327827e+01   -1.632767137243880e+02   
1.002000000000000e+10    -1.665385867742246e+01   -1.635663298775002e+02   
1.002100000000000e+10    -1.667676470490958e+01   -1.637825351691895e+02   
1.002200000000000e+10    -1.670436522095657e+01   -1.639080222078503e+02   
1.002300000000000e+10    -1.671714926035416e+01   -1.641070157963979e+02   
1.002400000000000e+10    -1.673070507497437e+01   -1.642957535084967e+02   
1.002500000000000e+10    -1.677847520914042e+01   -1.644907678095335e+02   
1.002600000000000e+10    -1.678531055191918e+01   -1.648403728761086e+02   
1.002700000000000e+10    -1.680139089482014e+01   -1.650497598301539e+02   
1.002800000000000e+10    -1.683636901084223e+01   -1.651646433291329e+02   
1.002900000000000e+10    -1.685398168297357e+01   -1.652960057452599e+02   
1.003000000000000e+10    -1.689937639535995e+01   -1.654980341480425e+02   
1.003100000000000e+10    -1.689024881816008e+01   -1.657267537923363e+02   
1.003200000000000e+10    -1.692040472205233e+01   -1.659782621865718e+02   
1.003300000000000e+10    -1.692695704067890e+01   -1.661040390427781e+02   
1.003400000000000e+10    -1.695599811778076e+01   -1.662030592432997e+02   
1.003500000000000e+10    -1.699481064213298e+01   -1.664740837415688e+02   
1.003600000000000e+10    -1.699910664723888e+01   -1.664493149084203e+02   
1.003700000000000e+10    -1.703433538745891e+01   -1.667520426420511e+02   
1.003800000000000e+10    -1.705651464193941e+01   -1.669532404154770e+02   
1.003900000000000e+10    -1.708826732538465e+01   -1.671560213980097e+02   
1.004000000000000e+10    -1.708875836693652e+01   -1.673005840624734e+02   
1.004100000000000e+10    -1.713085870977517e+01   -1.674739567020142e+02   
1.004200000000000e+10    -1.714000609077710e+01   -1.675480203132247e+02   
1.004300000000000e+10    -1.717057719842039e+01   -1.677251648698177e+02   
1.004400000000000e+10    -1.719824761186169e+01   -1.679620727377152e+02   
1.004500000000000e+10    -1.721304224585190e+01   -1.679679670390272e+02   
1.004600000000000e+10    -1.725061454239733e+01   -1.681282274586665e+02   
1.004700000000000e+10    -1.727392064764496e+01   -1.682957115106749e+02   
1.004800000000000e+10    -1.729365418611258e+01   -1.683949410585774e+02   
1.004900000000000e+10    -1.731544403654154e+01   -1.685122438969423e+02   
1.005000000000000e+10    -1.734309247684390e+01   -1.687966660342629e+02   
1.005100000000000e+10    -1.733663597563942e+01   -1.687100708765043e+02   
1.005200000000000e+10    -1.739417447947346e+01   -1.687719854714316e+02   
1.005300000000000e+10    -1.741249383223744e+01   -1.689870916888647e+02   
1.005400000000000e+10    -1.743422238320805e+01   -1.691115836842786e+02   
1.005500000000000e+10    -1.746759847635718e+01   -1.691638259155351e+02   
1.005600000000000e+10    -1.751227720771562e+01   -1.693357786734565e+02   
1.005700000000000e+10    -1.752195911856483e+01   -1.693354976729395e+02   
1.005800000000000e+10    -1.754427740708114e+01   -1.694954772907053e+02   
1.005900000000000e+10    -1.756941083342224e+01   -1.696615014371384e+02   
1.006000000000000e+10    -1.759371706904580e+01   -1.696322918756944e+02   
1.006100000000000e+10    -1.763802269255313e+01   -1.697002608601666e+02   
1.006200000000000e+10    -1.766262501344986e+01   -1.698272253586084e+02   
1.006300000000000e+10    -1.769878509081650e+01   -1.699214804785810e+02   
1.006400000000000e+10    -1.771081758487708e+01   -1.699707909517006e+02   
1.006500000000000e+10    -1.774481006064140e+01   -1.700592305845764e+02   
1.006600000000000e+10    -1.778486467642286e+01   -1.700809447598923e+02   
1.006700000000000e+10    -1.780773014074947e+01   -1.703058260856344e+02   
1.006800000000000e+10    -1.784027496549091e+01   -1.702356253313636e+02   
1.006900000000000e+10    -1.787948749571459e+01   -1.703034115386409e+02   
1.007000000000000e+10    -1.790674472140178e+01   -1.704172746702499e+02   
1.007100000000000e+10    -1.792631377886677e+01   -1.704888374786539e+02   
1.007200000000000e+10    -1.797863437054034e+01   -1.704823015806501e+02   
1.007300000000000e+10    -1.800481348657499e+01   -1.707209142189488e+02   
1.007400000000000e+10    -1.803695002360488e+01   -1.706046368259107e+02   
1.007500000000000e+10    -1.809432247703969e+01   -1.707570958055947e+02   
1.007600000000000e+10    -1.813743976344852e+01   -1.708799261745631e+02   
1.007700000000000e+10    -1.815688312943754e+01   -1.708268159517326e+02   
1.007800000000000e+10    -1.820434487629667e+01   -1.707947654216547e+02   
1.007900000000000e+10    -1.823338989530844e+01   -1.709551766946254e+02   
1.008000000000000e+10    -1.830365567947868e+01   -1.710689378756891e+02   
1.008100000000000e+10    -1.832834287361024e+01   -1.709644804205156e+02   
1.008200000000000e+10    -1.836180767232268e+01   -1.709064597500290e+02   
1.008300000000000e+10    -1.840585050844214e+01   -1.711036048340363e+02   
1.008400000000000e+10    -1.846197888206219e+01   -1.712253914760017e+02   
1.008500000000000e+10    -1.848176601937770e+01   -1.712089132366851e+02   
1.008600000000000e+10    -1.852816809504145e+01   -1.712276460138284e+02   
1.008700000000000e+10    -1.856690466426107e+01   -1.713308021449155e+02   
1.008800000000000e+10    -1.860550323102509e+01   -1.714254903873812e+02   
1.008900000000000e+10    -1.867074322739088e+01   -1.715180760025619e+02   
1.009000000000000e+10    -1.870778209555557e+01   -1.716081787929703e+02   
1.009100000000000e+10    -1.877557814971829e+01   -1.716157260748932e+02   
1.009200000000000e+10    -1.880467781495441e+01   -1.718423932759930e+02   
1.009300000000000e+10    -1.882439166084528e+01   -1.718331747012706e+02   
1.009400000000000e+10    -1.888876274121610e+01   -1.719597428687725e+02   
1.009500000000000e+10    -1.894083342454451e+01   -1.719002377204190e+02   
1.009600000000000e+10    -1.896964197623835e+01   -1.719327029840393e+02   
1.009700000000000e+10    -1.902393050079062e+01   -1.721026541937454e+02   
1.009800000000000e+10    -1.904560854641402e+01   -1.721312420402828e+02   
1.009900000000000e+10    -1.912520866012565e+01   -1.721323880621056e+02   
1.010000000000000e+10    -1.915298584004553e+01   -1.724316414824642e+02   
1.010100000000000e+10    -1.920328660067557e+01   -1.724291255911599e+02   
1.010200000000000e+10    -1.923590197510817e+01   -1.724751608940541e+02   
1.010300000000000e+10    -1.930201064963232e+01   -1.725035245156921e+02   
1.010400000000000e+10    -1.933123521672492e+01   -1.726574137143840e+02   
1.010500000000000e+10    -1.935096402230090e+01   -1.728563550200909e+02   
1.010600000000000e+10    -1.942434048011896e+01   -1.728793633966291e+02   
1.010700000000000e+10    -1.946239879801152e+01   -1.729380176713297e+02   
1.010800000000000e+10    -1.947351238437918e+01   -1.731020014488764e+02   
1.010900000000000e+10    -1.952771862605109e+01   -1.731465268621046e+02   
1.011000000000000e+10    -1.956494569123151e+01   -1.732799740017865e+02   
1.011100000000000e+10    -1.962146555633652e+01   -1.733520836250025e+02   
1.011200000000000e+10    -1.965115529633952e+01   -1.735829614008633e+02   
1.011300000000000e+10    -1.972362319553490e+01   -1.735732876322455e+02   
1.011400000000000e+10    -1.974318919174785e+01   -1.734677707530347e+02   
1.011500000000000e+10    -1.980379263355492e+01   -1.736222396979315e+02   
1.011600000000000e+10    -1.983693968780682e+01   -1.738648393867891e+02   
1.011700000000000e+10    -1.988673534584176e+01   -1.736525740076952e+02   
1.011800000000000e+10    -1.993259609209371e+01   -1.739117852138548e+02   
1.011900000000000e+10    -1.994902194766623e+01   -1.738654694463533e+02   
1.012000000000000e+10    -1.998954462588999e+01   -1.738069733262649e+02   
1.012100000000000e+10    -2.004062095512764e+01   -1.740496596555932e+02   
1.012200000000000e+10    -2.006904778043340e+01   -1.739421807020839e+02   
1.012300000000000e+10    -2.010028391567308e+01   -1.741251889218474e+02   
1.012400000000000e+10    -2.015259228537768e+01   -1.739699885187955e+02   
1.012500000000000e+10    -2.020931727565003e+01   -1.740314070581123e+02   
1.012600000000000e+10    -2.024043170531235e+01   -1.740849283341051e+02   
1.012700000000000e+10    -2.025969135671133e+01   -1.741474700123251e+02   
1.012800000000000e+10    -2.031500151116773e+01   -1.741759933611522e+02   
1.012900000000000e+10    -2.033822978517696e+01   -1.741158386727444e+02   
1.013000000000000e+10    -2.039277146956418e+01   -1.743560593031410e+02   
1.013100000000000e+10    -2.044036460563537e+01   -1.740774523159815e+02   
1.013200000000000e+10    -2.045076450348934e+01   -1.742038547339020e+02   
1.013300000000000e+10    -2.050137950531335e+01   -1.740648738760406e+02   
1.013400000000000e+10    -2.053590898684100e+01   -1.742722856999631e+02   
1.013500000000000e+10    -2.057927962395152e+01   -1.741923886432390e+02   
1.013600000000000e+10    -2.060344090967131e+01   -1.742822896586246e+02   
1.013700000000000e+10    -2.066266684288236e+01   -1.740841848297145e+02   
1.013800000000000e+10    -2.067323219204049e+01   -1.742520837053997e+02   
1.013900000000000e+10    -2.071096147190273e+01   -1.740833523491203e+02   
1.014000000000000e+10    -2.078149867024517e+01   -1.742848352878216e+02   
1.014100000000000e+10    -2.081690869958245e+01   -1.742345059056348e+02   
1.014200000000000e+10    -2.085803475953023e+01   -1.742993893170960e+02   
1.014300000000000e+10    -2.089368562970575e+01   -1.741418217970063e+02   
1.014400000000000e+10    -2.093886717464547e+01   -1.743130036943171e+02   
1.014500000000000e+10    -2.096148220117038e+01   -1.740998688996989e+02   
1.014600000000000e+10    -2.100374547079917e+01   -1.740386843420581e+02   
1.014700000000000e+10    -2.104733553701857e+01   -1.740613269756344e+02   
1.014800000000000e+10    -2.107633440167632e+01   -1.741473034880372e+02   
1.014900000000000e+10    -2.112026815438672e+01   -1.737836925869626e+02   
1.015000000000000e+10    -2.117292667263970e+01   -1.739684334316542e+02   
1.015100000000000e+10    -2.120131872244504e+01   -1.737345829636168e+02   
1.015200000000000e+10    -2.125214271669279e+01   -1.736999615864283e+02   
1.015300000000000e+10    -2.125311673850972e+01   -1.736375828781712e+02   
1.015400000000000e+10    -2.133279928988150e+01   -1.737056447394903e+02   
1.015500000000000e+10    -2.136430665877651e+01   -1.734888669138547e+02   
1.015600000000000e+10    -2.143398608776126e+01   -1.733067987616915e+02   
1.015700000000000e+10    -2.145990075644024e+01   -1.731284485565404e+02   
1.015800000000000e+10    -2.149739711278946e+01   -1.729456061076283e+02   
1.015900000000000e+10    -2.151181178546673e+01   -1.729896905932931e+02   
1.016000000000000e+10    -2.156762099569336e+01   -1.730560840984065e+02   
1.016100000000000e+10    -2.162972282548258e+01   -1.729645670493846e+02   
1.016200000000000e+10    -2.167269380837063e+01   -1.728244518787841e+02   
1.016300000000000e+10    -2.170930971602731e+01   -1.725562954498911e+02   
1.016400000000000e+10    -2.176462976846558e+01   -1.724185107453877e+02   
1.016500000000000e+10    -2.180932394355155e+01   -1.721564247927936e+02   
1.016600000000000e+10    -2.187250500654020e+01   -1.721363927652649e+02   
1.016700000000000e+10    -2.190663982292472e+01   -1.720959989581089e+02   
1.016800000000000e+10    -2.195047587852279e+01   -1.717635814233979e+02   
1.016900000000000e+10    -2.200042065739810e+01   -1.718231582131062e+02   
1.017000000000000e+10    -2.203150008724908e+01   -1.716108378043400e+02   
1.017100000000000e+10    -2.209016503785267e+01   -1.716906634742725e+02   
1.017200000000000e+10    -2.214982657603636e+01   -1.712048194468744e+02   
1.017300000000000e+10    -2.219578550410647e+01   -1.709823532858634e+02   
1.017400000000000e+10    -2.223170381550067e+01   -1.708230625535383e+02   
1.017500000000000e+10    -2.233276121401865e+01   -1.708487846970348e+02   
1.017600000000000e+10    -2.230271881244447e+01   -1.706545148703395e+02   
1.017700000000000e+10    -2.237509753827106e+01   -1.705627441407362e+02   
1.017800000000000e+10    -2.243228976795789e+01   -1.702561304358878e+02   
1.017900000000000e+10    -2.245056720711194e+01   -1.700653564001274e+02   
1.018000000000000e+10    -2.256957139367250e+01   -1.699865445068870e+02   
1.018100000000000e+10    -2.257774571159685e+01   -1.697833393565737e+02   
1.018200000000000e+10    -2.266521473679248e+01   -1.697800050459889e+02   
1.018300000000000e+10    -2.268785344272939e+01   -1.695976744127002e+02   
1.018400000000000e+10    -2.270835632295257e+01   -1.693399193645783e+02   
1.018500000000000e+10    -2.276033402789788e+01   -1.693517794627398e+02   
1.018600000000000e+10    -2.281004199846756e+01   -1.690161381928217e+02   
1.018700000000000e+10    -2.288392319698269e+01   -1.689138703838773e+02   
1.018800000000000e+10    -2.294418387879782e+01   -1.685344964291061e+02   
1.018900000000000e+10    -2.297529122128637e+01   -1.682832190484551e+02   
1.019000000000000e+10    -2.301780485543756e+01   -1.681711101555759e+02   
1.019100000000000e+10    -2.305968148963019e+01   -1.680385123637642e+02   
1.019200000000000e+10    -2.307140336229224e+01   -1.677686340021620e+02   
1.019300000000000e+10    -2.310379519025052e+01   -1.674824166505116e+02   
1.019400000000000e+10    -2.317191779115042e+01   -1.674056690559584e+02   
1.019500000000000e+10    -2.322013613616510e+01   -1.670627197944679e+02   
1.019600000000000e+10    -2.326739424268329e+01   -1.670254357256672e+02   
1.019700000000000e+10    -2.328973539024577e+01   -1.666866183398961e+02   
1.019800000000000e+10    -2.330845580439798e+01   -1.665929527495459e+02   
1.019900000000000e+10    -2.336420706457865e+01   -1.662315060246231e+02   
1.020000000000000e+10    -2.344242225894473e+01   -1.661363620398908e+02   
1.020100000000000e+10    -2.344066915171313e+01   -1.657059952358580e+02   
1.020200000000000e+10    -2.350364072917433e+01   -1.654719398632253e+02   
1.020300000000000e+10    -2.353222467281007e+01   -1.649264325806930e+02   
1.020400000000000e+10    -2.359874182793768e+01   -1.647917352733700e+02   
1.020500000000000e+10    -2.362500512133377e+01   -1.647068163890205e+02   
1.020600000000000e+10    -2.363355272387691e+01   -1.643154580661157e+02   
1.020700000000000e+10    -2.364986427892339e+01   -1.641680715583628e+02   
1.020800000000000e+10    -2.371533414270070e+01   -1.637944063077171e+02   
1.020900000000000e+10    -2.379948055537452e+01   -1.636956408631575e+02   
1.021000000000000e+10    -2.383116322348019e+01   -1.633574974520150e+02   
1.021100000000000e+10    -2.385111980146663e+01   -1.629457609921057e+02   
1.021200000000000e+10    -2.393933652070174e+01   -1.626856486351188e+02   
1.021300000000000e+10    -2.395882780221934e+01   -1.623792001996862e+02   
1.021400000000000e+10    -2.399949775835795e+01   -1.619588839230998e+02   
1.021500000000000e+10    -2.402249962253406e+01   -1.614900231063144e+02   
1.021600000000000e+10    -2.405459365755032e+01   -1.613787334264364e+02   
1.021700000000000e+10    -2.408328778764290e+01   -1.610668260706691e+02   
1.021800000000000e+10    -2.411925929044598e+01   -1.606114543144884e+02   
1.021900000000000e+10    -2.418582328152509e+01   -1.601367378466215e+02   
1.022000000000000e+10    -2.420978823338946e+01   -1.599619903128678e+02   
1.022100000000000e+10    -2.420942954954223e+01   -1.596905684241303e+02   
1.022200000000000e+10    -2.432157775474895e+01   -1.591085313416438e+02   
1.022300000000000e+10    -2.433086441946850e+01   -1.588021380503559e+02   
1.022400000000000e+10    -2.437167602096359e+01   -1.586164349625224e+02   
1.022500000000000e+10    -2.439341375928260e+01   -1.579965052533912e+02   
1.022600000000000e+10    -2.447260791617007e+01   -1.580453920894377e+02   
1.022700000000000e+10    -2.448706997745948e+01   -1.575237509809076e+02   
1.022800000000000e+10    -2.451529554180309e+01   -1.571504989361675e+02   
1.022900000000000e+10    -2.456522598168533e+01   -1.569674134306765e+02   
1.023000000000000e+10    -2.455184758585469e+01   -1.565290502104339e+02   
1.023100000000000e+10    -2.457073726852298e+01   -1.562348555271478e+02   
1.023200000000000e+10    -2.463043091433478e+01   -1.559966182294965e+02   
1.023300000000000e+10    -2.467304848647013e+01   -1.554369359699830e+02   
1.023400000000000e+10    -2.468744370085637e+01   -1.552116259217082e+02   
1.023500000000000e+10    -2.479123227629347e+01   -1.545626816962791e+02   
1.023600000000000e+10    -2.471734009763254e+01   -1.541542552698382e+02   
1.023700000000000e+10    -2.477821729603003e+01   -1.540775172997754e+02   
1.023800000000000e+10    -2.477859886836434e+01   -1.534002632360797e+02   
1.023900000000000e+10    -2.480987974841799e+01   -1.535064401837186e+02   
1.024000000000000e+10    -2.488058868905348e+01   -1.528172847618301e+02   
1.024100000000000e+10    -2.483590346785320e+01   -1.521723719626479e+02   
1.024200000000000e+10    -2.486908723191131e+01   -1.520192174323074e+02   
1.024300000000000e+10    -2.492211909498783e+01   -1.515350664090625e+02   
1.024400000000000e+10    -2.494418831002028e+01   -1.513062205317340e+02   
1.024500000000000e+10    -2.490708039695803e+01   -1.508552424727071e+02   
1.024600000000000e+10    -2.494564800847431e+01   -1.506626709457554e+02   
1.024700000000000e+10    -2.495938176267888e+01   -1.502653687624906e+02   
1.024800000000000e+10    -2.496768698384486e+01   -1.496338445881534e+02   
1.024900000000000e+10    -2.504469988415003e+01   -1.495352288525437e+02   
1.025000000000000e+10    -2.500535625852850e+01   -1.491941788581484e+02   
1.025100000000000e+10    -2.498634085403351e+01   -1.485657258011577e+02   
1.025200000000000e+10    -2.503864059978053e+01   -1.484425236212204e+02   
1.025300000000000e+10    -2.498977989752385e+01   -1.478767605037656e+02   
1.025400000000000e+10    -2.501598607233590e+01   -1.474663566099606e+02   
1.025500000000000e+10    -2.508056768393700e+01   -1.470669080532333e+02   
1.025600000000000e+10    -2.505891418047121e+01   -1.467359470457384e+02   
