[Version] 2.0
! Rohde & Schwarz Vector Network Analyzer
! Rohde-Schwarz,ZNL20-2Port,1323001220200009,1.71.1.10-23.02.1.238
! 
! Port Assignments:
! Nominal Port -> Actual Test Port
! --------------------------------
!   1 -> 1

! Created: GMT 2024-08-27 12:49:06

# Hz S DB R 50

[Number of Ports] 1
[Number of Frequencies] 2001

[Network Data] 
! freq[Hz]               S11[mag dB]              S11[ang]                 
1.000000000000000e+10    -1.530611501650301e+01   -1.567586938476834e+02   
1.000100000000000e+10    -1.533319477715249e+01   -1.568820874614217e+02   
1.000200000000000e+10    -1.535269739508488e+01   -1.569545828543724e+02   
1.000300000000000e+10    -1.537725859680537e+01   -1.572146627515040e+02   
1.000400000000000e+10    -1.538926622585352e+01   -1.574702612757213e+02   
1.000500000000000e+10    -1.540350794328476e+01   -1.576211462833892e+02   
1.000600000000000e+10    -1.543129212153745e+01   -1.577794816813048e+02   
1.000700000000000e+10    -1.545049810616656e+01   -1.579213756443734e+02   
1.000800000000000e+10    -1.546975822999524e+01   -1.581505738625018e+02   
1.000900000000000e+10    -1.549236515049484e+01   -1.584452767491351e+02   
1.001000000000000e+10    -1.551668375235772e+01   -1.585154196143085e+02   
1.001100000000000e+10    -1.553663421727232e+01   -1.587660648991326e+02   
1.001200000000000e+10    -1.554718476203181e+01   -1.589465829567104e+02   
1.001300000000000e+10    -1.558262033421120e+01   -1.592497664126126e+02   
1.001400000000000e+10    -1.558673513546209e+01   -1.594660497783331e+02   
1.001500000000000e+10    -1.561206488060406e+01   -1.596622624763369e+02   
1.001600000000000e+10    -1.562229798986935e+01   -1.598115760272422e+02   
1.001700000000000e+10    -1.564948008669340e+01   -1.601328443070092e+02   
1.001800000000000e+10    -1.566093105244360e+01   -1.603525955012784e+02   
1.001900000000000e+10    -1.568534758217085e+01   -1.605365859133155e+02   
1.002000000000000e+10    -1.570097311334032e+01   -1.608365135354985e+02   
1.002100000000000e+10    -1.571978701859688e+01   -1.610529363965730e+02   
1.002200000000000e+10    -1.573948971850258e+01   -1.612108964356286e+02   
1.002300000000000e+10    -1.574773548417913e+01   -1.614046791988191e+02   
1.002400000000000e+10    -1.575695153028861e+01   -1.616155956392272e+02   
1.002500000000000e+10    -1.579522659435430e+01   -1.618234673018307e+02   
1.002600000000000e+10    -1.580036390234805e+01   -1.621704415661962e+02   
1.002700000000000e+10    -1.580988113523359e+01   -1.623883818655503e+02   
1.002800000000000e+10    -1.583574234025199e+01   -1.625279754287100e+02   
1.002900000000000e+10    -1.585179585538799e+01   -1.626777305073921e+02   
1.003000000000000e+10    -1.588459272695619e+01   -1.628914155952175e+02   
1.003100000000000e+10    -1.587250684377306e+01   -1.631437874557914e+02   
1.003200000000000e+10    -1.589708650157618e+01   -1.633962079167819e+02   
1.003300000000000e+10    -1.589795713725046e+01   -1.635558541800651e+02   
1.003400000000000e+10    -1.591917950511395e+01   -1.636878253323410e+02   
1.003500000000000e+10    -1.595003706269024e+01   -1.639592677919832e+02   
1.003600000000000e+10    -1.594848232891250e+01   -1.639900733368779e+02   
1.003700000000000e+10    -1.597552886812309e+01   -1.642924671396712e+02   
1.003800000000000e+10    -1.599022803914461e+01   -1.645125496293859e+02   
1.003900000000000e+10    -1.601727612718881e+01   -1.647476882874099e+02   
1.004000000000000e+10    -1.601316588271332e+01   -1.649247665972168e+02   
1.004100000000000e+10    -1.604801086626648e+01   -1.651220358622871e+02   
1.004200000000000e+10    -1.605052627190826e+01   -1.652320884611804e+02   
1.004300000000000e+10    -1.607800937259406e+01   -1.654220047557967e+02   
1.004400000000000e+10    -1.609977977784290e+01   -1.656750754608255e+02   
1.004500000000000e+10    -1.610603879279016e+01   -1.657505784709275e+02   
1.004600000000000e+10    -1.613766319259712e+01   -1.659256252419376e+02   
1.004700000000000e+10    -1.615563345788620e+01   -1.661311192238014e+02   
1.004800000000000e+10    -1.617032802509661e+01   -1.662472932275060e+02   
1.004900000000000e+10    -1.618580843877216e+01   -1.664136127023216e+02   
1.005000000000000e+10    -1.620810496583007e+01   -1.667143866003574e+02   
1.005100000000000e+10    -1.620102926966150e+01   -1.666676365278782e+02   
1.005200000000000e+10    -1.624595087568598e+01   -1.667833577310467e+02   
1.005300000000000e+10    -1.625983794271291e+01   -1.670399682457760e+02   
1.005400000000000e+10    -1.627803298158934e+01   -1.671658949166309e+02   
1.005500000000000e+10    -1.630051873927499e+01   -1.672872783624186e+02   
1.005600000000000e+10    -1.633877721051729e+01   -1.674885582472928e+02   
1.005700000000000e+10    -1.634318612456709e+01   -1.675296094401294e+02   
1.005800000000000e+10    -1.636196795641562e+01   -1.677162967923166e+02   
1.005900000000000e+10    -1.638091825849837e+01   -1.679151013030762e+02   
1.006000000000000e+10    -1.639795320199446e+01   -1.679666037157513e+02   
1.006100000000000e+10    -1.643682061000441e+01   -1.680631033053406e+02   
1.006200000000000e+10    -1.645422234572732e+01   -1.682279100433647e+02   
1.006300000000000e+10    -1.648324805464102e+01   -1.683395815580759e+02   
1.006400000000000e+10    -1.649092148567085e+01   -1.684593449484862e+02   
1.006500000000000e+10    -1.651792616655359e+01   -1.686131284762714e+02   
1.006600000000000e+10    -1.654980719915154e+01   -1.686858639414990e+02   
1.006700000000000e+10    -1.656813794156810e+01   -1.689308374332003e+02   
1.006800000000000e+10    -1.659428652695863e+01   -1.689180896654712e+02   
1.006900000000000e+10    -1.662786202695143e+01   -1.690245153909202e+02   
1.007000000000000e+10    -1.664450339247954e+01   -1.691944748808932e+02   
1.007100000000000e+10    -1.666088106305451e+01   -1.693327413106515e+02   
1.007200000000000e+10    -1.670036612777108e+01   -1.693846487555595e+02   
1.007300000000000e+10    -1.672302628083466e+01   -1.696300675675349e+02   
1.007400000000000e+10    -1.674550327413394e+01   -1.695981302737799e+02   
1.007500000000000e+10    -1.679355259779554e+01   -1.698065454374963e+02   
1.007600000000000e+10    -1.683043279551942e+01   -1.699622260557379e+02   
1.007700000000000e+10    -1.684620413858443e+01   -1.699735444755249e+02   
1.007800000000000e+10    -1.688637592903834e+01   -1.700335206749298e+02   
1.007900000000000e+10    -1.690629051546483e+01   -1.702122971459857e+02   
1.008000000000000e+10    -1.696277524253813e+01   -1.703948422337695e+02   
1.008100000000000e+10    -1.698347059128530e+01   -1.703884583888383e+02   
1.008200000000000e+10    -1.701078640320445e+01   -1.703845805121292e+02   
1.008300000000000e+10    -1.704807728846995e+01   -1.706164042985052e+02   
1.008400000000000e+10    -1.709486831051021e+01   -1.707895421027899e+02   
1.008500000000000e+10    -1.711007694042820e+01   -1.708537422922608e+02   
1.008600000000000e+10    -1.714820975902175e+01   -1.709400652923898e+02   
1.008700000000000e+10    -1.717923038703166e+01   -1.710859201447310e+02   
1.008800000000000e+10    -1.721344094602084e+01   -1.712313888711734e+02   
1.008900000000000e+10    -1.726747752356120e+01   -1.713764315699961e+02   
1.009000000000000e+10    -1.729632076741279e+01   -1.715253753380067e+02   
1.009100000000000e+10    -1.735269503857008e+01   -1.715932526212206e+02   
1.009200000000000e+10    -1.737955808781976e+01   -1.718583148327084e+02   
1.009300000000000e+10    -1.739297543836369e+01   -1.719299709856331e+02   
1.009400000000000e+10    -1.744765187777553e+01   -1.721019429967423e+02   
1.009500000000000e+10    -1.749091693094006e+01   -1.721153372211930e+02   
1.009600000000000e+10    -1.751753876316590e+01   -1.722316955835119e+02   
1.009700000000000e+10    -1.756301470325355e+01   -1.724381515186075e+02   
1.009800000000000e+10    -1.758136470342751e+01   -1.725380265016724e+02   
1.009900000000000e+10    -1.764440247441714e+01   -1.726158109729637e+02   
1.010000000000000e+10    -1.766832686347652e+01   -1.729418527208089e+02   
1.010100000000000e+10    -1.771367183616458e+01   -1.729729348963865e+02   
1.010200000000000e+10    -1.773826227979933e+01   -1.731210774639779e+02   
1.010300000000000e+10    -1.779425889618504e+01   -1.732113201086109e+02   
1.010400000000000e+10    -1.781810287424817e+01   -1.733947840848354e+02   
1.010500000000000e+10    -1.783438625784285e+01   -1.736303230292410e+02   
1.010600000000000e+10    -1.789426891363411e+01   -1.737241600091842e+02   
1.010700000000000e+10    -1.792688439943076e+01   -1.738212024956740e+02   
1.010800000000000e+10    -1.793546394227238e+01   -1.740480111467925e+02   
1.010900000000000e+10    -1.797735008849263e+01   -1.741587531018260e+02   
1.011000000000000e+10    -1.800651858842899e+01   -1.743227453530012e+02   
1.011100000000000e+10    -1.805118866707988e+01   -1.744805475572764e+02   
1.011200000000000e+10    -1.807364456891031e+01   -1.747467959369169e+02   
1.011300000000000e+10    -1.813292009417200e+01   -1.748057511583774e+02   
1.011400000000000e+10    -1.814730387312872e+01   -1.748058654994451e+02   
1.011500000000000e+10    -1.819507673701388e+01   -1.750154894330597e+02   
1.011600000000000e+10    -1.821953712084983e+01   -1.753170140553838e+02   
1.011700000000000e+10    -1.826175400663105e+01   -1.752334492008682e+02   
1.011800000000000e+10    -1.830006524237655e+01   -1.755246577182494e+02   
1.011900000000000e+10    -1.831421306592316e+01   -1.755610347517622e+02   
1.012000000000000e+10    -1.834585095333758e+01   -1.756054111335742e+02   
1.012100000000000e+10    -1.838677685963298e+01   -1.758739026511357e+02   
1.012200000000000e+10    -1.841261135220001e+01   -1.758883465453058e+02   
1.012300000000000e+10    -1.843982035087492e+01   -1.761043921838407e+02   
1.012400000000000e+10    -1.848324549649480e+01   -1.761061481576161e+02   
1.012500000000000e+10    -1.853212311106839e+01   -1.762202286175911e+02   
1.012600000000000e+10    -1.855617551659575e+01   -1.763446647408027e+02   
1.012700000000000e+10    -1.857783816719633e+01   -1.764710710348580e+02   
1.012800000000000e+10    -1.862258780943290e+01   -1.765888599330090e+02   
1.012900000000000e+10    -1.864386199999336e+01   -1.766032253705988e+02   
1.013000000000000e+10    -1.868755124471160e+01   -1.768998777409369e+02   
1.013100000000000e+10    -1.872694669583679e+01   -1.767520449736312e+02   
1.013200000000000e+10    -1.873446771941035e+01   -1.769615833573761e+02   
1.013300000000000e+10    -1.877966442041044e+01   -1.769490234026352e+02   
1.013400000000000e+10    -1.880829569047789e+01   -1.771834822860368e+02   
1.013500000000000e+10    -1.884703779418091e+01   -1.772151863755029e+02   
1.013600000000000e+10    -1.886766045340154e+01   -1.773641092259601e+02   
1.013700000000000e+10    -1.892164166383378e+01   -1.772934079970907e+02   
1.013800000000000e+10    -1.893111455586501e+01   -1.775049853348401e+02   
1.013900000000000e+10    -1.896304372590962e+01   -1.774823690844166e+02   
1.014000000000000e+10    -1.902107692358652e+01   -1.777587007509800e+02   
1.014100000000000e+10    -1.905112424688318e+01   -1.777621988073581e+02   
1.014200000000000e+10    -1.908576691797114e+01   -1.779283952329390e+02   
1.014300000000000e+10    -1.911531828216721e+01   -1.778975899023769e+02   
1.014400000000000e+10    -1.915172918298449e+01   -1.781449373966908e+02   
1.014500000000000e+10    -1.917689044004138e+01   -1.780532721223715e+02   
1.014600000000000e+10    -1.921123251323134e+01   -1.781451919946135e+02   
1.014700000000000e+10    -1.925033525490112e+01   -1.782185455472104e+02   
1.014800000000000e+10    -1.927536246928137e+01   -1.783931527709537e+02   
1.014900000000000e+10    -1.931436122035563e+01   -1.782113091635811e+02   
1.015000000000000e+10    -1.935971488698834e+01   -1.784779740388201e+02   
1.015100000000000e+10    -1.938489412123626e+01   -1.783447652620547e+02   
1.015200000000000e+10    -1.943026683787665e+01   -1.784501429186407e+02   
1.015300000000000e+10    -1.943654453192474e+01   -1.784672635128804e+02   
1.015400000000000e+10    -1.950165588595791e+01   -1.786514103568193e+02   
1.015500000000000e+10    -1.953546729569875e+01   -1.785970802034235e+02   
1.015600000000000e+10    -1.959371040226883e+01   -1.785650009845991e+02   
1.015700000000000e+10    -1.961993244685237e+01   -1.785218681875762e+02   
1.015800000000000e+10    -1.965719977729839e+01   -1.784665035815253e+02   
1.015900000000000e+10    -1.967311945881265e+01   -1.785782397382801e+02   
1.016000000000000e+10    -1.971477525809750e+01   -1.787480107586477e+02   
1.016100000000000e+10    -1.977290113640762e+01   -1.787889629121880e+02   
1.016200000000000e+10    -1.981199847622641e+01   -1.787873109055779e+02   
1.016300000000000e+10    -1.984933195540171e+01   -1.787060139076559e+02   
1.016400000000000e+10    -1.989749379100235e+01   -1.787189890492932e+02   
1.016500000000000e+10    -1.993873004628280e+01   -1.786269037838242e+02   
1.016600000000000e+10    -1.999527747921934e+01   -1.787288937533611e+02   
1.016700000000000e+10    -2.002474527634565e+01   -1.787712633504578e+02   
1.016800000000000e+10    -2.007155739438854e+01   -1.786487210643674e+02   
1.016900000000000e+10    -2.011404714017373e+01   -1.788427844406988e+02   
1.017000000000000e+10    -2.014824445065159e+01   -1.787731335856775e+02   
1.017100000000000e+10    -2.020046895297127e+01   -1.789721566765534e+02   
1.017200000000000e+10    -2.025974824889666e+01   -1.787409129044002e+02   
1.017300000000000e+10    -2.030494123010061e+01   -1.786957396081070e+02   
1.017400000000000e+10    -2.034308373789122e+01   -1.786733949243183e+02   
1.017500000000000e+10    -2.042869243271539e+01   -1.788469872666946e+02   
1.017600000000000e+10    -2.040714415831761e+01   -1.787754827362201e+02   
1.017700000000000e+10    -2.048008224665755e+01   -1.788528605145761e+02   
1.017800000000000e+10    -2.053669527074810e+01   -1.787407052817013e+02   
1.017900000000000e+10    -2.055511290695663e+01   -1.786950971674720e+02   
1.018000000000000e+10    -2.065665888632219e+01   -1.788546557559761e+02   
1.018100000000000e+10    -2.067195106346254e+01   -1.787879039338562e+02   
1.018200000000000e+10    -2.074987796161471e+01   -1.789682809601471e+02   
1.018300000000000e+10    -2.077097703920260e+01   -1.789458847196228e+02   
1.018400000000000e+10    -2.080225319495619e+01   -1.788306188719623e+02   
1.018500000000000e+10    -2.085679452585648e+01   -1.790093478423085e+02   
1.018600000000000e+10    -2.090670583150792e+01   -1.788981779942257e+02   
1.018700000000000e+10    -2.097193238355472e+01   -1.789729378126088e+02   
1.018800000000000e+10    -2.103859106996128e+01   -1.788407142068011e+02   
1.018900000000000e+10    -2.107704843063520e+01   -1.787385721367536e+02   
1.019000000000000e+10    -2.112127085663109e+01   -1.787909076174443e+02   
1.019100000000000e+10    -2.115749330431152e+01   -1.788297232832602e+02   
1.019200000000000e+10    -2.118488500695409e+01   -1.787316020717727e+02   
1.019300000000000e+10    -2.122190566301898e+01   -1.786186717485263e+02   
1.019400000000000e+10    -2.128765620879487e+01   -1.787152177396617e+02   
1.019500000000000e+10    -2.133624232438540e+01   -1.785870245144277e+02   
1.019600000000000e+10    -2.138663877151316e+01   -1.787475155028380e+02   
1.019700000000000e+10    -2.142350815624148e+01   -1.785820708200236e+02   
1.019800000000000e+10    -2.144648899422901e+01   -1.786378875207252e+02   
1.019900000000000e+10    -2.150592503511331e+01   -1.784874445269458e+02   
1.020000000000000e+10    -2.157906300314909e+01   -1.786282862696161e+02   
1.020100000000000e+10    -2.158998798242596e+01   -1.783385742402650e+02   
1.020200000000000e+10    -2.165868688877173e+01   -1.783674662849473e+02   
1.020300000000000e+10    -2.170871475383253e+01   -1.780336131726996e+02   
1.020400000000000e+10    -2.177387538557982e+01   -1.781364530859971e+02   
1.020500000000000e+10    -2.180250439609754e+01   -1.782302743715451e+02   
1.020600000000000e+10    -2.183194467270627e+01   -1.780373352976316e+02   
1.020700000000000e+10    -2.185508859652059e+01   -1.780148476608479e+02   
1.020800000000000e+10    -2.192625480814376e+01   -1.778917384650660e+02   
1.020900000000000e+10    -2.200332670114410e+01   -1.780453380072247e+02   
1.021000000000000e+10    -2.204699773627919e+01   -1.779279867276722e+02   
1.021100000000000e+10    -2.208923084589308e+01   -1.777476497871826e+02   
1.021200000000000e+10    -2.217401210011123e+01   -1.777737704883096e+02   
1.021300000000000e+10    -2.221131226019217e+01   -1.776364277789062e+02   
1.021400000000000e+10    -2.226905863519754e+01   -1.775218663410350e+02   
1.021500000000000e+10    -2.231737318359882e+01   -1.772553277800648e+02   
1.021600000000000e+10    -2.235631913806600e+01   -1.773231211346058e+02   
1.021700000000000e+10    -2.239949019441312e+01   -1.772291079948427e+02   
1.021800000000000e+10    -2.245657569993079e+01   -1.770109747400390e+02   
1.021900000000000e+10    -2.253783549827191e+01   -1.768574362382180e+02   
1.022000000000000e+10    -2.257261898080485e+01   -1.768799378923562e+02   
1.022100000000000e+10    -2.259934649058678e+01   -1.767413740657393e+02   
1.022200000000000e+10    -2.272056472996713e+01   -1.765900232718015e+02   
1.022300000000000e+10    -2.275119349952659e+01   -1.764588299262154e+02   
1.022400000000000e+10    -2.280647972338656e+01   -1.764852944762060e+02   
1.022500000000000e+10    -2.285789262026974e+01   -1.761273977236844e+02   
1.022600000000000e+10    -2.293069443318193e+01   -1.764465489483916e+02   
1.022700000000000e+10    -2.297736449152854e+01   -1.761497356911783e+02   
1.022800000000000e+10    -2.302833736441820e+01   -1.760166453516250e+02   
1.022900000000000e+10    -2.308475923898415e+01   -1.760947880712875e+02   
1.023000000000000e+10    -2.311010027165577e+01   -1.758347352534146e+02   
1.023100000000000e+10    -2.315043054149750e+01   -1.757588565977953e+02   
1.023200000000000e+10    -2.322539199897922e+01   -1.757891663966273e+02   
1.023300000000000e+10    -2.329587462332359e+01   -1.755593337089111e+02   
1.023400000000000e+10    -2.333275821550429e+01   -1.755165682481459e+02   
1.023500000000000e+10    -2.346378141765655e+01   -1.753250192973680e+02   
1.023600000000000e+10    -2.343990672466345e+01   -1.749489562599261e+02   
1.023700000000000e+10    -2.350692236906089e+01   -1.751277030406262e+02   
1.023800000000000e+10    -2.356702298269722e+01   -1.746976581311707e+02   
1.023900000000000e+10    -2.359741670728445e+01   -1.749564554239597e+02   
1.024000000000000e+10    -2.370145117871490e+01   -1.746666343130121e+02   
1.024100000000000e+10    -2.371582105143407e+01   -1.741386856045476e+02   
1.024200000000000e+10    -2.377247982057614e+01   -1.742554583882344e+02   
1.024300000000000e+10    -2.385197860938169e+01   -1.741179319584918e+02   
1.024400000000000e+10    -2.391024702461293e+01   -1.740661508565395e+02   
1.024500000000000e+10    -2.392255847323848e+01   -1.737448623857478e+02   
1.024600000000000e+10    -2.397896247610830e+01   -1.737888636805402e+02   
1.024700000000000e+10    -2.403469846581948e+01   -1.735951166467439e+02   
1.024800000000000e+10    -2.410190080434772e+01   -1.732249073392212e+02   
1.024900000000000e+10    -2.419236288911189e+01   -1.734289951327661e+02   
1.025000000000000e+10    -2.420159931003557e+01   -1.731314716348595e+02   
1.025100000000000e+10    -2.423033414860574e+01   -1.727086985293662e+02   
1.025200000000000e+10    -2.431161000984094e+01   -1.728514918334731e+02   
1.025300000000000e+10    -2.432231265907400e+01   -1.723341546176061e+02   
1.025400000000000e+10    -2.438802378110575e+01   -1.721862967207861e+02   
1.025500000000000e+10    -2.449438071284831e+01   -1.721284416553172e+02   
1.025600000000000e+10    -2.452238214703330e+01   -1.718787259474922e+02   
