[Version] 2.0
! Rohde & Schwarz Vector Network Analyzer
! Rohde-Schwarz,ZNL20-2Port,1323001220200009,1.71.1.10-23.02.1.238
! 
! Port Assignments:
! Nominal Port -> Actual Test Port
! --------------------------------
!   1 -> 1

! Created: GMT 2024-08-27 12:49:57

# Hz S DB R 50

[Number of Ports] 1
[Number of Frequencies] 2001

[Network Data] 
! freq[Hz]               S11[mag dB]              S11[ang]                 
1.000000000000000e+10    -1.497598706626017e+01   -1.551726712382625e+02   
1.000100000000000e+10    -1.499967913101804e+01   -1.552984407635382e+02   
1.000200000000000e+10    -1.501609516141109e+01   -1.553828717871853e+02   
1.000300000000000e+10    -1.503733764216472e+01   -1.556433106887640e+02   
1.000400000000000e+10    -1.504718288774711e+01   -1.558909539941640e+02   
1.000500000000000e+10    -1.505942978973802e+01   -1.560492091061798e+02   
1.000600000000000e+10    -1.508468800126661e+01   -1.562314189696214e+02   
1.000700000000000e+10    -1.510200973334774e+01   -1.563683288109951e+02   
1.000800000000000e+10    -1.512046458767825e+01   -1.565972087340077e+02   
1.000900000000000e+10    -1.513956874442251e+01   -1.568904756755411e+02   
1.001000000000000e+10    -1.516207260082492e+01   -1.569596956058922e+02   
1.001100000000000e+10    -1.517776673639253e+01   -1.572197651305319e+02   
1.001200000000000e+10    -1.518700617574934e+01   -1.574037472292371e+02   
1.001300000000000e+10    -1.521960322356678e+01   -1.576864403968939e+02   
1.001400000000000e+10    -1.522265274915841e+01   -1.579229133429685e+02   
1.001500000000000e+10    -1.524616727611593e+01   -1.581210648551754e+02   
1.001600000000000e+10    -1.525296233511921e+01   -1.582784606895088e+02   
1.001700000000000e+10    -1.527714472320341e+01   -1.585939692492865e+02   
1.001800000000000e+10    -1.528787510739561e+01   -1.588159305168039e+02   
1.001900000000000e+10    -1.530898114699008e+01   -1.590192194252144e+02   
1.002000000000000e+10    -1.532380418541703e+01   -1.593118406903296e+02   
1.002100000000000e+10    -1.533941651600760e+01   -1.595412425334290e+02   
1.002200000000000e+10    -1.535476028682444e+01   -1.596955188208718e+02   
1.002300000000000e+10    -1.536298683171256e+01   -1.599087240679185e+02   
1.002400000000000e+10    -1.537220758838731e+01   -1.601413843703765e+02   
1.002500000000000e+10    -1.540598972422695e+01   -1.603286773644301e+02   
1.002600000000000e+10    -1.540995650093788e+01   -1.606875817106395e+02   
1.002700000000000e+10    -1.542064969865096e+01   -1.608864473034936e+02   
1.002800000000000e+10    -1.544192075280987e+01   -1.610395179812960e+02   
1.002900000000000e+10    -1.545427203228497e+01   -1.611977761461253e+02   
1.003000000000000e+10    -1.548635947914191e+01   -1.614091373971365e+02   
1.003100000000000e+10    -1.547685493225527e+01   -1.616651135468614e+02   
1.003200000000000e+10    -1.549450544290248e+01   -1.619181139940290e+02   
1.003300000000000e+10    -1.549517433302795e+01   -1.620817436774793e+02   
1.003400000000000e+10    -1.551276811225143e+01   -1.622250251689606e+02   
1.003500000000000e+10    -1.553966057858919e+01   -1.625024370865459e+02   
1.003600000000000e+10    -1.553703883909192e+01   -1.625402280318694e+02   
1.003700000000000e+10    -1.556002160957391e+01   -1.628463962174606e+02   
1.003800000000000e+10    -1.557337522967245e+01   -1.630767940276739e+02   
1.003900000000000e+10    -1.559564392302900e+01   -1.633184232996458e+02   
1.004000000000000e+10    -1.559219201560745e+01   -1.635090835518639e+02   
1.004100000000000e+10    -1.562042515611402e+01   -1.637117390676119e+02   
1.004200000000000e+10    -1.562360381245028e+01   -1.638386941084562e+02   
1.004300000000000e+10    -1.564627205446662e+01   -1.640518905915032e+02   
1.004400000000000e+10    -1.566786145147658e+01   -1.642941811439266e+02   
1.004500000000000e+10    -1.567340033494598e+01   -1.643917876994025e+02   
1.004600000000000e+10    -1.570105729857009e+01   -1.645662207621906e+02   
1.004700000000000e+10    -1.571433584096771e+01   -1.647705481102230e+02   
1.004800000000000e+10    -1.572746629491015e+01   -1.649135128390249e+02   
1.004900000000000e+10    -1.574032484657044e+01   -1.650974941828360e+02   
1.005000000000000e+10    -1.576019032337543e+01   -1.653984666446081e+02   
1.005100000000000e+10    -1.575004522075782e+01   -1.653893051655758e+02   
1.005200000000000e+10    -1.579353719496272e+01   -1.655179731942994e+02   
1.005300000000000e+10    -1.580628576833937e+01   -1.657700755688346e+02   
1.005400000000000e+10    -1.582149811438324e+01   -1.659420368045053e+02   
1.005500000000000e+10    -1.584391224461425e+01   -1.660592624494363e+02   
1.005600000000000e+10    -1.587748737232374e+01   -1.662822921269296e+02   
1.005700000000000e+10    -1.588197394977131e+01   -1.663432332024093e+02   
1.005800000000000e+10    -1.589625682348055e+01   -1.665393353955928e+02   
1.005900000000000e+10    -1.591633310949305e+01   -1.667515444711640e+02   
1.006000000000000e+10    -1.593224488850420e+01   -1.668312512073982e+02   
1.006100000000000e+10    -1.596708539080886e+01   -1.669450440564760e+02   
1.006200000000000e+10    -1.598399698755584e+01   -1.671095708834541e+02   
1.006300000000000e+10    -1.601143942168222e+01   -1.672460503914122e+02   
1.006400000000000e+10    -1.601826394935836e+01   -1.673541126615555e+02   
1.006500000000000e+10    -1.604036337625333e+01   -1.675159980071972e+02   
1.006600000000000e+10    -1.607037567728721e+01   -1.675970145933306e+02   
1.006700000000000e+10    -1.608542205942013e+01   -1.678621263387232e+02   
1.006800000000000e+10    -1.610842789958206e+01   -1.678665182203161e+02   
1.006900000000000e+10    -1.613957288811833e+01   -1.680062697343164e+02   
1.007000000000000e+10    -1.615471332736643e+01   -1.681805079209884e+02   
1.007100000000000e+10    -1.616930176060460e+01   -1.683294993372283e+02   
1.007200000000000e+10    -1.620700999767658e+01   -1.683838004870932e+02   
1.007300000000000e+10    -1.622711738588231e+01   -1.686595215515516e+02   
1.007400000000000e+10    -1.624734975354406e+01   -1.686483517187683e+02   
1.007500000000000e+10    -1.629099463561456e+01   -1.688649465756333e+02   
1.007600000000000e+10    -1.632422505922585e+01   -1.690329008140170e+02   
1.007700000000000e+10    -1.633813213839155e+01   -1.690642482353290e+02   
1.007800000000000e+10    -1.637482191966902e+01   -1.691373629822969e+02   
1.007900000000000e+10    -1.639397884912891e+01   -1.693372092951000e+02   
1.008000000000000e+10    -1.644689492032418e+01   -1.695202571777536e+02   
1.008100000000000e+10    -1.646829903664091e+01   -1.695232717369204e+02   
1.008200000000000e+10    -1.649201002873662e+01   -1.695517983967778e+02   
1.008300000000000e+10    -1.652480930464239e+01   -1.697976995708730e+02   
1.008400000000000e+10    -1.657116851068231e+01   -1.699757961030813e+02   
1.008500000000000e+10    -1.658343094315650e+01   -1.700474512011292e+02   
1.008600000000000e+10    -1.661967052861798e+01   -1.701451193679449e+02   
1.008700000000000e+10    -1.664681591158843e+01   -1.703100297085056e+02   
1.008800000000000e+10    -1.667769881987989e+01   -1.704672613137500e+02   
1.008900000000000e+10    -1.672938734168750e+01   -1.706245038585466e+02   
1.009000000000000e+10    -1.675482148695298e+01   -1.707955575755124e+02   
1.009100000000000e+10    -1.680631545524080e+01   -1.708925335457765e+02   
1.009200000000000e+10    -1.683218717450532e+01   -1.711368202732700e+02   
1.009300000000000e+10    -1.684385908064347e+01   -1.712347029691027e+02   
1.009400000000000e+10    -1.689464121074541e+01   -1.714175092280848e+02   
1.009500000000000e+10    -1.693718750442040e+01   -1.714556523651148e+02   
1.009600000000000e+10    -1.695942745471431e+01   -1.715674750736408e+02   
1.009700000000000e+10    -1.700038212481554e+01   -1.717898344305738e+02   
1.009800000000000e+10    -1.701446971249951e+01   -1.718984240070245e+02   
1.009900000000000e+10    -1.707261558113332e+01   -1.719883563458074e+02   
1.010000000000000e+10    -1.709368462752153e+01   -1.723083448736485e+02   
1.010100000000000e+10    -1.713366746578403e+01   -1.723737579823768e+02   
1.010200000000000e+10    -1.715604896536604e+01   -1.725389388548658e+02   
1.010300000000000e+10    -1.720874761861409e+01   -1.726392251882069e+02   
1.010400000000000e+10    -1.722848968636790e+01   -1.728497118509321e+02   
1.010500000000000e+10    -1.724445531639315e+01   -1.731030353880532e+02   
1.010600000000000e+10    -1.729976847960602e+01   -1.732202330404110e+02   
1.010700000000000e+10    -1.732772280659207e+01   -1.733299225878565e+02   
1.010800000000000e+10    -1.733550945207376e+01   -1.735645463681606e+02   
1.010900000000000e+10    -1.737644397858469e+01   -1.736900034602611e+02   
1.011000000000000e+10    -1.740175596824578e+01   -1.738805863227823e+02   
1.011100000000000e+10    -1.744194232438270e+01   -1.740379833619311e+02   
1.011200000000000e+10    -1.746105288439315e+01   -1.743145523634618e+02   
1.011300000000000e+10    -1.751471568708441e+01   -1.744015495421558e+02   
1.011400000000000e+10    -1.753167450478274e+01   -1.744381383485745e+02   
1.011500000000000e+10    -1.757538701487621e+01   -1.746653898140275e+02   
1.011600000000000e+10    -1.759927364851469e+01   -1.749503639362260e+02   
1.011700000000000e+10    -1.763821669817754e+01   -1.749103672876140e+02   
1.011800000000000e+10    -1.767367060592866e+01   -1.751955745248365e+02   
1.011900000000000e+10    -1.768585868890652e+01   -1.752664658416585e+02   
1.012000000000000e+10    -1.771627327411801e+01   -1.753304950844669e+02   
1.012100000000000e+10    -1.775231701174467e+01   -1.756050664604490e+02   
1.012200000000000e+10    -1.777739491938113e+01   -1.756183893362360e+02   
1.012300000000000e+10    -1.779841227238910e+01   -1.758435333902402e+02   
1.012400000000000e+10    -1.783739239013456e+01   -1.758420225108985e+02   
1.012500000000000e+10    -1.788086240160845e+01   -1.759847897325025e+02   
1.012600000000000e+10    -1.790589412381815e+01   -1.761208606714835e+02   
1.012700000000000e+10    -1.792111545962743e+01   -1.762599953523904e+02   
1.012800000000000e+10    -1.796056781366889e+01   -1.763948369396176e+02   
1.012900000000000e+10    -1.798041413244062e+01   -1.764353016968332e+02   
1.013000000000000e+10    -1.801876950317691e+01   -1.767419635664345e+02   
1.013100000000000e+10    -1.805341950344208e+01   -1.766312576085843e+02   
1.013200000000000e+10    -1.805952640346127e+01   -1.768579913457506e+02   
1.013300000000000e+10    -1.810120102921499e+01   -1.768692817636758e+02   
1.013400000000000e+10    -1.812552294685291e+01   -1.771072119627967e+02   
1.013500000000000e+10    -1.816082680577100e+01   -1.771821255840092e+02   
1.013600000000000e+10    -1.817747533416308e+01   -1.773323782103401e+02   
1.013700000000000e+10    -1.822713903668246e+01   -1.773174948622663e+02   
1.013800000000000e+10    -1.823457816677109e+01   -1.775434302015240e+02   
1.013900000000000e+10    -1.826313802346489e+01   -1.775525969406822e+02   
1.014000000000000e+10    -1.831496045460551e+01   -1.778311899141965e+02   
1.014100000000000e+10    -1.833991398518885e+01   -1.778773734781705e+02   
1.014200000000000e+10    -1.837354615623226e+01   -1.780611771783709e+02   
1.014300000000000e+10    -1.839909322923852e+01   -1.780741436808871e+02   
1.014400000000000e+10    -1.843325798807879e+01   -1.783056548158830e+02   
1.014500000000000e+10    -1.845478192454658e+01   -1.782498996455765e+02   
1.014600000000000e+10    -1.848330718318190e+01   -1.783734347364981e+02   
1.014700000000000e+10    -1.852013488908705e+01   -1.784904839287915e+02   
1.014800000000000e+10    -1.854132828602466e+01   -1.786798750902729e+02   
1.014900000000000e+10    -1.857908441199844e+01   -1.785587562633484e+02   
1.015000000000000e+10    -1.862140051528877e+01   -1.788297719878721e+02   
1.015100000000000e+10    -1.864186411485134e+01   -1.787522020147869e+02   
1.015200000000000e+10    -1.868285846868639e+01   -1.788787762600310e+02   
1.015300000000000e+10    -1.868744663221605e+01   -1.789263763866695e+02   
1.015400000000000e+10    -1.874683488308202e+01   -1.791379488134079e+02   
1.015500000000000e+10    -1.877582084824264e+01   -1.790912792182600e+02   
1.015600000000000e+10    -1.882911250791705e+01   -1.791195597014606e+02   
1.015700000000000e+10    -1.885363412892752e+01   -1.791145982311683e+02   
1.015800000000000e+10    -1.888745256530915e+01   -1.791183132624114e+02   
1.015900000000000e+10    -1.890089571282783e+01   -1.792311271364534e+02   
1.016000000000000e+10    -1.893459063363331e+01   -1.794270334393583e+02   
1.016100000000000e+10    -1.898291414424214e+01   -1.795166514607617e+02   
1.016200000000000e+10    -1.902085903065740e+01   -1.795772838367305e+02   
1.016300000000000e+10    -1.905569232244508e+01   -1.795591122801433e+02   
1.016400000000000e+10    -1.910304804293044e+01   -1.796012105022433e+02   
1.016500000000000e+10    -1.914208882756642e+01   -1.795742306537932e+02   
1.016600000000000e+10    -1.919094405449783e+01   -1.797016375619158e+02   
1.016700000000000e+10    -1.921721725133347e+01   -1.797948117946202e+02   
1.016800000000000e+10    -1.926262177760050e+01   -1.797407341595423e+02   
1.016900000000000e+10    -1.930174576217770e+01   -1.799496701457971e+02   
1.017000000000000e+10    -1.933017361060316e+01   -1.799369869364123e+02   
1.017100000000000e+10    -1.937527471181994e+01   1.798288648806868e+02    
1.017200000000000e+10    -1.943364799745584e+01   1.799913742190331e+02    
1.017300000000000e+10    -1.947898838762567e+01   1.799754922173860e+02    
1.017400000000000e+10    -1.951021444304172e+01   1.799606082086624e+02    
1.017500000000000e+10    -1.959072913676232e+01   1.797319521976437e+02    
1.017600000000000e+10    -1.957856640590375e+01   1.797582468522593e+02    
1.017700000000000e+10    -1.963854195779443e+01   1.796465083255638e+02    
1.017800000000000e+10    -1.969175059759603e+01   1.796722620326696e+02    
1.017900000000000e+10    -1.971187323182002e+01   1.796936693024518e+02    
1.018000000000000e+10    -1.980049213633770e+01   1.795102433751760e+02    
1.018100000000000e+10    -1.982141189171580e+01   1.795123894416444e+02    
1.018200000000000e+10    -1.988850436243846e+01   1.792895390710750e+02    
1.018300000000000e+10    -1.991295866680243e+01   1.792493397047382e+02    
1.018400000000000e+10    -1.993680454069387e+01   1.792792723864511e+02    
1.018500000000000e+10    -1.998648771514299e+01   1.791164291343991e+02    
1.018600000000000e+10    -2.003724849958708e+01   1.791394222177846e+02    
1.018700000000000e+10    -2.009853159286877e+01   1.789999975605776e+02    
1.018800000000000e+10    -2.015877962115905e+01   1.790663782398619e+02    
1.018900000000000e+10    -2.019655544818581e+01   1.790875629136146e+02    
1.019000000000000e+10    -2.023587926186291e+01   1.790098981852338e+02    
1.019100000000000e+10    -2.026927776782219e+01   1.788998973332387e+02    
1.019200000000000e+10    -2.029260715886389e+01   1.789541756083186e+02    
1.019300000000000e+10    -2.033318761120643e+01   1.790017883365689e+02    
1.019400000000000e+10    -2.039200023746421e+01   1.788294166157236e+02    
1.019500000000000e+10    -2.044226382008539e+01   1.788818752245544e+02    
1.019600000000000e+10    -2.048987683895673e+01   1.787120178743209e+02    
1.019700000000000e+10    -2.052504635758532e+01   1.787596972688987e+02    
1.019800000000000e+10    -2.054721648155037e+01   1.786646916534878e+02    
1.019900000000000e+10    -2.060353964650528e+01   1.787542881563932e+02    
1.020000000000000e+10    -2.067159187503319e+01   1.785553653717072e+02    
1.020100000000000e+10    -2.068690407042844e+01   1.787593887503118e+02    
1.020200000000000e+10    -2.074976180065505e+01   1.786984552193450e+02    
1.020300000000000e+10    -2.079833186851760e+01   1.789030692351090e+02    
1.020400000000000e+10    -2.085849699955137e+01   1.787698553609611e+02    
1.020500000000000e+10    -2.089154241102182e+01   1.786666943311067e+02    
1.020600000000000e+10    -2.091636534705211e+01   1.788100577465156e+02    
1.020700000000000e+10    -2.094004048860686e+01   1.787563190296745e+02    
1.020800000000000e+10    -2.100726388740711e+01   1.788150248490695e+02    
1.020900000000000e+10    -2.107643761407488e+01   1.785934783397598e+02    
1.021000000000000e+10    -2.112072474953186e+01   1.786055888347415e+02    
1.021100000000000e+10    -2.116046972943967e+01   1.787561899645668e+02    
1.021200000000000e+10    -2.123877779975210e+01   1.786577050006805e+02    
1.021300000000000e+10    -2.127884888161055e+01   1.787113820372712e+02    
1.021400000000000e+10    -2.133051081982707e+01   1.787578936888654e+02    
1.021500000000000e+10    -2.137637943391118e+01   1.789342569581369e+02    
1.021600000000000e+10    -2.141073911017337e+01   1.787834754539670e+02    
1.021700000000000e+10    -2.145973367803510e+01   1.788251614045602e+02    
1.021800000000000e+10    -2.151054765649193e+01   1.789174087176591e+02    
1.021900000000000e+10    -2.159133491078209e+01   1.789682620736894e+02    
1.022000000000000e+10    -2.162746885721894e+01   1.788751468261856e+02    
1.022100000000000e+10    -2.165380070887178e+01   1.789318343187990e+02    
1.022200000000000e+10    -2.176740575349913e+01   1.789542659360787e+02    
1.022300000000000e+10    -2.180371941952917e+01   1.790235099189935e+02    
1.022400000000000e+10    -2.185743944644168e+01   1.789173849197962e+02    
1.022500000000000e+10    -2.191074503478201e+01   1.791708138881820e+02    
1.022600000000000e+10    -2.197563743567225e+01   1.788268917629684e+02    
1.022700000000000e+10    -2.202392563865099e+01   1.790106499068189e+02    
1.022800000000000e+10    -2.207628053316821e+01   1.790320544554689e+02    
1.022900000000000e+10    -2.212771278739762e+01   1.789292043987707e+02    
1.023000000000000e+10    -2.216074094064276e+01   1.791111096117091e+02    
1.023100000000000e+10    -2.220038616194055e+01   1.791400608068151e+02    
1.023200000000000e+10    -2.226963634210230e+01   1.790047390456709e+02    
1.023300000000000e+10    -2.233905320873716e+01   1.791412910450799e+02    
1.023400000000000e+10    -2.237336049127605e+01   1.791170244124914e+02    
1.023500000000000e+10    -2.249543704557983e+01   1.791602844734008e+02    
1.023600000000000e+10    -2.248410302721677e+01   1.794688905601470e+02    
1.023700000000000e+10    -2.255137696127164e+01   1.791965059463890e+02    
1.023800000000000e+10    -2.261133265789752e+01   1.795249480931217e+02    
1.023900000000000e+10    -2.264444483671719e+01   1.792365911041967e+02    
1.024000000000000e+10    -2.274974905560747e+01   1.793688170942266e+02    
1.024100000000000e+10    -2.277024221338366e+01   1.797583260943483e+02    
1.024200000000000e+10    -2.282008303069411e+01   1.796265216434089e+02    
1.024300000000000e+10    -2.290656316445279e+01   1.796741016816016e+02    
1.024400000000000e+10    -2.295638691656562e+01   1.796316949368945e+02    
1.024500000000000e+10    -2.297863734541849e+01   1.798952116199941e+02    
1.024600000000000e+10    -2.303387231829117e+01   1.797820610703637e+02    
1.024700000000000e+10    -2.308644690936498e+01   1.798682313450954e+02    
1.024800000000000e+10    -2.316063146138003e+01   -1.798490786586945e+02   
1.024900000000000e+10    -2.323794810960766e+01   1.798414112080443e+02    
1.025000000000000e+10    -2.325270997166182e+01   -1.799519595024628e+02   
1.025100000000000e+10    -2.329090927476730e+01   -1.795800280584035e+02   
1.025200000000000e+10    -2.336254314335370e+01   -1.798815047653455e+02   
1.025300000000000e+10    -2.339090242130911e+01   -1.794669396595540e+02   
1.025400000000000e+10    -2.345749439836158e+01   -1.794267661834283e+02   
1.025500000000000e+10    -2.354784818209595e+01   -1.795186395891062e+02   
1.025600000000000e+10    -2.358256309192900e+01   -1.793550266257700e+02   
