[Version] 2.0
! Rohde & Schwarz Vector Network Analyzer
! Rohde-Schwarz,ZNL20-2Port,1323001220200009,1.71.1.10-23.02.1.238
! 
! Port Assignments:
! Nominal Port -> Actual Test Port
! --------------------------------
!   1 -> 1

! Created: GMT 2024-08-27 12:40:54

# Hz S DB R 50

[Number of Ports] 1
[Number of Frequencies] 2001

[Network Data] 
! freq[Hz]               S11[mag dB]              S11[ang]                 
1.000000000000000e+10    -1.322890295238380e+01   -1.326265030954583e+02   
1.000100000000000e+10    -1.323249953387710e+01   -1.327286694090970e+02   
1.000200000000000e+10    -1.322865499735086e+01   -1.328327613026112e+02   
1.000300000000000e+10    -1.323497831864068e+01   -1.330491502806818e+02   
1.000400000000000e+10    -1.323341092718408e+01   -1.332970040081563e+02   
1.000500000000000e+10    -1.323218873589686e+01   -1.334775243740428e+02   
1.000600000000000e+10    -1.323993060657896e+01   -1.336267052874830e+02   
1.000700000000000e+10    -1.323905102025297e+01   -1.337737531728733e+02   
1.000800000000000e+10    -1.324341301099063e+01   -1.339789389650843e+02   
1.000900000000000e+10    -1.325402220420146e+01   -1.342331339458030e+02   
1.001000000000000e+10    -1.325545465318175e+01   -1.343205064448619e+02   
1.001100000000000e+10    -1.325985223009465e+01   -1.345390023319843e+02   
1.001200000000000e+10    -1.325587088570623e+01   -1.347150843783437e+02   
1.001300000000000e+10    -1.327380590136988e+01   -1.349243280223832e+02   
1.001400000000000e+10    -1.326728631361779e+01   -1.351527131363195e+02   
1.001500000000000e+10    -1.327119902515997e+01   -1.353156848379234e+02   
1.001600000000000e+10    -1.326312961593894e+01   -1.355067309276254e+02   
1.001700000000000e+10    -1.327654959043478e+01   -1.357577009781082e+02   
1.001800000000000e+10    -1.327354961466658e+01   -1.359706864306569e+02   
1.001900000000000e+10    -1.327699249114405e+01   -1.361543117122730e+02   
1.002000000000000e+10    -1.328277807028267e+01   -1.364138537556243e+02   
1.002100000000000e+10    -1.328309743878348e+01   -1.366319964062390e+02   
1.002200000000000e+10    -1.328152634794297e+01   -1.367934606783151e+02   
1.002300000000000e+10    -1.327832821612963e+01   -1.370164095188790e+02   
1.002400000000000e+10    -1.327441443677087e+01   -1.372537513107987e+02   
1.002500000000000e+10    -1.328948442911053e+01   -1.374097093083841e+02   
1.002600000000000e+10    -1.328932066746354e+01   -1.377356867347013e+02   
1.002700000000000e+10    -1.328571792515307e+01   -1.379518694809701e+02   
1.002800000000000e+10    -1.328957934474025e+01   -1.381024085201099e+02   
1.002900000000000e+10    -1.328519182691995e+01   -1.382667597307045e+02   
1.003000000000000e+10    -1.329782033353215e+01   -1.384532331212158e+02   
1.003100000000000e+10    -1.328246950591008e+01   -1.387354381976932e+02   
1.003200000000000e+10    -1.328657541410948e+01   -1.389704244031594e+02   
1.003300000000000e+10    -1.327391391579572e+01   -1.391785839859834e+02   
1.003400000000000e+10    -1.327419925473107e+01   -1.393273746746980e+02   
1.003500000000000e+10    -1.328331294225117e+01   -1.395680962594355e+02   
1.003600000000000e+10    -1.326197090395877e+01   -1.397061345665970e+02   
1.003700000000000e+10    -1.327134052470841e+01   -1.399574147502729e+02   
1.003800000000000e+10    -1.326833514229515e+01   -1.401941536249775e+02   
1.003900000000000e+10    -1.327249760192558e+01   -1.404054886051917e+02   
1.004000000000000e+10    -1.325811224463536e+01   -1.406529795668877e+02   
1.004100000000000e+10    -1.326519885450963e+01   -1.408323592142308e+02   
1.004200000000000e+10    -1.325179102004804e+01   -1.410289174159428e+02   
1.004300000000000e+10    -1.325686972153930e+01   -1.412277951201552e+02   
1.004400000000000e+10    -1.326042359652162e+01   -1.414749547541286e+02   
1.004500000000000e+10    -1.324777111628942e+01   -1.416349910492751e+02   
1.004600000000000e+10    -1.325246372304201e+01   -1.418206224210423e+02   
1.004700000000000e+10    -1.325068805434679e+01   -1.420557581515789e+02   
1.004800000000000e+10    -1.324509827553710e+01   -1.422310737069757e+02   
1.004900000000000e+10    -1.323973907845162e+01   -1.424518450648600e+02   
1.005000000000000e+10    -1.324354959550354e+01   -1.427502615361797e+02   
1.005100000000000e+10    -1.322378128438188e+01   -1.428357815001812e+02   
1.005200000000000e+10    -1.323447703497924e+01   -1.430001661018437e+02   
1.005300000000000e+10    -1.323290152194989e+01   -1.432650665869423e+02   
1.005400000000000e+10    -1.323130034817488e+01   -1.434576456701232e+02   
1.005500000000000e+10    -1.323206454940281e+01   -1.436443120003123e+02   
1.005600000000000e+10    -1.324629861774021e+01   -1.438489606746241e+02   
1.005700000000000e+10    -1.323122880437027e+01   -1.440181743611352e+02   
1.005800000000000e+10    -1.323295018435697e+01   -1.442540497354328e+02   
1.005900000000000e+10    -1.323686441499701e+01   -1.444785289521850e+02   
1.006000000000000e+10    -1.323188144587257e+01   -1.446351992637652e+02   
1.006100000000000e+10    -1.324327030060135e+01   -1.447719820159192e+02   
1.006200000000000e+10    -1.324386852938999e+01   -1.449911938800523e+02   
1.006300000000000e+10    -1.324789207875939e+01   -1.451602961816565e+02   
1.006400000000000e+10    -1.324028156154572e+01   -1.453658410526797e+02   
1.006500000000000e+10    -1.324584247972044e+01   -1.455484753453746e+02   
1.006600000000000e+10    -1.325085388313105e+01   -1.456771994447020e+02   
1.006700000000000e+10    -1.325413052511155e+01   -1.459310232938979e+02   
1.006800000000000e+10    -1.325006267468940e+01   -1.460391205499322e+02   
1.006900000000000e+10    -1.325503185534334e+01   -1.461959778832426e+02   
1.007000000000000e+10    -1.325314397532055e+01   -1.464187589308121e+02   
1.007100000000000e+10    -1.324990368105871e+01   -1.466282500655235e+02   
1.007200000000000e+10    -1.325837043956603e+01   -1.467499556026968e+02   
1.007300000000000e+10    -1.326570373163834e+01   -1.470308974994838e+02   
1.007400000000000e+10    -1.325838826784683e+01   -1.471162275307295e+02   
1.007500000000000e+10    -1.327682948403767e+01   -1.473304119317696e+02   
1.007600000000000e+10    -1.328679059976545e+01   -1.475251580307001e+02   
1.007700000000000e+10    -1.327854480490956e+01   -1.476681661407802e+02   
1.007800000000000e+10    -1.328679832069579e+01   -1.478101261386086e+02   
1.007900000000000e+10    -1.328801796286328e+01   -1.480488888292753e+02   
1.008000000000000e+10    -1.331105408400770e+01   -1.482203672901310e+02   
1.008100000000000e+10    -1.330578641356122e+01   -1.483687380745401e+02   
1.008200000000000e+10    -1.330618474022944e+01   -1.484891686933002e+02   
1.008300000000000e+10    -1.331829536184848e+01   -1.487379277312047e+02   
1.008400000000000e+10    -1.333706286641760e+01   -1.489219542371580e+02   
1.008500000000000e+10    -1.333111776923662e+01   -1.490933829905035e+02   
1.008600000000000e+10    -1.334147314422075e+01   -1.492712858141327e+02   
1.008700000000000e+10    -1.334799834058568e+01   -1.494752340016753e+02   
1.008800000000000e+10    -1.335665207748607e+01   -1.496809318912397e+02   
1.008900000000000e+10    -1.337747281104839e+01   -1.498553816867032e+02   
1.009000000000000e+10    -1.338515710444992e+01   -1.500684848518027e+02   
1.009100000000000e+10    -1.340272834062548e+01   -1.502013237467818e+02   
1.009200000000000e+10    -1.341167571462295e+01   -1.504710940206834e+02   
1.009300000000000e+10    -1.340720908404787e+01   -1.506560068802621e+02   
1.009400000000000e+10    -1.343086017456656e+01   -1.508467843915870e+02   
1.009500000000000e+10    -1.344125074350744e+01   -1.509691945572390e+02   
1.009600000000000e+10    -1.344744103399601e+01   -1.511744505317151e+02   
1.009700000000000e+10    -1.346350769030191e+01   -1.514022986873220e+02   
1.009800000000000e+10    -1.346574060377433e+01   -1.515904624979174e+02   
1.009900000000000e+10    -1.348897907984147e+01   -1.517284234752259e+02   
1.010000000000000e+10    -1.349654686484203e+01   -1.520672014831972e+02   
1.010100000000000e+10    -1.351457729251584e+01   -1.521554437250528e+02   
1.010200000000000e+10    -1.351802220397237e+01   -1.524042372594107e+02   
1.010300000000000e+10    -1.353887392207234e+01   -1.525509558487495e+02   
1.010400000000000e+10    -1.354451962116208e+01   -1.527860512578924e+02   
1.010500000000000e+10    -1.354928765746338e+01   -1.530750860459745e+02   
1.010600000000000e+10    -1.357158829642552e+01   -1.532158698805338e+02   
1.010700000000000e+10    -1.357950841872129e+01   -1.534111464639599e+02   
1.010800000000000e+10    -1.357965681674594e+01   -1.536856947885593e+02   
1.010900000000000e+10    -1.359306585870587e+01   -1.538592064878181e+02   
1.011000000000000e+10    -1.360068620111119e+01   -1.540989394607302e+02   
1.011100000000000e+10    -1.361611494652654e+01   -1.542925165939899e+02   
1.011200000000000e+10    -1.362244873380424e+01   -1.545737914604367e+02   
1.011300000000000e+10    -1.364391471104356e+01   -1.547091128604596e+02   
1.011400000000000e+10    -1.363777993803284e+01   -1.548760756613467e+02   
1.011500000000000e+10    -1.365771234292625e+01   -1.551155385574019e+02   
1.011600000000000e+10    -1.366654608344314e+01   -1.554220735128290e+02   
1.011700000000000e+10    -1.367483328786660e+01   -1.555149192519651e+02   
1.011800000000000e+10    -1.369127115974527e+01   -1.558193145843371e+02   
1.011900000000000e+10    -1.369092992776362e+01   -1.560214448466544e+02   
1.012000000000000e+10    -1.369909389092476e+01   -1.561800588108222e+02   
1.012100000000000e+10    -1.371737890160170e+01   -1.564572506086727e+02   
1.012200000000000e+10    -1.372024891276697e+01   -1.565975090059958e+02   
1.012300000000000e+10    -1.372985944768741e+01   -1.568742572336752e+02   
1.012400000000000e+10    -1.374069810569844e+01   -1.569855319742794e+02   
1.012500000000000e+10    -1.375859856637836e+01   -1.571779922950437e+02   
1.012600000000000e+10    -1.376768104104966e+01   -1.573848586595845e+02   
1.012700000000000e+10    -1.377016312683164e+01   -1.576099259384388e+02   
1.012800000000000e+10    -1.378644830477078e+01   -1.577802630273765e+02   
1.012900000000000e+10    -1.378934208094428e+01   -1.579517572776721e+02   
1.013000000000000e+10    -1.381006355763870e+01   -1.582332650015581e+02   
1.013100000000000e+10    -1.381743595406463e+01   -1.582956293928018e+02   
1.013200000000000e+10    -1.381678916137525e+01   -1.585640917041310e+02   
1.013300000000000e+10    -1.382984795396751e+01   -1.586973643028283e+02   
1.013400000000000e+10    -1.384272711600481e+01   -1.589459467611956e+02   
1.013500000000000e+10    -1.385433525552077e+01   -1.591129043027418e+02   
1.013600000000000e+10    -1.385845844636660e+01   -1.593313135726274e+02   
1.013700000000000e+10    -1.387711321057455e+01   -1.594254886322392e+02   
1.013800000000000e+10    -1.387767362809440e+01   -1.596895677283732e+02   
1.013900000000000e+10    -1.388465361966495e+01   -1.598157931558915e+02   
1.014000000000000e+10    -1.390941041606948e+01   -1.600623274474583e+02   
1.014100000000000e+10    -1.391372227593313e+01   -1.602163589227763e+02   
1.014200000000000e+10    -1.392561928400538e+01   -1.604572830251750e+02   
1.014300000000000e+10    -1.393025658528271e+01   -1.605962163194274e+02   
1.014400000000000e+10    -1.394576967230879e+01   -1.608575370645103e+02   
1.014500000000000e+10    -1.394722153925201e+01   -1.609856491183018e+02   
1.014600000000000e+10    -1.395609044149893e+01   -1.611798719582114e+02   
1.014700000000000e+10    -1.397070927120896e+01   -1.613836878808960e+02   
1.014800000000000e+10    -1.397883659074801e+01   -1.616271094257223e+02   
1.014900000000000e+10    -1.398576844396697e+01   -1.616851857941854e+02   
1.015000000000000e+10    -1.400385641365830e+01   -1.619904596236849e+02   
1.015100000000000e+10    -1.401081515817281e+01   -1.620444646643269e+02   
1.015200000000000e+10    -1.402746391297842e+01   -1.622677327631563e+02   
1.015300000000000e+10    -1.402571681682871e+01   -1.624421622702510e+02   
1.015400000000000e+10    -1.405154776678217e+01   -1.626585440030235e+02   
1.015500000000000e+10    -1.405736557063180e+01   -1.627709313398739e+02   
1.015600000000000e+10    -1.407702640706931e+01   -1.628920080629017e+02   
1.015700000000000e+10    -1.408026514004380e+01   -1.630295818111053e+02   
1.015800000000000e+10    -1.408843296447274e+01   -1.631720625066510e+02   
1.015900000000000e+10    -1.408861634502075e+01   -1.633948592902282e+02   
1.016000000000000e+10    -1.410566490240049e+01   -1.636197166050882e+02   
1.016100000000000e+10    -1.412363920249982e+01   -1.637751516056153e+02   
1.016200000000000e+10    -1.413439712031413e+01   -1.639450715796675e+02   
1.016300000000000e+10    -1.414272958311566e+01   -1.640763765398981e+02   
1.016400000000000e+10    -1.415914543236399e+01   -1.642437510144496e+02   
1.016500000000000e+10    -1.416979141130661e+01   -1.643630022513053e+02   
1.016600000000000e+10    -1.419371668068018e+01   -1.645724294922735e+02   
1.016700000000000e+10    -1.420256679002059e+01   -1.647555749544785e+02   
1.016800000000000e+10    -1.421518390934336e+01   -1.648560203987051e+02   
1.016900000000000e+10    -1.423014760904797e+01   -1.651082730828693e+02   
1.017000000000000e+10    -1.423871046827337e+01   -1.652371797467947e+02   
1.017100000000000e+10    -1.425847983654137e+01   -1.654805311980557e+02   
1.017200000000000e+10    -1.427864297595641e+01   -1.655249978009976e+02   
1.017300000000000e+10    -1.429440640799518e+01   -1.656772168466495e+02   
1.017400000000000e+10    -1.430349609450295e+01   -1.658360962709464e+02   
1.017500000000000e+10    -1.434149656118409e+01   -1.660728516354110e+02   
1.017600000000000e+10    -1.432629072691525e+01   -1.662144257988012e+02   
1.017700000000000e+10    -1.435421695699170e+01   -1.664181906776184e+02   
1.017800000000000e+10    -1.437149570084534e+01   -1.665524190455081e+02   
1.017900000000000e+10    -1.437459735983396e+01   -1.666912538968321e+02   
1.018000000000000e+10    -1.441605978122591e+01   -1.669098771387149e+02   
1.018100000000000e+10    -1.442032424699550e+01   -1.670740163149199e+02   
1.018200000000000e+10    -1.445271483754633e+01   -1.673118472649732e+02   
1.018300000000000e+10    -1.445965298703947e+01   -1.675054612873179e+02   
1.018400000000000e+10    -1.446694241790455e+01   -1.676488912724666e+02   
1.018500000000000e+10    -1.448866094514991e+01   -1.678925058081692e+02   
1.018600000000000e+10    -1.450881705706693e+01   -1.680312735260322e+02   
1.018700000000000e+10    -1.453634485843136e+01   -1.682547282648950e+02   
1.018800000000000e+10    -1.456008187982157e+01   -1.683349515471574e+02   
1.018900000000000e+10    -1.457415851872108e+01   -1.684951301509286e+02   
1.019000000000000e+10    -1.459340699864440e+01   -1.686895755040560e+02   
1.019100000000000e+10    -1.460947989038225e+01   -1.688631645587120e+02   
1.019200000000000e+10    -1.461650580448737e+01   -1.690140515203191e+02   
1.019300000000000e+10    -1.462950591803409e+01   -1.691242425224810e+02   
1.019400000000000e+10    -1.465572256245627e+01   -1.693418988121504e+02   
1.019500000000000e+10    -1.467270549003435e+01   -1.694545816487766e+02   
1.019600000000000e+10    -1.469115817898683e+01   -1.696729279208679e+02   
1.019700000000000e+10    -1.470223267787911e+01   -1.698267141176664e+02   
1.019800000000000e+10    -1.471040651790153e+01   -1.700339798792925e+02   
1.019900000000000e+10    -1.473269434960329e+01   -1.701512290294318e+02   
1.020000000000000e+10    -1.476394523409726e+01   -1.704063180827555e+02   
1.020100000000000e+10    -1.476448019452551e+01   -1.704000865780534e+02   
1.020200000000000e+10    -1.479263442595825e+01   -1.706287703209599e+02   
1.020300000000000e+10    -1.480989123594143e+01   -1.706565873325962e+02   
1.020400000000000e+10    -1.483367920600463e+01   -1.708607430750627e+02   
1.020500000000000e+10    -1.484537220751788e+01   -1.710638572874254e+02   
1.020600000000000e+10    -1.485502060100156e+01   -1.711513096888548e+02   
1.020700000000000e+10    -1.486109885583769e+01   -1.713192785341759e+02   
1.020800000000000e+10    -1.488653602158312e+01   -1.714262743996256e+02   
1.020900000000000e+10    -1.491257019290862e+01   -1.716648485542729e+02   
1.021000000000000e+10    -1.492648400808669e+01   -1.717817544372932e+02   
1.021100000000000e+10    -1.493819589259024e+01   -1.718925137623180e+02   
1.021200000000000e+10    -1.496833120212013e+01   -1.720809195689753e+02   
1.021300000000000e+10    -1.498002943021261e+01   -1.722226997988023e+02   
1.021400000000000e+10    -1.499806602640917e+01   -1.723677460305754e+02   
1.021500000000000e+10    -1.501750980856210e+01   -1.724621967716087e+02   
1.021600000000000e+10    -1.502957289803038e+01   -1.726919396482678e+02   
1.021700000000000e+10    -1.504764833570347e+01   -1.728385462629271e+02   
1.021800000000000e+10    -1.506883645794316e+01   -1.729351592066234e+02   
1.021900000000000e+10    -1.510084291845184e+01   -1.730629857176039e+02   
1.022000000000000e+10    -1.511151011950480e+01   -1.732510634698998e+02   
1.022100000000000e+10    -1.511761288107771e+01   -1.733859065163162e+02   
1.022200000000000e+10    -1.516452838330888e+01   -1.735121936541634e+02   
1.022300000000000e+10    -1.517352053523700e+01   -1.736437036694372e+02   
1.022400000000000e+10    -1.518962346236729e+01   -1.738340910305451e+02   
1.022500000000000e+10    -1.520655501489801e+01   -1.739061144186605e+02   
1.022600000000000e+10    -1.522877068726470e+01   -1.742215313667250e+02   
1.022700000000000e+10    -1.524654131230449e+01   -1.743289417200066e+02   
1.022800000000000e+10    -1.526041687559679e+01   -1.744870486243439e+02   
1.022900000000000e+10    -1.528061143715028e+01   -1.747161019715148e+02   
1.023000000000000e+10    -1.528715267524390e+01   -1.748211090198450e+02   
1.023100000000000e+10    -1.530011444815461e+01   -1.750122613897236e+02   
1.023200000000000e+10    -1.532690837777313e+01   -1.752282790727006e+02   
1.023300000000000e+10    -1.535181212751391e+01   -1.753561630341864e+02   
1.023400000000000e+10    -1.536566972483374e+01   -1.755535215831119e+02   
1.023500000000000e+10    -1.541334297261112e+01   -1.757037277440076e+02   
1.023600000000000e+10    -1.540571847596509e+01   -1.757685654917900e+02   
1.023700000000000e+10    -1.542895460647953e+01   -1.760449292914479e+02   
1.023800000000000e+10    -1.545227292979018e+01   -1.761030306280454e+02   
1.023900000000000e+10    -1.545971235464625e+01   -1.763919008782202e+02   
1.024000000000000e+10    -1.549832325250626e+01   -1.764947124514703e+02   
1.024100000000000e+10    -1.550220733563989e+01   -1.765193495731543e+02   
1.024200000000000e+10    -1.551619662190975e+01   -1.767632605984278e+02   
1.024300000000000e+10    -1.554595185603840e+01   -1.769420088451718e+02   
1.024400000000000e+10    -1.556058261191127e+01   -1.771507741662050e+02   
1.024500000000000e+10    -1.556902528711258e+01   -1.772418543504700e+02   
1.024600000000000e+10    -1.558616634747586e+01   -1.774831052266958e+02   
1.024700000000000e+10    -1.560388919009070e+01   -1.776538505541705e+02   
1.024800000000000e+10    -1.563018664671227e+01   -1.777358805295201e+02   
1.024900000000000e+10    -1.565766119417694e+01   -1.780464794475431e+02   
1.025000000000000e+10    -1.566383928792324e+01   -1.782085206335837e+02   
1.025100000000000e+10    -1.567637903138782e+01   -1.781657978206271e+02   
1.025200000000000e+10    -1.570321467979802e+01   -1.785016803398337e+02   
1.025300000000000e+10    -1.571080984327301e+01   -1.785253489759515e+02   
1.025400000000000e+10    -1.573369768781981e+01   -1.787033037660937e+02   
1.025500000000000e+10    -1.577074127538952e+01   -1.789055528157380e+02   
1.025600000000000e+10    -1.578163499931037e+01   -1.790510920194490e+02   
