[Version] 2.0
! Rohde & Schwarz Vector Network Analyzer
! Rohde-Schwarz,ZNL20-2Port,1323001220200009,1.71.1.10-23.02.1.238
! 
! Trace info:
! Nominal Param -> Actual Exported Buffer
! ---------------------------------------
! S11 -> S22

! Created: GMT+3 2024-09-24 16:36:27

# Hz S DB R 50

[Number of Ports] 1
[Number of Frequencies] 6001

[Network Data] 
! freq[Hz]               S11[mag dB]              S11[ang]                 
7.000000000000000e+09    -1.812896547388342e+01   -1.422560350658133e+02   
7.001000000000000e+09    -1.815102760407739e+01   -1.422758370498152e+02   
7.002000000000000e+09    -1.817804909306038e+01   -1.422452395738280e+02   
7.003000000000000e+09    -1.820179599697712e+01   -1.423286657260241e+02   
7.004000000000000e+09    -1.822881282419015e+01   -1.423365260003172e+02   
7.005000000000000e+09    -1.826141248316328e+01   -1.423838550218316e+02   
7.006000000000000e+09    -1.828721982351035e+01   -1.424700169724076e+02   
7.007000000000000e+09    -1.831384041257810e+01   -1.426020830728559e+02   
7.008000000000000e+09    -1.833783871804553e+01   -1.427186064930748e+02   
7.009000000000000e+09    -1.835478173559216e+01   -1.428784848952107e+02   
7.010000000000000e+09    -1.837634742665696e+01   -1.430794325997618e+02   
7.011000000000000e+09    -1.839504488079191e+01   -1.432696946620972e+02   
7.012000000000000e+09    -1.841158588805040e+01   -1.435119838711419e+02   
7.013000000000000e+09    -1.843274053410466e+01   -1.437646107180392e+02   
7.014000000000000e+09    -1.844848983455741e+01   -1.440777274318942e+02   
7.015000000000000e+09    -1.846181335916299e+01   -1.443716393160335e+02   
7.016000000000000e+09    -1.847758729322809e+01   -1.446506386383139e+02   
7.017000000000000e+09    -1.848928020678597e+01   -1.450383932862090e+02   
7.018000000000000e+09    -1.849243536033958e+01   -1.453380235224274e+02   
7.019000000000000e+09    -1.849719857957321e+01   -1.456291483882152e+02   
7.020000000000000e+09    -1.851086949420444e+01   -1.460702003545360e+02   
7.021000000000000e+09    -1.850882081987204e+01   -1.464227415310312e+02   
7.022000000000000e+09    -1.851597793675593e+01   -1.467369364185390e+02   
7.023000000000000e+09    -1.851172803196011e+01   -1.471834218184451e+02   
7.024000000000000e+09    -1.849911963498942e+01   -1.475374561828957e+02   
7.025000000000000e+09    -1.850048130013512e+01   -1.479080528574598e+02   
7.026000000000000e+09    -1.848057482924854e+01   -1.482897826912162e+02   
7.027000000000000e+09    -1.847394005062014e+01   -1.487045607780980e+02   
7.028000000000000e+09    -1.846346023206245e+01   -1.491388716057410e+02   
7.029000000000000e+09    -1.845405656601695e+01   -1.495843507858462e+02   
7.030000000000000e+09    -1.843794583970089e+01   -1.499604366923815e+02   
7.031000000000000e+09    -1.842810670220579e+01   -1.503602305582326e+02   
7.032000000000000e+09    -1.841728194376542e+01   -1.507870453191924e+02   
7.033000000000000e+09    -1.839893812704630e+01   -1.511575862047215e+02   
7.034000000000000e+09    -1.838240157335383e+01   -1.515252090239325e+02   
7.035000000000000e+09    -1.836103967988579e+01   -1.519122483268058e+02   
7.036000000000000e+09    -1.834585996245609e+01   -1.522653557144487e+02   
7.037000000000000e+09    -1.831644963465624e+01   -1.526021779390359e+02   
7.038000000000000e+09    -1.829372387360042e+01   -1.529750940418536e+02   
7.039000000000000e+09    -1.827565289235657e+01   -1.532945679425479e+02   
7.040000000000000e+09    -1.824755770713761e+01   -1.537187954135052e+02   
7.041000000000000e+09    -1.822099850854497e+01   -1.540065101785783e+02   
7.042000000000000e+09    -1.820237811670582e+01   -1.543692397337321e+02   
7.043000000000000e+09    -1.817432713867121e+01   -1.547389598205555e+02   
7.044000000000000e+09    -1.814042976846629e+01   -1.550064612235985e+02   
7.045000000000000e+09    -1.811918908053588e+01   -1.553331570112111e+02   
7.046000000000000e+09    -1.808917645620678e+01   -1.556047224659532e+02   
7.047000000000000e+09    -1.806533302978014e+01   -1.558094233415628e+02   
7.048000000000000e+09    -1.804114842607643e+01   -1.561050574207307e+02   
7.049000000000000e+09    -1.800091255648965e+01   -1.563286590997735e+02   
7.050000000000000e+09    -1.797773169745740e+01   -1.565407865651242e+02   
7.051000000000000e+09    -1.794286827332507e+01   -1.567656543703758e+02   
7.052000000000000e+09    -1.792094184812535e+01   -1.569439165146134e+02   
7.053000000000000e+09    -1.789930745330549e+01   -1.571029637078986e+02   
7.054000000000000e+09    -1.786039342930744e+01   -1.572617167476958e+02   
7.055000000000000e+09    -1.784448194934590e+01   -1.574476855540836e+02   
7.056000000000000e+09    -1.781471701056324e+01   -1.575153485840135e+02   
7.057000000000000e+09    -1.777954593032217e+01   -1.576786096819382e+02   
7.058000000000000e+09    -1.776640396037385e+01   -1.577728969429537e+02   
7.059000000000000e+09    -1.773734056269672e+01   -1.578646714425726e+02   
7.060000000000000e+09    -1.771213865333952e+01   -1.579553125113129e+02   
7.061000000000000e+09    -1.770191190681957e+01   -1.579728052701733e+02   
7.062000000000000e+09    -1.767218407567443e+01   -1.580210875626472e+02   
7.063000000000000e+09    -1.766203087025902e+01   -1.579856745495800e+02   
7.064000000000000e+09    -1.764643649555037e+01   -1.579981505971484e+02   
7.065000000000000e+09    -1.763857787371232e+01   -1.580369964581280e+02   
7.066000000000000e+09    -1.762896580308768e+01   -1.580041506605025e+02   
7.067000000000000e+09    -1.762276638698796e+01   -1.579148906192498e+02   
7.068000000000000e+09    -1.761847011578280e+01   -1.578349385243852e+02   
7.069000000000000e+09    -1.762485372626376e+01   -1.577958553819349e+02   
7.070000000000000e+09    -1.762106834629375e+01   -1.576470941419301e+02   
7.071000000000000e+09    -1.762854323146606e+01   -1.575242366189337e+02   
7.072000000000000e+09    -1.764090147122839e+01   -1.574876049417616e+02   
7.073000000000000e+09    -1.764467800721540e+01   -1.573465519205912e+02   
7.074000000000000e+09    -1.766006759054862e+01   -1.572360684928691e+02   
7.075000000000000e+09    -1.768089176614574e+01   -1.571241069563406e+02   
7.076000000000000e+09    -1.770469157506970e+01   -1.569075641339991e+02   
7.077000000000000e+09    -1.773104833588181e+01   -1.568129384150319e+02   
7.078000000000000e+09    -1.775679814853783e+01   -1.566369819849533e+02   
7.079000000000000e+09    -1.778461255226914e+01   -1.564820031151384e+02   
7.080000000000000e+09    -1.781775550258880e+01   -1.563407849283215e+02   
7.081000000000000e+09    -1.785202589850419e+01   -1.561575683080669e+02   
7.082000000000000e+09    -1.789284377445181e+01   -1.559696405621465e+02   
7.083000000000000e+09    -1.794000988978494e+01   -1.557958018814529e+02   
7.084000000000000e+09    -1.798743432862463e+01   -1.555982937032604e+02   
7.085000000000000e+09    -1.803170877093689e+01   -1.554168960178481e+02   
7.086000000000000e+09    -1.808817920741640e+01   -1.552837037872708e+02   
7.087000000000000e+09    -1.814662548262795e+01   -1.551317264076740e+02   
7.088000000000000e+09    -1.820361256720637e+01   -1.549300858120312e+02   
7.089000000000000e+09    -1.826326947214890e+01   -1.548325217366901e+02   
7.090000000000000e+09    -1.832450809462399e+01   -1.546616881155648e+02   
7.091000000000000e+09    -1.840044448929725e+01   -1.544777465582879e+02   
7.092000000000000e+09    -1.846813150616446e+01   -1.543562224526338e+02   
7.093000000000000e+09    -1.853978585836713e+01   -1.541824459103091e+02   
7.094000000000000e+09    -1.861570686500293e+01   -1.540421643025355e+02   
7.095000000000000e+09    -1.868738781891098e+01   -1.539448677035256e+02   
7.096000000000000e+09    -1.876758975086823e+01   -1.538119887147109e+02   
7.097000000000000e+09    -1.884676906728391e+01   -1.537300362589588e+02   
7.098000000000000e+09    -1.892875409970482e+01   -1.536318123604776e+02   
7.099000000000000e+09    -1.901115622811034e+01   -1.535182764792158e+02   
7.100000000000000e+09    -1.909409275673744e+01   -1.534462769783422e+02   
7.101000000000000e+09    -1.918335021833010e+01   -1.534253390337693e+02   
7.102000000000000e+09    -1.927084325149349e+01   -1.533578806943915e+02   
7.103000000000000e+09    -1.936814110916134e+01   -1.532843702520090e+02   
7.104000000000000e+09    -1.946453075882448e+01   -1.532409338767719e+02   
7.105000000000000e+09    -1.955164689774353e+01   -1.532577457961914e+02   
7.106000000000000e+09    -1.964779108641694e+01   -1.532704460940887e+02   
7.107000000000000e+09    -1.975154940565677e+01   -1.532353863742015e+02   
7.108000000000000e+09    -1.984442497270785e+01   -1.532238612571706e+02   
7.109000000000000e+09    -1.994193428655620e+01   -1.532526451899973e+02   
7.110000000000000e+09    -2.002878078371275e+01   -1.532808944478958e+02   
7.111000000000000e+09    -2.013363454364956e+01   -1.533836623361765e+02   
7.112000000000000e+09    -2.023459600206298e+01   -1.533650390315602e+02   
7.113000000000000e+09    -2.033292499290989e+01   -1.535304423184855e+02   
7.114000000000000e+09    -2.043477848414454e+01   -1.536301580743621e+02   
7.115000000000000e+09    -2.053567607919024e+01   -1.537107353891663e+02   
7.116000000000000e+09    -2.064269347495742e+01   -1.538005990189071e+02   
7.117000000000000e+09    -2.074441166259275e+01   -1.540240385513179e+02   
7.118000000000000e+09    -2.083280978930905e+01   -1.541821423377943e+02   
7.119000000000000e+09    -2.093191522910841e+01   -1.544053121869835e+02   
7.120000000000000e+09    -2.103878768198848e+01   -1.546328690129164e+02   
7.121000000000000e+09    -2.112967600373718e+01   -1.548741396385680e+02   
7.122000000000000e+09    -2.122211642409165e+01   -1.550539892210651e+02   
7.123000000000000e+09    -2.131681441867123e+01   -1.553333434792552e+02   
7.124000000000000e+09    -2.140500559090559e+01   -1.556512597537321e+02   
7.125000000000000e+09    -2.150328422367010e+01   -1.560100512794633e+02   
7.126000000000000e+09    -2.158740472521101e+01   -1.562401226128878e+02   
7.127000000000000e+09    -2.167241968009611e+01   -1.565981625195837e+02   
7.128000000000000e+09    -2.175621959859982e+01   -1.569507340346017e+02   
7.129000000000000e+09    -2.183719545057096e+01   -1.571978303852859e+02   
7.130000000000000e+09    -2.190762104621808e+01   -1.575844318980810e+02   
7.131000000000000e+09    -2.196819987815633e+01   -1.579950038814305e+02   
7.132000000000000e+09    -2.205389806570488e+01   -1.583195777355614e+02   
7.133000000000000e+09    -2.209834327769200e+01   -1.586943665733348e+02   
7.134000000000000e+09    -2.216700941506517e+01   -1.590809702600491e+02   
7.135000000000000e+09    -2.221116559799480e+01   -1.593442536882787e+02   
7.136000000000000e+09    -2.226480054417036e+01   -1.597619016587582e+02   
7.137000000000000e+09    -2.230734130138409e+01   -1.600953384390059e+02   
7.138000000000000e+09    -2.234811798522075e+01   -1.605270863110402e+02   
7.139000000000000e+09    -2.237905100229993e+01   -1.608137869009167e+02   
7.140000000000000e+09    -2.241673376754008e+01   -1.611720365728021e+02   
7.141000000000000e+09    -2.244466049528226e+01   -1.614443852723137e+02   
7.142000000000000e+09    -2.247046311030634e+01   -1.617402546765803e+02   
7.143000000000000e+09    -2.249374366168549e+01   -1.620096748445234e+02   
7.144000000000000e+09    -2.251046802258766e+01   -1.622165501430407e+02   
7.145000000000000e+09    -2.253614065654924e+01   -1.624353575326711e+02   
7.146000000000000e+09    -2.254086354632053e+01   -1.626052112221571e+02   
7.147000000000000e+09    -2.255743538882595e+01   -1.627125710537347e+02   
7.148000000000000e+09    -2.256090518762055e+01   -1.627383614003695e+02   
7.149000000000000e+09    -2.255727264657459e+01   -1.629063614524740e+02   
7.150000000000000e+09    -2.256070360327879e+01   -1.629248079391652e+02   
7.151000000000000e+09    -2.256709221500344e+01   -1.629616441630592e+02   
7.152000000000000e+09    -2.255836556664924e+01   -1.629432771320122e+02   
7.153000000000000e+09    -2.258008141391045e+01   -1.628389926063466e+02   
7.154000000000000e+09    -2.256853434673491e+01   -1.627974772193517e+02   
7.155000000000000e+09    -2.255337711700090e+01   -1.626402195169051e+02   
7.156000000000000e+09    -2.254885818073289e+01   -1.624200641988834e+02   
7.157000000000000e+09    -2.253740270021267e+01   -1.623186090498457e+02   
7.158000000000000e+09    -2.255790685448657e+01   -1.621235656734183e+02   
7.159000000000000e+09    -2.255311410845265e+01   -1.617678596934443e+02   
7.160000000000000e+09    -2.254915501117826e+01   -1.615247017706001e+02   
7.161000000000000e+09    -2.254671718492491e+01   -1.612068946690256e+02   
7.162000000000000e+09    -2.255019876847521e+01   -1.608276083828491e+02   
7.163000000000000e+09    -2.253045038832116e+01   -1.603803253017532e+02   
7.164000000000000e+09    -2.254610428731188e+01   -1.599555774910462e+02   
7.165000000000000e+09    -2.254788884378565e+01   -1.594592958189238e+02   
7.166000000000000e+09    -2.255781634814944e+01   -1.589190081098471e+02   
7.167000000000000e+09    -2.255001297445712e+01   -1.584017534455442e+02   
7.168000000000000e+09    -2.255792921431264e+01   -1.578799961489049e+02   
7.169000000000000e+09    -2.257590887876562e+01   -1.572234451538372e+02   
7.170000000000000e+09    -2.257810242367435e+01   -1.565372826155997e+02   
7.171000000000000e+09    -2.258638176365642e+01   -1.559356106327382e+02   
7.172000000000000e+09    -2.259713249345481e+01   -1.551965803225356e+02   
7.173000000000000e+09    -2.259814317675211e+01   -1.544934306392319e+02   
7.174000000000000e+09    -2.261298182860535e+01   -1.536847876648880e+02   
7.175000000000000e+09    -2.261739893011746e+01   -1.529277000109556e+02   
7.176000000000000e+09    -2.262972560955400e+01   -1.521476816247470e+02   
7.177000000000000e+09    -2.265679121808720e+01   -1.513706503340009e+02   
7.178000000000000e+09    -2.266469331747449e+01   -1.504126935591132e+02   
7.179000000000000e+09    -2.267943631649756e+01   -1.495137594112920e+02   
7.180000000000000e+09    -2.269810053299944e+01   -1.486057737487560e+02   
7.181000000000000e+09    -2.270873801365319e+01   -1.477397057668487e+02   
7.182000000000000e+09    -2.272133974923742e+01   -1.467046277698532e+02   
7.183000000000000e+09    -2.273393622095514e+01   -1.457155433904887e+02   
7.184000000000000e+09    -2.274676952087113e+01   -1.447968570016014e+02   
7.185000000000000e+09    -2.275966444285459e+01   -1.437081172183405e+02   
7.186000000000000e+09    -2.278641545087604e+01   -1.427661021151146e+02   
7.187000000000000e+09    -2.278881912614594e+01   -1.417332668477729e+02   
7.188000000000000e+09    -2.280333477498509e+01   -1.406299268303984e+02   
7.189000000000000e+09    -2.282150177900092e+01   -1.396501110554162e+02   
7.190000000000000e+09    -2.285086053181832e+01   -1.385783208186264e+02   
7.191000000000000e+09    -2.284252032127533e+01   -1.375384729082071e+02   
7.192000000000000e+09    -2.286345663287399e+01   -1.363836339628665e+02   
7.193000000000000e+09    -2.286254232787071e+01   -1.353086082143107e+02   
7.194000000000000e+09    -2.288914848391712e+01   -1.341502809129622e+02   
7.195000000000000e+09    -2.289428810665768e+01   -1.331083238893261e+02   
7.196000000000000e+09    -2.293358616776791e+01   -1.319854346883963e+02   
7.197000000000000e+09    -2.294660757268595e+01   -1.308574233534547e+02   
7.198000000000000e+09    -2.295014379701987e+01   -1.297118962316580e+02   
7.199000000000000e+09    -2.296781895728288e+01   -1.285734955663194e+02   
7.200000000000000e+09    -2.298219108799424e+01   -1.274754993899801e+02   
7.201000000000000e+09    -2.300279191600875e+01   -1.263570840410207e+02   
7.202000000000000e+09    -2.301419679774481e+01   -1.251987769046883e+02   
7.203000000000000e+09    -2.301803720950797e+01   -1.240771806832437e+02   
7.204000000000000e+09    -2.304874103352581e+01   -1.230386724658064e+02   
7.205000000000000e+09    -2.307595181739587e+01   -1.218139704778629e+02   
7.206000000000000e+09    -2.309556027539004e+01   -1.207887209473433e+02   
7.207000000000000e+09    -2.310742039803451e+01   -1.196491646177488e+02   
7.208000000000000e+09    -2.311639824698204e+01   -1.186274535250596e+02   
7.209000000000000e+09    -2.313748002274058e+01   -1.175556313318117e+02   
7.210000000000000e+09    -2.315975732814463e+01   -1.164460453533641e+02   
7.211000000000000e+09    -2.316360375786038e+01   -1.154438683394446e+02   
7.212000000000000e+09    -2.318668167065061e+01   -1.144809828173617e+02   
7.213000000000000e+09    -2.319960200997850e+01   -1.135240430370376e+02   
7.214000000000000e+09    -2.320113065572338e+01   -1.125771307980176e+02   
7.215000000000000e+09    -2.321875528771734e+01   -1.116805509437422e+02   
7.216000000000000e+09    -2.323526525486953e+01   -1.108854342385214e+02   
7.217000000000000e+09    -2.323384669033709e+01   -1.100326389884552e+02   
7.218000000000000e+09    -2.325586860801776e+01   -1.092773605888912e+02   
7.219000000000000e+09    -2.325835181126013e+01   -1.084261553517432e+02   
7.220000000000000e+09    -2.326440087636970e+01   -1.077523119155098e+02   
7.221000000000000e+09    -2.327383423036271e+01   -1.070021433861719e+02   
7.222000000000000e+09    -2.327929085126650e+01   -1.064409290581598e+02   
7.223000000000000e+09    -2.327302641359884e+01   -1.058579845532819e+02   
7.224000000000000e+09    -2.328789945298927e+01   -1.052078896353253e+02   
7.225000000000000e+09    -2.328010268193420e+01   -1.046943359831975e+02   
7.226000000000000e+09    -2.328610750654597e+01   -1.042980805931754e+02   
7.227000000000000e+09    -2.326938276758268e+01   -1.039044932688750e+02   
7.228000000000000e+09    -2.328064411348149e+01   -1.034461211609765e+02   
7.229000000000000e+09    -2.326225299159304e+01   -1.031247991808114e+02   
7.230000000000000e+09    -2.326038820171544e+01   -1.028397659404426e+02   
7.231000000000000e+09    -2.326150392246674e+01   -1.026816251263512e+02   
7.232000000000000e+09    -2.322845945949319e+01   -1.024866398908567e+02   
7.233000000000000e+09    -2.322138165522935e+01   -1.023496161943561e+02   
7.234000000000000e+09    -2.320054660445991e+01   -1.022528566228847e+02   
7.235000000000000e+09    -2.319379747920404e+01   -1.023105215660414e+02   
7.236000000000000e+09    -2.315723390954539e+01   -1.021233375961161e+02   
7.237000000000000e+09    -2.315325826447833e+01   -1.021363393507915e+02   
7.238000000000000e+09    -2.313028311139923e+01   -1.021288645897015e+02   
7.239000000000000e+09    -2.307717160225533e+01   -1.022478279106382e+02   
7.240000000000000e+09    -2.306067061849454e+01   -1.023094389773136e+02   
7.241000000000000e+09    -2.299808965410717e+01   -1.024420135163951e+02   
7.242000000000000e+09    -2.297182532859260e+01   -1.026247949349637e+02   
7.243000000000000e+09    -2.290851350283697e+01   -1.028819205111662e+02   
7.244000000000000e+09    -2.286743199365673e+01   -1.030266214272065e+02   
7.245000000000000e+09    -2.282120853045436e+01   -1.033086248438347e+02   
7.246000000000000e+09    -2.276244798001512e+01   -1.036121101707791e+02   
7.247000000000000e+09    -2.271086056837600e+01   -1.038617384873551e+02   
7.248000000000000e+09    -2.265145909035192e+01   -1.042262843387515e+02   
7.249000000000000e+09    -2.258105609202163e+01   -1.045089001677162e+02   
7.250000000000000e+09    -2.249560458849765e+01   -1.048504159527289e+02   
7.251000000000000e+09    -2.242792969389313e+01   -1.052779335984671e+02   
7.252000000000000e+09    -2.235843429350892e+01   -1.056163812084760e+02   
7.253000000000000e+09    -2.227754262388305e+01   -1.059149007808701e+02   
7.254000000000000e+09    -2.218623113943721e+01   -1.062716607370093e+02   
7.255000000000000e+09    -2.209728964058366e+01   -1.066256179814529e+02   
7.256000000000000e+09    -2.200617003106817e+01   -1.070139567557847e+02   
