[Version] 2.0
! Rohde & Schwarz Vector Network Analyzer
! Rohde-Schwarz,ZNL20-2Port,1323001220200009,1.71.1.10-23.02.1.238
! 
! Trace info:
! Nominal Param -> Actual Exported Buffer
! ---------------------------------------
! S11 -> S22

! Created: GMT+3 2024-09-24 16:36:38

# Hz S DB R 50

[Number of Ports] 1
[Number of Frequencies] 6001

[Network Data] 
! freq[Hz]               S11[mag dB]              S11[ang]                 
7.000000000000000e+09    -1.814753965038411e+01   -1.422857263565165e+02   
7.001000000000000e+09    -1.817078905388324e+01   -1.422691920074183e+02   
7.002000000000000e+09    -1.820610872273259e+01   -1.422643182384589e+02   
7.003000000000000e+09    -1.822659336268136e+01   -1.423255120961861e+02   
7.004000000000000e+09    -1.825978464879170e+01   -1.423403581830550e+02   
7.005000000000000e+09    -1.828791186284977e+01   -1.424398290026296e+02   
7.006000000000000e+09    -1.831427144025633e+01   -1.424640829298000e+02   
7.007000000000000e+09    -1.833930085506019e+01   -1.426080211276385e+02   
7.008000000000000e+09    -1.836586746405474e+01   -1.427595827258951e+02   
7.009000000000000e+09    -1.838903439086073e+01   -1.428780968154656e+02   
7.010000000000000e+09    -1.840990751527357e+01   -1.430476687242148e+02   
7.011000000000000e+09    -1.842922935774423e+01   -1.432404576315863e+02   
7.012000000000000e+09    -1.845000879828854e+01   -1.434573310429863e+02   
7.013000000000000e+09    -1.847334411885552e+01   -1.437199063357122e+02   
7.014000000000000e+09    -1.848757867507167e+01   -1.440135923097943e+02   
7.015000000000000e+09    -1.850009014073455e+01   -1.443156093353408e+02   
7.016000000000000e+09    -1.852161529136586e+01   -1.446324172382741e+02   
7.017000000000000e+09    -1.853325229777442e+01   -1.449591087795382e+02   
7.018000000000000e+09    -1.853708683156712e+01   -1.452853326038528e+02   
7.019000000000000e+09    -1.854435565386567e+01   -1.455973351212690e+02   
7.020000000000000e+09    -1.855061884090329e+01   -1.459994959876867e+02   
7.021000000000000e+09    -1.855202956899716e+01   -1.463078763039755e+02   
7.022000000000000e+09    -1.856548111272503e+01   -1.466346979178429e+02   
7.023000000000000e+09    -1.855923592709951e+01   -1.470291330991266e+02   
7.024000000000000e+09    -1.855222968047270e+01   -1.473638829792383e+02   
7.025000000000000e+09    -1.854999295660336e+01   -1.477146105191430e+02   
7.026000000000000e+09    -1.852987735919899e+01   -1.481671738737656e+02   
7.027000000000000e+09    -1.852781302715379e+01   -1.484760075894054e+02   
7.028000000000000e+09    -1.851662946827975e+01   -1.489314475383094e+02   
7.029000000000000e+09    -1.850491715242651e+01   -1.493498351271121e+02   
7.030000000000000e+09    -1.849331017122438e+01   -1.496656150943545e+02   
7.031000000000000e+09    -1.847262514700446e+01   -1.501139189916996e+02   
7.032000000000000e+09    -1.847713840566444e+01   -1.504794892700758e+02   
7.033000000000000e+09    -1.845691218346642e+01   -1.509104645473059e+02   
7.034000000000000e+09    -1.843474686064111e+01   -1.512379478710187e+02   
7.035000000000000e+09    -1.840920535371517e+01   -1.515545555251859e+02   
7.036000000000000e+09    -1.839187206558774e+01   -1.519199508324970e+02   
7.037000000000000e+09    -1.836979364342130e+01   -1.522491351573451e+02   
7.038000000000000e+09    -1.833844439592308e+01   -1.526297938321038e+02   
7.039000000000000e+09    -1.832015139187254e+01   -1.529640098726647e+02   
7.040000000000000e+09    -1.828537428885968e+01   -1.532998133560656e+02   
7.041000000000000e+09    -1.827183085767686e+01   -1.536032181820539e+02   
7.042000000000000e+09    -1.824472542526589e+01   -1.538971883615219e+02   
7.043000000000000e+09    -1.821788985488365e+01   -1.542646815888367e+02   
7.044000000000000e+09    -1.817649025824261e+01   -1.545945226744628e+02   
7.045000000000000e+09    -1.814900797081944e+01   -1.548254331684041e+02   
7.046000000000000e+09    -1.811813586886982e+01   -1.551106090323447e+02   
7.047000000000000e+09    -1.808789023873217e+01   -1.553614217190012e+02   
7.048000000000000e+09    -1.805813369621941e+01   -1.555798684307516e+02   
7.049000000000000e+09    -1.803148094256547e+01   -1.558058295766739e+02   
7.050000000000000e+09    -1.799964299271964e+01   -1.560125834283187e+02   
7.051000000000000e+09    -1.797023190422041e+01   -1.562496288219743e+02   
7.052000000000000e+09    -1.794736547070714e+01   -1.564141133854345e+02   
7.053000000000000e+09    -1.791251221606155e+01   -1.566036852194209e+02   
7.054000000000000e+09    -1.788146000695523e+01   -1.567501353601130e+02   
7.055000000000000e+09    -1.785189259460082e+01   -1.569197942105347e+02   
7.056000000000000e+09    -1.781950210880587e+01   -1.570242942819289e+02   
7.057000000000000e+09    -1.778847300358020e+01   -1.571913432347345e+02   
7.058000000000000e+09    -1.777911795980577e+01   -1.572664392551071e+02   
7.059000000000000e+09    -1.774824940445685e+01   -1.573251841457675e+02   
7.060000000000000e+09    -1.772155951485629e+01   -1.574220179771819e+02   
7.061000000000000e+09    -1.769889177960800e+01   -1.574403652219589e+02   
7.062000000000000e+09    -1.767760722391250e+01   -1.575507754694262e+02   
7.063000000000000e+09    -1.764775734376908e+01   -1.574833559831347e+02   
7.064000000000000e+09    -1.763749104365947e+01   -1.574979072723899e+02   
7.065000000000000e+09    -1.762398622196600e+01   -1.575041160580141e+02   
7.066000000000000e+09    -1.760841526778606e+01   -1.574839311080516e+02   
7.067000000000000e+09    -1.760477262823502e+01   -1.573824646465033e+02   
7.068000000000000e+09    -1.759867774885750e+01   -1.573725679751834e+02   
7.069000000000000e+09    -1.759787876784720e+01   -1.572905722805869e+02   
7.070000000000000e+09    -1.759728286154249e+01   -1.571890849151092e+02   
7.071000000000000e+09    -1.759315459999615e+01   -1.571224756066426e+02   
7.072000000000000e+09    -1.759655769385180e+01   -1.570283968419021e+02   
7.073000000000000e+09    -1.760173200041791e+01   -1.569058007336507e+02   
7.074000000000000e+09    -1.760585642671114e+01   -1.568061810633413e+02   
7.075000000000000e+09    -1.763254330951872e+01   -1.567279739769769e+02   
7.076000000000000e+09    -1.764702196013603e+01   -1.565851533188587e+02   
7.077000000000000e+09    -1.766826922545417e+01   -1.564300880554393e+02   
7.078000000000000e+09    -1.769418550236992e+01   -1.562922438359225e+02   
7.079000000000000e+09    -1.772413132143541e+01   -1.561386289143877e+02   
7.080000000000000e+09    -1.775338558342955e+01   -1.560158983879912e+02   
7.081000000000000e+09    -1.779156535352725e+01   -1.558617435439778e+02   
7.082000000000000e+09    -1.783400086797700e+01   -1.557071913247146e+02   
7.083000000000000e+09    -1.787312058654272e+01   -1.555720720501975e+02   
7.084000000000000e+09    -1.791618656792220e+01   -1.554025854030920e+02   
7.085000000000000e+09    -1.796984163898230e+01   -1.551990538771851e+02   
7.086000000000000e+09    -1.802021369404658e+01   -1.551301408812245e+02   
7.087000000000000e+09    -1.807885479559362e+01   -1.549183785954307e+02   
7.088000000000000e+09    -1.813287838898389e+01   -1.548116835919980e+02   
7.089000000000000e+09    -1.819163061123694e+01   -1.546554339576355e+02   
7.090000000000000e+09    -1.825098344610000e+01   -1.545205228706420e+02   
7.091000000000000e+09    -1.832860887803365e+01   -1.543784385349285e+02   
7.092000000000000e+09    -1.839591534058300e+01   -1.542431874805636e+02   
7.093000000000000e+09    -1.846152975217861e+01   -1.541511278043606e+02   
7.094000000000000e+09    -1.854444089022904e+01   -1.539978491739577e+02   
7.095000000000000e+09    -1.862008433910469e+01   -1.539376075594033e+02   
7.096000000000000e+09    -1.869393984380897e+01   -1.537934864288837e+02   
7.097000000000000e+09    -1.877539039981626e+01   -1.537436733267790e+02   
7.098000000000000e+09    -1.885829417569580e+01   -1.536578459332408e+02   
7.099000000000000e+09    -1.893920960163409e+01   -1.535663093139891e+02   
7.100000000000000e+09    -1.902632195089927e+01   -1.535340346087373e+02   
7.101000000000000e+09    -1.911548312706341e+01   -1.534450685206248e+02   
7.102000000000000e+09    -1.920861834382379e+01   -1.534593400239440e+02   
7.103000000000000e+09    -1.930350047884325e+01   -1.534147247721259e+02   
7.104000000000000e+09    -1.938769281721661e+01   -1.533874905952349e+02   
7.105000000000000e+09    -1.948513261267852e+01   -1.533998051964806e+02   
7.106000000000000e+09    -1.958001257271900e+01   -1.533911130818954e+02   
7.107000000000000e+09    -1.968834655990200e+01   -1.533986654470197e+02   
7.108000000000000e+09    -1.978545190995664e+01   -1.534295797109352e+02   
7.109000000000000e+09    -1.988140193801041e+01   -1.534841479060862e+02   
7.110000000000000e+09    -1.996833633383146e+01   -1.535031039958422e+02   
7.111000000000000e+09    -2.007902155247989e+01   -1.536060187206524e+02   
7.112000000000000e+09    -2.017421457562558e+01   -1.536403847660530e+02   
7.113000000000000e+09    -2.028507064962890e+01   -1.538156784304767e+02   
7.114000000000000e+09    -2.038359747551865e+01   -1.539247317704417e+02   
7.115000000000000e+09    -2.049564006846759e+01   -1.540046276796519e+02   
7.116000000000000e+09    -2.060094173514340e+01   -1.541610969082251e+02   
7.117000000000000e+09    -2.069991705019119e+01   -1.544001726160664e+02   
7.118000000000000e+09    -2.080004220904701e+01   -1.545604154301488e+02   
7.119000000000000e+09    -2.090940189197523e+01   -1.547264595963333e+02   
7.120000000000000e+09    -2.100617043117513e+01   -1.549309406032218e+02   
7.121000000000000e+09    -2.111170428791885e+01   -1.551507388067467e+02   
7.122000000000000e+09    -2.120531950741853e+01   -1.553664476032212e+02   
7.123000000000000e+09    -2.131180441273130e+01   -1.556345369610055e+02   
7.124000000000000e+09    -2.139435794639189e+01   -1.559294240663847e+02   
7.125000000000000e+09    -2.149407231624864e+01   -1.562563554970177e+02   
7.126000000000000e+09    -2.157903841467052e+01   -1.565602589722523e+02   
7.127000000000000e+09    -2.167093707319507e+01   -1.568010224021654e+02   
7.128000000000000e+09    -2.175455346128282e+01   -1.572133444980643e+02   
7.129000000000000e+09    -2.183602995531595e+01   -1.574479857854978e+02   
7.130000000000000e+09    -2.190998946491831e+01   -1.577698779691235e+02   
7.131000000000000e+09    -2.198462588782689e+01   -1.581913902453538e+02   
7.132000000000000e+09    -2.204490279335705e+01   -1.584398252681214e+02   
7.133000000000000e+09    -2.210578573176312e+01   -1.587551820351796e+02   
7.134000000000000e+09    -2.218257734224908e+01   -1.591520370222636e+02   
7.135000000000000e+09    -2.222215698260048e+01   -1.594836248938259e+02   
7.136000000000000e+09    -2.227951023844259e+01   -1.598029255920629e+02   
7.137000000000000e+09    -2.232518353734299e+01   -1.601362457776571e+02   
7.138000000000000e+09    -2.235358901918787e+01   -1.604596475069348e+02   
7.139000000000000e+09    -2.239363987919038e+01   -1.607266222364500e+02   
7.140000000000000e+09    -2.242864951700337e+01   -1.611783393250842e+02   
7.141000000000000e+09    -2.245767788567674e+01   -1.614126395512676e+02   
7.142000000000000e+09    -2.247751371727137e+01   -1.616172529721831e+02   
7.143000000000000e+09    -2.251636771746571e+01   -1.618787523112996e+02   
7.144000000000000e+09    -2.253165527169337e+01   -1.620444527577679e+02   
7.145000000000000e+09    -2.255220032336940e+01   -1.623025791691351e+02   
7.146000000000000e+09    -2.255700179841114e+01   -1.623305597103711e+02   
7.147000000000000e+09    -2.256147806307540e+01   -1.624948391234421e+02   
7.148000000000000e+09    -2.257268732341058e+01   -1.625401791883660e+02   
7.149000000000000e+09    -2.257473772519596e+01   -1.625380088083292e+02   
7.150000000000000e+09    -2.256593712425355e+01   -1.626409900495860e+02   
7.151000000000000e+09    -2.257596426324442e+01   -1.626077894920325e+02   
7.152000000000000e+09    -2.255875382793263e+01   -1.625699642422560e+02   
7.153000000000000e+09    -2.255980771153267e+01   -1.625313150400411e+02   
7.154000000000000e+09    -2.256155914531418e+01   -1.624811656029878e+02   
7.155000000000000e+09    -2.254411992419309e+01   -1.623520867786552e+02   
7.156000000000000e+09    -2.254066549604325e+01   -1.621607251695460e+02   
7.157000000000000e+09    -2.252625812422490e+01   -1.618835088886381e+02   
7.158000000000000e+09    -2.252731655966746e+01   -1.616917218402578e+02   
7.159000000000000e+09    -2.250805054745576e+01   -1.614047423659156e+02   
7.160000000000000e+09    -2.251888956611719e+01   -1.611494034250242e+02   
7.161000000000000e+09    -2.250948434773577e+01   -1.608593159625156e+02   
7.162000000000000e+09    -2.250226385754080e+01   -1.604557163936032e+02   
7.163000000000000e+09    -2.248870369075797e+01   -1.600273111061409e+02   
7.164000000000000e+09    -2.248004671954860e+01   -1.596371262680335e+02   
7.165000000000000e+09    -2.249583658133137e+01   -1.591155202565236e+02   
7.166000000000000e+09    -2.249140692734569e+01   -1.586018985807974e+02   
7.167000000000000e+09    -2.248875932322282e+01   -1.580617961814940e+02   
7.168000000000000e+09    -2.249401112712286e+01   -1.575390921774584e+02   
7.169000000000000e+09    -2.250430837643631e+01   -1.569142207214784e+02   
7.170000000000000e+09    -2.249673155502306e+01   -1.562429492137239e+02   
7.171000000000000e+09    -2.250131174240769e+01   -1.556267960188001e+02   
7.172000000000000e+09    -2.249504180365931e+01   -1.549577999066639e+02   
7.173000000000000e+09    -2.250598279017453e+01   -1.542637094007647e+02   
7.174000000000000e+09    -2.251227977617565e+01   -1.535192937500935e+02   
7.175000000000000e+09    -2.250928594154153e+01   -1.527683437028505e+02   
7.176000000000000e+09    -2.252761567161251e+01   -1.520155713703628e+02   
7.177000000000000e+09    -2.252973866370156e+01   -1.512459993986112e+02   
7.178000000000000e+09    -2.254405845612021e+01   -1.503570332350311e+02   
7.179000000000000e+09    -2.255921163960593e+01   -1.495500560625547e+02   
7.180000000000000e+09    -2.255987188127558e+01   -1.486396556077017e+02   
7.181000000000000e+09    -2.258004543591128e+01   -1.478510800500111e+02   
7.182000000000000e+09    -2.258604917445058e+01   -1.468670397471546e+02   
7.183000000000000e+09    -2.260726379818631e+01   -1.460270778170327e+02   
7.184000000000000e+09    -2.261205639744823e+01   -1.451067672989550e+02   
7.185000000000000e+09    -2.263283737474863e+01   -1.440724897406216e+02   
7.186000000000000e+09    -2.266034773529084e+01   -1.432171705395843e+02   
7.187000000000000e+09    -2.267088715991190e+01   -1.421797700769371e+02   
7.188000000000000e+09    -2.267120530037059e+01   -1.411626711061103e+02   
7.189000000000000e+09    -2.269686709172199e+01   -1.402186375210406e+02   
7.190000000000000e+09    -2.272511177562879e+01   -1.391131116284776e+02   
7.191000000000000e+09    -2.271793672178914e+01   -1.381597986574309e+02   
7.192000000000000e+09    -2.275315074007565e+01   -1.370964151004803e+02   
7.193000000000000e+09    -2.276696688960923e+01   -1.360822265687306e+02   
7.194000000000000e+09    -2.279199984373132e+01   -1.349931596903936e+02   
7.195000000000000e+09    -2.281330894950962e+01   -1.340245133333193e+02   
7.196000000000000e+09    -2.284500518714787e+01   -1.328933612465714e+02   
7.197000000000000e+09    -2.286830832698273e+01   -1.318353076273767e+02   
7.198000000000000e+09    -2.287720200455817e+01   -1.307044983761779e+02   
7.199000000000000e+09    -2.289694786750492e+01   -1.295223595335372e+02   
7.200000000000000e+09    -2.292804832477147e+01   -1.285421901932268e+02   
7.201000000000000e+09    -2.294648951995346e+01   -1.273898457700848e+02   
7.202000000000000e+09    -2.296811678982354e+01   -1.263458635792931e+02   
7.203000000000000e+09    -2.299368460366058e+01   -1.252427958221603e+02   
7.204000000000000e+09    -2.303107081187624e+01   -1.241744484377069e+02   
7.205000000000000e+09    -2.306734217293595e+01   -1.230660533385129e+02   
7.206000000000000e+09    -2.309282330817519e+01   -1.219203048646945e+02   
7.207000000000000e+09    -2.312414154457510e+01   -1.208539302002780e+02   
7.208000000000000e+09    -2.314503585696926e+01   -1.198045033671933e+02   
7.209000000000000e+09    -2.316779859311055e+01   -1.187306556226466e+02   
7.210000000000000e+09    -2.319534231977816e+01   -1.176260718191205e+02   
7.211000000000000e+09    -2.320206870829345e+01   -1.165973347347942e+02   
7.212000000000000e+09    -2.324683098634469e+01   -1.155448403127117e+02   
7.213000000000000e+09    -2.327766422117211e+01   -1.146218120261335e+02   
7.214000000000000e+09    -2.328726229352190e+01   -1.136677584784597e+02   
7.215000000000000e+09    -2.330831197890641e+01   -1.127974317178308e+02   
7.216000000000000e+09    -2.333930029456396e+01   -1.118823487434630e+02   
7.217000000000000e+09    -2.335875291975749e+01   -1.110843349639466e+02   
7.218000000000000e+09    -2.338331082146115e+01   -1.103125720515091e+02   
7.219000000000000e+09    -2.339351244081686e+01   -1.093263926855121e+02   
7.220000000000000e+09    -2.340194906322445e+01   -1.086566306415000e+02   
7.221000000000000e+09    -2.342243499684689e+01   -1.078425938199868e+02   
7.222000000000000e+09    -2.343245783076845e+01   -1.072487565558502e+02   
7.223000000000000e+09    -2.343803178701698e+01   -1.065563226117073e+02   
7.224000000000000e+09    -2.344172584228845e+01   -1.059023130637171e+02   
7.225000000000000e+09    -2.344655779954256e+01   -1.052458222191104e+02   
7.226000000000000e+09    -2.346077487065053e+01   -1.048399535738657e+02   
7.227000000000000e+09    -2.345674752233447e+01   -1.042966422133152e+02   
7.228000000000000e+09    -2.344360230519010e+01   -1.039302115671754e+02   
7.229000000000000e+09    -2.343419934303622e+01   -1.034824769829584e+02   
7.230000000000000e+09    -2.343477101210201e+01   -1.030978976975625e+02   
7.231000000000000e+09    -2.344496693634134e+01   -1.028855760454696e+02   
7.232000000000000e+09    -2.342241926407008e+01   -1.026512879836697e+02   
7.233000000000000e+09    -2.340127436522159e+01   -1.024726196879200e+02   
7.234000000000000e+09    -2.339503992758242e+01   -1.023011409129244e+02   
7.235000000000000e+09    -2.336987980289713e+01   -1.022483801636021e+02   
7.236000000000000e+09    -2.333737181318572e+01   -1.020387950809409e+02   
7.237000000000000e+09    -2.332347689806641e+01   -1.020534132081121e+02   
7.238000000000000e+09    -2.330280225633293e+01   -1.019156145691152e+02   
7.239000000000000e+09    -2.325884124316921e+01   -1.020414203855021e+02   
7.240000000000000e+09    -2.322478630938080e+01   -1.020673033606704e+02   
7.241000000000000e+09    -2.317265223692189e+01   -1.021323195277525e+02   
7.242000000000000e+09    -2.311877147594681e+01   -1.022339076161160e+02   
7.243000000000000e+09    -2.307806020662243e+01   -1.025531075985421e+02   
7.244000000000000e+09    -2.301117881381197e+01   -1.026336945335432e+02   
7.245000000000000e+09    -2.295688642859185e+01   -1.029263200747485e+02   
7.246000000000000e+09    -2.289200935613401e+01   -1.032250659871291e+02   
7.247000000000000e+09    -2.283662948129862e+01   -1.034575721993347e+02   
7.248000000000000e+09    -2.277075925511888e+01   -1.037115730209116e+02   
7.249000000000000e+09    -2.267886941730753e+01   -1.039212086020582e+02   
7.250000000000000e+09    -2.260026675304450e+01   -1.043895211101288e+02   
7.251000000000000e+09    -2.253027674787361e+01   -1.047166679669279e+02   
7.252000000000000e+09    -2.245063253606698e+01   -1.050708873073288e+02   
7.253000000000000e+09    -2.236451182274799e+01   -1.053731794034535e+02   
7.254000000000000e+09    -2.226242565360617e+01   -1.057726324679911e+02   
7.255000000000000e+09    -2.215982036467314e+01   -1.060501365954298e+02   
7.256000000000000e+09    -2.206874483740678e+01   -1.065114184371508e+02   
