[Version] 2.0
! Rohde & Schwarz Vector Network Analyzer
! Rohde-Schwarz,ZNL20-2Port,1323001220200009,1.71.1.10-23.02.1.238
! 
! Trace info:
! Nominal Param -> Actual Exported Buffer
! ---------------------------------------
! S11 -> S22

! Created: GMT+3 2024-09-24 16:38:34

# Hz S DB R 50

[Number of Ports] 1
[Number of Frequencies] 6001

[Network Data] 
! freq[Hz]               S11[mag dB]              S11[ang]                 
7.000000000000000e+09    -1.992279738358252e+01   -1.387252858722845e+02   
7.001000000000000e+09    -1.994402351298968e+01   -1.384766213616507e+02   
7.002000000000000e+09    -1.997808625651819e+01   -1.382319899628657e+02   
7.003000000000000e+09    -1.999046568183757e+01   -1.379936462639127e+02   
7.004000000000000e+09    -2.000412379768288e+01   -1.377931664668199e+02   
7.005000000000000e+09    -2.003177541245602e+01   -1.375390871133715e+02   
7.006000000000000e+09    -2.005724521303982e+01   -1.374016719965628e+02   
7.007000000000000e+09    -2.007039984990103e+01   -1.372977440966513e+02   
7.008000000000000e+09    -2.008571427251949e+01   -1.372119261551219e+02   
7.009000000000000e+09    -2.009476876502641e+01   -1.371535597384104e+02   
7.010000000000000e+09    -2.010996619198991e+01   -1.370889818850555e+02   
7.011000000000000e+09    -2.012200439149845e+01   -1.371214753746166e+02   
7.012000000000000e+09    -2.012992759324559e+01   -1.371085695697350e+02   
7.013000000000000e+09    -2.014397725814748e+01   -1.371773601015756e+02   
7.014000000000000e+09    -2.015160354547106e+01   -1.372700766775937e+02   
7.015000000000000e+09    -2.015480348022788e+01   -1.373905793787358e+02   
7.016000000000000e+09    -2.015600064600603e+01   -1.375214219031365e+02   
7.017000000000000e+09    -2.016019873403903e+01   -1.377095417152910e+02   
7.018000000000000e+09    -2.015733668995674e+01   -1.378596485342366e+02   
7.019000000000000e+09    -2.014609965083671e+01   -1.379946316120751e+02   
7.020000000000000e+09    -2.014269783170846e+01   -1.382491626871588e+02   
7.021000000000000e+09    -2.013300968943974e+01   -1.384509320179268e+02   
7.022000000000000e+09    -2.013346982124543e+01   -1.386286037424593e+02   
7.023000000000000e+09    -2.011087309185388e+01   -1.388854077518590e+02   
7.024000000000000e+09    -2.008351860258340e+01   -1.391027496749719e+02   
7.025000000000000e+09    -2.007041433757370e+01   -1.393196951636054e+02   
7.026000000000000e+09    -2.004173541876405e+01   -1.396035254051570e+02   
7.027000000000000e+09    -2.001644133271440e+01   -1.398131860930361e+02   
7.028000000000000e+09    -1.998582045762865e+01   -1.401927827219537e+02   
7.029000000000000e+09    -1.995965352447648e+01   -1.404214465467064e+02   
7.030000000000000e+09    -1.993702178586379e+01   -1.406944050818834e+02   
7.031000000000000e+09    -1.989851564464359e+01   -1.409678240665914e+02   
7.032000000000000e+09    -1.987003587724805e+01   -1.413169105236248e+02   
7.033000000000000e+09    -1.983528053378365e+01   -1.416108881959518e+02   
7.034000000000000e+09    -1.979670341393797e+01   -1.417407199665815e+02   
7.035000000000000e+09    -1.974862769913113e+01   -1.420157923222224e+02   
7.036000000000000e+09    -1.971786417627119e+01   -1.422906492981542e+02   
7.037000000000000e+09    -1.967001712754098e+01   -1.425373647991556e+02   
7.038000000000000e+09    -1.961613090743527e+01   -1.428201182448593e+02   
7.039000000000000e+09    -1.957700600737209e+01   -1.430608380248302e+02   
7.040000000000000e+09    -1.951279781945589e+01   -1.433716135478907e+02   
7.041000000000000e+09    -1.946944434064113e+01   -1.435652016973028e+02   
7.042000000000000e+09    -1.942797653325129e+01   -1.437749968786216e+02   
7.043000000000000e+09    -1.937377167143521e+01   -1.440783289357775e+02   
7.044000000000000e+09    -1.930795536664505e+01   -1.443530097046085e+02   
7.045000000000000e+09    -1.925447611900475e+01   -1.444998864565752e+02   
7.046000000000000e+09    -1.919930378417564e+01   -1.447219436018657e+02   
7.047000000000000e+09    -1.914171127609366e+01   -1.449121904506371e+02   
7.048000000000000e+09    -1.908169792386921e+01   -1.450470804965950e+02   
7.049000000000000e+09    -1.902076345953156e+01   -1.452340177402796e+02   
7.050000000000000e+09    -1.895950234135917e+01   -1.453774874038128e+02   
7.051000000000000e+09    -1.889131748435477e+01   -1.455633465754510e+02   
7.052000000000000e+09    -1.884148149307948e+01   -1.456569488963260e+02   
7.053000000000000e+09    -1.877974120480620e+01   -1.457689203486668e+02   
7.054000000000000e+09    -1.871537748370193e+01   -1.459097899585294e+02   
7.055000000000000e+09    -1.865227898148956e+01   -1.459561891617980e+02   
7.056000000000000e+09    -1.858439219526189e+01   -1.460369106044120e+02   
7.057000000000000e+09    -1.852262494576544e+01   -1.461729665413625e+02   
7.058000000000000e+09    -1.847106067343148e+01   -1.461898057433413e+02   
7.059000000000000e+09    -1.840227120372141e+01   -1.462205325266523e+02   
7.060000000000000e+09    -1.834114731910915e+01   -1.463086232890960e+02   
7.061000000000000e+09    -1.828467415506867e+01   -1.462587323704210e+02   
7.062000000000000e+09    -1.822434688185233e+01   -1.462983451304041e+02   
7.063000000000000e+09    -1.816243440950674e+01   -1.462822070738338e+02   
7.064000000000000e+09    -1.811364141487325e+01   -1.462258042369135e+02   
7.065000000000000e+09    -1.806530565560374e+01   -1.462052492093399e+02   
7.066000000000000e+09    -1.801146006203112e+01   -1.462395031007281e+02   
7.067000000000000e+09    -1.796309770614072e+01   -1.460860032201711e+02   
7.068000000000000e+09    -1.791980956019764e+01   -1.460375847181152e+02   
7.069000000000000e+09    -1.787853671552288e+01   -1.459785698557257e+02   
7.070000000000000e+09    -1.783950744261508e+01   -1.458415178670155e+02   
7.071000000000000e+09    -1.780002948030926e+01   -1.457516976852827e+02   
7.072000000000000e+09    -1.776793910567660e+01   -1.456393782323562e+02   
7.073000000000000e+09    -1.773585916845492e+01   -1.455636145176317e+02   
7.074000000000000e+09    -1.770886457850234e+01   -1.454296822344090e+02   
7.075000000000000e+09    -1.768916437005383e+01   -1.453225178447568e+02   
7.076000000000000e+09    -1.766662074684423e+01   -1.451548724650902e+02   
7.077000000000000e+09    -1.764334440698195e+01   -1.450554192664891e+02   
7.078000000000000e+09    -1.763785959465448e+01   -1.448807297872842e+02   
7.079000000000000e+09    -1.762198157148875e+01   -1.447299848848694e+02   
7.080000000000000e+09    -1.761552590583648e+01   -1.445959545953349e+02   
7.081000000000000e+09    -1.760970541388557e+01   -1.444774040099988e+02   
7.082000000000000e+09    -1.760774421963728e+01   -1.443095407789397e+02   
7.083000000000000e+09    -1.761062165324747e+01   -1.441943305790354e+02   
7.084000000000000e+09    -1.761489054323693e+01   -1.440375097071783e+02   
7.085000000000000e+09    -1.762119385744977e+01   -1.439071919185289e+02   
7.086000000000000e+09    -1.762960079223219e+01   -1.438233084668897e+02   
7.087000000000000e+09    -1.764760066589550e+01   -1.437038242263484e+02   
7.088000000000000e+09    -1.767627191697294e+01   -1.435500201370173e+02   
7.089000000000000e+09    -1.769433401080059e+01   -1.434166584747852e+02   
7.090000000000000e+09    -1.771523348778244e+01   -1.432986145900387e+02   
7.091000000000000e+09    -1.774923798433364e+01   -1.432218763232720e+02   
7.092000000000000e+09    -1.777363828211937e+01   -1.431030098785860e+02   
7.093000000000000e+09    -1.780283386270078e+01   -1.430868524926797e+02   
7.094000000000000e+09    -1.783911491637561e+01   -1.430188524188300e+02   
7.095000000000000e+09    -1.787148892299061e+01   -1.429311332295798e+02   
7.096000000000000e+09    -1.791730484727501e+01   -1.428705030335738e+02   
7.097000000000000e+09    -1.795381516517645e+01   -1.428638726635054e+02   
7.098000000000000e+09    -1.799593513746438e+01   -1.428334024215023e+02   
7.099000000000000e+09    -1.803683426765884e+01   -1.428253176867562e+02   
7.100000000000000e+09    -1.808433590652917e+01   -1.428261352037893e+02   
7.101000000000000e+09    -1.813493985434426e+01   -1.428516529363943e+02   
7.102000000000000e+09    -1.818970343793092e+01   -1.428857240721322e+02   
7.103000000000000e+09    -1.824570874192333e+01   -1.428862816788172e+02   
7.104000000000000e+09    -1.829759000913523e+01   -1.429742378357830e+02   
7.105000000000000e+09    -1.835284929478708e+01   -1.430529756036087e+02   
7.106000000000000e+09    -1.840742672026257e+01   -1.431534193595734e+02   
7.107000000000000e+09    -1.847133020023936e+01   -1.432300510105906e+02   
7.108000000000000e+09    -1.852612823308753e+01   -1.433202280993144e+02   
7.109000000000000e+09    -1.859217862209534e+01   -1.434715603444555e+02   
7.110000000000000e+09    -1.865151785710243e+01   -1.435473314498310e+02   
7.111000000000000e+09    -1.872176468413366e+01   -1.437311800509223e+02   
7.112000000000000e+09    -1.878122720989068e+01   -1.439488575257153e+02   
7.113000000000000e+09    -1.886358677546686e+01   -1.441275136967311e+02   
7.114000000000000e+09    -1.892497400315074e+01   -1.442867191426204e+02   
7.115000000000000e+09    -1.898924374826910e+01   -1.444799452156862e+02   
7.116000000000000e+09    -1.907582867175364e+01   -1.446746312289189e+02   
7.117000000000000e+09    -1.914065942548356e+01   -1.449782281728765e+02   
7.118000000000000e+09    -1.919954935154776e+01   -1.452726205720914e+02   
7.119000000000000e+09    -1.928686737376364e+01   -1.455840564465263e+02   
7.120000000000000e+09    -1.934808978072300e+01   -1.458383059148863e+02   
7.121000000000000e+09    -1.942282559487035e+01   -1.461275340997515e+02   
7.122000000000000e+09    -1.948925313955419e+01   -1.465259818930473e+02   
7.123000000000000e+09    -1.956083201828254e+01   -1.468356597638754e+02   
7.124000000000000e+09    -1.962799105178314e+01   -1.471694084383778e+02   
7.125000000000000e+09    -1.970615605560229e+01   -1.475860100890011e+02   
7.126000000000000e+09    -1.975791605324921e+01   -1.479187973902879e+02   
7.127000000000000e+09    -1.982015203706064e+01   -1.483438746888984e+02   
7.128000000000000e+09    -1.988802918052254e+01   -1.488115310713065e+02   
7.129000000000000e+09    -1.994651141150196e+01   -1.491462205591680e+02   
7.130000000000000e+09    -1.999808570026734e+01   -1.496457326732638e+02   
7.131000000000000e+09    -2.004970635090455e+01   -1.500998146717790e+02   
7.132000000000000e+09    -2.010747312430795e+01   -1.504839445365808e+02   
7.133000000000000e+09    -2.014763740066721e+01   -1.509318137801602e+02   
7.134000000000000e+09    -2.018874455454915e+01   -1.514785315805525e+02   
7.135000000000000e+09    -2.022309395111256e+01   -1.519011432286160e+02   
7.136000000000000e+09    -2.026268215692843e+01   -1.523451592585847e+02   
7.137000000000000e+09    -2.028517959079474e+01   -1.528377236683614e+02   
7.138000000000000e+09    -2.031362867158729e+01   -1.533061072979981e+02   
7.139000000000000e+09    -2.035172468831147e+01   -1.537856704805177e+02   
7.140000000000000e+09    -2.035720160421489e+01   -1.542370644344267e+02   
7.141000000000000e+09    -2.038119586189268e+01   -1.546768975481229e+02   
7.142000000000000e+09    -2.039744369408918e+01   -1.550609623809784e+02   
7.143000000000000e+09    -2.040151512189230e+01   -1.555138320281936e+02   
7.144000000000000e+09    -2.041634297535698e+01   -1.557981769557772e+02   
7.145000000000000e+09    -2.042736787414298e+01   -1.562653054604241e+02   
7.146000000000000e+09    -2.042095539619028e+01   -1.565579272131224e+02   
7.147000000000000e+09    -2.041937101279618e+01   -1.568831995525458e+02   
7.148000000000000e+09    -2.043068754846620e+01   -1.571784787152121e+02   
7.149000000000000e+09    -2.042115961176289e+01   -1.574737905822276e+02   
7.150000000000000e+09    -2.040005699812311e+01   -1.576390116783931e+02   
7.151000000000000e+09    -2.040401182592778e+01   -1.579168781092382e+02   
7.152000000000000e+09    -2.039928711583443e+01   -1.581240632561842e+02   
7.153000000000000e+09    -2.038945194255612e+01   -1.582629379734161e+02   
7.154000000000000e+09    -2.038276769810702e+01   -1.584632474558237e+02   
7.155000000000000e+09    -2.036799734069701e+01   -1.585349395724550e+02   
7.156000000000000e+09    -2.035764899193290e+01   -1.585781899747506e+02   
7.157000000000000e+09    -2.034571496052043e+01   -1.586296315390405e+02   
7.158000000000000e+09    -2.034183123643191e+01   -1.587204094149934e+02   
7.159000000000000e+09    -2.032029328572366e+01   -1.586523687369796e+02   
7.160000000000000e+09    -2.031810792441839e+01   -1.586488628082836e+02   
7.161000000000000e+09    -2.031040982129597e+01   -1.586397877373341e+02   
7.162000000000000e+09    -2.029942755531796e+01   -1.584796641212952e+02   
7.163000000000000e+09    -2.028284215243090e+01   -1.583906312304120e+02   
7.164000000000000e+09    -2.028257649806733e+01   -1.583165287276228e+02   
7.165000000000000e+09    -2.027711565154217e+01   -1.581320307716645e+02   
7.166000000000000e+09    -2.026379916542040e+01   -1.579445470582646e+02   
7.167000000000000e+09    -2.027437663262045e+01   -1.577234586395027e+02   
7.168000000000000e+09    -2.026668575985392e+01   -1.575168076403337e+02   
7.169000000000000e+09    -2.027860340954371e+01   -1.572809243352485e+02   
7.170000000000000e+09    -2.027901283139308e+01   -1.569387218139896e+02   
7.171000000000000e+09    -2.027933804256128e+01   -1.566961103210951e+02   
7.172000000000000e+09    -2.029956481079425e+01   -1.563702363412031e+02   
7.173000000000000e+09    -2.031623497341394e+01   -1.560106337824422e+02   
7.174000000000000e+09    -2.030995186771207e+01   -1.556791372010935e+02   
7.175000000000000e+09    -2.033072701748778e+01   -1.553375156386010e+02   
7.176000000000000e+09    -2.034383816171191e+01   -1.549458487361195e+02   
7.177000000000000e+09    -2.036328795380099e+01   -1.545852491006230e+02   
7.178000000000000e+09    -2.037830787182349e+01   -1.541394772432033e+02   
7.179000000000000e+09    -2.040515212225067e+01   -1.536874374733654e+02   
7.180000000000000e+09    -2.042729822817003e+01   -1.532640951419061e+02   
7.181000000000000e+09    -2.044644947988140e+01   -1.527807108492608e+02   
7.182000000000000e+09    -2.048782069659344e+01   -1.522916159125578e+02   
7.183000000000000e+09    -2.050781326731833e+01   -1.517922013343693e+02   
7.184000000000000e+09    -2.053895873335364e+01   -1.513317425196482e+02   
7.185000000000000e+09    -2.058787313715663e+01   -1.507827598548685e+02   
7.186000000000000e+09    -2.062600363572315e+01   -1.503610940656289e+02   
7.187000000000000e+09    -2.067056273233207e+01   -1.497711218176712e+02   
7.188000000000000e+09    -2.070823036975581e+01   -1.491158329790025e+02   
7.189000000000000e+09    -2.075935643803650e+01   -1.485776579648677e+02   
7.190000000000000e+09    -2.081721475700336e+01   -1.480339231904919e+02   
7.191000000000000e+09    -2.085103625499076e+01   -1.474118554454643e+02   
7.192000000000000e+09    -2.091334504369989e+01   -1.467752266515647e+02   
7.193000000000000e+09    -2.096148498350686e+01   -1.461340879986554e+02   
7.194000000000000e+09    -2.102741331470422e+01   -1.454923635494549e+02   
7.195000000000000e+09    -2.108189683231587e+01   -1.448909335323028e+02   
7.196000000000000e+09    -2.115528129096212e+01   -1.441785514688833e+02   
7.197000000000000e+09    -2.122028527324374e+01   -1.435764710697902e+02   
7.198000000000000e+09    -2.128293391880757e+01   -1.429108780699840e+02   
7.199000000000000e+09    -2.134959151580884e+01   -1.421628029591311e+02   
7.200000000000000e+09    -2.141979892672660e+01   -1.415142147055528e+02   
7.201000000000000e+09    -2.150153535300267e+01   -1.408547104629288e+02   
7.202000000000000e+09    -2.156874968450092e+01   -1.401396052748827e+02   
7.203000000000000e+09    -2.165619198108998e+01   -1.395063928611846e+02   
7.204000000000000e+09    -2.175235355257984e+01   -1.388164221215859e+02   
7.205000000000000e+09    -2.184210033244696e+01   -1.380822384806685e+02   
7.206000000000000e+09    -2.193566908262227e+01   -1.374339026385788e+02   
7.207000000000000e+09    -2.203479270102891e+01   -1.366576080057005e+02   
7.208000000000000e+09    -2.211281241428558e+01   -1.360487010141330e+02   
7.209000000000000e+09    -2.221775252711545e+01   -1.353868635119976e+02   
7.210000000000000e+09    -2.232197231409819e+01   -1.347478494219663e+02   
7.211000000000000e+09    -2.240796718820351e+01   -1.339633551511907e+02   
7.212000000000000e+09    -2.252950862632260e+01   -1.333511957133258e+02   
7.213000000000000e+09    -2.262730245859709e+01   -1.327845609908321e+02   
7.214000000000000e+09    -2.274004851973735e+01   -1.321073276162362e+02   
7.215000000000000e+09    -2.284231062244462e+01   -1.314051655429155e+02   
7.216000000000000e+09    -2.296041950742330e+01   -1.308978243307835e+02   
7.217000000000000e+09    -2.306099332786194e+01   -1.303819618501948e+02   
7.218000000000000e+09    -2.318054457407199e+01   -1.296934562018736e+02   
7.219000000000000e+09    -2.327680083515744e+01   -1.289984707636019e+02   
7.220000000000000e+09    -2.339487756299744e+01   -1.285138885537960e+02   
7.221000000000000e+09    -2.349354776038339e+01   -1.278537789874397e+02   
7.222000000000000e+09    -2.360199994694611e+01   -1.273525392498508e+02   
7.223000000000000e+09    -2.370711187428758e+01   -1.268101494157661e+02   
7.224000000000000e+09    -2.380355706445921e+01   -1.263612835525663e+02   
7.225000000000000e+09    -2.390676224911500e+01   -1.257445011730543e+02   
7.226000000000000e+09    -2.398327344027306e+01   -1.253874657982170e+02   
7.227000000000000e+09    -2.408929309183972e+01   -1.248962788163769e+02   
7.228000000000000e+09    -2.417732280603353e+01   -1.245268065874504e+02   
7.229000000000000e+09    -2.426633283649993e+01   -1.240014096330411e+02   
7.230000000000000e+09    -2.433975671343607e+01   -1.236582168321432e+02   
7.231000000000000e+09    -2.441926702076270e+01   -1.233684718053473e+02   
7.232000000000000e+09    -2.448656385045020e+01   -1.230853120450814e+02   
7.233000000000000e+09    -2.455065589392828e+01   -1.227628404456590e+02   
7.234000000000000e+09    -2.460359395695258e+01   -1.224140846387109e+02   
7.235000000000000e+09    -2.465421423085209e+01   -1.223980906176741e+02   
7.236000000000000e+09    -2.470120151235382e+01   -1.218979376147633e+02   
7.237000000000000e+09    -2.475554061114820e+01   -1.218159131271186e+02   
7.238000000000000e+09    -2.481137232542727e+01   -1.215744360368036e+02   
7.239000000000000e+09    -2.481708373591869e+01   -1.214824260782927e+02   
7.240000000000000e+09    -2.484876055285668e+01   -1.212739089724474e+02   
7.241000000000000e+09    -2.485855893435475e+01   -1.210610646879479e+02   
7.242000000000000e+09    -2.485567028660676e+01   -1.209801667232160e+02   
7.243000000000000e+09    -2.486100024019655e+01   -1.209181370379548e+02   
7.244000000000000e+09    -2.484968679849658e+01   -1.207957469661176e+02   
7.245000000000000e+09    -2.484656128558060e+01   -1.209113759622073e+02   
7.246000000000000e+09    -2.482503226004715e+01   -1.207603271296961e+02   
7.247000000000000e+09    -2.480485150503479e+01   -1.207961776319083e+02   
7.248000000000000e+09    -2.477543304964956e+01   -1.207546904779428e+02   
7.249000000000000e+09    -2.475265947614884e+01   -1.206632234374349e+02   
7.250000000000000e+09    -2.470252908308233e+01   -1.207418963511555e+02   
7.251000000000000e+09    -2.463879110536071e+01   -1.207829734857360e+02   
7.252000000000000e+09    -2.458764834200788e+01   -1.207690103818628e+02   
7.253000000000000e+09    -2.452725149895033e+01   -1.207890408151092e+02   
7.254000000000000e+09    -2.443784028099640e+01   -1.207197562834667e+02   
7.255000000000000e+09    -2.437652466351957e+01   -1.206896450017055e+02   
7.256000000000000e+09    -2.427914471824721e+01   -1.206591056821307e+02   
