[Version] 2.0
! Rohde & Schwarz Vector Network Analyzer
! Rohde-Schwarz,ZNL20-2Port,1323001220200009,1.71.1.10-23.02.1.238
! 
! Trace info:
! Nominal Param -> Actual Exported Buffer
! ---------------------------------------
! S11 -> S22

! Created: GMT+3 2024-09-24 16:38:42

# Hz S DB R 50

[Number of Ports] 1
[Number of Frequencies] 6001

[Network Data] 
! freq[Hz]               S11[mag dB]              S11[ang]                 
7.000000000000000e+09    -2.063435809925339e+01   -1.407873850447921e+02   
7.001000000000000e+09    -2.067173857005035e+01   -1.404294657353898e+02   
7.002000000000000e+09    -2.070902042907190e+01   -1.400649166024606e+02   
7.003000000000000e+09    -2.072912807571868e+01   -1.398333993867869e+02   
7.004000000000000e+09    -2.075491474895170e+01   -1.395133461721755e+02   
7.005000000000000e+09    -2.079112265993790e+01   -1.391962273302661e+02   
7.006000000000000e+09    -2.081409037630542e+01   -1.390071047442514e+02   
7.007000000000000e+09    -2.083986827252406e+01   -1.387662076852103e+02   
7.008000000000000e+09    -2.086031226676800e+01   -1.385711594142996e+02   
7.009000000000000e+09    -2.088612712389175e+01   -1.384531154119824e+02   
7.010000000000000e+09    -2.089763241175476e+01   -1.383184256595148e+02   
7.011000000000000e+09    -2.092095729424635e+01   -1.382560002068615e+02   
7.012000000000000e+09    -2.093431930834736e+01   -1.381720815967882e+02   
7.013000000000000e+09    -2.095261387504836e+01   -1.381755665310572e+02   
7.014000000000000e+09    -2.096679101337326e+01   -1.381991300664913e+02   
7.015000000000000e+09    -2.096408970626191e+01   -1.381441052092125e+02   
7.016000000000000e+09    -2.097938986471387e+01   -1.382574220541029e+02   
7.017000000000000e+09    -2.098160645282742e+01   -1.383754142845034e+02   
7.018000000000000e+09    -2.097696046272624e+01   -1.384200694581127e+02   
7.019000000000000e+09    -2.097266236422061e+01   -1.385191115633407e+02   
7.020000000000000e+09    -2.097584225171965e+01   -1.386890508389787e+02   
7.021000000000000e+09    -2.095544821867406e+01   -1.387856285674876e+02   
7.022000000000000e+09    -2.095527505449770e+01   -1.388882104214605e+02   
7.023000000000000e+09    -2.093357945041147e+01   -1.391345263541913e+02   
7.024000000000000e+09    -2.091578979846655e+01   -1.392464535522874e+02   
7.025000000000000e+09    -2.089615740712646e+01   -1.394628962748327e+02   
7.026000000000000e+09    -2.086116892628451e+01   -1.396121913337968e+02   
7.027000000000000e+09    -2.083942843891224e+01   -1.397679888267951e+02   
7.028000000000000e+09    -2.080887089631352e+01   -1.400962242774488e+02   
7.029000000000000e+09    -2.078446318987539e+01   -1.402882388390788e+02   
7.030000000000000e+09    -2.074668082633786e+01   -1.404900270598842e+02   
7.031000000000000e+09    -2.071990227013564e+01   -1.406652890488858e+02   
7.032000000000000e+09    -2.069122965845159e+01   -1.409224160591580e+02   
7.033000000000000e+09    -2.065335529696858e+01   -1.411767573365232e+02   
7.034000000000000e+09    -2.060887785393825e+01   -1.412966576516454e+02   
7.035000000000000e+09    -2.055719862837996e+01   -1.414911671803550e+02   
7.036000000000000e+09    -2.051916696931326e+01   -1.416842808666144e+02   
7.037000000000000e+09    -2.046665315412086e+01   -1.418058288703131e+02   
7.038000000000000e+09    -2.041623960932997e+01   -1.420650711714246e+02   
7.039000000000000e+09    -2.036731333609429e+01   -1.422400059127008e+02   
7.040000000000000e+09    -2.030319557710641e+01   -1.424246560782181e+02   
7.041000000000000e+09    -2.025469341071569e+01   -1.425382453505754e+02   
7.042000000000000e+09    -2.019980861362775e+01   -1.427158353182375e+02   
7.043000000000000e+09    -2.013748100196676e+01   -1.429086909158112e+02   
7.044000000000000e+09    -2.006047066319965e+01   -1.430400149434891e+02   
7.045000000000000e+09    -2.001232827200481e+01   -1.431523764249485e+02   
7.046000000000000e+09    -1.993905938365518e+01   -1.433305842351114e+02   
7.047000000000000e+09    -1.987172885596375e+01   -1.433853873767784e+02   
7.048000000000000e+09    -1.980709168608095e+01   -1.435043227566226e+02   
7.049000000000000e+09    -1.973395954816261e+01   -1.435611264939133e+02   
7.050000000000000e+09    -1.966942355093902e+01   -1.436245729883874e+02   
7.051000000000000e+09    -1.959729928778343e+01   -1.437508962435701e+02   
7.052000000000000e+09    -1.953122776022202e+01   -1.437815359846104e+02   
7.053000000000000e+09    -1.945788581972942e+01   -1.438019202401915e+02   
7.054000000000000e+09    -1.938108127203729e+01   -1.438015788466850e+02   
7.055000000000000e+09    -1.930656992906336e+01   -1.438056970124354e+02   
7.056000000000000e+09    -1.924460293264593e+01   -1.438279096579325e+02   
7.057000000000000e+09    -1.916405298902798e+01   -1.438242490398701e+02   
7.058000000000000e+09    -1.909967907487987e+01   -1.437837978967650e+02   
7.059000000000000e+09    -1.902432035612197e+01   -1.437709984459260e+02   
7.060000000000000e+09    -1.895066748788285e+01   -1.437797214385534e+02   
7.061000000000000e+09    -1.887941504645867e+01   -1.436655794598900e+02   
7.062000000000000e+09    -1.880070444670961e+01   -1.436370637053280e+02   
7.063000000000000e+09    -1.873271957442888e+01   -1.435859625466990e+02   
7.064000000000000e+09    -1.866844032010174e+01   -1.434831503944814e+02   
7.065000000000000e+09    -1.861046442090582e+01   -1.433430208094690e+02   
7.066000000000000e+09    -1.854157225208034e+01   -1.432773892007032e+02   
7.067000000000000e+09    -1.848169828644263e+01   -1.431515023439225e+02   
7.068000000000000e+09    -1.842394194888075e+01   -1.430150143809352e+02   
7.069000000000000e+09    -1.836849209738048e+01   -1.429075683632259e+02   
7.070000000000000e+09    -1.831159066852089e+01   -1.427202306075414e+02   
7.071000000000000e+09    -1.826918061010992e+01   -1.425277654207968e+02   
7.072000000000000e+09    -1.822068645887081e+01   -1.424148363373197e+02   
7.073000000000000e+09    -1.817381038023398e+01   -1.422814271351494e+02   
7.074000000000000e+09    -1.813827880489874e+01   -1.420862839761670e+02   
7.075000000000000e+09    -1.810644817919020e+01   -1.418541039257817e+02   
7.076000000000000e+09    -1.806472701138704e+01   -1.416817796958417e+02   
7.077000000000000e+09    -1.802946503124654e+01   -1.414672369511066e+02   
7.078000000000000e+09    -1.801124655120797e+01   -1.413306804494714e+02   
7.079000000000000e+09    -1.798742410963588e+01   -1.410627007183230e+02   
7.080000000000000e+09    -1.796401911254176e+01   -1.409074959460256e+02   
7.081000000000000e+09    -1.794445591223033e+01   -1.407501989976678e+02   
7.082000000000000e+09    -1.792833200618869e+01   -1.404860734884888e+02   
7.083000000000000e+09    -1.792159081373645e+01   -1.403269338234983e+02   
7.084000000000000e+09    -1.790957227259491e+01   -1.401147244370033e+02   
7.085000000000000e+09    -1.790180526824400e+01   -1.399437960110245e+02   
7.086000000000000e+09    -1.790751104850712e+01   -1.398085975807035e+02   
7.087000000000000e+09    -1.790688590686699e+01   -1.396412332654033e+02   
7.088000000000000e+09    -1.791310658039865e+01   -1.394534446082917e+02   
7.089000000000000e+09    -1.791966724053589e+01   -1.392723706805852e+02   
7.090000000000000e+09    -1.793001622458144e+01   -1.391573134713713e+02   
7.091000000000000e+09    -1.794598023075373e+01   -1.390415473626781e+02   
7.092000000000000e+09    -1.795205193153652e+01   -1.389040312688322e+02   
7.093000000000000e+09    -1.797373619427831e+01   -1.387947595071591e+02   
7.094000000000000e+09    -1.799147239358768e+01   -1.387102484342713e+02   
7.095000000000000e+09    -1.800937492134422e+01   -1.386238036412731e+02   
7.096000000000000e+09    -1.803770797333698e+01   -1.385202274920964e+02   
7.097000000000000e+09    -1.806564322996609e+01   -1.384808954456825e+02   
7.098000000000000e+09    -1.809541860798769e+01   -1.384256443437374e+02   
7.099000000000000e+09    -1.812484349440005e+01   -1.383711366112384e+02   
7.100000000000000e+09    -1.815086763632531e+01   -1.383805852534437e+02   
7.101000000000000e+09    -1.818425204516111e+01   -1.383437726166194e+02   
7.102000000000000e+09    -1.823067653158440e+01   -1.383699403507589e+02   
7.103000000000000e+09    -1.826845124947895e+01   -1.383828347372976e+02   
7.104000000000000e+09    -1.830086897568936e+01   -1.384196529561210e+02   
7.105000000000000e+09    -1.834549693214607e+01   -1.384731302809968e+02   
7.106000000000000e+09    -1.839127674447412e+01   -1.385459622776263e+02   
7.107000000000000e+09    -1.843545194194395e+01   -1.386165012773924e+02   
7.108000000000000e+09    -1.847970926073954e+01   -1.386894058723766e+02   
7.109000000000000e+09    -1.852687684538092e+01   -1.387800904847479e+02   
7.110000000000000e+09    -1.857184798456307e+01   -1.388817654506512e+02   
7.111000000000000e+09    -1.863048599482038e+01   -1.390308688256644e+02   
7.112000000000000e+09    -1.867749998150823e+01   -1.392232066336209e+02   
7.113000000000000e+09    -1.873428161227070e+01   -1.393848615609340e+02   
7.114000000000000e+09    -1.878895050963291e+01   -1.396268171853116e+02   
7.115000000000000e+09    -1.883889444662521e+01   -1.397736664653893e+02   
7.116000000000000e+09    -1.890041167201434e+01   -1.399903531344803e+02   
7.117000000000000e+09    -1.895370254575187e+01   -1.402438635226295e+02   
7.118000000000000e+09    -1.900653709663601e+01   -1.405291250012423e+02   
7.119000000000000e+09    -1.907527527563958e+01   -1.408100211496009e+02   
7.120000000000000e+09    -1.913668688627430e+01   -1.410574324277238e+02   
7.121000000000000e+09    -1.919608049707607e+01   -1.413681749975320e+02   
7.122000000000000e+09    -1.925479562718396e+01   -1.417197786171651e+02   
7.123000000000000e+09    -1.930127060094776e+01   -1.421063811738008e+02   
7.124000000000000e+09    -1.935904192015398e+01   -1.424450920326056e+02   
7.125000000000000e+09    -1.941869279580770e+01   -1.428325675499295e+02   
7.126000000000000e+09    -1.947244549024092e+01   -1.432017842616403e+02   
7.127000000000000e+09    -1.952497364475168e+01   -1.436146054885795e+02   
7.128000000000000e+09    -1.957971711614626e+01   -1.440875039071956e+02   
7.129000000000000e+09    -1.963628163040958e+01   -1.444332955817808e+02   
7.130000000000000e+09    -1.967967501075763e+01   -1.449096198287717e+02   
7.131000000000000e+09    -1.971446835851982e+01   -1.453572104843992e+02   
7.132000000000000e+09    -1.976017978579206e+01   -1.458517507649112e+02   
7.133000000000000e+09    -1.979379667144399e+01   -1.463286579778434e+02   
7.134000000000000e+09    -1.983295727933268e+01   -1.468156089587610e+02   
7.135000000000000e+09    -1.985440669631663e+01   -1.472138188200845e+02   
7.136000000000000e+09    -1.988731200136636e+01   -1.477611227715944e+02   
7.137000000000000e+09    -1.990347555629933e+01   -1.482151858322105e+02   
7.138000000000000e+09    -1.992508941143664e+01   -1.487444167378477e+02   
7.139000000000000e+09    -1.993483787237427e+01   -1.492167787893654e+02   
7.140000000000000e+09    -1.995664952558947e+01   -1.497893487780168e+02   
7.141000000000000e+09    -1.996665604662353e+01   -1.502000622316114e+02   
7.142000000000000e+09    -1.996864946317551e+01   -1.506448064372714e+02   
7.143000000000000e+09    -1.998127689352991e+01   -1.511126093197741e+02   
7.144000000000000e+09    -1.997006116821358e+01   -1.515001223421580e+02   
7.145000000000000e+09    -1.998251839685526e+01   -1.520014326669542e+02   
7.146000000000000e+09    -1.996848132999332e+01   -1.523365992188481e+02   
7.147000000000000e+09    -1.995901804081910e+01   -1.527193314383097e+02   
7.148000000000000e+09    -1.995001023402695e+01   -1.530361350412515e+02   
7.149000000000000e+09    -1.994281488409833e+01   -1.533973902867918e+02   
7.150000000000000e+09    -1.992148458303636e+01   -1.536924356024251e+02   
7.151000000000000e+09    -1.990861857230338e+01   -1.539630499035996e+02   
7.152000000000000e+09    -1.988687634597841e+01   -1.542671023725071e+02   
7.153000000000000e+09    -1.988643729475424e+01   -1.545188739251475e+02   
7.154000000000000e+09    -1.987009514170780e+01   -1.547901162461408e+02   
7.155000000000000e+09    -1.984138169444200e+01   -1.548957728984375e+02   
7.156000000000000e+09    -1.982205790452711e+01   -1.550448076004391e+02   
7.157000000000000e+09    -1.981359829885761e+01   -1.551896343069628e+02   
7.158000000000000e+09    -1.979672512000115e+01   -1.553490431487071e+02   
7.159000000000000e+09    -1.977287519455273e+01   -1.553643955031849e+02   
7.160000000000000e+09    -1.976294871007503e+01   -1.554997112109171e+02   
7.161000000000000e+09    -1.974444094459041e+01   -1.555073252710288e+02   
7.162000000000000e+09    -1.973673707381609e+01   -1.554688604069589e+02   
7.163000000000000e+09    -1.971733982661866e+01   -1.555307423832159e+02   
7.164000000000000e+09    -1.970013085419601e+01   -1.554493150595550e+02   
7.165000000000000e+09    -1.969883074925938e+01   -1.553917341862307e+02   
7.166000000000000e+09    -1.968493865925645e+01   -1.552815564108216e+02   
7.167000000000000e+09    -1.967905000025041e+01   -1.551863439086485e+02   
7.168000000000000e+09    -1.967748072115826e+01   -1.550752181221759e+02   
7.169000000000000e+09    -1.967293269106754e+01   -1.548723810292583e+02   
7.170000000000000e+09    -1.967512110838431e+01   -1.546805456544870e+02   
7.171000000000000e+09    -1.966819714046580e+01   -1.545118587792033e+02   
7.172000000000000e+09    -1.967574844413336e+01   -1.542973457448125e+02   
7.173000000000000e+09    -1.968399229921800e+01   -1.540645622200100e+02   
7.174000000000000e+09    -1.968358629354887e+01   -1.538085206385265e+02   
7.175000000000000e+09    -1.968726139792368e+01   -1.534905129657909e+02   
7.176000000000000e+09    -1.970489056643284e+01   -1.532709928053317e+02   
7.177000000000000e+09    -1.971447372904503e+01   -1.529604333773878e+02   
7.178000000000000e+09    -1.972582655684856e+01   -1.526529383202277e+02   
7.179000000000000e+09    -1.974331955547977e+01   -1.522940850300944e+02   
7.180000000000000e+09    -1.975869576011219e+01   -1.520066570432910e+02   
7.181000000000000e+09    -1.978297107800747e+01   -1.516774644940162e+02   
7.182000000000000e+09    -1.981190124470704e+01   -1.512332784853827e+02   
7.183000000000000e+09    -1.983831377241607e+01   -1.509085138005281e+02   
7.184000000000000e+09    -1.986207048549936e+01   -1.505570807489474e+02   
7.185000000000000e+09    -1.989164181719925e+01   -1.500545086326958e+02   
7.186000000000000e+09    -1.993829335173922e+01   -1.497599563580831e+02   
7.187000000000000e+09    -1.997450845500823e+01   -1.492803038484691e+02   
7.188000000000000e+09    -2.000433948786941e+01   -1.487911256054192e+02   
7.189000000000000e+09    -2.004954072116744e+01   -1.483511898928611e+02   
7.190000000000000e+09    -2.009921716688429e+01   -1.478894680896917e+02   
7.191000000000000e+09    -2.012822875045925e+01   -1.474647375866948e+02   
7.192000000000000e+09    -2.019256243061092e+01   -1.469176449401827e+02   
7.193000000000000e+09    -2.023693233014226e+01   -1.464423376770196e+02   
7.194000000000000e+09    -2.029903432989584e+01   -1.459456739966388e+02   
7.195000000000000e+09    -2.035039964578198e+01   -1.454470034847083e+02   
7.196000000000000e+09    -2.041651573419885e+01   -1.448942192099159e+02   
7.197000000000000e+09    -2.047660197639220e+01   -1.444039175251347e+02   
7.198000000000000e+09    -2.054065281231690e+01   -1.438173371849909e+02   
7.199000000000000e+09    -2.060678252179219e+01   -1.433681275213599e+02   
7.200000000000000e+09    -2.067864496585842e+01   -1.428238592560278e+02   
7.201000000000000e+09    -2.074861294831285e+01   -1.423082223684937e+02   
7.202000000000000e+09    -2.083021610048853e+01   -1.418112991603125e+02   
7.203000000000000e+09    -2.091124857899922e+01   -1.412211563704625e+02   
7.204000000000000e+09    -2.101378974209148e+01   -1.407216596434429e+02   
7.205000000000000e+09    -2.110645161447567e+01   -1.401965485517678e+02   
7.206000000000000e+09    -2.119983217625722e+01   -1.396743264542756e+02   
7.207000000000000e+09    -2.130178917153181e+01   -1.391222435066906e+02   
7.208000000000000e+09    -2.138542614391326e+01   -1.385884677400459e+02   
7.209000000000000e+09    -2.149655281951956e+01   -1.380954403154106e+02   
7.210000000000000e+09    -2.160268746517557e+01   -1.374952379374612e+02   
7.211000000000000e+09    -2.169720569545539e+01   -1.369604468129189e+02   
7.212000000000000e+09    -2.181102512587110e+01   -1.365133701812958e+02   
7.213000000000000e+09    -2.192130596254431e+01   -1.360535587964713e+02   
7.214000000000000e+09    -2.203327534952542e+01   -1.355328846140753e+02   
7.215000000000000e+09    -2.213656271980833e+01   -1.351790492731189e+02   
7.216000000000000e+09    -2.226291326881486e+01   -1.347582936282584e+02   
7.217000000000000e+09    -2.236476174455554e+01   -1.343544901429022e+02   
7.218000000000000e+09    -2.248964246066882e+01   -1.339710567070342e+02   
7.219000000000000e+09    -2.259851163034786e+01   -1.335257364664911e+02   
7.220000000000000e+09    -2.271824562606750e+01   -1.331134136748341e+02   
7.221000000000000e+09    -2.283152148715119e+01   -1.327232927885947e+02   
7.222000000000000e+09    -2.295276416117217e+01   -1.324215599843519e+02   
7.223000000000000e+09    -2.308119906223641e+01   -1.320681042779643e+02   
7.224000000000000e+09    -2.319195453776102e+01   -1.317083156930922e+02   
7.225000000000000e+09    -2.330781214780762e+01   -1.313109611952931e+02   
7.226000000000000e+09    -2.342332499796023e+01   -1.310812830614929e+02   
7.227000000000000e+09    -2.352622536417830e+01   -1.308655230902914e+02   
7.228000000000000e+09    -2.362380456456854e+01   -1.305168600542411e+02   
7.229000000000000e+09    -2.373320116366580e+01   -1.302843643253729e+02   
7.230000000000000e+09    -2.383147100404846e+01   -1.300217637756346e+02   
7.231000000000000e+09    -2.393034914097598e+01   -1.299165994490727e+02   
7.232000000000000e+09    -2.402726814944671e+01   -1.297479732298385e+02   
7.233000000000000e+09    -2.409073571608078e+01   -1.295394884321284e+02   
7.234000000000000e+09    -2.416828164405361e+01   -1.294436411712272e+02   
7.235000000000000e+09    -2.425053500270338e+01   -1.294209495834924e+02   
7.236000000000000e+09    -2.434098386579035e+01   -1.290853196518299e+02   
7.237000000000000e+09    -2.440720924970811e+01   -1.291349534036718e+02   
7.238000000000000e+09    -2.449162048984564e+01   -1.290146293763366e+02   
7.239000000000000e+09    -2.453508147943962e+01   -1.289778332690759e+02   
7.240000000000000e+09    -2.458965903414239e+01   -1.288299969798522e+02   
7.241000000000000e+09    -2.462641161887753e+01   -1.287184707433898e+02   
7.242000000000000e+09    -2.466877783870346e+01   -1.286198104745856e+02   
7.243000000000000e+09    -2.468259687486744e+01   -1.285409932715122e+02   
7.244000000000000e+09    -2.469471809624868e+01   -1.283890053929256e+02   
7.245000000000000e+09    -2.471385515874388e+01   -1.283551034779491e+02   
7.246000000000000e+09    -2.472221524812973e+01   -1.284056115517977e+02   
7.247000000000000e+09    -2.472241195123544e+01   -1.282988696812176e+02   
7.248000000000000e+09    -2.470865835049965e+01   -1.282545738380847e+02   
7.249000000000000e+09    -2.469596943509723e+01   -1.282010837016218e+02   
7.250000000000000e+09    -2.466461927873320e+01   -1.281224554813194e+02   
7.251000000000000e+09    -2.462987509985017e+01   -1.282038288577529e+02   
7.252000000000000e+09    -2.461352947350281e+01   -1.281214883703369e+02   
7.253000000000000e+09    -2.458060419611492e+01   -1.280331098114503e+02   
7.254000000000000e+09    -2.451386567676960e+01   -1.279194508952161e+02   
7.255000000000000e+09    -2.446206700230822e+01   -1.278757167488588e+02   
7.256000000000000e+09    -2.440745825955378e+01   -1.277682679768513e+02   
