[Version] 2.0
! Rohde & Schwarz Vector Network Analyzer
! Rohde-Schwarz,ZNL20-2Port,1323001220200009,1.71.1.10-23.02.1.238
! 
! Trace info:
! Nominal Param -> Actual Exported Buffer
! ---------------------------------------
! S11 -> S22

! Created: GMT+3 2024-09-24 16:38:51

# Hz S DB R 50

[Number of Ports] 1
[Number of Frequencies] 6001

[Network Data] 
! freq[Hz]               S11[mag dB]              S11[ang]                 
7.000000000000000e+09    -2.160418527598095e+01   -1.466210914850774e+02   
7.001000000000000e+09    -2.164959887730759e+01   -1.460944268182432e+02   
7.002000000000000e+09    -2.170790721034918e+01   -1.455339540650085e+02   
7.003000000000000e+09    -2.174673404983122e+01   -1.450586503498464e+02   
7.004000000000000e+09    -2.178622319703171e+01   -1.445646045635055e+02   
7.005000000000000e+09    -2.183394727221134e+01   -1.440863889918931e+02   
7.006000000000000e+09    -2.187953719686233e+01   -1.435970457179166e+02   
7.007000000000000e+09    -2.191188620365071e+01   -1.432490016015004e+02   
7.008000000000000e+09    -2.194803664562995e+01   -1.428826324344165e+02   
7.009000000000000e+09    -2.198531515309644e+01   -1.424878121250975e+02   
7.010000000000000e+09    -2.200820359096280e+01   -1.421822319672461e+02   
7.011000000000000e+09    -2.202877117539035e+01   -1.419455060799081e+02   
7.012000000000000e+09    -2.204813489422427e+01   -1.416680611932198e+02   
7.013000000000000e+09    -2.207848208225683e+01   -1.414696521594484e+02   
7.014000000000000e+09    -2.208981397273075e+01   -1.413321010574353e+02   
7.015000000000000e+09    -2.210083229016475e+01   -1.411508838785699e+02   
7.016000000000000e+09    -2.211109415510546e+01   -1.410276599455217e+02   
7.017000000000000e+09    -2.211198980155704e+01   -1.410077413630438e+02   
7.018000000000000e+09    -2.211131566814595e+01   -1.409217180385742e+02   
7.019000000000000e+09    -2.209789944053134e+01   -1.408386243266365e+02   
7.020000000000000e+09    -2.210510576590724e+01   -1.409365753249595e+02   
7.021000000000000e+09    -2.209193906905796e+01   -1.408596977199392e+02   
7.022000000000000e+09    -2.209074426928002e+01   -1.408277990826736e+02   
7.023000000000000e+09    -2.205542716909807e+01   -1.409342702391468e+02   
7.024000000000000e+09    -2.203267961997905e+01   -1.409891433094307e+02   
7.025000000000000e+09    -2.201226136818087e+01   -1.409871300264412e+02   
7.026000000000000e+09    -2.197197010495512e+01   -1.410969622821044e+02   
7.027000000000000e+09    -2.193392998118378e+01   -1.411455914066990e+02   
7.028000000000000e+09    -2.190419311725488e+01   -1.412902979137204e+02   
7.029000000000000e+09    -2.187499740638454e+01   -1.414873650945234e+02   
7.030000000000000e+09    -2.182212404054441e+01   -1.414821688235840e+02   
7.031000000000000e+09    -2.178503382773363e+01   -1.416884060593607e+02   
7.032000000000000e+09    -2.175347956271770e+01   -1.418314774744628e+02   
7.033000000000000e+09    -2.169936754316258e+01   -1.420221513829144e+02   
7.034000000000000e+09    -2.165127091315667e+01   -1.420873133817936e+02   
7.035000000000000e+09    -2.158969923994018e+01   -1.422031320647933e+02   
7.036000000000000e+09    -2.154767877274587e+01   -1.422740943846160e+02   
7.037000000000000e+09    -2.149133898684858e+01   -1.423386098118329e+02   
7.038000000000000e+09    -2.141681728177632e+01   -1.425180986156607e+02   
7.039000000000000e+09    -2.136099455244883e+01   -1.425507764184419e+02   
7.040000000000000e+09    -2.128956022554684e+01   -1.427396467039418e+02   
7.041000000000000e+09    -2.122692318021003e+01   -1.428032422322204e+02   
7.042000000000000e+09    -2.116639330859691e+01   -1.428675104481259e+02   
7.043000000000000e+09    -2.109696833158296e+01   -1.430102670522604e+02   
7.044000000000000e+09    -2.102485478975341e+01   -1.430837168746116e+02   
7.045000000000000e+09    -2.094754447375588e+01   -1.430614534265050e+02   
7.046000000000000e+09    -2.087456261913726e+01   -1.431670238742592e+02   
7.047000000000000e+09    -2.080406048359137e+01   -1.431665591525596e+02   
7.048000000000000e+09    -2.072240273021667e+01   -1.431926299940975e+02   
7.049000000000000e+09    -2.064299001185105e+01   -1.432008270339100e+02   
7.050000000000000e+09    -2.057103712139795e+01   -1.431748681495449e+02   
7.051000000000000e+09    -2.049134932727434e+01   -1.431989499516097e+02   
7.052000000000000e+09    -2.041266236002322e+01   -1.432161398027132e+02   
7.053000000000000e+09    -2.033507318654063e+01   -1.431173759616886e+02   
7.054000000000000e+09    -2.024975992193988e+01   -1.429885497800266e+02   
7.055000000000000e+09    -2.017665744833132e+01   -1.429681206706661e+02   
7.056000000000000e+09    -2.008672384171228e+01   -1.428823553473837e+02   
7.057000000000000e+09    -1.999331240844141e+01   -1.428658487470178e+02   
7.058000000000000e+09    -1.993225292948849e+01   -1.426946925693679e+02   
7.059000000000000e+09    -1.984855085506070e+01   -1.425599243506946e+02   
7.060000000000000e+09    -1.976010892300398e+01   -1.425376684478224e+02   
7.061000000000000e+09    -1.967822182070645e+01   -1.423037657520002e+02   
7.062000000000000e+09    -1.959649612531457e+01   -1.421830787655927e+02   
7.063000000000000e+09    -1.951180552940021e+01   -1.419982818444955e+02   
7.064000000000000e+09    -1.943619155209436e+01   -1.417677251950304e+02   
7.065000000000000e+09    -1.936696465749059e+01   -1.416033179183297e+02   
7.066000000000000e+09    -1.929355539861246e+01   -1.414522712219207e+02   
7.067000000000000e+09    -1.922421922822209e+01   -1.412274900471947e+02   
7.068000000000000e+09    -1.915299857567095e+01   -1.409630963921122e+02   
7.069000000000000e+09    -1.909267239013871e+01   -1.408053784194205e+02   
7.070000000000000e+09    -1.902798460625954e+01   -1.405243083362103e+02   
7.071000000000000e+09    -1.897061027328429e+01   -1.403165022890072e+02   
7.072000000000000e+09    -1.890962791176657e+01   -1.400723223672515e+02   
7.073000000000000e+09    -1.885537965142835e+01   -1.397623723865197e+02   
7.074000000000000e+09    -1.879946691662970e+01   -1.394567840680205e+02   
7.075000000000000e+09    -1.876204010259286e+01   -1.392329798905251e+02   
7.076000000000000e+09    -1.870651872357927e+01   -1.388584227703403e+02   
7.077000000000000e+09    -1.866751991273006e+01   -1.386142412581570e+02   
7.078000000000000e+09    -1.863523039310443e+01   -1.383494500091107e+02   
7.079000000000000e+09    -1.859766603325987e+01   -1.380456339490154e+02   
7.080000000000000e+09    -1.855285262244987e+01   -1.377491284931075e+02   
7.081000000000000e+09    -1.852750671432998e+01   -1.374698148488432e+02   
7.082000000000000e+09    -1.850242523543084e+01   -1.371712883184550e+02   
7.083000000000000e+09    -1.847042124657856e+01   -1.369159303778182e+02   
7.084000000000000e+09    -1.844914185346598e+01   -1.365570343003533e+02   
7.085000000000000e+09    -1.843186984718506e+01   -1.363318277911534e+02   
7.086000000000000e+09    -1.842059705010818e+01   -1.360932181723480e+02   
7.087000000000000e+09    -1.840917050413348e+01   -1.358348222737160e+02   
7.088000000000000e+09    -1.840574222888936e+01   -1.356109854091841e+02   
7.089000000000000e+09    -1.839040108102283e+01   -1.353493466699058e+02   
7.090000000000000e+09    -1.838114531502948e+01   -1.350750238802722e+02   
7.091000000000000e+09    -1.839042030977165e+01   -1.348916698204905e+02   
7.092000000000000e+09    -1.838769052850582e+01   -1.346898213417383e+02   
7.093000000000000e+09    -1.838458949298867e+01   -1.344680084536527e+02   
7.094000000000000e+09    -1.839655008032505e+01   -1.342883024517968e+02   
7.095000000000000e+09    -1.839944827092765e+01   -1.341207752001410e+02   
7.096000000000000e+09    -1.840297771362822e+01   -1.339717564227911e+02   
7.097000000000000e+09    -1.842060173086725e+01   -1.339143628691948e+02   
7.098000000000000e+09    -1.843238588014853e+01   -1.337299154211603e+02   
7.099000000000000e+09    -1.844626965589322e+01   -1.336734523577727e+02   
7.100000000000000e+09    -1.846168769060671e+01   -1.336028678288317e+02   
7.101000000000000e+09    -1.847468934313822e+01   -1.334876227542917e+02   
7.102000000000000e+09    -1.850218314442586e+01   -1.334266741869697e+02   
7.103000000000000e+09    -1.853021760523161e+01   -1.333990796816180e+02   
7.104000000000000e+09    -1.854933840842665e+01   -1.333707741726120e+02   
7.105000000000000e+09    -1.857609866674740e+01   -1.333411161555382e+02   
7.106000000000000e+09    -1.860524399828780e+01   -1.333701534025633e+02   
7.107000000000000e+09    -1.863833474632840e+01   -1.333529525902665e+02   
7.108000000000000e+09    -1.866289168530920e+01   -1.333717844495630e+02   
7.109000000000000e+09    -1.870099580351308e+01   -1.335007731259075e+02   
7.110000000000000e+09    -1.871859672000808e+01   -1.335270310717129e+02   
7.111000000000000e+09    -1.876565497727194e+01   -1.336614432399532e+02   
7.112000000000000e+09    -1.879540424695279e+01   -1.337602653992076e+02   
7.113000000000000e+09    -1.884092283459018e+01   -1.339002467094857e+02   
7.114000000000000e+09    -1.888128622411292e+01   -1.340220078655486e+02   
7.115000000000000e+09    -1.891003965389121e+01   -1.341919221442901e+02   
7.116000000000000e+09    -1.895656890273309e+01   -1.343312475681256e+02   
7.117000000000000e+09    -1.900144611219929e+01   -1.345828508553635e+02   
7.118000000000000e+09    -1.904218834729742e+01   -1.348576213417330e+02   
7.119000000000000e+09    -1.908741101544345e+01   -1.351173468569744e+02   
7.120000000000000e+09    -1.912970303037049e+01   -1.353660615687793e+02   
7.121000000000000e+09    -1.916852263491442e+01   -1.356728505219355e+02   
7.122000000000000e+09    -1.921337194125575e+01   -1.360144538268179e+02   
7.123000000000000e+09    -1.925688533492598e+01   -1.363283322034509e+02   
7.124000000000000e+09    -1.929698778624977e+01   -1.366611150100415e+02   
7.125000000000000e+09    -1.934735648439545e+01   -1.370938702731345e+02   
7.126000000000000e+09    -1.938167230840661e+01   -1.375139185675869e+02   
7.127000000000000e+09    -1.941739665118632e+01   -1.379083439839845e+02   
7.128000000000000e+09    -1.946838975393072e+01   -1.383669559150565e+02   
7.129000000000000e+09    -1.949880777958412e+01   -1.387192284040426e+02   
7.130000000000000e+09    -1.953454481015017e+01   -1.392416574957502e+02   
7.131000000000000e+09    -1.955822711638656e+01   -1.397155433536827e+02   
7.132000000000000e+09    -1.959556973423527e+01   -1.401767946375850e+02   
7.133000000000000e+09    -1.961846492626102e+01   -1.406328012390770e+02   
7.134000000000000e+09    -1.964110497859356e+01   -1.411989418302714e+02   
7.135000000000000e+09    -1.966008780198317e+01   -1.417281801505229e+02   
7.136000000000000e+09    -1.968409447721347e+01   -1.421991091533556e+02   
7.137000000000000e+09    -1.969349551311148e+01   -1.427587596439793e+02   
7.138000000000000e+09    -1.969484236945874e+01   -1.433288819777416e+02   
7.139000000000000e+09    -1.970574417010320e+01   -1.438107241555780e+02   
7.140000000000000e+09    -1.971904446709772e+01   -1.443872115638804e+02   
7.141000000000000e+09    -1.971561565351498e+01   -1.448403898204520e+02   
7.142000000000000e+09    -1.970566024253293e+01   -1.453564247506473e+02   
7.143000000000000e+09    -1.970700850087510e+01   -1.457914609974661e+02   
7.144000000000000e+09    -1.970207865059828e+01   -1.463043831192489e+02   
7.145000000000000e+09    -1.969901973515363e+01   -1.468024194880650e+02   
7.146000000000000e+09    -1.967773971549926e+01   -1.472568847634243e+02   
7.147000000000000e+09    -1.966016302681219e+01   -1.476993716201705e+02   
7.148000000000000e+09    -1.965111812127511e+01   -1.480701477638105e+02   
7.149000000000000e+09    -1.962895578147353e+01   -1.484786358721555e+02   
7.150000000000000e+09    -1.960039766332624e+01   -1.488364869051649e+02   
7.151000000000000e+09    -1.958244550715711e+01   -1.492353954791089e+02   
7.152000000000000e+09    -1.956073247113159e+01   -1.495237604692956e+02   
7.153000000000000e+09    -1.953881567363183e+01   -1.498314489861466e+02   
7.154000000000000e+09    -1.951236720938342e+01   -1.501641046661857e+02   
7.155000000000000e+09    -1.948274180423661e+01   -1.503961974049045e+02   
7.156000000000000e+09    -1.944953204345776e+01   -1.505365407992034e+02   
7.157000000000000e+09    -1.942562860629897e+01   -1.507996223446664e+02   
7.158000000000000e+09    -1.941108332471945e+01   -1.509764702627205e+02   
7.159000000000000e+09    -1.937990340330983e+01   -1.511339281847640e+02   
7.160000000000000e+09    -1.935561893788739e+01   -1.512819596770270e+02   
7.161000000000000e+09    -1.933498591407386e+01   -1.513704937300765e+02   
7.162000000000000e+09    -1.931346996972698e+01   -1.514060762011612e+02   
7.163000000000000e+09    -1.928489615637067e+01   -1.515066494921917e+02   
7.164000000000000e+09    -1.927121296916259e+01   -1.514674913466729e+02   
7.165000000000000e+09    -1.926037501821717e+01   -1.514798233860609e+02   
7.166000000000000e+09    -1.923459536466396e+01   -1.514147428385894e+02   
7.167000000000000e+09    -1.922466317818423e+01   -1.514383412607732e+02   
7.168000000000000e+09    -1.920427920851745e+01   -1.513581502859242e+02   
7.169000000000000e+09    -1.920611855197457e+01   -1.512834700978639e+02   
7.170000000000000e+09    -1.918865909366126e+01   -1.511116471187212e+02   
7.171000000000000e+09    -1.917686687703591e+01   -1.510293750080929e+02   
7.172000000000000e+09    -1.916908571587854e+01   -1.508575145715666e+02   
7.173000000000000e+09    -1.917497487562567e+01   -1.507330656233504e+02   
7.174000000000000e+09    -1.917012322495251e+01   -1.505695911669354e+02   
7.175000000000000e+09    -1.916583870788527e+01   -1.503521456156697e+02   
7.176000000000000e+09    -1.916418802286380e+01   -1.501170097222654e+02   
7.177000000000000e+09    -1.917057048090810e+01   -1.499378303052055e+02   
7.178000000000000e+09    -1.917665891316867e+01   -1.496349541865545e+02   
7.179000000000000e+09    -1.917787278418646e+01   -1.494209637929594e+02   
7.180000000000000e+09    -1.918710954279851e+01   -1.491356422790648e+02   
7.181000000000000e+09    -1.919971619631483e+01   -1.489167280446787e+02   
7.182000000000000e+09    -1.921775155785373e+01   -1.485747842013232e+02   
7.183000000000000e+09    -1.923492208633589e+01   -1.483344588001184e+02   
7.184000000000000e+09    -1.925813305811277e+01   -1.480956949007087e+02   
7.185000000000000e+09    -1.928172360790520e+01   -1.476904576980645e+02   
7.186000000000000e+09    -1.930914203161274e+01   -1.473960996283850e+02   
7.187000000000000e+09    -1.933190033248954e+01   -1.470205038685357e+02   
7.188000000000000e+09    -1.935890455847604e+01   -1.466604461636392e+02   
7.189000000000000e+09    -1.939663785295473e+01   -1.463273315305315e+02   
7.190000000000000e+09    -1.943934561503326e+01   -1.458836689215106e+02   
7.191000000000000e+09    -1.945525249387243e+01   -1.455829054483358e+02   
7.192000000000000e+09    -1.950463472642119e+01   -1.451813566359928e+02   
7.193000000000000e+09    -1.954353755672667e+01   -1.447614120050366e+02   
7.194000000000000e+09    -1.959158697741896e+01   -1.443596837851568e+02   
7.195000000000000e+09    -1.963597381671806e+01   -1.439909995970700e+02   
7.196000000000000e+09    -1.969205510291994e+01   -1.435515854371068e+02   
7.197000000000000e+09    -1.974334136745424e+01   -1.431396535268994e+02   
7.198000000000000e+09    -1.978903038307349e+01   -1.427280730413649e+02   
7.199000000000000e+09    -1.985277232500797e+01   -1.423146875189470e+02   
7.200000000000000e+09    -1.991715251458065e+01   -1.418911285947129e+02   
7.201000000000000e+09    -1.997475449623995e+01   -1.414627205237971e+02   
7.202000000000000e+09    -2.004605870181843e+01   -1.410694436775442e+02   
7.203000000000000e+09    -2.011040421605646e+01   -1.406755838047958e+02   
7.204000000000000e+09    -2.019339190474337e+01   -1.403275878917131e+02   
7.205000000000000e+09    -2.027638134529516e+01   -1.398427173557816e+02   
7.206000000000000e+09    -2.036169615198226e+01   -1.394722729525578e+02   
7.207000000000000e+09    -2.044663811771654e+01   -1.390777294525252e+02   
7.208000000000000e+09    -2.052435091947342e+01   -1.387041599615169e+02   
7.209000000000000e+09    -2.061404513593926e+01   -1.383178850980773e+02   
7.210000000000000e+09    -2.071712767546261e+01   -1.379485076143852e+02   
7.211000000000000e+09    -2.079342698772940e+01   -1.376053037866092e+02   
7.212000000000000e+09    -2.090430579048585e+01   -1.373214696166514e+02   
7.213000000000000e+09    -2.100568743952245e+01   -1.369855859614645e+02   
7.214000000000000e+09    -2.109848932919126e+01   -1.366569406775232e+02   
7.215000000000000e+09    -2.120146657779388e+01   -1.363839785022113e+02   
7.216000000000000e+09    -2.131369352472143e+01   -1.361782788346990e+02   
7.217000000000000e+09    -2.140764488372100e+01   -1.359245436508573e+02   
7.218000000000000e+09    -2.152861347603192e+01   -1.356894859970236e+02   
7.219000000000000e+09    -2.163285330080159e+01   -1.354134599822323e+02   
7.220000000000000e+09    -2.173529899162617e+01   -1.352727376829188e+02   
7.221000000000000e+09    -2.184599498249512e+01   -1.352016978144263e+02   
7.222000000000000e+09    -2.195446823337912e+01   -1.350114902948145e+02   
7.223000000000000e+09    -2.207034461446051e+01   -1.348131535068093e+02   
7.224000000000000e+09    -2.217766773297969e+01   -1.347605095244969e+02   
7.225000000000000e+09    -2.229725736588333e+01   -1.345834939465543e+02   
7.226000000000000e+09    -2.239144053717839e+01   -1.345645887909712e+02   
7.227000000000000e+09    -2.249961289619707e+01   -1.345346732873842e+02   
7.228000000000000e+09    -2.261223201267319e+01   -1.344498558806910e+02   
7.229000000000000e+09    -2.270053426943651e+01   -1.343718897009281e+02   
7.230000000000000e+09    -2.281085991533192e+01   -1.343624826949565e+02   
7.231000000000000e+09    -2.290399760296970e+01   -1.343964985416012e+02   
7.232000000000000e+09    -2.299200936375659e+01   -1.344957762637366e+02   
7.233000000000000e+09    -2.307636192220085e+01   -1.344755495527922e+02   
7.234000000000000e+09    -2.316147525142913e+01   -1.346066283710286e+02   
7.235000000000000e+09    -2.324594943028265e+01   -1.347252829681303e+02   
7.236000000000000e+09    -2.332508003692413e+01   -1.346244400232932e+02   
7.237000000000000e+09    -2.340568328844443e+01   -1.348167324868367e+02   
7.238000000000000e+09    -2.349117609145289e+01   -1.348399716669919e+02   
7.239000000000000e+09    -2.353955598563829e+01   -1.350359904675437e+02   
7.240000000000000e+09    -2.361877929295454e+01   -1.351158984289969e+02   
7.241000000000000e+09    -2.366794861078125e+01   -1.351871187088846e+02   
7.242000000000000e+09    -2.371594036552141e+01   -1.353829915683320e+02   
7.243000000000000e+09    -2.375280949632011e+01   -1.353976084665318e+02   
7.244000000000000e+09    -2.379966071546385e+01   -1.354505672547519e+02   
7.245000000000000e+09    -2.383161403259609e+01   -1.356480733634225e+02   
7.246000000000000e+09    -2.384427408142394e+01   -1.357434759285952e+02   
7.247000000000000e+09    -2.387428315326361e+01   -1.359046502753010e+02   
7.248000000000000e+09    -2.388643794030937e+01   -1.360190848455633e+02   
7.249000000000000e+09    -2.391790035784705e+01   -1.359278001021889e+02   
7.250000000000000e+09    -2.390343058138646e+01   -1.360472399052261e+02   
7.251000000000000e+09    -2.390255629858027e+01   -1.362444225994998e+02   
7.252000000000000e+09    -2.389445991679265e+01   -1.361740107300492e+02   
7.253000000000000e+09    -2.388924985556506e+01   -1.363000975612787e+02   
7.254000000000000e+09    -2.386882603244487e+01   -1.361888218707312e+02   
7.255000000000000e+09    -2.385603932769850e+01   -1.361926786186947e+02   
7.256000000000000e+09    -2.382345065423823e+01   -1.361426820542763e+02   
