[Version] 2.0
! Rohde & Schwarz Vector Network Analyzer
! Rohde-Schwarz,ZNL20-2Port,1323001220200009,1.71.1.10-23.02.1.238
! 
! Trace info:
! Nominal Param -> Actual Exported Buffer
! ---------------------------------------
! S11 -> S22

! Created: GMT+3 2024-09-24 16:38:59

# Hz S DB R 50

[Number of Ports] 1
[Number of Frequencies] 6001

[Network Data] 
! freq[Hz]               S11[mag dB]              S11[ang]                 
7.000000000000000e+09    -2.154967247687154e+01   -1.590039757197966e+02   
7.001000000000000e+09    -2.165524417442159e+01   -1.585303562184391e+02   
7.002000000000000e+09    -2.178964770673631e+01   -1.580394278957263e+02   
7.003000000000000e+09    -2.189574138812791e+01   -1.575282048548472e+02   
7.004000000000000e+09    -2.200623684434947e+01   -1.570799987594699e+02   
7.005000000000000e+09    -2.211889695498904e+01   -1.565710648298782e+02   
7.006000000000000e+09    -2.222540458247816e+01   -1.560719776499137e+02   
7.007000000000000e+09    -2.232724405541116e+01   -1.556386646695858e+02   
7.008000000000000e+09    -2.242139707461743e+01   -1.552102015450063e+02   
7.009000000000000e+09    -2.251030327394959e+01   -1.547637422090984e+02   
7.010000000000000e+09    -2.261057845688073e+01   -1.543450661818891e+02   
7.011000000000000e+09    -2.269690102663416e+01   -1.539597199209297e+02   
7.012000000000000e+09    -2.277286265587166e+01   -1.535145488267147e+02   
7.013000000000000e+09    -2.283216333333583e+01   -1.531562749347965e+02   
7.014000000000000e+09    -2.291681727311253e+01   -1.528946369063006e+02   
7.015000000000000e+09    -2.296552798651341e+01   -1.525439094242716e+02   
7.016000000000000e+09    -2.302936549992221e+01   -1.522214323607358e+02   
7.017000000000000e+09    -2.307776837560315e+01   -1.518929756884332e+02   
7.018000000000000e+09    -2.312375358555357e+01   -1.516414397226440e+02   
7.019000000000000e+09    -2.314516022460148e+01   -1.512694573262427e+02   
7.020000000000000e+09    -2.318735259455799e+01   -1.511372304901435e+02   
7.021000000000000e+09    -2.321612951331280e+01   -1.508140263319979e+02   
7.022000000000000e+09    -2.323514349349969e+01   -1.505615485777629e+02   
7.023000000000000e+09    -2.324637491339452e+01   -1.503672457995747e+02   
7.024000000000000e+09    -2.324095579715734e+01   -1.501859402431510e+02   
7.025000000000000e+09    -2.324888446977836e+01   -1.499511464000135e+02   
7.026000000000000e+09    -2.322178821328813e+01   -1.498197405529926e+02   
7.027000000000000e+09    -2.322800851131995e+01   -1.495163628816042e+02   
7.028000000000000e+09    -2.320559740224376e+01   -1.494670387039667e+02   
7.029000000000000e+09    -2.318554477484310e+01   -1.492172705782302e+02   
7.030000000000000e+09    -2.315351112482604e+01   -1.490377036064821e+02   
7.031000000000000e+09    -2.312730759830646e+01   -1.488816804095588e+02   
7.032000000000000e+09    -2.309962629725164e+01   -1.487572301185850e+02   
7.033000000000000e+09    -2.305920123972221e+01   -1.487279637863875e+02   
7.034000000000000e+09    -2.300763130432431e+01   -1.484376362708809e+02   
7.035000000000000e+09    -2.295501210082214e+01   -1.482243476568657e+02   
7.036000000000000e+09    -2.290889655433871e+01   -1.481401689620803e+02   
7.037000000000000e+09    -2.284909113627752e+01   -1.479450905470768e+02   
7.038000000000000e+09    -2.277707159074782e+01   -1.478224228648057e+02   
7.039000000000000e+09    -2.271916183844524e+01   -1.477358922272923e+02   
7.040000000000000e+09    -2.263492203757491e+01   -1.475771738511062e+02   
7.041000000000000e+09    -2.257482582476804e+01   -1.472900315036339e+02   
7.042000000000000e+09    -2.250944551149094e+01   -1.471870321061764e+02   
7.043000000000000e+09    -2.241725570553314e+01   -1.470420670454037e+02   
7.044000000000000e+09    -2.232995829824384e+01   -1.469636319824451e+02   
7.045000000000000e+09    -2.226592084129027e+01   -1.467501596075968e+02   
7.046000000000000e+09    -2.217449080974066e+01   -1.466234089909573e+02   
7.047000000000000e+09    -2.208932673958342e+01   -1.463714433328271e+02   
7.048000000000000e+09    -2.200245306897983e+01   -1.461406613905375e+02   
7.049000000000000e+09    -2.190897472414086e+01   -1.458406840856842e+02   
7.050000000000000e+09    -2.181520977372059e+01   -1.456789252575869e+02   
7.051000000000000e+09    -2.172554578160211e+01   -1.455246427446896e+02   
7.052000000000000e+09    -2.163888688927637e+01   -1.452490591122126e+02   
7.053000000000000e+09    -2.154189773393377e+01   -1.449724283670247e+02   
7.054000000000000e+09    -2.144912217753273e+01   -1.447051403981779e+02   
7.055000000000000e+09    -2.135256133072822e+01   -1.444338891505541e+02   
7.056000000000000e+09    -2.126266009903220e+01   -1.442037065664163e+02   
7.057000000000000e+09    -2.115677084202648e+01   -1.439741768459090e+02   
7.058000000000000e+09    -2.107508373670666e+01   -1.436585445599401e+02   
7.059000000000000e+09    -2.097336750754952e+01   -1.433680633669122e+02   
7.060000000000000e+09    -2.088310338068568e+01   -1.430855616950922e+02   
7.061000000000000e+09    -2.078518990701090e+01   -1.427339713510906e+02   
7.062000000000000e+09    -2.067791602480496e+01   -1.424953722350353e+02   
7.063000000000000e+09    -2.058499058388724e+01   -1.421403014320422e+02   
7.064000000000000e+09    -2.050430550230176e+01   -1.416945012167275e+02   
7.065000000000000e+09    -2.041375811275455e+01   -1.414277535823697e+02   
7.066000000000000e+09    -2.032485909387602e+01   -1.411217769923175e+02   
7.067000000000000e+09    -2.024355490604449e+01   -1.406916316176632e+02   
7.068000000000000e+09    -2.015559079912370e+01   -1.403773627929705e+02   
7.069000000000000e+09    -2.009103424403018e+01   -1.400840260806133e+02   
7.070000000000000e+09    -2.000852064525816e+01   -1.396015219268655e+02   
7.071000000000000e+09    -1.993896371597324e+01   -1.391835484103183e+02   
7.072000000000000e+09    -1.987297453422109e+01   -1.388945778494708e+02   
7.073000000000000e+09    -1.979771400205235e+01   -1.384595863886997e+02   
7.074000000000000e+09    -1.973660144975059e+01   -1.380546881578915e+02   
7.075000000000000e+09    -1.968031019896964e+01   -1.376682160692292e+02   
7.076000000000000e+09    -1.961920184927347e+01   -1.372080042336916e+02   
7.077000000000000e+09    -1.956553856587161e+01   -1.367772192770828e+02   
7.078000000000000e+09    -1.951237316350070e+01   -1.363934533906992e+02   
7.079000000000000e+09    -1.946309046406997e+01   -1.359686507147974e+02   
7.080000000000000e+09    -1.942264659899166e+01   -1.355149074219104e+02   
7.081000000000000e+09    -1.938001353349193e+01   -1.351325558632085e+02   
7.082000000000000e+09    -1.934590046847293e+01   -1.347427229304366e+02   
7.083000000000000e+09    -1.930697448085282e+01   -1.343166620612963e+02   
7.084000000000000e+09    -1.926327351172779e+01   -1.339133277131932e+02   
7.085000000000000e+09    -1.923828681476265e+01   -1.335042331503795e+02   
7.086000000000000e+09    -1.920271409808911e+01   -1.331819384002037e+02   
7.087000000000000e+09    -1.917894565352637e+01   -1.328103385562514e+02   
7.088000000000000e+09    -1.916035434588636e+01   -1.324414700872492e+02   
7.089000000000000e+09    -1.913910928761817e+01   -1.320827023937925e+02   
7.090000000000000e+09    -1.912208186166578e+01   -1.317127106656437e+02   
7.091000000000000e+09    -1.911152379495793e+01   -1.313713961039493e+02   
7.092000000000000e+09    -1.909722462985233e+01   -1.311005849072390e+02   
7.093000000000000e+09    -1.909090764841180e+01   -1.307879237621002e+02   
7.094000000000000e+09    -1.908547513248671e+01   -1.304967970499006e+02   
7.095000000000000e+09    -1.907649070525168e+01   -1.302272265441054e+02   
7.096000000000000e+09    -1.906638668286624e+01   -1.299578367991961e+02   
7.097000000000000e+09    -1.906904053967197e+01   -1.297478703439346e+02   
7.098000000000000e+09    -1.906731260136143e+01   -1.295212813016959e+02   
7.099000000000000e+09    -1.906815585097346e+01   -1.293257631098153e+02   
7.100000000000000e+09    -1.907413612232895e+01   -1.291482041852075e+02   
7.101000000000000e+09    -1.908090624582209e+01   -1.289373382152455e+02   
7.102000000000000e+09    -1.909096310444873e+01   -1.288085945420372e+02   
7.103000000000000e+09    -1.910374194216000e+01   -1.286373671845784e+02   
7.104000000000000e+09    -1.910237811296472e+01   -1.285096282211785e+02   
7.105000000000000e+09    -1.912442093423227e+01   -1.284510685028600e+02   
7.106000000000000e+09    -1.913524588620522e+01   -1.283846621892582e+02   
7.107000000000000e+09    -1.914919768967293e+01   -1.282522352013983e+02   
7.108000000000000e+09    -1.916118370348170e+01   -1.282448286856409e+02   
7.109000000000000e+09    -1.918595544493322e+01   -1.281797379333701e+02   
7.110000000000000e+09    -1.919483230507999e+01   -1.281514044071479e+02   
7.111000000000000e+09    -1.921775101830941e+01   -1.281693475454075e+02   
7.112000000000000e+09    -1.923867231985476e+01   -1.281998488638459e+02   
7.113000000000000e+09    -1.926559727166310e+01   -1.281992099245365e+02   
7.114000000000000e+09    -1.929330169434006e+01   -1.282918528281435e+02   
7.115000000000000e+09    -1.930975077667356e+01   -1.284010303136433e+02   
7.116000000000000e+09    -1.934732999369495e+01   -1.284620628857653e+02   
7.117000000000000e+09    -1.937259681629910e+01   -1.286746075210768e+02   
7.118000000000000e+09    -1.938638927897525e+01   -1.288302275384220e+02   
7.119000000000000e+09    -1.942843437660562e+01   -1.290186452901656e+02   
7.120000000000000e+09    -1.945562642721654e+01   -1.291850651700616e+02   
7.121000000000000e+09    -1.947254639947058e+01   -1.294566979891701e+02   
7.122000000000000e+09    -1.950092170853631e+01   -1.297404582006338e+02   
7.123000000000000e+09    -1.953629290088480e+01   -1.299753322557950e+02   
7.124000000000000e+09    -1.955683316932573e+01   -1.302355904661672e+02   
7.125000000000000e+09    -1.959156551956867e+01   -1.306283844635304e+02   
7.126000000000000e+09    -1.960865365230478e+01   -1.309682084181814e+02   
7.127000000000000e+09    -1.963834898561561e+01   -1.313413260555729e+02   
7.128000000000000e+09    -1.966477313445803e+01   -1.317452399147660e+02   
7.129000000000000e+09    -1.967695656951195e+01   -1.320841032542471e+02   
7.130000000000000e+09    -1.970448605505966e+01   -1.325465415375835e+02   
7.131000000000000e+09    -1.971925100212739e+01   -1.330093714335517e+02   
7.132000000000000e+09    -1.973758543541996e+01   -1.334189709809267e+02   
7.133000000000000e+09    -1.973394843027196e+01   -1.339249827334449e+02   
7.134000000000000e+09    -1.975221078078307e+01   -1.344371170684047e+02   
7.135000000000000e+09    -1.975881564836641e+01   -1.349484111275749e+02   
7.136000000000000e+09    -1.976288445800809e+01   -1.354503981805967e+02   
7.137000000000000e+09    -1.975997655450864e+01   -1.359461193462006e+02   
7.138000000000000e+09    -1.975235285421577e+01   -1.365626947093311e+02   
7.139000000000000e+09    -1.974623207727292e+01   -1.370131343675665e+02   
7.140000000000000e+09    -1.973736078531207e+01   -1.376506819794796e+02   
7.141000000000000e+09    -1.972481788075434e+01   -1.381532064681763e+02   
7.142000000000000e+09    -1.970397509261274e+01   -1.386219804345191e+02   
7.143000000000000e+09    -1.969443526563909e+01   -1.391970168208359e+02   
7.144000000000000e+09    -1.966661027270187e+01   -1.396583639642991e+02   
7.145000000000000e+09    -1.964225947561233e+01   -1.402109830119017e+02   
7.146000000000000e+09    -1.961848526411337e+01   -1.406754131103661e+02   
7.147000000000000e+09    -1.958195260117941e+01   -1.412352916040456e+02   
7.148000000000000e+09    -1.955008113313505e+01   -1.416798858041978e+02   
7.149000000000000e+09    -1.951964747890464e+01   -1.421168937647338e+02   
7.150000000000000e+09    -1.947138129719232e+01   -1.425358282621644e+02   
7.151000000000000e+09    -1.943990369496230e+01   -1.429389066710939e+02   
7.152000000000000e+09    -1.939656974901440e+01   -1.433522857841911e+02   
7.153000000000000e+09    -1.936061055222580e+01   -1.436763135364095e+02   
7.154000000000000e+09    -1.932306451206865e+01   -1.440679355673893e+02   
7.155000000000000e+09    -1.928040908893340e+01   -1.443486954491334e+02   
7.156000000000000e+09    -1.923304231607856e+01   -1.446191734062232e+02   
7.157000000000000e+09    -1.919411055931107e+01   -1.448889031516217e+02   
7.158000000000000e+09    -1.916143298295109e+01   -1.451889025200470e+02   
7.159000000000000e+09    -1.911425227055781e+01   -1.453931693546579e+02   
7.160000000000000e+09    -1.908377566348718e+01   -1.455936670517971e+02   
7.161000000000000e+09    -1.904386843983104e+01   -1.458236063554551e+02   
7.162000000000000e+09    -1.901449396636099e+01   -1.459403492331570e+02   
7.163000000000000e+09    -1.896451756669322e+01   -1.460872631024391e+02   
7.164000000000000e+09    -1.893699899740554e+01   -1.462018999930765e+02   
7.165000000000000e+09    -1.891497986577564e+01   -1.462808089586067e+02   
7.166000000000000e+09    -1.887134296433886e+01   -1.463234534790614e+02   
7.167000000000000e+09    -1.885195392273062e+01   -1.463844112183075e+02   
7.168000000000000e+09    -1.882532808453618e+01   -1.464602367863310e+02   
7.169000000000000e+09    -1.880056798594003e+01   -1.464433112010455e+02   
7.170000000000000e+09    -1.878220834015253e+01   -1.463966078194962e+02   
7.171000000000000e+09    -1.876173847809741e+01   -1.464216708163258e+02   
7.172000000000000e+09    -1.873045947182256e+01   -1.463733608364988e+02   
7.173000000000000e+09    -1.872505793886712e+01   -1.462852566278175e+02   
7.174000000000000e+09    -1.871033114144324e+01   -1.461997706335942e+02   
7.175000000000000e+09    -1.869823112032846e+01   -1.460718809565974e+02   
7.176000000000000e+09    -1.868984405221679e+01   -1.460140647679571e+02   
7.177000000000000e+09    -1.868230267444292e+01   -1.458644525123804e+02   
7.178000000000000e+09    -1.867362408688170e+01   -1.456559752731347e+02   
7.179000000000000e+09    -1.867193913711077e+01   -1.455420132255940e+02   
7.180000000000000e+09    -1.866845384617269e+01   -1.453649407582326e+02   
7.181000000000000e+09    -1.866600820124310e+01   -1.452351501397112e+02   
7.182000000000000e+09    -1.867236403669563e+01   -1.450249054719425e+02   
7.183000000000000e+09    -1.868214432031846e+01   -1.448271898736607e+02   
7.184000000000000e+09    -1.868742703485571e+01   -1.446588423875913e+02   
7.185000000000000e+09    -1.870383262649978e+01   -1.444006629225021e+02   
7.186000000000000e+09    -1.872100659061152e+01   -1.442201213578194e+02   
7.187000000000000e+09    -1.873803819631246e+01   -1.439391286486038e+02   
7.188000000000000e+09    -1.876255281086777e+01   -1.436907550012473e+02   
7.189000000000000e+09    -1.878768989708782e+01   -1.434397812518291e+02   
7.190000000000000e+09    -1.881181568902247e+01   -1.431387180282342e+02   
7.191000000000000e+09    -1.882856096742104e+01   -1.428670361358517e+02   
7.192000000000000e+09    -1.887109447805261e+01   -1.425606671627798e+02   
7.193000000000000e+09    -1.889653887654771e+01   -1.422530779834971e+02   
7.194000000000000e+09    -1.893359366356352e+01   -1.419377796578574e+02   
7.195000000000000e+09    -1.897350230614010e+01   -1.416601877200674e+02   
7.196000000000000e+09    -1.901779621867260e+01   -1.413086658487145e+02   
7.197000000000000e+09    -1.906291625904951e+01   -1.409976172687837e+02   
7.198000000000000e+09    -1.910050207933423e+01   -1.406784873045141e+02   
7.199000000000000e+09    -1.915065101305916e+01   -1.403375890449543e+02   
7.200000000000000e+09    -1.920471154193423e+01   -1.400251901151805e+02   
7.201000000000000e+09    -1.926546910062442e+01   -1.396607987283149e+02   
7.202000000000000e+09    -1.932013605738075e+01   -1.393776974542212e+02   
7.203000000000000e+09    -1.938100682299299e+01   -1.390756769281970e+02   
7.204000000000000e+09    -1.945178656273522e+01   -1.387966600372642e+02   
7.205000000000000e+09    -1.952474227774693e+01   -1.384133115892577e+02   
7.206000000000000e+09    -1.959753108056309e+01   -1.381398255435076e+02   
7.207000000000000e+09    -1.967311647202182e+01   -1.377732922458164e+02   
7.208000000000000e+09    -1.974139011521761e+01   -1.375281539163583e+02   
7.209000000000000e+09    -1.982144340264739e+01   -1.372633485363114e+02   
7.210000000000000e+09    -1.991300880103395e+01   -1.369556106806296e+02   
7.211000000000000e+09    -1.998270158751875e+01   -1.367058358792473e+02   
7.212000000000000e+09    -2.007460242051484e+01   -1.364865277507348e+02   
7.213000000000000e+09    -2.017595353294054e+01   -1.362941075804156e+02   
7.214000000000000e+09    -2.025349563980114e+01   -1.360547610681094e+02   
7.215000000000000e+09    -2.034344807843538e+01   -1.359163570936667e+02   
7.216000000000000e+09    -2.043767010285714e+01   -1.357624110653279e+02   
7.217000000000000e+09    -2.051906393427912e+01   -1.355956752461150e+02   
7.218000000000000e+09    -2.063270331482524e+01   -1.355767978112989e+02   
7.219000000000000e+09    -2.072371654900310e+01   -1.353590075380704e+02   
7.220000000000000e+09    -2.081657684510227e+01   -1.353269991160641e+02   
7.221000000000000e+09    -2.091070320850282e+01   -1.352731245948225e+02   
7.222000000000000e+09    -2.101855583788561e+01   -1.352431818660102e+02   
7.223000000000000e+09    -2.111998561146247e+01   -1.352230752288038e+02   
7.224000000000000e+09    -2.121762334880994e+01   -1.352501421629762e+02   
7.225000000000000e+09    -2.131050810844971e+01   -1.351763859223180e+02   
7.226000000000000e+09    -2.140303446412094e+01   -1.352711715180116e+02   
7.227000000000000e+09    -2.151254722308646e+01   -1.353663374930970e+02   
7.228000000000000e+09    -2.159296385688162e+01   -1.354167168000234e+02   
7.229000000000000e+09    -2.168489316244112e+01   -1.354813268990972e+02   
7.230000000000000e+09    -2.177293217108388e+01   -1.356017309465724e+02   
7.231000000000000e+09    -2.185945024337919e+01   -1.357243649832757e+02   
7.232000000000000e+09    -2.194099651817869e+01   -1.359756686209500e+02   
7.233000000000000e+09    -2.201356766327099e+01   -1.361034740737330e+02   
7.234000000000000e+09    -2.209311021640444e+01   -1.362879443524710e+02   
7.235000000000000e+09    -2.216128646406524e+01   -1.366041384249841e+02   
7.236000000000000e+09    -2.223791627061484e+01   -1.366875269952505e+02   
7.237000000000000e+09    -2.230588942298505e+01   -1.370288040277156e+02   
7.238000000000000e+09    -2.237564454150627e+01   -1.371811230592419e+02   
7.239000000000000e+09    -2.243420340559918e+01   -1.374970882063370e+02   
7.240000000000000e+09    -2.248995634198845e+01   -1.377297705495609e+02   
7.241000000000000e+09    -2.254177558460775e+01   -1.379555132231699e+02   
7.242000000000000e+09    -2.258273187348806e+01   -1.382158125377167e+02   
7.243000000000000e+09    -2.261887341928920e+01   -1.384718417264153e+02   
7.244000000000000e+09    -2.265833234665162e+01   -1.386594154519977e+02   
7.245000000000000e+09    -2.269604540758980e+01   -1.389878506983440e+02   
7.246000000000000e+09    -2.272125491482909e+01   -1.391904567201009e+02   
7.247000000000000e+09    -2.274257814434353e+01   -1.394890556875744e+02   
7.248000000000000e+09    -2.276826692444748e+01   -1.397133848495334e+02   
7.249000000000000e+09    -2.280077557730022e+01   -1.399487209396273e+02   
7.250000000000000e+09    -2.279298973540524e+01   -1.401699086960659e+02   
7.251000000000000e+09    -2.281214982983436e+01   -1.403804556950199e+02   
7.252000000000000e+09    -2.281110659595853e+01   -1.405170012028718e+02   
7.253000000000000e+09    -2.282078161973261e+01   -1.407351741845058e+02   
7.254000000000000e+09    -2.280453367370208e+01   -1.408354243699712e+02   
7.255000000000000e+09    -2.280852810736791e+01   -1.409557803700412e+02   
7.256000000000000e+09    -2.279288071207363e+01   -1.410892436785349e+02   
