[Version] 2.0
! Rohde & Schwarz Vector Network Analyzer
! Rohde-Schwarz,ZNL20-2Port,1323001220200009,1.71.1.10-23.02.1.238
! 
! Trace info:
! Nominal Param -> Actual Exported Buffer
! ---------------------------------------
! S11 -> S22

! Created: GMT+3 2024-09-24 16:39:13

# Hz S DB R 50

[Number of Ports] 1
[Number of Frequencies] 6001

[Network Data] 
! freq[Hz]               S11[mag dB]              S11[ang]                 
7.000000000000000e+09    -2.020374430007601e+01   -1.656230676073039e+02   
7.001000000000000e+09    -2.034202289971632e+01   -1.655441238674305e+02   
7.002000000000000e+09    -2.047949265873160e+01   -1.654204353360685e+02   
7.003000000000000e+09    -2.060885466983382e+01   -1.653379337720757e+02   
7.004000000000000e+09    -2.074433148698674e+01   -1.652409240659823e+02   
7.005000000000000e+09    -2.088252178484931e+01   -1.651715069334483e+02   
7.006000000000000e+09    -2.102084524031664e+01   -1.650210610346656e+02   
7.007000000000000e+09    -2.114994268838256e+01   -1.650296616265780e+02   
7.008000000000000e+09    -2.128161438867910e+01   -1.649471022823435e+02   
7.009000000000000e+09    -2.141375729428786e+01   -1.648275139619093e+02   
7.010000000000000e+09    -2.154179795857802e+01   -1.647715487547776e+02   
7.011000000000000e+09    -2.167029036055979e+01   -1.646945083903063e+02   
7.012000000000000e+09    -2.179077685372086e+01   -1.646697563766572e+02   
7.013000000000000e+09    -2.191335442242110e+01   -1.646076313572650e+02   
7.014000000000000e+09    -2.203488884163110e+01   -1.645959041947504e+02   
7.015000000000000e+09    -2.214477431314457e+01   -1.645163540915167e+02   
7.016000000000000e+09    -2.225115401717927e+01   -1.644689589062328e+02   
7.017000000000000e+09    -2.236694365364838e+01   -1.643884223381250e+02   
7.018000000000000e+09    -2.245631209222648e+01   -1.643407213560378e+02   
7.019000000000000e+09    -2.254822085540579e+01   -1.641651985654199e+02   
7.020000000000000e+09    -2.264633958329308e+01   -1.641721980326144e+02   
7.021000000000000e+09    -2.273119103248454e+01   -1.639907549707574e+02   
7.022000000000000e+09    -2.282780386786633e+01   -1.638806162937571e+02   
7.023000000000000e+09    -2.287954322400895e+01   -1.637597485354306e+02   
7.024000000000000e+09    -2.294802521802436e+01   -1.635906039222176e+02   
7.025000000000000e+09    -2.301836599729982e+01   -1.633981017551071e+02   
7.026000000000000e+09    -2.306231397269051e+01   -1.632733988981792e+02   
7.027000000000000e+09    -2.311021508339306e+01   -1.630272964419729e+02   
7.028000000000000e+09    -2.314934773484717e+01   -1.628952892096704e+02   
7.029000000000000e+09    -2.319467923844186e+01   -1.627237172169892e+02   
7.030000000000000e+09    -2.323412701914122e+01   -1.624052340806188e+02   
7.031000000000000e+09    -2.325927129690071e+01   -1.622316804679347e+02   
7.032000000000000e+09    -2.327678449548575e+01   -1.620164595721329e+02   
7.033000000000000e+09    -2.328440398222908e+01   -1.617255409890151e+02   
7.034000000000000e+09    -2.329478740294348e+01   -1.613959525402079e+02   
7.035000000000000e+09    -2.329014513701798e+01   -1.610433679426545e+02   
7.036000000000000e+09    -2.330764330344650e+01   -1.607533158855609e+02   
7.037000000000000e+09    -2.329137074348445e+01   -1.603174466085127e+02   
7.038000000000000e+09    -2.327256491649295e+01   -1.599719796140369e+02   
7.039000000000000e+09    -2.325769177704086e+01   -1.596772458462652e+02   
7.040000000000000e+09    -2.321732175197928e+01   -1.592929522770623e+02   
7.041000000000000e+09    -2.321155043540337e+01   -1.588533438072064e+02   
7.042000000000000e+09    -2.318071169004782e+01   -1.584893413911069e+02   
7.043000000000000e+09    -2.313410044841426e+01   -1.580872095929808e+02   
7.044000000000000e+09    -2.307702846517121e+01   -1.575948873483802e+02   
7.045000000000000e+09    -2.304664145239897e+01   -1.570756733156201e+02   
7.046000000000000e+09    -2.298367887106932e+01   -1.565871800041022e+02   
7.047000000000000e+09    -2.293499949789464e+01   -1.560714458032687e+02   
7.048000000000000e+09    -2.287948441309932e+01   -1.556262814643522e+02   
7.049000000000000e+09    -2.280237575628064e+01   -1.550826894700295e+02   
7.050000000000000e+09    -2.273025875101595e+01   -1.544809707090324e+02   
7.051000000000000e+09    -2.266531538861256e+01   -1.540350548503098e+02   
7.052000000000000e+09    -2.259722914145835e+01   -1.534793128608610e+02   
7.053000000000000e+09    -2.253273723683422e+01   -1.528840741143692e+02   
7.054000000000000e+09    -2.244074414241478e+01   -1.523236741408352e+02   
7.055000000000000e+09    -2.236448738977922e+01   -1.517477239000040e+02   
7.056000000000000e+09    -2.228329233552114e+01   -1.511648658333377e+02   
7.057000000000000e+09    -2.219677960973954e+01   -1.506360846752242e+02   
7.058000000000000e+09    -2.212525212299217e+01   -1.500259495214509e+02   
7.059000000000000e+09    -2.204472772578757e+01   -1.494516813603885e+02   
7.060000000000000e+09    -2.195566325764158e+01   -1.489320225764054e+02   
7.061000000000000e+09    -2.187463983277232e+01   -1.482620588819462e+02   
7.062000000000000e+09    -2.178195923151431e+01   -1.477365296841752e+02   
7.063000000000000e+09    -2.169728140211276e+01   -1.470294512846033e+02   
7.064000000000000e+09    -2.160990290673225e+01   -1.463988794254306e+02   
7.065000000000000e+09    -2.153349209808588e+01   -1.458620641644836e+02   
7.066000000000000e+09    -2.144453385344992e+01   -1.452045486672984e+02   
7.067000000000000e+09    -2.136409719890343e+01   -1.445907244005473e+02   
7.068000000000000e+09    -2.128844791306566e+01   -1.439832185332380e+02   
7.069000000000000e+09    -2.121843135858361e+01   -1.434172959706339e+02   
7.070000000000000e+09    -2.113432721219787e+01   -1.427581291659279e+02   
7.071000000000000e+09    -2.106642835517694e+01   -1.421434526173743e+02   
7.072000000000000e+09    -2.099025485250000e+01   -1.414918945311640e+02   
7.073000000000000e+09    -2.093297549543050e+01   -1.409219972735073e+02   
7.074000000000000e+09    -2.086770895581834e+01   -1.403090084022465e+02   
7.075000000000000e+09    -2.080557422535458e+01   -1.396298476697196e+02   
7.076000000000000e+09    -2.075119618429871e+01   -1.389740434443019e+02   
7.077000000000000e+09    -2.068320803494899e+01   -1.382953393357771e+02   
7.078000000000000e+09    -2.063745583627803e+01   -1.377490106106996e+02   
7.079000000000000e+09    -2.059007878495457e+01   -1.370681441351099e+02   
7.080000000000000e+09    -2.053924788805796e+01   -1.364653726065407e+02   
7.081000000000000e+09    -2.048670599422810e+01   -1.358778362255271e+02   
7.082000000000000e+09    -2.045058209719132e+01   -1.352162038194148e+02   
7.083000000000000e+09    -2.040773245662379e+01   -1.346037681896436e+02   
7.084000000000000e+09    -2.037111381550367e+01   -1.339830066015736e+02   
7.085000000000000e+09    -2.032638889515377e+01   -1.333851128116281e+02   
7.086000000000000e+09    -2.030081239930661e+01   -1.328381839561167e+02   
7.087000000000000e+09    -2.026450534229026e+01   -1.323130918666560e+02   
7.088000000000000e+09    -2.024837177315472e+01   -1.317605900818387e+02   
7.089000000000000e+09    -2.021523614254372e+01   -1.311452977091425e+02   
7.090000000000000e+09    -2.018192717448070e+01   -1.306032410436904e+02   
7.091000000000000e+09    -2.017371550065805e+01   -1.301357611037077e+02   
7.092000000000000e+09    -2.015533187905307e+01   -1.296245181319783e+02   
7.093000000000000e+09    -2.012817628411232e+01   -1.291757551818984e+02   
7.094000000000000e+09    -2.011768393331191e+01   -1.286880455343537e+02   
7.095000000000000e+09    -2.010419143104238e+01   -1.282251747401752e+02   
7.096000000000000e+09    -2.009087724721907e+01   -1.278116532529869e+02   
7.097000000000000e+09    -2.007598045563762e+01   -1.274357844270288e+02   
7.098000000000000e+09    -2.007154268717175e+01   -1.270228270374494e+02   
7.099000000000000e+09    -2.006112628616563e+01   -1.266098417295175e+02   
7.100000000000000e+09    -2.004960928342102e+01   -1.262429151416800e+02   
7.101000000000000e+09    -2.004811396292133e+01   -1.258941567571581e+02   
7.102000000000000e+09    -2.004611477643034e+01   -1.256321150670691e+02   
7.103000000000000e+09    -2.005623600716277e+01   -1.252554265630183e+02   
7.104000000000000e+09    -2.004146374413706e+01   -1.250091166482255e+02   
7.105000000000000e+09    -2.005289427462893e+01   -1.247780691613498e+02   
7.106000000000000e+09    -2.004563339451957e+01   -1.245317113742847e+02   
7.107000000000000e+09    -2.005363508434047e+01   -1.242716766587583e+02   
7.108000000000000e+09    -2.005141486129344e+01   -1.240899723535399e+02   
7.109000000000000e+09    -2.005907777245245e+01   -1.239079308374968e+02   
7.110000000000000e+09    -2.006147157922520e+01   -1.237223228119311e+02   
7.111000000000000e+09    -2.007600999512108e+01   -1.236521152594916e+02   
7.112000000000000e+09    -2.007486855106144e+01   -1.235274496632560e+02   
7.113000000000000e+09    -2.009605124953485e+01   -1.234421595770024e+02   
7.114000000000000e+09    -2.010546686237143e+01   -1.233672193691379e+02   
7.115000000000000e+09    -2.011064187150166e+01   -1.233585609221969e+02   
7.116000000000000e+09    -2.012820317146048e+01   -1.232622661063189e+02   
7.117000000000000e+09    -2.013844954336874e+01   -1.233234824339877e+02   
7.118000000000000e+09    -2.014741358763903e+01   -1.234476328812891e+02   
7.119000000000000e+09    -2.016887263185791e+01   -1.234231668423048e+02   
7.120000000000000e+09    -2.018173784708357e+01   -1.235661198293465e+02   
7.121000000000000e+09    -2.019054372437466e+01   -1.236833357373947e+02   
7.122000000000000e+09    -2.020309402842139e+01   -1.238126266906901e+02   
7.123000000000000e+09    -2.021741118841479e+01   -1.240025027769267e+02   
7.124000000000000e+09    -2.022845654813667e+01   -1.241569759291577e+02   
7.125000000000000e+09    -2.025216170583631e+01   -1.244247315424407e+02   
7.126000000000000e+09    -2.024260103465756e+01   -1.246266183591691e+02   
7.127000000000000e+09    -2.025734214224770e+01   -1.249734460525216e+02   
7.128000000000000e+09    -2.026099746312033e+01   -1.253515546128698e+02   
7.129000000000000e+09    -2.027025928025924e+01   -1.255678928942459e+02   
7.130000000000000e+09    -2.027996420002837e+01   -1.259448494420378e+02   
7.131000000000000e+09    -2.027252137931740e+01   -1.263335102401705e+02   
7.132000000000000e+09    -2.027939114133446e+01   -1.267051843642206e+02   
7.133000000000000e+09    -2.026641565953082e+01   -1.271789930309791e+02   
7.134000000000000e+09    -2.027644765574269e+01   -1.275905633143833e+02   
7.135000000000000e+09    -2.025382360951053e+01   -1.280478962072831e+02   
7.136000000000000e+09    -2.024679751439673e+01   -1.285273709183468e+02   
7.137000000000000e+09    -2.022608787845740e+01   -1.289876310602415e+02   
7.138000000000000e+09    -2.019738103067651e+01   -1.295735840168086e+02   
7.139000000000000e+09    -2.017337151030279e+01   -1.300266010512449e+02   
7.140000000000000e+09    -2.015495436486654e+01   -1.306641292680075e+02   
7.141000000000000e+09    -2.012705056176063e+01   -1.311273269820607e+02   
7.142000000000000e+09    -2.009284647916033e+01   -1.315988358988094e+02   
7.143000000000000e+09    -2.006066827624760e+01   -1.321007863755897e+02   
7.144000000000000e+09    -2.000999202923259e+01   -1.325914627564429e+02   
7.145000000000000e+09    -1.997891955628361e+01   -1.331614877326440e+02   
7.146000000000000e+09    -1.992866691745180e+01   -1.335861471982520e+02   
7.147000000000000e+09    -1.987778170017016e+01   -1.341416341035463e+02   
7.148000000000000e+09    -1.982645327932875e+01   -1.345960384892614e+02   
7.149000000000000e+09    -1.977225972832510e+01   -1.350297559141075e+02   
7.150000000000000e+09    -1.970718174339281e+01   -1.354911358761934e+02   
7.151000000000000e+09    -1.965806027767492e+01   -1.358915418280738e+02   
7.152000000000000e+09    -1.959069328129566e+01   -1.363610789616509e+02   
7.153000000000000e+09    -1.953603954856686e+01   -1.367403439183300e+02   
7.154000000000000e+09    -1.947943081335951e+01   -1.371717677715738e+02   
7.155000000000000e+09    -1.941373640555216e+01   -1.374999593927573e+02   
7.156000000000000e+09    -1.934641719722098e+01   -1.378054980171624e+02   
7.157000000000000e+09    -1.929403469021057e+01   -1.381112292199360e+02   
7.158000000000000e+09    -1.923698759834376e+01   -1.384410271153588e+02   
7.159000000000000e+09    -1.917564278258289e+01   -1.387305200189572e+02   
7.160000000000000e+09    -1.912784154512551e+01   -1.389889417709853e+02   
7.161000000000000e+09    -1.906623532685265e+01   -1.392289914928360e+02   
7.162000000000000e+09    -1.900789108313574e+01   -1.394018033046507e+02   
7.163000000000000e+09    -1.894134814267261e+01   -1.396356260629671e+02   
7.164000000000000e+09    -1.889049789832007e+01   -1.398128718847600e+02   
7.165000000000000e+09    -1.884403017961986e+01   -1.399110183971326e+02   
7.166000000000000e+09    -1.878850658710130e+01   -1.400079665856391e+02   
7.167000000000000e+09    -1.873969584544287e+01   -1.401130752509847e+02   
7.168000000000000e+09    -1.869738522710575e+01   -1.402662561130830e+02   
7.169000000000000e+09    -1.865690303602316e+01   -1.403364835893837e+02   
7.170000000000000e+09    -1.860773100024462e+01   -1.403455696117292e+02   
7.171000000000000e+09    -1.857490817730089e+01   -1.404169634390914e+02   
7.172000000000000e+09    -1.853184769232561e+01   -1.403746773078282e+02   
7.173000000000000e+09    -1.850271715692370e+01   -1.404386311494951e+02   
7.174000000000000e+09    -1.846883034796604e+01   -1.404036773479447e+02   
7.175000000000000e+09    -1.843750954724068e+01   -1.403607464910230e+02   
7.176000000000000e+09    -1.840548776484837e+01   -1.403906199627764e+02   
7.177000000000000e+09    -1.837740328181312e+01   -1.403448438364592e+02   
7.178000000000000e+09    -1.835069895562811e+01   -1.402249074700694e+02   
7.179000000000000e+09    -1.833256174382247e+01   -1.401927736749839e+02   
7.180000000000000e+09    -1.830928384486847e+01   -1.401145336639421e+02   
7.181000000000000e+09    -1.829287620931541e+01   -1.400652184182705e+02   
7.182000000000000e+09    -1.828047912749321e+01   -1.398979491916860e+02   
7.183000000000000e+09    -1.826474070109038e+01   -1.398319458826976e+02   
7.184000000000000e+09    -1.825631873879640e+01   -1.397876455136848e+02   
7.185000000000000e+09    -1.826076094795641e+01   -1.395500559618227e+02   
7.186000000000000e+09    -1.826179151111193e+01   -1.395162743780680e+02   
7.187000000000000e+09    -1.825806340812830e+01   -1.393352063679781e+02   
7.188000000000000e+09    -1.825790470942252e+01   -1.391550748549168e+02   
7.189000000000000e+09    -1.826781274344327e+01   -1.390115683748258e+02   
7.190000000000000e+09    -1.827570888445683e+01   -1.388450682700928e+02   
7.191000000000000e+09    -1.828653415108686e+01   -1.386651058928046e+02   
7.192000000000000e+09    -1.830775490774301e+01   -1.384718383589722e+02   
7.193000000000000e+09    -1.832280824637104e+01   -1.382643772154636e+02   
7.194000000000000e+09    -1.834339406857901e+01   -1.380614561820824e+02   
7.195000000000000e+09    -1.837033699021375e+01   -1.378524863407360e+02   
7.196000000000000e+09    -1.840387395050105e+01   -1.375798517653313e+02   
7.197000000000000e+09    -1.843515347022570e+01   -1.374199301106463e+02   
7.198000000000000e+09    -1.846583505174917e+01   -1.371613014239966e+02   
7.199000000000000e+09    -1.849820518012574e+01   -1.369624871521907e+02   
7.200000000000000e+09    -1.854512501627833e+01   -1.367456870948896e+02   
7.201000000000000e+09    -1.858580536931553e+01   -1.365384853233898e+02   
7.202000000000000e+09    -1.862938406352548e+01   -1.362910107734631e+02   
7.203000000000000e+09    -1.867766264259363e+01   -1.360533507010694e+02   
7.204000000000000e+09    -1.873934473723421e+01   -1.358671849026524e+02   
7.205000000000000e+09    -1.879832501211919e+01   -1.356263232170011e+02   
7.206000000000000e+09    -1.886051782308983e+01   -1.353976001731380e+02   
7.207000000000000e+09    -1.891863628817441e+01   -1.351924435081341e+02   
7.208000000000000e+09    -1.898967971743835e+01   -1.349876419449635e+02   
7.209000000000000e+09    -1.905083556397208e+01   -1.348495311864887e+02   
7.210000000000000e+09    -1.912493911138047e+01   -1.346950270437575e+02   
7.211000000000000e+09    -1.918548629612051e+01   -1.344963140514843e+02   
7.212000000000000e+09    -1.927462956489018e+01   -1.343528786418978e+02   
7.213000000000000e+09    -1.935750301599309e+01   -1.342693988186192e+02   
7.214000000000000e+09    -1.942701791561976e+01   -1.341155983029297e+02   
7.215000000000000e+09    -1.950295845006918e+01   -1.340589288266974e+02   
7.216000000000000e+09    -1.958801957306103e+01   -1.340232612271190e+02   
7.217000000000000e+09    -1.966498676279389e+01   -1.339811514906334e+02   
7.218000000000000e+09    -1.976283075313801e+01   -1.340384895210807e+02   
7.219000000000000e+09    -1.984982496706470e+01   -1.339709345478651e+02   
7.220000000000000e+09    -1.993521273104866e+01   -1.339474103844247e+02   
7.221000000000000e+09    -2.002358379199876e+01   -1.340328612021855e+02   
7.222000000000000e+09    -2.011746829190841e+01   -1.341074773791325e+02   
7.223000000000000e+09    -2.019843761152808e+01   -1.341777874173570e+02   
7.224000000000000e+09    -2.028785221675957e+01   -1.342866636573879e+02   
7.225000000000000e+09    -2.038036658735317e+01   -1.343116834672599e+02   
7.226000000000000e+09    -2.046849442153122e+01   -1.345025051172999e+02   
7.227000000000000e+09    -2.054584267932048e+01   -1.346511373598103e+02   
7.228000000000000e+09    -2.063901711873859e+01   -1.348491506193035e+02   
7.229000000000000e+09    -2.071720691913839e+01   -1.349556436829873e+02   
7.230000000000000e+09    -2.079489219175267e+01   -1.351847166101415e+02   
7.231000000000000e+09    -2.088083347010311e+01   -1.354538734575861e+02   
7.232000000000000e+09    -2.094889822175101e+01   -1.356810113779549e+02   
7.233000000000000e+09    -2.101392956108421e+01   -1.359219256276966e+02   
7.234000000000000e+09    -2.108511931668252e+01   -1.362651792375132e+02   
7.235000000000000e+09    -2.115850952275231e+01   -1.365309655820678e+02   
7.236000000000000e+09    -2.122733323814229e+01   -1.367550021243429e+02   
7.237000000000000e+09    -2.129440164597728e+01   -1.370851237737389e+02   
7.238000000000000e+09    -2.135229785033417e+01   -1.374377163436278e+02   
7.239000000000000e+09    -2.139051584494188e+01   -1.377767440266951e+02   
7.240000000000000e+09    -2.144387936892116e+01   -1.380941044616665e+02   
7.241000000000000e+09    -2.148922235065865e+01   -1.384390433047832e+02   
7.242000000000000e+09    -2.153595662705314e+01   -1.387851758318028e+02   
7.243000000000000e+09    -2.156615957197943e+01   -1.391454068707595e+02   
7.244000000000000e+09    -2.160015307379802e+01   -1.394130560738793e+02   
7.245000000000000e+09    -2.163614809953705e+01   -1.397758103920970e+02   
7.246000000000000e+09    -2.165597774529394e+01   -1.401799925033388e+02   
7.247000000000000e+09    -2.168544892454681e+01   -1.404984102876122e+02   
7.248000000000000e+09    -2.170408642660728e+01   -1.408431763819880e+02   
7.249000000000000e+09    -2.173607612629751e+01   -1.411336218071586e+02   
7.250000000000000e+09    -2.173308839226964e+01   -1.414478411066405e+02   
7.251000000000000e+09    -2.174478033299005e+01   -1.417379240113256e+02   
7.252000000000000e+09    -2.174631358444523e+01   -1.420229931413001e+02   
7.253000000000000e+09    -2.175067725374056e+01   -1.422705914619053e+02   
7.254000000000000e+09    -2.174585160231928e+01   -1.425349277629569e+02   
7.255000000000000e+09    -2.174625230024195e+01   -1.427547892331297e+02   
7.256000000000000e+09    -2.173105192384064e+01   -1.429529272927055e+02   
