[Version] 2.0
! Rohde & Schwarz Vector Network Analyzer
! Rohde-Schwarz,ZNL20-2Port,1323001220200009,1.71.1.10-23.02.1.238
! 
! Trace info:
! Nominal Param -> Actual Exported Buffer
! ---------------------------------------
! S11 -> S22

! Created: GMT+3 2024-09-24 16:39:28

# Hz S DB R 50

[Number of Ports] 1
[Number of Frequencies] 6001

[Network Data] 
! freq[Hz]               S11[mag dB]              S11[ang]                 
7.000000000000000e+09    -1.905392132247088e+01   -1.651057573711317e+02   
7.001000000000000e+09    -1.916060132219471e+01   -1.652193693841263e+02   
7.002000000000000e+09    -1.927936441288391e+01   -1.653023542729299e+02   
7.003000000000000e+09    -1.938664272645570e+01   -1.654782507777304e+02   
7.004000000000000e+09    -1.949998649392166e+01   -1.656160802104523e+02   
7.005000000000000e+09    -1.962199635689971e+01   -1.657657723368363e+02   
7.006000000000000e+09    -1.973452271144554e+01   -1.659618166084702e+02   
7.007000000000000e+09    -1.985157496252076e+01   -1.661218721510580e+02   
7.008000000000000e+09    -1.996094602684886e+01   -1.663104926079625e+02   
7.009000000000000e+09    -2.007887088498795e+01   -1.665255173101146e+02   
7.010000000000000e+09    -2.019197724200815e+01   -1.667218260254660e+02   
7.011000000000000e+09    -2.030345973301129e+01   -1.669660489846063e+02   
7.012000000000000e+09    -2.040910745817609e+01   -1.671760615045979e+02   
7.013000000000000e+09    -2.052411542866849e+01   -1.674464665699998e+02   
7.014000000000000e+09    -2.062996367059995e+01   -1.677094882163944e+02   
7.015000000000000e+09    -2.073016800212190e+01   -1.679279026003360e+02   
7.016000000000000e+09    -2.083747327533307e+01   -1.681693844950749e+02   
7.017000000000000e+09    -2.093740989009729e+01   -1.684386874992581e+02   
7.018000000000000e+09    -2.103663995076988e+01   -1.686739438503933e+02   
7.019000000000000e+09    -2.113104838272076e+01   -1.688635286148141e+02   
7.020000000000000e+09    -2.122680139589826e+01   -1.692012726368491e+02   
7.021000000000000e+09    -2.130970484187590e+01   -1.693432303358820e+02   
7.022000000000000e+09    -2.141621914349544e+01   -1.695485535246946e+02   
7.023000000000000e+09    -2.148792557213644e+01   -1.698272845103519e+02   
7.024000000000000e+09    -2.156477791765292e+01   -1.699568423593082e+02   
7.025000000000000e+09    -2.165597151253310e+01   -1.701522656532734e+02   
7.026000000000000e+09    -2.171219617187220e+01   -1.702736853141711e+02   
7.027000000000000e+09    -2.179693247970214e+01   -1.703807335763044e+02   
7.028000000000000e+09    -2.185500836573095e+01   -1.705548865402658e+02   
7.029000000000000e+09    -2.193022142097556e+01   -1.706749651568973e+02   
7.030000000000000e+09    -2.199720157777570e+01   -1.706919678999971e+02   
7.031000000000000e+09    -2.206503394359817e+01   -1.707219662404775e+02   
7.032000000000000e+09    -2.211474864923390e+01   -1.708471715957155e+02   
7.033000000000000e+09    -2.216108912263208e+01   -1.708393182883040e+02   
7.034000000000000e+09    -2.222517696548712e+01   -1.707013311512413e+02   
7.035000000000000e+09    -2.226869247830872e+01   -1.706254438439694e+02   
7.036000000000000e+09    -2.232436471783032e+01   -1.705845773683226e+02   
7.037000000000000e+09    -2.236447402916628e+01   -1.703651034023538e+02   
7.038000000000000e+09    -2.239006461764272e+01   -1.701989390821669e+02   
7.039000000000000e+09    -2.242716493907236e+01   -1.700230902107939e+02   
7.040000000000000e+09    -2.245395510006867e+01   -1.697483193312546e+02   
7.041000000000000e+09    -2.248998694610858e+01   -1.693842625706179e+02   
7.042000000000000e+09    -2.252194009267533e+01   -1.691171526819938e+02   
7.043000000000000e+09    -2.253336679868124e+01   -1.688256257504484e+02   
7.044000000000000e+09    -2.254485696108591e+01   -1.683581783927273e+02   
7.045000000000000e+09    -2.256447445504606e+01   -1.679019773738579e+02   
7.046000000000000e+09    -2.256145076100814e+01   -1.675124442336882e+02   
7.047000000000000e+09    -2.257168449896711e+01   -1.670611237293122e+02   
7.048000000000000e+09    -2.257938456185326e+01   -1.664955038366287e+02   
7.049000000000000e+09    -2.257057444419797e+01   -1.659105258538611e+02   
7.050000000000000e+09    -2.256974809204104e+01   -1.653065010068840e+02   
7.051000000000000e+09    -2.256448008021815e+01   -1.647576927101064e+02   
7.052000000000000e+09    -2.254956328082878e+01   -1.641274871686144e+02   
7.053000000000000e+09    -2.253859900504263e+01   -1.634491085875284e+02   
7.054000000000000e+09    -2.252975023364779e+01   -1.626985769360352e+02   
7.055000000000000e+09    -2.250019671535121e+01   -1.620012824740216e+02   
7.056000000000000e+09    -2.247315317388344e+01   -1.612733679694197e+02   
7.057000000000000e+09    -2.244229200647769e+01   -1.605417872155559e+02   
7.058000000000000e+09    -2.241773192035307e+01   -1.597468210422522e+02   
7.059000000000000e+09    -2.238321238340982e+01   -1.589616315724154e+02   
7.060000000000000e+09    -2.233160679920387e+01   -1.582231915800413e+02   
7.061000000000000e+09    -2.230772497010721e+01   -1.573282738886387e+02   
7.062000000000000e+09    -2.225797493289316e+01   -1.565152972333159e+02   
7.063000000000000e+09    -2.221187019602505e+01   -1.556759270240112e+02   
7.064000000000000e+09    -2.218289630652772e+01   -1.548083941445579e+02   
7.065000000000000e+09    -2.211755454091405e+01   -1.540147570750658e+02   
7.066000000000000e+09    -2.206418351860579e+01   -1.531395238726917e+02   
7.067000000000000e+09    -2.201999115525135e+01   -1.522269295590407e+02   
7.068000000000000e+09    -2.197760831631398e+01   -1.513912177273166e+02   
7.069000000000000e+09    -2.192890178972896e+01   -1.506113343553086e+02   
7.070000000000000e+09    -2.189240863834449e+01   -1.496526411623371e+02   
7.071000000000000e+09    -2.184687958216629e+01   -1.488218071550406e+02   
7.072000000000000e+09    -2.179827352704179e+01   -1.479395406919345e+02   
7.073000000000000e+09    -2.175894992191164e+01   -1.470595495697854e+02   
7.074000000000000e+09    -2.171468826826462e+01   -1.461543752667611e+02   
7.075000000000000e+09    -2.168052896404887e+01   -1.452486116776379e+02   
7.076000000000000e+09    -2.163193990769686e+01   -1.443386125907668e+02   
7.077000000000000e+09    -2.158670443295951e+01   -1.435653535559011e+02   
7.078000000000000e+09    -2.155450985089988e+01   -1.427009347084896e+02   
7.079000000000000e+09    -2.152133585837807e+01   -1.418182722560724e+02   
7.080000000000000e+09    -2.148578886195460e+01   -1.409188562852608e+02   
7.081000000000000e+09    -2.144975306480766e+01   -1.400761248537216e+02   
7.082000000000000e+09    -2.142062700376462e+01   -1.392327756659566e+02   
7.083000000000000e+09    -2.139795160668471e+01   -1.383991770404327e+02   
7.084000000000000e+09    -2.136609873125378e+01   -1.375636660201603e+02   
7.085000000000000e+09    -2.133112278794324e+01   -1.367350076795005e+02   
7.086000000000000e+09    -2.131195100572244e+01   -1.359528234027402e+02   
7.087000000000000e+09    -2.129901333868082e+01   -1.352083891928096e+02   
7.088000000000000e+09    -2.127537068974613e+01   -1.343634594950632e+02   
7.089000000000000e+09    -2.124784306793858e+01   -1.335715634673732e+02   
7.090000000000000e+09    -2.122686365412679e+01   -1.328391797563729e+02   
7.091000000000000e+09    -2.121695196198891e+01   -1.321660430515780e+02   
7.092000000000000e+09    -2.120841917986560e+01   -1.314894791543551e+02   
7.093000000000000e+09    -2.117182665956974e+01   -1.307941212326727e+02   
7.094000000000000e+09    -2.117520808958780e+01   -1.300774351266507e+02   
7.095000000000000e+09    -2.115328722602467e+01   -1.295251746450373e+02   
7.096000000000000e+09    -2.114303451096732e+01   -1.288295478861471e+02   
7.097000000000000e+09    -2.114195590212044e+01   -1.282687665926990e+02   
7.098000000000000e+09    -2.113186464955363e+01   -1.276662295857483e+02   
7.099000000000000e+09    -2.112818303481544e+01   -1.271038073433767e+02   
7.100000000000000e+09    -2.112689414862699e+01   -1.265777599489494e+02   
7.101000000000000e+09    -2.111720505700251e+01   -1.260360255944650e+02   
7.102000000000000e+09    -2.112117580833027e+01   -1.255631410527913e+02   
7.103000000000000e+09    -2.112309640901233e+01   -1.250442994619339e+02   
7.104000000000000e+09    -2.112043364330500e+01   -1.245887608583655e+02   
7.105000000000000e+09    -2.111783800450219e+01   -1.241288380883602e+02   
7.106000000000000e+09    -2.112830987600921e+01   -1.237907998655729e+02   
7.107000000000000e+09    -2.112109551325624e+01   -1.233287100523335e+02   
7.108000000000000e+09    -2.112393208937249e+01   -1.229752539603335e+02   
7.109000000000000e+09    -2.112507235789030e+01   -1.226343508848391e+02   
7.110000000000000e+09    -2.112798227025931e+01   -1.223176639892166e+02   
7.111000000000000e+09    -2.113945043786423e+01   -1.220009100991125e+02   
7.112000000000000e+09    -2.114205114284799e+01   -1.217743590169903e+02   
7.113000000000000e+09    -2.116064048398900e+01   -1.215814961418390e+02   
7.114000000000000e+09    -2.116497245740696e+01   -1.213392678287468e+02   
7.115000000000000e+09    -2.117987532070655e+01   -1.210946668200350e+02   
7.116000000000000e+09    -2.119224805220605e+01   -1.208265856103828e+02   
7.117000000000000e+09    -2.119564890785742e+01   -1.207452724640518e+02   
7.118000000000000e+09    -2.120631946703460e+01   -1.206877345194561e+02   
7.119000000000000e+09    -2.121709293928557e+01   -1.206046345661796e+02   
7.120000000000000e+09    -2.123057014517062e+01   -1.205018252407855e+02   
7.121000000000000e+09    -2.124111328893022e+01   -1.204975228813959e+02   
7.122000000000000e+09    -2.123404689970107e+01   -1.204650557596424e+02   
7.123000000000000e+09    -2.125566331111762e+01   -1.205332323595597e+02   
7.124000000000000e+09    -2.125099667750129e+01   -1.205553341423662e+02   
7.125000000000000e+09    -2.126547718915923e+01   -1.206957809570096e+02   
7.126000000000000e+09    -2.125882830343343e+01   -1.207579452386963e+02   
7.127000000000000e+09    -2.126080941625434e+01   -1.209122432677442e+02   
7.128000000000000e+09    -2.126887000097147e+01   -1.211882673560753e+02   
7.129000000000000e+09    -2.126329409357148e+01   -1.212763429848721e+02   
7.130000000000000e+09    -2.126684993556657e+01   -1.215614861048119e+02   
7.131000000000000e+09    -2.125496373621202e+01   -1.217830774670520e+02   
7.132000000000000e+09    -2.124765605635835e+01   -1.220356661975696e+02   
7.133000000000000e+09    -2.122119482855731e+01   -1.223660515349006e+02   
7.134000000000000e+09    -2.121540655959419e+01   -1.227069442445024e+02   
7.135000000000000e+09    -2.118214186218349e+01   -1.230515269121143e+02   
7.136000000000000e+09    -2.115683605726509e+01   -1.233977895247587e+02   
7.137000000000000e+09    -2.112493048937105e+01   -1.238365908957908e+02   
7.138000000000000e+09    -2.108703421877963e+01   -1.242337416047579e+02   
7.139000000000000e+09    -2.105503232963508e+01   -1.245668881657067e+02   
7.140000000000000e+09    -2.101501016052186e+01   -1.251787138854485e+02   
7.141000000000000e+09    -2.097133892653861e+01   -1.255989706463012e+02   
7.142000000000000e+09    -2.092423734745388e+01   -1.259722454129801e+02   
7.143000000000000e+09    -2.086819601133361e+01   -1.264037668099602e+02   
7.144000000000000e+09    -2.079877840004958e+01   -1.268490209009224e+02   
7.145000000000000e+09    -2.074531838072463e+01   -1.272228604106978e+02   
7.146000000000000e+09    -2.068187397202437e+01   -1.276980601469982e+02   
7.147000000000000e+09    -2.061721557043473e+01   -1.281981818561564e+02   
7.148000000000000e+09    -2.053792256238744e+01   -1.285272069060416e+02   
7.149000000000000e+09    -2.046718973693086e+01   -1.289615779631497e+02   
7.150000000000000e+09    -2.038632390610793e+01   -1.293936939972554e+02   
7.151000000000000e+09    -2.032086177132292e+01   -1.298085025815333e+02   
7.152000000000000e+09    -2.023074713760615e+01   -1.301547639166894e+02   
7.153000000000000e+09    -2.015535717811026e+01   -1.305125656002380e+02   
7.154000000000000e+09    -2.007406338845245e+01   -1.309101748024839e+02   
7.155000000000000e+09    -1.998446899400717e+01   -1.312315590034523e+02   
7.156000000000000e+09    -1.989734875893466e+01   -1.315600745811824e+02   
7.157000000000000e+09    -1.981160994972899e+01   -1.318175487765993e+02   
7.158000000000000e+09    -1.974579948464483e+01   -1.320961746949637e+02   
7.159000000000000e+09    -1.966028355197612e+01   -1.323426136911456e+02   
7.160000000000000e+09    -1.957418940101059e+01   -1.326201941574373e+02   
7.161000000000000e+09    -1.949665093124084e+01   -1.328392642894860e+02   
7.162000000000000e+09    -1.941485070598898e+01   -1.330373276996516e+02   
7.163000000000000e+09    -1.932294556684564e+01   -1.332465381277981e+02   
7.164000000000000e+09    -1.925175830818979e+01   -1.333789992350130e+02   
7.165000000000000e+09    -1.917157543808705e+01   -1.334987578227754e+02   
7.166000000000000e+09    -1.909115063887962e+01   -1.335983305997392e+02   
7.167000000000000e+09    -1.902771561153900e+01   -1.337089407519364e+02   
7.168000000000000e+09    -1.894891235497391e+01   -1.338260491588885e+02   
7.169000000000000e+09    -1.888683801654829e+01   -1.338825237365764e+02   
7.170000000000000e+09    -1.881511540366418e+01   -1.339189150637455e+02   
7.171000000000000e+09    -1.874438080508530e+01   -1.340320377179605e+02   
7.172000000000000e+09    -1.868331851349469e+01   -1.340444460990129e+02   
7.173000000000000e+09    -1.862741611191701e+01   -1.340394036351687e+02   
7.174000000000000e+09    -1.856618256995354e+01   -1.340979164963663e+02   
7.175000000000000e+09    -1.850759045079742e+01   -1.340808719261887e+02   
7.176000000000000e+09    -1.845634303971390e+01   -1.340822269713011e+02   
7.177000000000000e+09    -1.840559292165944e+01   -1.341109624025428e+02   
7.178000000000000e+09    -1.835493440889484e+01   -1.340322479877985e+02   
7.179000000000000e+09    -1.830975026437060e+01   -1.340187186792966e+02   
7.180000000000000e+09    -1.825793491617254e+01   -1.340031564693505e+02   
7.181000000000000e+09    -1.821917138900404e+01   -1.339489060541485e+02   
7.182000000000000e+09    -1.817854659611475e+01   -1.338443826721896e+02   
7.183000000000000e+09    -1.814423752019649e+01   -1.338246270156673e+02   
7.184000000000000e+09    -1.811738695194701e+01   -1.338303525618484e+02   
7.185000000000000e+09    -1.809141574026836e+01   -1.337159261451201e+02   
7.186000000000000e+09    -1.806438054325918e+01   -1.336485797797935e+02   
7.187000000000000e+09    -1.804236547914734e+01   -1.335624127506518e+02   
7.188000000000000e+09    -1.802152449091267e+01   -1.334862650227230e+02   
7.189000000000000e+09    -1.800921615241757e+01   -1.333909596693501e+02   
7.190000000000000e+09    -1.799400584469762e+01   -1.332878220990431e+02   
7.191000000000000e+09    -1.798213597806746e+01   -1.332487248901005e+02   
7.192000000000000e+09    -1.798370590733735e+01   -1.330815777707248e+02   
7.193000000000000e+09    -1.797562410842490e+01   -1.329568145766666e+02   
7.194000000000000e+09    -1.798314616548544e+01   -1.328570658956219e+02   
7.195000000000000e+09    -1.799079504068564e+01   -1.327552535835961e+02   
7.196000000000000e+09    -1.799682167008189e+01   -1.325639053855004e+02   
7.197000000000000e+09    -1.801043129603243e+01   -1.325060900479817e+02   
7.198000000000000e+09    -1.801478634100049e+01   -1.323677358860507e+02   
7.199000000000000e+09    -1.803786768213728e+01   -1.321671356213176e+02   
7.200000000000000e+09    -1.806123611001220e+01   -1.320852375320399e+02   
7.201000000000000e+09    -1.808297274805768e+01   -1.319074863864665e+02   
7.202000000000000e+09    -1.811221719102088e+01   -1.317953622699129e+02   
7.203000000000000e+09    -1.814507930223088e+01   -1.316436753540509e+02   
7.204000000000000e+09    -1.818545684788918e+01   -1.315416135938544e+02   
7.205000000000000e+09    -1.823295793499807e+01   -1.314002834066767e+02   
7.206000000000000e+09    -1.827540795915455e+01   -1.313031521427325e+02   
7.207000000000000e+09    -1.833075047261599e+01   -1.311578229127679e+02   
7.208000000000000e+09    -1.837642094699810e+01   -1.310808709596682e+02   
7.209000000000000e+09    -1.841829945627005e+01   -1.310030542127276e+02   
7.210000000000000e+09    -1.848556405264478e+01   -1.308901426273370e+02   
7.211000000000000e+09    -1.852914496605218e+01   -1.307629634052788e+02   
7.212000000000000e+09    -1.860495600707043e+01   -1.307573204867305e+02   
7.213000000000000e+09    -1.866883894179183e+01   -1.307136867869204e+02   
7.214000000000000e+09    -1.872798105633181e+01   -1.306820754909749e+02   
7.215000000000000e+09    -1.879816694672876e+01   -1.307263114530588e+02   
7.216000000000000e+09    -1.887522464654091e+01   -1.307484261554817e+02   
7.217000000000000e+09    -1.893408456302922e+01   -1.308020295067766e+02   
7.218000000000000e+09    -1.901185000052305e+01   -1.308820438311745e+02   
7.219000000000000e+09    -1.908857756910208e+01   -1.309485817121938e+02   
7.220000000000000e+09    -1.916561836159017e+01   -1.310735855226987e+02   
7.221000000000000e+09    -1.924799220986527e+01   -1.311356202461899e+02   
7.222000000000000e+09    -1.933214850617103e+01   -1.312737366154138e+02   
7.223000000000000e+09    -1.940086100596205e+01   -1.313767816180080e+02   
7.224000000000000e+09    -1.947553349635498e+01   -1.315743066634298e+02   
7.225000000000000e+09    -1.955821098532249e+01   -1.317621064881188e+02   
7.226000000000000e+09    -1.963328522332826e+01   -1.319682338040750e+02   
7.227000000000000e+09    -1.970478628278418e+01   -1.322205592908606e+02   
7.228000000000000e+09    -1.979119730177763e+01   -1.324422879751019e+02   
7.229000000000000e+09    -1.985272997774867e+01   -1.326288614500339e+02   
7.230000000000000e+09    -1.992870295944506e+01   -1.329543842579828e+02   
7.231000000000000e+09    -2.000305951704318e+01   -1.332461585013046e+02   
7.232000000000000e+09    -2.005974308729479e+01   -1.336003729891108e+02   
7.233000000000000e+09    -2.012077812810677e+01   -1.338979617219275e+02   
7.234000000000000e+09    -2.018440419355628e+01   -1.342364604989071e+02   
7.235000000000000e+09    -2.024454730210272e+01   -1.346196929219831e+02   
7.236000000000000e+09    -2.029335704413714e+01   -1.349452515103875e+02   
7.237000000000000e+09    -2.035464132530594e+01   -1.353378977576891e+02   
7.238000000000000e+09    -2.041627399185544e+01   -1.357343516122112e+02   
7.239000000000000e+09    -2.045576443028585e+01   -1.360750118642801e+02   
7.240000000000000e+09    -2.049912167402134e+01   -1.365191501863648e+02   
7.241000000000000e+09    -2.054511722071746e+01   -1.368522752048017e+02   
7.242000000000000e+09    -2.057315342038467e+01   -1.372549573174693e+02   
7.243000000000000e+09    -2.060670884558083e+01   -1.376579014025414e+02   
7.244000000000000e+09    -2.062930825090702e+01   -1.380280766556288e+02   
7.245000000000000e+09    -2.067215027167503e+01   -1.384673791338267e+02   
7.246000000000000e+09    -2.068828338846126e+01   -1.388860302777260e+02   
7.247000000000000e+09    -2.070907692268435e+01   -1.392908839192832e+02   
7.248000000000000e+09    -2.072390694993033e+01   -1.396791801514194e+02   
7.249000000000000e+09    -2.074250443040867e+01   -1.400104185794110e+02   
7.250000000000000e+09    -2.074973429837220e+01   -1.404164023842647e+02   
7.251000000000000e+09    -2.075663711461333e+01   -1.408170980130122e+02   
7.252000000000000e+09    -2.076094195560109e+01   -1.411737682975242e+02   
7.253000000000000e+09    -2.076306245666116e+01   -1.415033595832369e+02   
7.254000000000000e+09    -2.075019798989602e+01   -1.417750178323032e+02   
7.255000000000000e+09    -2.075138502859934e+01   -1.420635600287613e+02   
7.256000000000000e+09    -2.074513883002439e+01   -1.424499358588862e+02   
