[Version] 2.0
! Rohde & Schwarz Vector Network Analyzer
! Rohde-Schwarz,ZNL20-2Port,1323001220200009,1.71.1.10-23.02.1.238
! 
! Trace info:
! Nominal Param -> Actual Exported Buffer
! ---------------------------------------
! S11 -> S22

! Created: GMT+3 2024-09-24 16:39:38

# Hz S DB R 50

[Number of Ports] 1
[Number of Frequencies] 6001

[Network Data] 
! freq[Hz]               S11[mag dB]              S11[ang]                 
7.000000000000000e+09    -1.839113948428534e+01   -1.627180398011073e+02   
7.001000000000000e+09    -1.847729770817371e+01   -1.629530733641056e+02   
7.002000000000000e+09    -1.857431728742416e+01   -1.631254959572131e+02   
7.003000000000000e+09    -1.866274432161934e+01   -1.633368313161997e+02   
7.004000000000000e+09    -1.876018254866860e+01   -1.635533454813243e+02   
7.005000000000000e+09    -1.885388706433887e+01   -1.638193091690973e+02   
7.006000000000000e+09    -1.895664948894191e+01   -1.640128475982025e+02   
7.007000000000000e+09    -1.904203561921404e+01   -1.643319902712188e+02   
7.008000000000000e+09    -1.913553833189989e+01   -1.645895747973627e+02   
7.009000000000000e+09    -1.922917987399311e+01   -1.648912148553112e+02   
7.010000000000000e+09    -1.932086487466538e+01   -1.652154057066704e+02   
7.011000000000000e+09    -1.941334943905603e+01   -1.655439542256020e+02   
7.012000000000000e+09    -1.949851098595054e+01   -1.658997846048807e+02   
7.013000000000000e+09    -1.958775394161079e+01   -1.663094549127920e+02   
7.014000000000000e+09    -1.968097323971924e+01   -1.666849073711011e+02   
7.015000000000000e+09    -1.976287915207245e+01   -1.670215239334465e+02   
7.016000000000000e+09    -1.985404520111880e+01   -1.674277583553648e+02   
7.017000000000000e+09    -1.994151762666683e+01   -1.678627088984526e+02   
7.018000000000000e+09    -2.001634192509025e+01   -1.682246880076008e+02   
7.019000000000000e+09    -2.009740865581936e+01   -1.685345738931454e+02   
7.020000000000000e+09    -2.017467905669344e+01   -1.690203043043970e+02   
7.021000000000000e+09    -2.025103552538737e+01   -1.693799363111674e+02   
7.022000000000000e+09    -2.033062064428691e+01   -1.697880729989285e+02   
7.023000000000000e+09    -2.039414636044984e+01   -1.701289705550451e+02   
7.024000000000000e+09    -2.045925848365897e+01   -1.705186473110167e+02   
7.025000000000000e+09    -2.053996744883148e+01   -1.709159724062465e+02   
7.026000000000000e+09    -2.059063191628455e+01   -1.711995991976050e+02   
7.027000000000000e+09    -2.066815759191056e+01   -1.715120111370543e+02   
7.028000000000000e+09    -2.071628570071407e+01   -1.718870132888287e+02   
7.029000000000000e+09    -2.078792542559425e+01   -1.722088813051105e+02   
7.030000000000000e+09    -2.084865272394254e+01   -1.724490019945396e+02   
7.031000000000000e+09    -2.090670688840710e+01   -1.727274660826327e+02   
7.032000000000000e+09    -2.096124738839826e+01   -1.730025664051538e+02   
7.033000000000000e+09    -2.102104282878948e+01   -1.732505023479408e+02   
7.034000000000000e+09    -2.107359838977243e+01   -1.733529859902393e+02   
7.035000000000000e+09    -2.113280276354693e+01   -1.734531898273006e+02   
7.036000000000000e+09    -2.118875301443375e+01   -1.736416114238706e+02   
7.037000000000000e+09    -2.124566281750297e+01   -1.737437441639879e+02   
7.038000000000000e+09    -2.127838707211480e+01   -1.738253994174332e+02   
7.039000000000000e+09    -2.133940942594749e+01   -1.737919914947036e+02   
7.040000000000000e+09    -2.137322069003859e+01   -1.738426701897572e+02   
7.041000000000000e+09    -2.142981147663530e+01   -1.737554179115143e+02   
7.042000000000000e+09    -2.148540463600767e+01   -1.736929792411511e+02   
7.043000000000000e+09    -2.151690088906297e+01   -1.736348002604029e+02   
7.044000000000000e+09    -2.154937398410265e+01   -1.733730852908622e+02   
7.045000000000000e+09    -2.159482580483964e+01   -1.732756078543722e+02   
7.046000000000000e+09    -2.162479155202058e+01   -1.729477355035808e+02   
7.047000000000000e+09    -2.166320835780430e+01   -1.727047011082913e+02   
7.048000000000000e+09    -2.170311724187360e+01   -1.723641847512081e+02   
7.049000000000000e+09    -2.173638345565892e+01   -1.719790642585657e+02   
7.050000000000000e+09    -2.177669681457552e+01   -1.715490492742910e+02   
7.051000000000000e+09    -2.179367284429057e+01   -1.711637709636026e+02   
7.052000000000000e+09    -2.182579811706490e+01   -1.706626713170405e+02   
7.053000000000000e+09    -2.184581516729148e+01   -1.701174067489586e+02   
7.054000000000000e+09    -2.186811068612471e+01   -1.695383708322875e+02   
7.055000000000000e+09    -2.189256226820838e+01   -1.689367705124833e+02   
7.056000000000000e+09    -2.191284726892272e+01   -1.683226622976154e+02   
7.057000000000000e+09    -2.190940498703396e+01   -1.677243034842231e+02   
7.058000000000000e+09    -2.193587285104842e+01   -1.670034778825105e+02   
7.059000000000000e+09    -2.194201148730215e+01   -1.662572417832742e+02   
7.060000000000000e+09    -2.193887647221741e+01   -1.655762324412563e+02   
7.061000000000000e+09    -2.195250988568313e+01   -1.646954651518116e+02   
7.062000000000000e+09    -2.194946251838880e+01   -1.639970746780023e+02   
7.063000000000000e+09    -2.194848453223974e+01   -1.631413247466949e+02   
7.064000000000000e+09    -2.195472253032254e+01   -1.622363681399080e+02   
7.065000000000000e+09    -2.194113610315196e+01   -1.614152255519928e+02   
7.066000000000000e+09    -2.193812447623991e+01   -1.605309085007804e+02   
7.067000000000000e+09    -2.193172982526475e+01   -1.596214424075494e+02   
7.068000000000000e+09    -2.193321021519317e+01   -1.587150000529536e+02   
7.069000000000000e+09    -2.193549165903310e+01   -1.579104469242832e+02   
7.070000000000000e+09    -2.193988276209117e+01   -1.568611097639135e+02   
7.071000000000000e+09    -2.192627716560850e+01   -1.560095811159035e+02   
7.072000000000000e+09    -2.191940991833789e+01   -1.550411244222682e+02   
7.073000000000000e+09    -2.191564059952761e+01   -1.541269186694007e+02   
7.074000000000000e+09    -2.190508492977747e+01   -1.531666265199066e+02   
7.075000000000000e+09    -2.190162715140733e+01   -1.521501909735948e+02   
7.076000000000000e+09    -2.190400544681047e+01   -1.511240281306000e+02   
7.077000000000000e+09    -2.190458934698464e+01   -1.501160891538146e+02   
7.078000000000000e+09    -2.189479468713802e+01   -1.491954732674988e+02   
7.079000000000000e+09    -2.189656962426346e+01   -1.481658500799028e+02   
7.080000000000000e+09    -2.189544057030664e+01   -1.472152040301698e+02   
7.081000000000000e+09    -2.190004977987586e+01   -1.461703179785623e+02   
7.082000000000000e+09    -2.189711317721692e+01   -1.452563681515474e+02   
7.083000000000000e+09    -2.189332645812445e+01   -1.442204198566160e+02   
7.084000000000000e+09    -2.189274361263680e+01   -1.432062748231679e+02   
7.085000000000000e+09    -2.189854918236329e+01   -1.422914520232900e+02   
7.086000000000000e+09    -2.189721256129638e+01   -1.413668060429738e+02   
7.087000000000000e+09    -2.190508670782141e+01   -1.404471658994994e+02   
7.088000000000000e+09    -2.190677656045052e+01   -1.395551803929144e+02   
7.089000000000000e+09    -2.190414336037031e+01   -1.385446530800846e+02   
7.090000000000000e+09    -2.190617758117912e+01   -1.376740122684917e+02   
7.091000000000000e+09    -2.191430547132203e+01   -1.368293758978391e+02   
7.092000000000000e+09    -2.190852543623796e+01   -1.359228280492992e+02   
7.093000000000000e+09    -2.191501758937607e+01   -1.350527966612092e+02   
7.094000000000000e+09    -2.193078150399897e+01   -1.342683848243002e+02   
7.095000000000000e+09    -2.193656613246056e+01   -1.334888884156568e+02   
7.096000000000000e+09    -2.193013569745925e+01   -1.326789620296538e+02   
7.097000000000000e+09    -2.193684087577816e+01   -1.319935911777521e+02   
7.098000000000000e+09    -2.195319008051895e+01   -1.312018791058779e+02   
7.099000000000000e+09    -2.195772704783509e+01   -1.304995407640203e+02   
7.100000000000000e+09    -2.196701142034076e+01   -1.298327609030052e+02   
7.101000000000000e+09    -2.197779665136126e+01   -1.291514473902719e+02   
7.102000000000000e+09    -2.200339479987122e+01   -1.284750167730128e+02   
7.103000000000000e+09    -2.202016816723513e+01   -1.278264420624128e+02   
7.104000000000000e+09    -2.202594053735448e+01   -1.272108763326664e+02   
7.105000000000000e+09    -2.203671151468637e+01   -1.266379943026446e+02   
7.106000000000000e+09    -2.205414666057617e+01   -1.261373203997609e+02   
7.107000000000000e+09    -2.207088093737498e+01   -1.254533157428266e+02   
7.108000000000000e+09    -2.208143690764031e+01   -1.250061933823150e+02   
7.109000000000000e+09    -2.210262591277136e+01   -1.245609869508727e+02   
7.110000000000000e+09    -2.210652707357804e+01   -1.239816160853661e+02   
7.111000000000000e+09    -2.213592890349712e+01   -1.236348426462141e+02   
7.112000000000000e+09    -2.214908277922151e+01   -1.232175325395277e+02   
7.113000000000000e+09    -2.218007840097667e+01   -1.228517568811656e+02   
7.114000000000000e+09    -2.219806225373287e+01   -1.224659451630832e+02   
7.115000000000000e+09    -2.221400583951919e+01   -1.220672688554771e+02   
7.116000000000000e+09    -2.224744751250967e+01   -1.216879184081725e+02   
7.117000000000000e+09    -2.226102656654169e+01   -1.214379558956688e+02   
7.118000000000000e+09    -2.227286180246085e+01   -1.212311559058414e+02   
7.119000000000000e+09    -2.229982297089313e+01   -1.209202044430683e+02   
7.120000000000000e+09    -2.231999368787331e+01   -1.206766707906705e+02   
7.121000000000000e+09    -2.233405815757914e+01   -1.205137099180665e+02   
7.122000000000000e+09    -2.234858847263199e+01   -1.204909902623505e+02   
7.123000000000000e+09    -2.235612552281640e+01   -1.202947138965909e+02   
7.124000000000000e+09    -2.237314021350171e+01   -1.201737249052833e+02   
7.125000000000000e+09    -2.239086275709760e+01   -1.200623860166736e+02   
7.126000000000000e+09    -2.238927851495624e+01   -1.199877960713144e+02   
7.127000000000000e+09    -2.238992274735605e+01   -1.200479285867578e+02   
7.128000000000000e+09    -2.240392462302834e+01   -1.201044291510388e+02   
7.129000000000000e+09    -2.238640045217265e+01   -1.201159099523974e+02   
7.130000000000000e+09    -2.238494242307932e+01   -1.202292252730973e+02   
7.131000000000000e+09    -2.238452911682007e+01   -1.203664303779217e+02   
7.132000000000000e+09    -2.237047089066573e+01   -1.203839107379561e+02   
7.133000000000000e+09    -2.234741158831456e+01   -1.206011950686759e+02   
7.134000000000000e+09    -2.234272003657050e+01   -1.208857607072840e+02   
7.135000000000000e+09    -2.230264841441166e+01   -1.210627791721594e+02   
7.136000000000000e+09    -2.227907231683996e+01   -1.213034864592404e+02   
7.137000000000000e+09    -2.224258400393058e+01   -1.215536685771506e+02   
7.138000000000000e+09    -2.219791669808862e+01   -1.218527304733673e+02   
7.139000000000000e+09    -2.215577675672957e+01   -1.221361670952677e+02   
7.140000000000000e+09    -2.211432115758323e+01   -1.224807421207260e+02   
7.141000000000000e+09    -2.206000379944696e+01   -1.228122992479257e+02   
7.142000000000000e+09    -2.201184277379198e+01   -1.231231924922147e+02   
7.143000000000000e+09    -2.194220362838704e+01   -1.233889748774095e+02   
7.144000000000000e+09    -2.187526654030351e+01   -1.236618338256883e+02   
7.145000000000000e+09    -2.180820613109434e+01   -1.241114557475985e+02   
7.146000000000000e+09    -2.172440836731176e+01   -1.244281670123534e+02   
7.147000000000000e+09    -2.165062917830573e+01   -1.247695341108415e+02   
7.148000000000000e+09    -2.154817389439334e+01   -1.250773026154986e+02   
7.149000000000000e+09    -2.146987354525603e+01   -1.253623219952650e+02   
7.150000000000000e+09    -2.137455520005147e+01   -1.256399515665679e+02   
7.151000000000000e+09    -2.127993202801602e+01   -1.258665338896812e+02   
7.152000000000000e+09    -2.118665630126266e+01   -1.262628178443801e+02   
7.153000000000000e+09    -2.108817336109965e+01   -1.264036310965653e+02   
7.154000000000000e+09    -2.098407187966695e+01   -1.266569628082049e+02   
7.155000000000000e+09    -2.086920706944401e+01   -1.269239755448270e+02   
7.156000000000000e+09    -2.075717756067480e+01   -1.271682412542504e+02   
7.157000000000000e+09    -2.066375088739216e+01   -1.273161524397356e+02   
7.158000000000000e+09    -2.056493349118116e+01   -1.275203763618710e+02   
7.159000000000000e+09    -2.045723567020605e+01   -1.277383443508137e+02   
7.160000000000000e+09    -2.034673809076666e+01   -1.279379645346340e+02   
7.161000000000000e+09    -2.024984065650415e+01   -1.280151635924962e+02   
7.162000000000000e+09    -2.013993224726979e+01   -1.281424677659408e+02   
7.163000000000000e+09    -2.002939710285548e+01   -1.283140410176344e+02   
7.164000000000000e+09    -1.993132062470833e+01   -1.284134223650549e+02   
7.165000000000000e+09    -1.983082644617658e+01   -1.284196944861647e+02   
7.166000000000000e+09    -1.972465588878267e+01   -1.284450058840074e+02   
7.167000000000000e+09    -1.962896449329638e+01   -1.284868861759522e+02   
7.168000000000000e+09    -1.952537200242711e+01   -1.286108339863121e+02   
7.169000000000000e+09    -1.943801577946141e+01   -1.285883959472906e+02   
7.170000000000000e+09    -1.933801860855140e+01   -1.285728023714365e+02   
7.171000000000000e+09    -1.924818372457271e+01   -1.286431604537967e+02   
7.172000000000000e+09    -1.915648469423509e+01   -1.286231096251943e+02   
7.173000000000000e+09    -1.907941059194810e+01   -1.286264311160130e+02   
7.174000000000000e+09    -1.898649757840735e+01   -1.285701153055910e+02   
7.175000000000000e+09    -1.890823161974292e+01   -1.285483491702107e+02   
7.176000000000000e+09    -1.883238528267553e+01   -1.285189757398525e+02   
7.177000000000000e+09    -1.874995918744789e+01   -1.285072013052735e+02   
7.178000000000000e+09    -1.867295180268381e+01   -1.284310719476958e+02   
7.179000000000000e+09    -1.860214968563363e+01   -1.283741574416476e+02   
7.180000000000000e+09    -1.852759073494046e+01   -1.283359924693038e+02   
7.181000000000000e+09    -1.846542611044153e+01   -1.283116344188873e+02   
7.182000000000000e+09    -1.840441867067055e+01   -1.281963828402556e+02   
7.183000000000000e+09    -1.834065674158972e+01   -1.281670741798970e+02   
7.184000000000000e+09    -1.828408319036955e+01   -1.281673184190471e+02   
7.185000000000000e+09    -1.822769983950266e+01   -1.280483161515838e+02   
7.186000000000000e+09    -1.818939032622648e+01   -1.280247547742639e+02   
7.187000000000000e+09    -1.813705981039807e+01   -1.279191170789154e+02   
7.188000000000000e+09    -1.808907963948607e+01   -1.278415156032196e+02   
7.189000000000000e+09    -1.805394549059851e+01   -1.277823955530628e+02   
7.190000000000000e+09    -1.802070322449570e+01   -1.276893780815632e+02   
7.191000000000000e+09    -1.798219588607721e+01   -1.276704508150851e+02   
7.192000000000000e+09    -1.796058972437553e+01   -1.275378658666565e+02   
7.193000000000000e+09    -1.792560638339333e+01   -1.274379148888542e+02   
7.194000000000000e+09    -1.790437686447691e+01   -1.273612095419126e+02   
7.195000000000000e+09    -1.788984129305203e+01   -1.272579963824089e+02   
7.196000000000000e+09    -1.788109024684825e+01   -1.271443466386463e+02   
7.197000000000000e+09    -1.786858663405365e+01   -1.270968861342990e+02   
7.198000000000000e+09    -1.785370873896974e+01   -1.269888547420682e+02   
7.199000000000000e+09    -1.784941601606643e+01   -1.268699806491489e+02   
7.200000000000000e+09    -1.785844149259180e+01   -1.267742542526702e+02   
7.201000000000000e+09    -1.785937065424142e+01   -1.266745637449956e+02   
7.202000000000000e+09    -1.786630744689336e+01   -1.266270827845016e+02   
7.203000000000000e+09    -1.788418467624874e+01   -1.265503285084050e+02   
7.204000000000000e+09    -1.790393640685951e+01   -1.265178867061172e+02   
7.205000000000000e+09    -1.792568436334523e+01   -1.264190471312023e+02   
7.206000000000000e+09    -1.795548300173772e+01   -1.263404372351633e+02   
7.207000000000000e+09    -1.798444800443803e+01   -1.262782205953550e+02   
7.208000000000000e+09    -1.801685623209477e+01   -1.262677577066833e+02   
7.209000000000000e+09    -1.804990041041748e+01   -1.262320866021028e+02   
7.210000000000000e+09    -1.809157590474765e+01   -1.261658396819810e+02   
7.211000000000000e+09    -1.812562414131650e+01   -1.261656285607695e+02   
7.212000000000000e+09    -1.817911493005608e+01   -1.261728207952946e+02   
7.213000000000000e+09    -1.822916861154414e+01   -1.262210788947718e+02   
7.214000000000000e+09    -1.827869002742272e+01   -1.262105155060695e+02   
7.215000000000000e+09    -1.832337380033885e+01   -1.263281774086251e+02   
7.216000000000000e+09    -1.838702350016067e+01   -1.263679167144566e+02   
7.217000000000000e+09    -1.844004180552444e+01   -1.264980238640921e+02   
7.218000000000000e+09    -1.850339421929650e+01   -1.266090927654095e+02   
7.219000000000000e+09    -1.856252212952997e+01   -1.267350087942684e+02   
7.220000000000000e+09    -1.862074617679632e+01   -1.268903946580581e+02   
7.221000000000000e+09    -1.868774519920640e+01   -1.270438081045378e+02   
7.222000000000000e+09    -1.875742381563223e+01   -1.272678411921650e+02   
7.223000000000000e+09    -1.882014637011774e+01   -1.274718634220904e+02   
7.224000000000000e+09    -1.888393647915812e+01   -1.276925025885440e+02   
7.225000000000000e+09    -1.895044837371162e+01   -1.278628911161403e+02   
7.226000000000000e+09    -1.902541769866403e+01   -1.281713817501642e+02   
7.227000000000000e+09    -1.908674381727245e+01   -1.284541622740587e+02   
7.228000000000000e+09    -1.914585519431724e+01   -1.287545251807107e+02   
7.229000000000000e+09    -1.920643994997205e+01   -1.290201659445763e+02   
7.230000000000000e+09    -1.927245857438216e+01   -1.293515337654987e+02   
7.231000000000000e+09    -1.933345437818375e+01   -1.296950035685731e+02   
7.232000000000000e+09    -1.938515686968373e+01   -1.301047609934040e+02   
7.233000000000000e+09    -1.943774892446579e+01   -1.304583974876378e+02   
7.234000000000000e+09    -1.949064198893574e+01   -1.308750363323339e+02   
7.235000000000000e+09    -1.954300256088743e+01   -1.313078178753748e+02   
7.236000000000000e+09    -1.959334873266855e+01   -1.316278517995074e+02   
7.237000000000000e+09    -1.963910435037860e+01   -1.321158740588285e+02   
7.238000000000000e+09    -1.968702429029873e+01   -1.325748260137675e+02   
7.239000000000000e+09    -1.972018916938002e+01   -1.329867124501559e+02   
7.240000000000000e+09    -1.976443950186877e+01   -1.334095197729395e+02   
7.241000000000000e+09    -1.979237709026485e+01   -1.338159723164361e+02   
7.242000000000000e+09    -1.983388209456058e+01   -1.342984932020314e+02   
7.243000000000000e+09    -1.984719033381533e+01   -1.348316736476409e+02   
7.244000000000000e+09    -1.986972792591781e+01   -1.352300298153928e+02   
7.245000000000000e+09    -1.990302159319429e+01   -1.356960372127220e+02   
7.246000000000000e+09    -1.992012903511898e+01   -1.361295356564402e+02   
7.247000000000000e+09    -1.992781812252095e+01   -1.366487050542129e+02   
7.248000000000000e+09    -1.993944537742338e+01   -1.370412808046441e+02   
7.249000000000000e+09    -1.996433421092408e+01   -1.374453730948411e+02   
7.250000000000000e+09    -1.995207025614884e+01   -1.378899409875521e+02   
7.251000000000000e+09    -1.996242741456171e+01   -1.383436516305746e+02   
7.252000000000000e+09    -1.996189474837601e+01   -1.386990144797541e+02   
7.253000000000000e+09    -1.996153389348491e+01   -1.391414976570254e+02   
7.254000000000000e+09    -1.994718228017189e+01   -1.394895208873567e+02   
7.255000000000000e+09    -1.994845617902170e+01   -1.398468023082998e+02   
7.256000000000000e+09    -1.993278482118009e+01   -1.402076605249253e+02   
