[Version] 2.0
! Rohde & Schwarz Vector Network Analyzer
! Rohde-Schwarz,ZNL20-2Port,1323001220200009,1.71.1.10-23.02.1.238
! 
! Trace info:
! Nominal Param -> Actual Exported Buffer
! ---------------------------------------
! S11 -> S22

! Created: GMT+3 2024-09-24 16:39:56

# Hz S DB R 50

[Number of Ports] 1
[Number of Frequencies] 6001

[Network Data] 
! freq[Hz]               S11[mag dB]              S11[ang]                 
7.000000000000000e+09    -1.805753587058207e+01   -1.604649266034046e+02   
7.001000000000000e+09    -1.813343282020141e+01   -1.606465263401817e+02   
7.002000000000000e+09    -1.821646071130976e+01   -1.608451121460320e+02   
7.003000000000000e+09    -1.829195116153188e+01   -1.611252085808352e+02   
7.004000000000000e+09    -1.836930539258484e+01   -1.612814165203578e+02   
7.005000000000000e+09    -1.844736393430605e+01   -1.615781943403558e+02   
7.006000000000000e+09    -1.854103209180261e+01   -1.618080990310425e+02   
7.007000000000000e+09    -1.861190940336631e+01   -1.621652632974620e+02   
7.008000000000000e+09    -1.868763684663313e+01   -1.624446353024723e+02   
7.009000000000000e+09    -1.876793628306049e+01   -1.628075498611360e+02   
7.010000000000000e+09    -1.884236152005659e+01   -1.631096434694776e+02   
7.011000000000000e+09    -1.891750729248585e+01   -1.635334255616855e+02   
7.012000000000000e+09    -1.899562063054635e+01   -1.638870636257972e+02   
7.013000000000000e+09    -1.907029544426282e+01   -1.643219005738768e+02   
7.014000000000000e+09    -1.913876692666014e+01   -1.647547617970022e+02   
7.015000000000000e+09    -1.921227721111657e+01   -1.651238318216726e+02   
7.016000000000000e+09    -1.928702083338253e+01   -1.656006793600092e+02   
7.017000000000000e+09    -1.935504660433812e+01   -1.660877494581623e+02   
7.018000000000000e+09    -1.942120027529798e+01   -1.664809627791512e+02   
7.019000000000000e+09    -1.948391391209286e+01   -1.669148406034612e+02   
7.020000000000000e+09    -1.955560484468392e+01   -1.673925402119278e+02   
7.021000000000000e+09    -1.961039946546203e+01   -1.677913482102815e+02   
7.022000000000000e+09    -1.968413653630591e+01   -1.682372780605826e+02   
7.023000000000000e+09    -1.973611132841040e+01   -1.687094891748807e+02   
7.024000000000000e+09    -1.979700146488158e+01   -1.690950617798466e+02   
7.025000000000000e+09    -1.986095908932532e+01   -1.695446435190358e+02   
7.026000000000000e+09    -1.989902741786436e+01   -1.699540736670178e+02   
7.027000000000000e+09    -1.995658247676084e+01   -1.703012840821234e+02   
7.028000000000000e+09    -2.000303171345203e+01   -1.707483549434252e+02   
7.029000000000000e+09    -2.006172903861388e+01   -1.711797705970343e+02   
7.030000000000000e+09    -2.010367262507417e+01   -1.714723347657394e+02   
7.031000000000000e+09    -2.015463335634369e+01   -1.718861844031372e+02   
7.032000000000000e+09    -2.020859028361260e+01   -1.721755977988229e+02   
7.033000000000000e+09    -2.025720377335874e+01   -1.725765681597886e+02   
7.034000000000000e+09    -2.029604807802573e+01   -1.727785990182318e+02   
7.035000000000000e+09    -2.034023854449437e+01   -1.729820120827019e+02   
7.036000000000000e+09    -2.039419982650341e+01   -1.732514432458106e+02   
7.037000000000000e+09    -2.043373565513212e+01   -1.734354621963089e+02   
7.038000000000000e+09    -2.046194653548434e+01   -1.736609287899085e+02   
7.039000000000000e+09    -2.051152466803133e+01   -1.738119850860586e+02   
7.040000000000000e+09    -2.054250773627570e+01   -1.739226925128527e+02   
7.041000000000000e+09    -2.058724035744352e+01   -1.740607830185074e+02   
7.042000000000000e+09    -2.062970353389079e+01   -1.741581414791253e+02   
7.043000000000000e+09    -2.066527876920343e+01   -1.742506435726694e+02   
7.044000000000000e+09    -2.069592226471336e+01   -1.742383270907500e+02   
7.045000000000000e+09    -2.073837793680701e+01   -1.742488497577935e+02   
7.046000000000000e+09    -2.077311276092516e+01   -1.741315043113519e+02   
7.047000000000000e+09    -2.082083796951380e+01   -1.740586245681978e+02   
7.048000000000000e+09    -2.085549884906015e+01   -1.738875993559620e+02   
7.049000000000000e+09    -2.089723269664733e+01   -1.737150156609047e+02   
7.050000000000000e+09    -2.092478955831802e+01   -1.734913681444397e+02   
7.051000000000000e+09    -2.095828781191597e+01   -1.732781056393433e+02   
7.052000000000000e+09    -2.100021682990617e+01   -1.729384763423423e+02   
7.053000000000000e+09    -2.104019204401058e+01   -1.726774779479758e+02   
7.054000000000000e+09    -2.106594512855693e+01   -1.722818218029202e+02   
7.055000000000000e+09    -2.109411747847184e+01   -1.719158587042526e+02   
7.056000000000000e+09    -2.114275873874736e+01   -1.714058012048932e+02   
7.057000000000000e+09    -2.116475138023025e+01   -1.710122883242491e+02   
7.058000000000000e+09    -2.120393548731043e+01   -1.705409059006201e+02   
7.059000000000000e+09    -2.122486442591881e+01   -1.700055507494670e+02   
7.060000000000000e+09    -2.125340210153333e+01   -1.694876948455967e+02   
7.061000000000000e+09    -2.129620857161690e+01   -1.688270674079154e+02   
7.062000000000000e+09    -2.131888084189536e+01   -1.682244827281527e+02   
7.063000000000000e+09    -2.134453719046586e+01   -1.675321535272648e+02   
7.064000000000000e+09    -2.138090534983217e+01   -1.668177733721420e+02   
7.065000000000000e+09    -2.140382270863280e+01   -1.661157742688717e+02   
7.066000000000000e+09    -2.143199255482725e+01   -1.654258301755544e+02   
7.067000000000000e+09    -2.145792011164083e+01   -1.645596804604783e+02   
7.068000000000000e+09    -2.148886988004496e+01   -1.638254606806344e+02   
7.069000000000000e+09    -2.150788216447041e+01   -1.630213540324117e+02   
7.070000000000000e+09    -2.155256725069154e+01   -1.621637543101149e+02   
7.071000000000000e+09    -2.157706315247834e+01   -1.613608537886340e+02   
7.072000000000000e+09    -2.160967091033420e+01   -1.604430571504291e+02   
7.073000000000000e+09    -2.162558949240752e+01   -1.595488222503739e+02   
7.074000000000000e+09    -2.165777115684191e+01   -1.586029315539739e+02   
7.075000000000000e+09    -2.169358826322681e+01   -1.577887218742459e+02   
7.076000000000000e+09    -2.172230798367037e+01   -1.567210251363555e+02   
7.077000000000000e+09    -2.175044112273629e+01   -1.557909191069246e+02   
7.078000000000000e+09    -2.177461646385323e+01   -1.549013670644092e+02   
7.079000000000000e+09    -2.180014872005662e+01   -1.539151312488140e+02   
7.080000000000000e+09    -2.183740934870213e+01   -1.529784536189381e+02   
7.081000000000000e+09    -2.186770023147515e+01   -1.520491373459989e+02   
7.082000000000000e+09    -2.190052483553315e+01   -1.510223543829939e+02   
7.083000000000000e+09    -2.194437240076040e+01   -1.500822663031337e+02   
7.084000000000000e+09    -2.197016677822478e+01   -1.490434050448663e+02   
7.085000000000000e+09    -2.199787504567429e+01   -1.480100120014611e+02   
7.086000000000000e+09    -2.202921516139835e+01   -1.470856684174843e+02   
7.087000000000000e+09    -2.206395532005077e+01   -1.461186618457793e+02   
7.088000000000000e+09    -2.210857183416000e+01   -1.451661041862328e+02   
7.089000000000000e+09    -2.213513131229260e+01   -1.441881251273909e+02   
7.090000000000000e+09    -2.216551295655508e+01   -1.432444002477055e+02   
7.091000000000000e+09    -2.221070127430053e+01   -1.423006864377005e+02   
7.092000000000000e+09    -2.224736010456107e+01   -1.413458477804612e+02   
7.093000000000000e+09    -2.226575437390061e+01   -1.403855299538578e+02   
7.094000000000000e+09    -2.230949541976594e+01   -1.395785440789349e+02   
7.095000000000000e+09    -2.233753499446465e+01   -1.387255582961392e+02   
7.096000000000000e+09    -2.237326284105621e+01   -1.378383651311093e+02   
7.097000000000000e+09    -2.240775849365408e+01   -1.369966368105649e+02   
7.098000000000000e+09    -2.244310473307909e+01   -1.361305435055683e+02   
7.099000000000000e+09    -2.247349522306983e+01   -1.353636367762309e+02   
7.100000000000000e+09    -2.250631970823360e+01   -1.346098667655729e+02   
7.101000000000000e+09    -2.253680518167812e+01   -1.338142917061298e+02   
7.102000000000000e+09    -2.258442578829900e+01   -1.331030637119626e+02   
7.103000000000000e+09    -2.263172465102333e+01   -1.322705770835065e+02   
7.104000000000000e+09    -2.265989986205183e+01   -1.315454189257245e+02   
7.105000000000000e+09    -2.269615432019706e+01   -1.308764438898233e+02   
7.106000000000000e+09    -2.273434573349457e+01   -1.302431599648706e+02   
7.107000000000000e+09    -2.276852995156080e+01   -1.294645873465353e+02   
7.108000000000000e+09    -2.280416204519033e+01   -1.289230377340402e+02   
7.109000000000000e+09    -2.283624688713168e+01   -1.282622723367004e+02   
7.110000000000000e+09    -2.287016458446187e+01   -1.276266398437642e+02   
7.111000000000000e+09    -2.291265991713418e+01   -1.270451585304562e+02   
7.112000000000000e+09    -2.294164160829940e+01   -1.265570406199576e+02   
7.113000000000000e+09    -2.298671075499037e+01   -1.260356633363087e+02   
7.114000000000000e+09    -2.301381462001332e+01   -1.254923896801048e+02   
7.115000000000000e+09    -2.305433101502928e+01   -1.249721086600144e+02   
7.116000000000000e+09    -2.309536966315484e+01   -1.245506391942188e+02   
7.117000000000000e+09    -2.313059414347489e+01   -1.241192843146976e+02   
7.118000000000000e+09    -2.315730281638519e+01   -1.238240861787806e+02   
7.119000000000000e+09    -2.319233186466199e+01   -1.234136701505383e+02   
7.120000000000000e+09    -2.323389425326761e+01   -1.230202460006983e+02   
7.121000000000000e+09    -2.326699177153620e+01   -1.226833282628288e+02   
7.122000000000000e+09    -2.328524658181905e+01   -1.224445291011651e+02   
7.123000000000000e+09    -2.330205790317233e+01   -1.222038002739409e+02   
7.124000000000000e+09    -2.332990760873846e+01   -1.218855085020891e+02   
7.125000000000000e+09    -2.336895602239346e+01   -1.217545552757316e+02   
7.126000000000000e+09    -2.335797544979950e+01   -1.215419262945304e+02   
7.127000000000000e+09    -2.337393011727012e+01   -1.214338655069922e+02   
7.128000000000000e+09    -2.339564388259493e+01   -1.214618658880273e+02   
7.129000000000000e+09    -2.339158422876189e+01   -1.211871496010832e+02   
7.130000000000000e+09    -2.338941070483132e+01   -1.212298799979018e+02   
7.131000000000000e+09    -2.339814485494120e+01   -1.212656977198939e+02   
7.132000000000000e+09    -2.339185488609324e+01   -1.211337699405585e+02   
7.133000000000000e+09    -2.336682929313353e+01   -1.212627527610907e+02   
7.134000000000000e+09    -2.335367617216290e+01   -1.212707736531167e+02   
7.135000000000000e+09    -2.333029115873282e+01   -1.214314770880252e+02   
7.136000000000000e+09    -2.331523534488391e+01   -1.215427795733959e+02   
7.137000000000000e+09    -2.326839631938186e+01   -1.216365821236877e+02   
7.138000000000000e+09    -2.321648087224198e+01   -1.218560724969720e+02   
7.139000000000000e+09    -2.318218077437755e+01   -1.219886983870133e+02   
7.140000000000000e+09    -2.313557431365045e+01   -1.223193092401020e+02   
7.141000000000000e+09    -2.308050005499560e+01   -1.224399855103752e+02   
7.142000000000000e+09    -2.301733663030491e+01   -1.225634719425483e+02   
7.143000000000000e+09    -2.295635702115366e+01   -1.227312326330419e+02   
7.144000000000000e+09    -2.287984490794949e+01   -1.230115997089760e+02   
7.145000000000000e+09    -2.279969387190460e+01   -1.232606698544874e+02   
7.146000000000000e+09    -2.271333411429426e+01   -1.234171545478678e+02   
7.147000000000000e+09    -2.261547118176805e+01   -1.236897050067164e+02   
7.148000000000000e+09    -2.253222754284156e+01   -1.239380754261198e+02   
7.149000000000000e+09    -2.243285148448244e+01   -1.241050466399530e+02   
7.150000000000000e+09    -2.233327650092957e+01   -1.243154584140644e+02   
7.151000000000000e+09    -2.224129770197390e+01   -1.244220649466134e+02   
7.152000000000000e+09    -2.211158241690296e+01   -1.246907835271083e+02   
7.153000000000000e+09    -2.200801357174545e+01   -1.248024484241441e+02   
7.154000000000000e+09    -2.190401073713252e+01   -1.250300716438974e+02   
7.155000000000000e+09    -2.178185632236418e+01   -1.250890281107319e+02   
7.156000000000000e+09    -2.165437778439779e+01   -1.251780026793976e+02   
7.157000000000000e+09    -2.154289167038833e+01   -1.253213959082383e+02   
7.158000000000000e+09    -2.144250502046912e+01   -1.253870136369838e+02   
7.159000000000000e+09    -2.131309133175950e+01   -1.254773097038954e+02   
7.160000000000000e+09    -2.119836546879695e+01   -1.255036090021407e+02   
7.161000000000000e+09    -2.107432633740866e+01   -1.255499963243565e+02   
7.162000000000000e+09    -2.094957503864695e+01   -1.255206419343611e+02   
7.163000000000000e+09    -2.082558206640291e+01   -1.255820108409808e+02   
7.164000000000000e+09    -2.070142216667069e+01   -1.256257080382949e+02   
7.165000000000000e+09    -2.059226761941826e+01   -1.255260613134019e+02   
7.166000000000000e+09    -2.046416081456906e+01   -1.255520128306468e+02   
7.167000000000000e+09    -2.035234864677006e+01   -1.254340321133648e+02   
7.168000000000000e+09    -2.022220548354680e+01   -1.254743793327052e+02   
7.169000000000000e+09    -2.012212844013388e+01   -1.253952166526350e+02   
7.170000000000000e+09    -2.001443405667761e+01   -1.252974186669332e+02   
7.171000000000000e+09    -1.989937920716247e+01   -1.252980770336516e+02   
7.172000000000000e+09    -1.978956061399075e+01   -1.251146677587255e+02   
7.173000000000000e+09    -1.969865534496194e+01   -1.250630061730237e+02   
7.174000000000000e+09    -1.958515556582639e+01   -1.250038527926823e+02   
7.175000000000000e+09    -1.948928657960699e+01   -1.248632355008644e+02   
7.176000000000000e+09    -1.939072918568772e+01   -1.248191576008780e+02   
7.177000000000000e+09    -1.928417886992595e+01   -1.246671780427471e+02   
7.178000000000000e+09    -1.919716932873934e+01   -1.245354316542727e+02   
7.179000000000000e+09    -1.910512106293900e+01   -1.244125775988254e+02   
7.180000000000000e+09    -1.901085254546960e+01   -1.243189476840037e+02   
7.181000000000000e+09    -1.892614800026028e+01   -1.242532439547991e+02   
7.182000000000000e+09    -1.884702151229000e+01   -1.240438522347939e+02   
7.183000000000000e+09    -1.876324087154925e+01   -1.239587009301654e+02   
7.184000000000000e+09    -1.868230716675991e+01   -1.239383975822723e+02   
7.185000000000000e+09    -1.861067207169075e+01   -1.237518429291315e+02   
7.186000000000000e+09    -1.855458492916848e+01   -1.236749793985217e+02   
7.187000000000000e+09    -1.848270184021175e+01   -1.235438176509037e+02   
7.188000000000000e+09    -1.840931488029577e+01   -1.234260865623003e+02   
7.189000000000000e+09    -1.835632747272233e+01   -1.233611413495649e+02   
7.190000000000000e+09    -1.830719730555091e+01   -1.231851980995779e+02   
7.191000000000000e+09    -1.824574661416990e+01   -1.231043460343393e+02   
7.192000000000000e+09    -1.819916088516536e+01   -1.230042066081906e+02   
7.193000000000000e+09    -1.814372826637717e+01   -1.228390572230722e+02   
7.194000000000000e+09    -1.810795875566422e+01   -1.227316330970275e+02   
7.195000000000000e+09    -1.807872648096911e+01   -1.226354437857729e+02   
7.196000000000000e+09    -1.803761388390646e+01   -1.224821932238782e+02   
7.197000000000000e+09    -1.801354388139803e+01   -1.224312874594092e+02   
7.198000000000000e+09    -1.797795062431885e+01   -1.223047198838893e+02   
7.199000000000000e+09    -1.795348454236222e+01   -1.221630430844781e+02   
7.200000000000000e+09    -1.793491703833559e+01   -1.220947544904686e+02   
7.201000000000000e+09    -1.791480599442418e+01   -1.219429067504987e+02   
7.202000000000000e+09    -1.790231775149610e+01   -1.218896666956803e+02   
7.203000000000000e+09    -1.789420002375486e+01   -1.217848946078320e+02   
7.204000000000000e+09    -1.790056424409119e+01   -1.217388518014223e+02   
7.205000000000000e+09    -1.790055450543468e+01   -1.216588326760867e+02   
7.206000000000000e+09    -1.791393498053806e+01   -1.216116644709553e+02   
7.207000000000000e+09    -1.792292293840298e+01   -1.214977453206324e+02   
7.208000000000000e+09    -1.792909761131451e+01   -1.214968828430511e+02   
7.209000000000000e+09    -1.794691335655582e+01   -1.214669297116890e+02   
7.210000000000000e+09    -1.797214336159804e+01   -1.214267218220577e+02   
7.211000000000000e+09    -1.799476493110005e+01   -1.214734673653302e+02   
7.212000000000000e+09    -1.802445832914249e+01   -1.214555000813576e+02   
7.213000000000000e+09    -1.805742943274116e+01   -1.214646475114391e+02   
7.214000000000000e+09    -1.808164364026754e+01   -1.215260310559499e+02   
7.215000000000000e+09    -1.811714189469793e+01   -1.215978888210797e+02   
7.216000000000000e+09    -1.815990373209812e+01   -1.217397176300242e+02   
7.217000000000000e+09    -1.818940794871826e+01   -1.218893593183278e+02   
7.218000000000000e+09    -1.823536119634046e+01   -1.220254459507618e+02   
7.219000000000000e+09    -1.827897152982718e+01   -1.221295517760381e+02   
7.220000000000000e+09    -1.832826267332628e+01   -1.223149300942066e+02   
7.221000000000000e+09    -1.837344048854229e+01   -1.224573655414001e+02   
7.222000000000000e+09    -1.843338248013588e+01   -1.227850107687191e+02   
7.223000000000000e+09    -1.847794073624642e+01   -1.229973554223316e+02   
7.224000000000000e+09    -1.853099845256537e+01   -1.232218202269684e+02   
7.225000000000000e+09    -1.858465491696690e+01   -1.234801800929233e+02   
7.226000000000000e+09    -1.863977124099899e+01   -1.238255773559253e+02   
7.227000000000000e+09    -1.868770876943649e+01   -1.241651232374232e+02   
7.228000000000000e+09    -1.874379281606861e+01   -1.244494218015386e+02   
7.229000000000000e+09    -1.878364391002410e+01   -1.247849620720428e+02   
7.230000000000000e+09    -1.883770358941834e+01   -1.251301568026918e+02   
7.231000000000000e+09    -1.889175761890183e+01   -1.255558257945128e+02   
7.232000000000000e+09    -1.893741092796676e+01   -1.259622037450070e+02   
7.233000000000000e+09    -1.897564764746199e+01   -1.263962282198307e+02   
7.234000000000000e+09    -1.901934948849422e+01   -1.268129395172420e+02   
7.235000000000000e+09    -1.906686913498328e+01   -1.272662383212014e+02   
7.236000000000000e+09    -1.910214717598671e+01   -1.277037525282120e+02   
7.237000000000000e+09    -1.915019648609786e+01   -1.282123965457897e+02   
7.238000000000000e+09    -1.918752172262529e+01   -1.285861465092384e+02   
7.239000000000000e+09    -1.919964567896936e+01   -1.291560261531648e+02   
7.240000000000000e+09    -1.923913787005504e+01   -1.296013854176537e+02   
7.241000000000000e+09    -1.926769293757827e+01   -1.301171026727189e+02   
7.242000000000000e+09    -1.929419388897376e+01   -1.306149984497825e+02   
7.243000000000000e+09    -1.930461182551184e+01   -1.311249144061124e+02   
7.244000000000000e+09    -1.932729388852387e+01   -1.316102623798306e+02   
7.245000000000000e+09    -1.934496724128973e+01   -1.321004116094043e+02   
7.246000000000000e+09    -1.936164986462220e+01   -1.325957119947090e+02   
7.247000000000000e+09    -1.936919116808059e+01   -1.330991411596789e+02   
7.248000000000000e+09    -1.938365324975459e+01   -1.336109012484411e+02   
7.249000000000000e+09    -1.938774458056706e+01   -1.340580785932264e+02   
7.250000000000000e+09    -1.939190919475681e+01   -1.345881734294497e+02   
7.251000000000000e+09    -1.939374235767932e+01   -1.350742290365301e+02   
7.252000000000000e+09    -1.938650762671538e+01   -1.355020239283694e+02   
7.253000000000000e+09    -1.938960919552557e+01   -1.359825201104692e+02   
7.254000000000000e+09    -1.937192148687745e+01   -1.363508168849094e+02   
7.255000000000000e+09    -1.936550735042976e+01   -1.367607225773801e+02   
7.256000000000000e+09    -1.934563582620738e+01   -1.372376042298201e+02   
