[Version] 2.0
! Rohde & Schwarz Vector Network Analyzer
! Rohde-Schwarz,ZNL20-2Port,1323001220200009,1.71.1.10-23.02.1.238
! 
! Trace info:
! Nominal Param -> Actual Exported Buffer
! ---------------------------------------
! S11 -> S22

! Created: GMT+3 2024-09-24 16:40:08

# Hz S DB R 50

[Number of Ports] 1
[Number of Frequencies] 6001

[Network Data] 
! freq[Hz]               S11[mag dB]              S11[ang]                 
7.000000000000000e+09    -1.786212546609668e+01   -1.586629697245881e+02   
7.001000000000000e+09    -1.793040371023853e+01   -1.588809864592567e+02   
7.002000000000000e+09    -1.800569812387617e+01   -1.590602029720843e+02   
7.003000000000000e+09    -1.807369982917575e+01   -1.592721965125286e+02   
7.004000000000000e+09    -1.814520360461554e+01   -1.595105405526934e+02   
7.005000000000000e+09    -1.821390640086092e+01   -1.597847932089257e+02   
7.006000000000000e+09    -1.829359854270443e+01   -1.600284464717701e+02   
7.007000000000000e+09    -1.835937353377700e+01   -1.603870749845258e+02   
7.008000000000000e+09    -1.843042300543034e+01   -1.606558989600369e+02   
7.009000000000000e+09    -1.849875482986522e+01   -1.609952782013175e+02   
7.010000000000000e+09    -1.857332010118542e+01   -1.613892271826176e+02   
7.011000000000000e+09    -1.864102872050282e+01   -1.617563945806539e+02   
7.012000000000000e+09    -1.870124927051712e+01   -1.621164017975245e+02   
7.013000000000000e+09    -1.876817415916239e+01   -1.625290204723008e+02   
7.014000000000000e+09    -1.883616239770199e+01   -1.630117636571597e+02   
7.015000000000000e+09    -1.889807938893141e+01   -1.633845221629930e+02   
7.016000000000000e+09    -1.896096738751392e+01   -1.638364469894072e+02   
7.017000000000000e+09    -1.901621161626164e+01   -1.642935823360220e+02   
7.018000000000000e+09    -1.908184189934431e+01   -1.647399339870042e+02   
7.019000000000000e+09    -1.913245838218085e+01   -1.651642931294671e+02   
7.020000000000000e+09    -1.919306007456683e+01   -1.656882572349529e+02   
7.021000000000000e+09    -1.924537990535395e+01   -1.661260981192000e+02   
7.022000000000000e+09    -1.930515540466473e+01   -1.665725405160919e+02   
7.023000000000000e+09    -1.934765182995936e+01   -1.670267321522916e+02   
7.024000000000000e+09    -1.938665675158830e+01   -1.674836425757188e+02   
7.025000000000000e+09    -1.944459863825724e+01   -1.679600352074583e+02   
7.026000000000000e+09    -1.947468479958598e+01   -1.683330824631045e+02   
7.027000000000000e+09    -1.952471967573751e+01   -1.687787509436039e+02   
7.028000000000000e+09    -1.956150565283237e+01   -1.692112080075629e+02   
7.029000000000000e+09    -1.960280555513131e+01   -1.697002768004818e+02   
7.030000000000000e+09    -1.964541850514696e+01   -1.700159058557741e+02   
7.031000000000000e+09    -1.968731962921862e+01   -1.704463101457734e+02   
7.032000000000000e+09    -1.972751196686599e+01   -1.708363041582102e+02   
7.033000000000000e+09    -1.976225546199869e+01   -1.712532958237308e+02   
7.034000000000000e+09    -1.979102543354644e+01   -1.714929280012167e+02   
7.035000000000000e+09    -1.983083784096481e+01   -1.718181503312098e+02   
7.036000000000000e+09    -1.986705347294316e+01   -1.721706580684173e+02   
7.037000000000000e+09    -1.990317252181633e+01   -1.723687701610431e+02   
7.038000000000000e+09    -1.992655927933882e+01   -1.726782549855184e+02   
7.039000000000000e+09    -1.996997374950365e+01   -1.729466792673636e+02   
7.040000000000000e+09    -1.999266461564480e+01   -1.731442865189316e+02   
7.041000000000000e+09    -2.003073184540126e+01   -1.733171152583170e+02   
7.042000000000000e+09    -2.006795916681959e+01   -1.735587879889052e+02   
7.043000000000000e+09    -2.009225299462445e+01   -1.736429162544835e+02   
7.044000000000000e+09    -2.012327725245336e+01   -1.737023684374490e+02   
7.045000000000000e+09    -2.016701358425696e+01   -1.737735886196344e+02   
7.046000000000000e+09    -2.018766490212787e+01   -1.738324975189320e+02   
7.047000000000000e+09    -2.022315824860360e+01   -1.738132255953132e+02   
7.048000000000000e+09    -2.026318532491305e+01   -1.738462178454291e+02   
7.049000000000000e+09    -2.029344163756633e+01   -1.737239934295402e+02   
7.050000000000000e+09    -2.032085999741384e+01   -1.736307376177361e+02   
7.051000000000000e+09    -2.034914808370857e+01   -1.735276728321419e+02   
7.052000000000000e+09    -2.038680425282036e+01   -1.733705754797939e+02   
7.053000000000000e+09    -2.041951282934424e+01   -1.732404214617832e+02   
7.054000000000000e+09    -2.045783349965327e+01   -1.729231040980208e+02   
7.055000000000000e+09    -2.048975978081087e+01   -1.727149677868504e+02   
7.056000000000000e+09    -2.052592457604580e+01   -1.724062556399917e+02   
7.057000000000000e+09    -2.055164129993605e+01   -1.720887660725899e+02   
7.058000000000000e+09    -2.060319716369889e+01   -1.717661236582061e+02   
7.059000000000000e+09    -2.062901776807065e+01   -1.713567646517340e+02   
7.060000000000000e+09    -2.065770045909982e+01   -1.709833766676280e+02   
7.061000000000000e+09    -2.069877658070414e+01   -1.704459027376417e+02   
7.062000000000000e+09    -2.073603537033758e+01   -1.700277437696677e+02   
7.063000000000000e+09    -2.077058971368378e+01   -1.694273034284762e+02   
7.064000000000000e+09    -2.081315899099194e+01   -1.689048493807421e+02   
7.065000000000000e+09    -2.084689379678237e+01   -1.683837889209585e+02   
7.066000000000000e+09    -2.088133618950545e+01   -1.677798226661489e+02   
7.067000000000000e+09    -2.091523568716720e+01   -1.670773702905897e+02   
7.068000000000000e+09    -2.096130122563627e+01   -1.664050669699963e+02   
7.069000000000000e+09    -2.100726430379774e+01   -1.658260625625181e+02   
7.070000000000000e+09    -2.104666677981616e+01   -1.650789037559312e+02   
7.071000000000000e+09    -2.109088762930773e+01   -1.644170231383432e+02   
7.072000000000000e+09    -2.114172951885480e+01   -1.636973675781928e+02   
7.073000000000000e+09    -2.118351771979604e+01   -1.629198933047833e+02   
7.074000000000000e+09    -2.122542441615280e+01   -1.621147314370338e+02   
7.075000000000000e+09    -2.128000525419581e+01   -1.613519332126901e+02   
7.076000000000000e+09    -2.132923235296261e+01   -1.605251412815018e+02   
7.077000000000000e+09    -2.137876913695059e+01   -1.596573189867178e+02   
7.078000000000000e+09    -2.143077148135973e+01   -1.588841291850559e+02   
7.079000000000000e+09    -2.148773868256053e+01   -1.579677871728331e+02   
7.080000000000000e+09    -2.154263108949008e+01   -1.571662501202517e+02   
7.081000000000000e+09    -2.160297766376143e+01   -1.562740752614725e+02   
7.082000000000000e+09    -2.165534269099575e+01   -1.553662308075418e+02   
7.083000000000000e+09    -2.172448083630574e+01   -1.544220506275450e+02   
7.084000000000000e+09    -2.178327506997513e+01   -1.535134824011727e+02   
7.085000000000000e+09    -2.184317063922481e+01   -1.525597420072039e+02   
7.086000000000000e+09    -2.189820199208530e+01   -1.516753299872794e+02   
7.087000000000000e+09    -2.196104337274260e+01   -1.507713911501144e+02   
7.088000000000000e+09    -2.202135375826818e+01   -1.498450393767568e+02   
7.089000000000000e+09    -2.208455783357087e+01   -1.489336174993845e+02   
7.090000000000000e+09    -2.214674018368398e+01   -1.479268876881135e+02   
7.091000000000000e+09    -2.221445302497890e+01   -1.470920403116100e+02   
7.092000000000000e+09    -2.227356573015704e+01   -1.461603931863118e+02   
7.093000000000000e+09    -2.233880437047316e+01   -1.452484596141155e+02   
7.094000000000000e+09    -2.240918494799171e+01   -1.443348241025132e+02   
7.095000000000000e+09    -2.245947665286020e+01   -1.434345368087940e+02   
7.096000000000000e+09    -2.251350092486377e+01   -1.425179256055665e+02   
7.097000000000000e+09    -2.257603284700742e+01   -1.416974188742778e+02   
7.098000000000000e+09    -2.263216449826974e+01   -1.407825031250173e+02   
7.099000000000000e+09    -2.269630550203579e+01   -1.399742004705071e+02   
7.100000000000000e+09    -2.275013991071111e+01   -1.392250257807297e+02   
7.101000000000000e+09    -2.281394471060529e+01   -1.382707643727730e+02   
7.102000000000000e+09    -2.288478929348148e+01   -1.375667054759374e+02   
7.103000000000000e+09    -2.294849006602853e+01   -1.367324240092202e+02   
7.104000000000000e+09    -2.300379774004914e+01   -1.358961218628812e+02   
7.105000000000000e+09    -2.307984868025845e+01   -1.351466258160644e+02   
7.106000000000000e+09    -2.312446055727605e+01   -1.345006229782094e+02   
7.107000000000000e+09    -2.319018579005034e+01   -1.336358717118543e+02   
7.108000000000000e+09    -2.323546320879867e+01   -1.329843302761462e+02   
7.109000000000000e+09    -2.329563674698924e+01   -1.322536660910684e+02   
7.110000000000000e+09    -2.334090188689391e+01   -1.314842022095716e+02   
7.111000000000000e+09    -2.339802438405944e+01   -1.308556516784248e+02   
7.112000000000000e+09    -2.344501593542120e+01   -1.303071897769516e+02   
7.113000000000000e+09    -2.351317383928878e+01   -1.297370401229611e+02   
7.114000000000000e+09    -2.355967915523077e+01   -1.292108631944475e+02   
7.115000000000000e+09    -2.361586138392819e+01   -1.285632967405024e+02   
7.116000000000000e+09    -2.367497468297874e+01   -1.279700030752378e+02   
7.117000000000000e+09    -2.371916310269315e+01   -1.276155600690871e+02   
7.118000000000000e+09    -2.376278866191596e+01   -1.271546133920855e+02   
7.119000000000000e+09    -2.381838377640345e+01   -1.266205862007309e+02   
7.120000000000000e+09    -2.387097253447342e+01   -1.262204541462034e+02   
7.121000000000000e+09    -2.390379304689151e+01   -1.258446025749940e+02   
7.122000000000000e+09    -2.395452310149490e+01   -1.254197274802514e+02   
7.123000000000000e+09    -2.397707667554153e+01   -1.251589911371747e+02   
7.124000000000000e+09    -2.401284438991103e+01   -1.248197820059997e+02   
7.125000000000000e+09    -2.405996976373597e+01   -1.244875190729699e+02   
7.126000000000000e+09    -2.406789436286519e+01   -1.243020276053031e+02   
7.127000000000000e+09    -2.410231949217086e+01   -1.241104599490249e+02   
7.128000000000000e+09    -2.412883153708668e+01   -1.240509771777344e+02   
7.129000000000000e+09    -2.414183230771615e+01   -1.237148147996320e+02   
7.130000000000000e+09    -2.415728720335918e+01   -1.236953069015497e+02   
7.131000000000000e+09    -2.416965969851605e+01   -1.235756848492922e+02   
7.132000000000000e+09    -2.417840147732701e+01   -1.234503833157714e+02   
7.133000000000000e+09    -2.415420083522854e+01   -1.234824470437142e+02   
7.134000000000000e+09    -2.416478923093054e+01   -1.234388921690255e+02   
7.135000000000000e+09    -2.412952065615962e+01   -1.234695906443608e+02   
7.136000000000000e+09    -2.410826145749505e+01   -1.234142221517052e+02   
7.137000000000000e+09    -2.407873070737950e+01   -1.234752654197420e+02   
7.138000000000000e+09    -2.403628074746514e+01   -1.235776395980875e+02   
7.139000000000000e+09    -2.398712512170065e+01   -1.235647942692808e+02   
7.140000000000000e+09    -2.395144579894414e+01   -1.239278644792337e+02   
7.141000000000000e+09    -2.389665840074023e+01   -1.239113262649817e+02   
7.142000000000000e+09    -2.383539183497539e+01   -1.240194642963145e+02   
7.143000000000000e+09    -2.377190983598961e+01   -1.240490112166306e+02   
7.144000000000000e+09    -2.369881744661187e+01   -1.241392220876390e+02   
7.145000000000000e+09    -2.361984017397734e+01   -1.243488459823738e+02   
7.146000000000000e+09    -2.351998344157018e+01   -1.244597556279241e+02   
7.147000000000000e+09    -2.343438875993293e+01   -1.245959348275439e+02   
7.148000000000000e+09    -2.334951726694781e+01   -1.245700716258969e+02   
7.149000000000000e+09    -2.323611204321221e+01   -1.247636505834543e+02   
7.150000000000000e+09    -2.312996618429317e+01   -1.248930448591800e+02   
7.151000000000000e+09    -2.303035137411326e+01   -1.249212612846911e+02   
7.152000000000000e+09    -2.291230358090694e+01   -1.250502629210891e+02   
7.153000000000000e+09    -2.280624403097791e+01   -1.249416660952883e+02   
7.154000000000000e+09    -2.269276397968961e+01   -1.251526219537364e+02   
7.155000000000000e+09    -2.255826179433172e+01   -1.251762721282480e+02   
7.156000000000000e+09    -2.241981144588090e+01   -1.251548783661705e+02   
7.157000000000000e+09    -2.229454150370294e+01   -1.251592328445847e+02   
7.158000000000000e+09    -2.217946057166365e+01   -1.251469743755630e+02   
7.159000000000000e+09    -2.204534906052930e+01   -1.251553524430013e+02   
7.160000000000000e+09    -2.193189271752200e+01   -1.250917275164374e+02   
7.161000000000000e+09    -2.179278258773092e+01   -1.251367576157848e+02   
7.162000000000000e+09    -2.166750546143408e+01   -1.249658053241226e+02   
7.163000000000000e+09    -2.152992678288220e+01   -1.249857880922056e+02   
7.164000000000000e+09    -2.139871006206586e+01   -1.248626660170844e+02   
7.165000000000000e+09    -2.128973554530520e+01   -1.247349423859332e+02   
7.166000000000000e+09    -2.115126154330905e+01   -1.245756096221451e+02   
7.167000000000000e+09    -2.104013982506041e+01   -1.245014824652692e+02   
7.168000000000000e+09    -2.090235408570589e+01   -1.243394164594018e+02   
7.169000000000000e+09    -2.078416495730222e+01   -1.241411395218640e+02   
7.170000000000000e+09    -2.066261058855265e+01   -1.239236587544090e+02   
7.171000000000000e+09    -2.054416872744724e+01   -1.238287693212598e+02   
7.172000000000000e+09    -2.042671091286987e+01   -1.236056271546875e+02   
7.173000000000000e+09    -2.031438183191947e+01   -1.233978070713999e+02   
7.174000000000000e+09    -2.020008502369937e+01   -1.232422674182694e+02   
7.175000000000000e+09    -2.008895960431187e+01   -1.230141996783215e+02   
7.176000000000000e+09    -1.998165169673254e+01   -1.228744253186297e+02   
7.177000000000000e+09    -1.987391542754476e+01   -1.226361183723558e+02   
7.178000000000000e+09    -1.976416840370569e+01   -1.223488070434113e+02   
7.179000000000000e+09    -1.966653106723119e+01   -1.222165468149738e+02   
7.180000000000000e+09    -1.955426090305740e+01   -1.219894442575408e+02   
7.181000000000000e+09    -1.945686512577169e+01   -1.218589833644868e+02   
7.182000000000000e+09    -1.937322254857130e+01   -1.215761791004592e+02   
7.183000000000000e+09    -1.927672990681610e+01   -1.214280759604154e+02   
7.184000000000000e+09    -1.919248249253070e+01   -1.212470811765558e+02   
7.185000000000000e+09    -1.910167762020325e+01   -1.210159220541247e+02   
7.186000000000000e+09    -1.902395096042057e+01   -1.208367375917046e+02   
7.187000000000000e+09    -1.894297484291299e+01   -1.206639700963742e+02   
7.188000000000000e+09    -1.885768379333754e+01   -1.203956613831592e+02   
7.189000000000000e+09    -1.878921697349795e+01   -1.202943963822690e+02   
7.190000000000000e+09    -1.871643779264452e+01   -1.200422227664849e+02   
7.191000000000000e+09    -1.864214361890553e+01   -1.198819723485443e+02   
7.192000000000000e+09    -1.858487448178933e+01   -1.197024882711506e+02   
7.193000000000000e+09    -1.851928933414789e+01   -1.195161105641544e+02   
7.194000000000000e+09    -1.847076954738372e+01   -1.193244415073391e+02   
7.195000000000000e+09    -1.841691345734091e+01   -1.191844790023667e+02   
7.196000000000000e+09    -1.836332124833021e+01   -1.189427029723759e+02   
7.197000000000000e+09    -1.832210635629480e+01   -1.187957160420932e+02   
7.198000000000000e+09    -1.826423571316964e+01   -1.186154121008004e+02   
7.199000000000000e+09    -1.822595689735031e+01   -1.184505064007364e+02   
7.200000000000000e+09    -1.819313241924649e+01   -1.183282976817537e+02   
7.201000000000000e+09    -1.815780227801755e+01   -1.181565280777075e+02   
7.202000000000000e+09    -1.813458796378376e+01   -1.180271922794561e+02   
7.203000000000000e+09    -1.810782216692573e+01   -1.179400625679658e+02   
7.204000000000000e+09    -1.809410308079146e+01   -1.178283908453507e+02   
7.205000000000000e+09    -1.807968191976219e+01   -1.176765970540145e+02   
7.206000000000000e+09    -1.807491679759829e+01   -1.176106682999696e+02   
7.207000000000000e+09    -1.807361033157194e+01   -1.174937216446230e+02   
7.208000000000000e+09    -1.806278403135736e+01   -1.174350710197900e+02   
7.209000000000000e+09    -1.806188526811895e+01   -1.174213372490983e+02   
7.210000000000000e+09    -1.807208786104716e+01   -1.173560090167183e+02   
7.211000000000000e+09    -1.806773228787841e+01   -1.172638621783900e+02   
7.212000000000000e+09    -1.808877817946012e+01   -1.172635376050887e+02   
7.213000000000000e+09    -1.810601321871100e+01   -1.172901292884369e+02   
7.214000000000000e+09    -1.811438160880701e+01   -1.173019222709829e+02   
7.215000000000000e+09    -1.813666143804996e+01   -1.173674341437007e+02   
7.216000000000000e+09    -1.815811548775670e+01   -1.174923200701463e+02   
7.217000000000000e+09    -1.817749721325592e+01   -1.175549431841476e+02   
7.218000000000000e+09    -1.820840888519825e+01   -1.177440925901071e+02   
7.219000000000000e+09    -1.823086072322841e+01   -1.178792914733981e+02   
7.220000000000000e+09    -1.826606799266150e+01   -1.180753941826648e+02   
7.221000000000000e+09    -1.829275855652538e+01   -1.182160555881794e+02   
7.222000000000000e+09    -1.833099848644232e+01   -1.184899062295358e+02   
7.223000000000000e+09    -1.836435270040455e+01   -1.187035272681552e+02   
7.224000000000000e+09    -1.840900510484306e+01   -1.189309698426061e+02   
7.225000000000000e+09    -1.844623597354506e+01   -1.191570424078184e+02   
7.226000000000000e+09    -1.848258517529119e+01   -1.195208379113209e+02   
7.227000000000000e+09    -1.851674804491767e+01   -1.198873638102161e+02   
7.228000000000000e+09    -1.856095859707027e+01   -1.202006442010311e+02   
7.229000000000000e+09    -1.859229894515909e+01   -1.205604528553338e+02   
7.230000000000000e+09    -1.863603337080690e+01   -1.209379079835597e+02   
7.231000000000000e+09    -1.867632304067120e+01   -1.213750644926130e+02   
7.232000000000000e+09    -1.870614616764078e+01   -1.217473723182544e+02   
7.233000000000000e+09    -1.873743920631794e+01   -1.222030355790055e+02   
7.234000000000000e+09    -1.877001985373770e+01   -1.226642471475464e+02   
7.235000000000000e+09    -1.880686063117066e+01   -1.231699314721499e+02   
7.236000000000000e+09    -1.882524972620995e+01   -1.235674844493528e+02   
7.237000000000000e+09    -1.885816329650769e+01   -1.241119829422897e+02   
7.238000000000000e+09    -1.888592595575646e+01   -1.245761710169045e+02   
7.239000000000000e+09    -1.890087645601658e+01   -1.251516906583078e+02   
7.240000000000000e+09    -1.892753406817271e+01   -1.256684082601355e+02   
7.241000000000000e+09    -1.894383075789021e+01   -1.261608874005631e+02   
7.242000000000000e+09    -1.895751690720289e+01   -1.267313045716079e+02   
7.243000000000000e+09    -1.896391074084727e+01   -1.272603032395989e+02   
7.244000000000000e+09    -1.897955359305482e+01   -1.277830610728717e+02   
7.245000000000000e+09    -1.899313063021715e+01   -1.283269814090239e+02   
7.246000000000000e+09    -1.899654287956250e+01   -1.289226602701022e+02   
7.247000000000000e+09    -1.899882925207595e+01   -1.294617873068747e+02   
7.248000000000000e+09    -1.900554869176651e+01   -1.300073144374593e+02   
7.249000000000000e+09    -1.900766957440849e+01   -1.305130351963136e+02   
7.250000000000000e+09    -1.899816881477094e+01   -1.310719054278218e+02   
7.251000000000000e+09    -1.899560296053121e+01   -1.315966132476975e+02   
7.252000000000000e+09    -1.899206489886651e+01   -1.321036140536644e+02   
7.253000000000000e+09    -1.898132915855922e+01   -1.326511500438350e+02   
7.254000000000000e+09    -1.896423736359655e+01   -1.330744009673305e+02   
7.255000000000000e+09    -1.894995251871102e+01   -1.335879679941161e+02   
7.256000000000000e+09    -1.892806869933206e+01   -1.340898099714455e+02   
