[Version] 2.0
! Rohde & Schwarz Vector Network Analyzer
! Rohde-Schwarz,ZNL20-2Port,1323001220200009,1.71.1.10-23.02.1.238
! 
! Trace info:
! Nominal Param -> Actual Exported Buffer
! ---------------------------------------
! S11 -> S22

! Created: GMT+3 2024-09-24 16:40:32

# Hz S DB R 50

[Number of Ports] 1
[Number of Frequencies] 6001

[Network Data] 
! freq[Hz]               S11[mag dB]              S11[ang]                 
7.000000000000000e+09    -1.770396531381567e+01   -1.562102852517824e+02   
7.001000000000000e+09    -1.776467697782888e+01   -1.563616941768833e+02   
7.002000000000000e+09    -1.782736766840071e+01   -1.565195836177806e+02   
7.003000000000000e+09    -1.788287146197687e+01   -1.567926054263615e+02   
7.004000000000000e+09    -1.794687416983905e+01   -1.569675604347518e+02   
7.005000000000000e+09    -1.800707756203202e+01   -1.572029676983891e+02   
7.006000000000000e+09    -1.806877319762647e+01   -1.574790021939275e+02   
7.007000000000000e+09    -1.813229829982849e+01   -1.577844215435680e+02   
7.008000000000000e+09    -1.818681771759568e+01   -1.580931628299527e+02   
7.009000000000000e+09    -1.824723163352602e+01   -1.584116622772568e+02   
7.010000000000000e+09    -1.830096672590949e+01   -1.587469463393313e+02   
7.011000000000000e+09    -1.835699461578103e+01   -1.590856624104653e+02   
7.012000000000000e+09    -1.841172733108634e+01   -1.594704371819399e+02   
7.013000000000000e+09    -1.847168671924161e+01   -1.598972961134814e+02   
7.014000000000000e+09    -1.852321975949420e+01   -1.603490095189652e+02   
7.015000000000000e+09    -1.857004429426301e+01   -1.607674264694759e+02   
7.016000000000000e+09    -1.862419475897893e+01   -1.611908626712749e+02   
7.017000000000000e+09    -1.867231677370944e+01   -1.617025022709452e+02   
7.018000000000000e+09    -1.871998065568582e+01   -1.621425944791483e+02   
7.019000000000000e+09    -1.876330721071526e+01   -1.625409004896210e+02   
7.020000000000000e+09    -1.880658927900838e+01   -1.630704432458797e+02   
7.021000000000000e+09    -1.884642531082385e+01   -1.635295448219169e+02   
7.022000000000000e+09    -1.889339975082418e+01   -1.639888012525739e+02   
7.023000000000000e+09    -1.891876386666552e+01   -1.644480971110603e+02   
7.024000000000000e+09    -1.896151094132453e+01   -1.649253884008819e+02   
7.025000000000000e+09    -1.899294415484422e+01   -1.654591279038896e+02   
7.026000000000000e+09    -1.901185114949109e+01   -1.658775740210341e+02   
7.027000000000000e+09    -1.905354293219843e+01   -1.663217756204409e+02   
7.028000000000000e+09    -1.907587638703084e+01   -1.668941232683711e+02   
7.029000000000000e+09    -1.910761250781839e+01   -1.672957176524637e+02   
7.030000000000000e+09    -1.914554718594845e+01   -1.677141318895580e+02   
7.031000000000000e+09    -1.917241658758029e+01   -1.682073098636579e+02   
7.032000000000000e+09    -1.920331895234586e+01   -1.686293044908496e+02   
7.033000000000000e+09    -1.922833287537900e+01   -1.690483828509766e+02   
7.034000000000000e+09    -1.925351669382779e+01   -1.694636141984128e+02   
7.035000000000000e+09    -1.928070361133777e+01   -1.697499911876212e+02   
7.036000000000000e+09    -1.931126407157892e+01   -1.701245724683440e+02   
7.037000000000000e+09    -1.932538812067458e+01   -1.704961278789499e+02   
7.038000000000000e+09    -1.935043325260465e+01   -1.708137070290350e+02   
7.039000000000000e+09    -1.937914801681493e+01   -1.711480626392767e+02   
7.040000000000000e+09    -1.939878194656899e+01   -1.714335409478253e+02   
7.041000000000000e+09    -1.942570445625990e+01   -1.716809691649219e+02   
7.042000000000000e+09    -1.945689897793459e+01   -1.719414927328805e+02   
7.043000000000000e+09    -1.947474567092894e+01   -1.721703771066917e+02   
7.044000000000000e+09    -1.948767590744092e+01   -1.724053309029419e+02   
7.045000000000000e+09    -1.952247088275173e+01   -1.726124150012184e+02   
7.046000000000000e+09    -1.954250088869794e+01   -1.727401405673254e+02   
7.047000000000000e+09    -1.957088250701063e+01   -1.728138727327018e+02   
7.048000000000000e+09    -1.960083851073454e+01   -1.729320944808714e+02   
7.049000000000000e+09    -1.962016402209484e+01   -1.729583939908940e+02   
7.050000000000000e+09    -1.965283069689114e+01   -1.729806704566688e+02   
7.051000000000000e+09    -1.968297948739900e+01   -1.730327305988321e+02   
7.052000000000000e+09    -1.972057453257129e+01   -1.730289544267116e+02   
7.053000000000000e+09    -1.974657003112783e+01   -1.729367651075803e+02   
7.054000000000000e+09    -1.978172523265211e+01   -1.728368709265044e+02   
7.055000000000000e+09    -1.981482515879006e+01   -1.727346912446463e+02   
7.056000000000000e+09    -1.983344600386846e+01   -1.725655185518412e+02   
7.057000000000000e+09    -1.986319132681848e+01   -1.724253136034114e+02   
7.058000000000000e+09    -1.991090458389440e+01   -1.722046712370160e+02   
7.059000000000000e+09    -1.995072471870195e+01   -1.718981500155109e+02   
7.060000000000000e+09    -1.998012181923617e+01   -1.717168076029440e+02   
7.061000000000000e+09    -2.002024165915918e+01   -1.713666453923240e+02   
7.062000000000000e+09    -2.006469771119581e+01   -1.710136635523159e+02   
7.063000000000000e+09    -2.010691222793712e+01   -1.706159934890925e+02   
7.064000000000000e+09    -2.015594065260542e+01   -1.701633108111852e+02   
7.065000000000000e+09    -2.018980950270326e+01   -1.697860629578480e+02   
7.066000000000000e+09    -2.022627565101529e+01   -1.692985534240286e+02   
7.067000000000000e+09    -2.028449043781154e+01   -1.687598093215403e+02   
7.068000000000000e+09    -2.033046927716401e+01   -1.682874036406509e+02   
7.069000000000000e+09    -2.037919078138515e+01   -1.678489021910311e+02   
7.070000000000000e+09    -2.043304386655758e+01   -1.671717634546973e+02   
7.071000000000000e+09    -2.048775915228632e+01   -1.666028046762908e+02   
7.072000000000000e+09    -2.054474133995212e+01   -1.660691046566014e+02   
7.073000000000000e+09    -2.059709852711211e+01   -1.654805983007231e+02   
7.074000000000000e+09    -2.066028816932771e+01   -1.647982122706763e+02   
7.075000000000000e+09    -2.072045856655306e+01   -1.641168806333150e+02   
7.076000000000000e+09    -2.077906835615434e+01   -1.633742366846950e+02   
7.077000000000000e+09    -2.085000477834524e+01   -1.626635481457652e+02   
7.078000000000000e+09    -2.090376758504637e+01   -1.619697561540965e+02   
7.079000000000000e+09    -2.097916775671866e+01   -1.612596950593651e+02   
7.080000000000000e+09    -2.104441782754153e+01   -1.605332613675318e+02   
7.081000000000000e+09    -2.111221376622884e+01   -1.597761262725085e+02   
7.082000000000000e+09    -2.118428626063778e+01   -1.590175175908878e+02   
7.083000000000000e+09    -2.126548995575993e+01   -1.581934238475536e+02   
7.084000000000000e+09    -2.134094524999813e+01   -1.573909846453353e+02   
7.085000000000000e+09    -2.141407890717103e+01   -1.566271852641462e+02   
7.086000000000000e+09    -2.148146208894698e+01   -1.558399516818336e+02   
7.087000000000000e+09    -2.157133076154260e+01   -1.550650282705060e+02   
7.088000000000000e+09    -2.165015831677787e+01   -1.542672281646457e+02   
7.089000000000000e+09    -2.173203971923972e+01   -1.533986642998285e+02   
7.090000000000000e+09    -2.181893415390781e+01   -1.525203995841180e+02   
7.091000000000000e+09    -2.190416948548775e+01   -1.517304842345343e+02   
7.092000000000000e+09    -2.198400827085816e+01   -1.509345134005429e+02   
7.093000000000000e+09    -2.206031266150902e+01   -1.500996390610335e+02   
7.094000000000000e+09    -2.215119463149635e+01   -1.493169512797509e+02   
7.095000000000000e+09    -2.222669710084207e+01   -1.484716475349427e+02   
7.096000000000000e+09    -2.230732585574304e+01   -1.476388379231882e+02   
7.097000000000000e+09    -2.238602492591975e+01   -1.469529399598946e+02   
7.098000000000000e+09    -2.247154371897980e+01   -1.461202505115636e+02   
7.099000000000000e+09    -2.256401296285080e+01   -1.454251826435166e+02   
7.100000000000000e+09    -2.263592040146295e+01   -1.446384012834997e+02   
7.101000000000000e+09    -2.272486419801234e+01   -1.438974271383474e+02   
7.102000000000000e+09    -2.282671732173432e+01   -1.431277502759195e+02   
7.103000000000000e+09    -2.290173158940060e+01   -1.424520114481354e+02   
7.104000000000000e+09    -2.298630672166979e+01   -1.417246777565869e+02   
7.105000000000000e+09    -2.307818963930941e+01   -1.409594437560310e+02   
7.106000000000000e+09    -2.316834344637130e+01   -1.402921272851349e+02   
7.107000000000000e+09    -2.324465034157820e+01   -1.395609729479967e+02   
7.108000000000000e+09    -2.330965341945696e+01   -1.389199735429585e+02   
7.109000000000000e+09    -2.339533607281116e+01   -1.382660211894880e+02   
7.110000000000000e+09    -2.347130626269691e+01   -1.376499576657336e+02   
7.111000000000000e+09    -2.356240051569252e+01   -1.370845932070311e+02   
7.112000000000000e+09    -2.363694024576360e+01   -1.365337067523899e+02   
7.113000000000000e+09    -2.373581425452600e+01   -1.359594657506719e+02   
7.114000000000000e+09    -2.380442158558008e+01   -1.354655862020452e+02   
7.115000000000000e+09    -2.389425437701260e+01   -1.349179408758070e+02   
7.116000000000000e+09    -2.398144230742211e+01   -1.344054179625164e+02   
7.117000000000000e+09    -2.404847066451140e+01   -1.339783257688915e+02   
7.118000000000000e+09    -2.412902000780778e+01   -1.335333140028681e+02   
7.119000000000000e+09    -2.421342820697429e+01   -1.331771746593338e+02   
7.120000000000000e+09    -2.428899165478036e+01   -1.327053343161850e+02   
7.121000000000000e+09    -2.437454197308227e+01   -1.323157674869365e+02   
7.122000000000000e+09    -2.443487224129996e+01   -1.319715542716177e+02   
7.123000000000000e+09    -2.450857944697109e+01   -1.316243604380676e+02   
7.124000000000000e+09    -2.457072870701087e+01   -1.314001834541777e+02   
7.125000000000000e+09    -2.465070159969863e+01   -1.311421209043133e+02   
7.126000000000000e+09    -2.468054741298891e+01   -1.307446609428739e+02   
7.127000000000000e+09    -2.474138455681014e+01   -1.304979212064349e+02   
7.128000000000000e+09    -2.480587929038433e+01   -1.304049552075403e+02   
7.129000000000000e+09    -2.483023586523829e+01   -1.300690389338966e+02   
7.130000000000000e+09    -2.486876104171095e+01   -1.298929717478144e+02   
7.131000000000000e+09    -2.491150168637972e+01   -1.297568320576683e+02   
7.132000000000000e+09    -2.496608178145535e+01   -1.296859109272822e+02   
7.133000000000000e+09    -2.495254723543885e+01   -1.295982725146512e+02   
7.134000000000000e+09    -2.499693869204560e+01   -1.295548492694830e+02   
7.135000000000000e+09    -2.498610116037748e+01   -1.294666119712895e+02   
7.136000000000000e+09    -2.499516951289648e+01   -1.293506542399778e+02   
7.137000000000000e+09    -2.498393708948788e+01   -1.292759216335598e+02   
7.138000000000000e+09    -2.496089289159757e+01   -1.293545623390235e+02   
7.139000000000000e+09    -2.494103803705531e+01   -1.292151203715030e+02   
7.140000000000000e+09    -2.492603188681084e+01   -1.292755695304037e+02   
7.141000000000000e+09    -2.488358465109014e+01   -1.292998806696851e+02   
7.142000000000000e+09    -2.484058282253151e+01   -1.292367718699620e+02   
7.143000000000000e+09    -2.480681205924245e+01   -1.291277025872533e+02   
7.144000000000000e+09    -2.473663996858357e+01   -1.290485158046330e+02   
7.145000000000000e+09    -2.469039273272896e+01   -1.290410387150391e+02   
7.146000000000000e+09    -2.461018055163127e+01   -1.289426853314802e+02   
7.147000000000000e+09    -2.451956706245745e+01   -1.289707505646819e+02   
7.148000000000000e+09    -2.443348957775633e+01   -1.288702451076231e+02   
7.149000000000000e+09    -2.434500580228153e+01   -1.288098993502980e+02   
7.150000000000000e+09    -2.424454476438434e+01   -1.286109639130833e+02   
7.151000000000000e+09    -2.413791665969866e+01   -1.285703706518545e+02   
7.152000000000000e+09    -2.402916081407325e+01   -1.285212487290480e+02   
7.153000000000000e+09    -2.392628351965875e+01   -1.283767720365775e+02   
7.154000000000000e+09    -2.381406159143020e+01   -1.281754088472304e+02   
7.155000000000000e+09    -2.369766659537624e+01   -1.279786460814738e+02   
7.156000000000000e+09    -2.354466852721854e+01   -1.278444350403194e+02   
7.157000000000000e+09    -2.343643780808944e+01   -1.276134065713130e+02   
7.158000000000000e+09    -2.332367561414201e+01   -1.273963425941076e+02   
7.159000000000000e+09    -2.318321563318349e+01   -1.270386484881870e+02   
7.160000000000000e+09    -2.305921090663924e+01   -1.268347924241212e+02   
7.161000000000000e+09    -2.292206981332264e+01   -1.265904841390133e+02   
7.162000000000000e+09    -2.277758761869723e+01   -1.263434929642189e+02   
7.163000000000000e+09    -2.264371709115974e+01   -1.260251848903786e+02   
7.164000000000000e+09    -2.251079870358499e+01   -1.257540400252452e+02   
7.165000000000000e+09    -2.238389168599834e+01   -1.254517752544350e+02   
7.166000000000000e+09    -2.223471072260968e+01   -1.250818690676444e+02   
7.167000000000000e+09    -2.210787198585175e+01   -1.247598338347930e+02   
7.168000000000000e+09    -2.196451077440448e+01   -1.243600806269590e+02   
7.169000000000000e+09    -2.183532563518177e+01   -1.240737162746762e+02   
7.170000000000000e+09    -2.169171176632723e+01   -1.236359797510366e+02   
7.171000000000000e+09    -2.156510133174065e+01   -1.233520086993631e+02   
7.172000000000000e+09    -2.143367069885043e+01   -1.229567057244365e+02   
7.173000000000000e+09    -2.131890863954524e+01   -1.226107673165400e+02   
7.174000000000000e+09    -2.118800395104597e+01   -1.222463109378483e+02   
7.175000000000000e+09    -2.105993057450125e+01   -1.218588417506668e+02   
7.176000000000000e+09    -2.094073881596927e+01   -1.214914427126131e+02   
7.177000000000000e+09    -2.081291069924117e+01   -1.210650324384104e+02   
7.178000000000000e+09    -2.070124312791707e+01   -1.207084760878871e+02   
7.179000000000000e+09    -2.057379831663083e+01   -1.203433380435955e+02   
7.180000000000000e+09    -2.045184127808808e+01   -1.199242293681590e+02   
7.181000000000000e+09    -2.033830139005527e+01   -1.196576303756079e+02   
7.182000000000000e+09    -2.022519174387245e+01   -1.191895908573334e+02   
7.183000000000000e+09    -2.010383007678651e+01   -1.188548213086807e+02   
7.184000000000000e+09    -2.000519353794209e+01   -1.185806709559469e+02   
7.185000000000000e+09    -1.989918123075251e+01   -1.181959647709667e+02   
7.186000000000000e+09    -1.980133012982506e+01   -1.179169077228174e+02   
7.187000000000000e+09    -1.970427695597175e+01   -1.175967827093701e+02   
7.188000000000000e+09    -1.960065890274839e+01   -1.172646312017176e+02   
7.189000000000000e+09    -1.951329001591053e+01   -1.169481751692117e+02   
7.190000000000000e+09    -1.942152864301977e+01   -1.166180603976197e+02   
7.191000000000000e+09    -1.932511250740314e+01   -1.163610534623467e+02   
7.192000000000000e+09    -1.924796810592780e+01   -1.160090424028508e+02   
7.193000000000000e+09    -1.916221100694078e+01   -1.157366993590099e+02   
7.194000000000000e+09    -1.909154841487895e+01   -1.154332500224798e+02   
7.195000000000000e+09    -1.901641045334703e+01   -1.151786509455475e+02   
7.196000000000000e+09    -1.894556457266791e+01   -1.148347153530796e+02   
7.197000000000000e+09    -1.887850455997168e+01   -1.146328463455284e+02   
7.198000000000000e+09    -1.880493570933159e+01   -1.143974164275441e+02   
7.199000000000000e+09    -1.874429738047997e+01   -1.141597705022422e+02   
7.200000000000000e+09    -1.868958780833466e+01   -1.139494194941444e+02   
7.201000000000000e+09    -1.863621291425128e+01   -1.137007885538757e+02   
7.202000000000000e+09    -1.858975763540975e+01   -1.134928644152849e+02   
7.203000000000000e+09    -1.854418926997145e+01   -1.132981110533347e+02   
7.204000000000000e+09    -1.851263430553073e+01   -1.131278434156121e+02   
7.205000000000000e+09    -1.847211275023129e+01   -1.129032083438305e+02   
7.206000000000000e+09    -1.844860607743984e+01   -1.128288060115295e+02   
7.207000000000000e+09    -1.842570401535930e+01   -1.126223627751608e+02   
7.208000000000000e+09    -1.838822688339422e+01   -1.125076527112052e+02   
7.209000000000000e+09    -1.837627881523299e+01   -1.124349479088232e+02   
7.210000000000000e+09    -1.835850156939774e+01   -1.122910050252885e+02   
7.211000000000000e+09    -1.834235321916501e+01   -1.122255042657373e+02   
7.212000000000000e+09    -1.834733419685458e+01   -1.121569106869244e+02   
7.213000000000000e+09    -1.834551847991949e+01   -1.121226297348713e+02   
7.214000000000000e+09    -1.833348399635186e+01   -1.121110409823730e+02   
7.215000000000000e+09    -1.833716278894577e+01   -1.121879970776532e+02   
7.216000000000000e+09    -1.833889565368944e+01   -1.122157891422139e+02   
7.217000000000000e+09    -1.833633980110876e+01   -1.123206107280472e+02   
7.218000000000000e+09    -1.835621419464813e+01   -1.124231642080269e+02   
7.219000000000000e+09    -1.835943221890092e+01   -1.125143640352884e+02   
7.220000000000000e+09    -1.837606476306955e+01   -1.126652379965948e+02   
7.221000000000000e+09    -1.839433275873589e+01   -1.128299344755361e+02   
7.222000000000000e+09    -1.840870195254954e+01   -1.130116934791849e+02   
7.223000000000000e+09    -1.842785795728424e+01   -1.132849108229966e+02   
7.224000000000000e+09    -1.845410695460139e+01   -1.134952162789458e+02   
7.225000000000000e+09    -1.847388869603059e+01   -1.137387192785168e+02   
7.226000000000000e+09    -1.850579767617923e+01   -1.140550480812922e+02   
7.227000000000000e+09    -1.852609811221760e+01   -1.143856569055768e+02   
7.228000000000000e+09    -1.855642347238162e+01   -1.147288984228084e+02   
7.229000000000000e+09    -1.857416360032403e+01   -1.150435232414863e+02   
7.230000000000000e+09    -1.859252150573308e+01   -1.154168476145377e+02   
7.231000000000000e+09    -1.862321126643450e+01   -1.158406478031193e+02   
7.232000000000000e+09    -1.863682346398475e+01   -1.162644818894306e+02   
7.233000000000000e+09    -1.866008406004386e+01   -1.167016739713497e+02   
7.234000000000000e+09    -1.867756223767958e+01   -1.171074117758698e+02   
7.235000000000000e+09    -1.870246607147211e+01   -1.176713642132153e+02   
7.236000000000000e+09    -1.871346388899716e+01   -1.180325812070889e+02   
7.237000000000000e+09    -1.873378287651811e+01   -1.186030053245801e+02   
7.238000000000000e+09    -1.875199912814525e+01   -1.190636546364848e+02   
7.239000000000000e+09    -1.875625496049844e+01   -1.196605839672524e+02   
7.240000000000000e+09    -1.877584924361021e+01   -1.201432020013831e+02   
7.241000000000000e+09    -1.877437259401287e+01   -1.206732496665446e+02   
7.242000000000000e+09    -1.878697874774699e+01   -1.212687650530782e+02   
7.243000000000000e+09    -1.878428471030912e+01   -1.218500278452813e+02   
7.244000000000000e+09    -1.878989528818962e+01   -1.223561740152926e+02   
7.245000000000000e+09    -1.879987156001836e+01   -1.229528729865033e+02   
7.246000000000000e+09    -1.878845548145208e+01   -1.235106506951753e+02   
7.247000000000000e+09    -1.878753455219402e+01   -1.241342252952509e+02   
7.248000000000000e+09    -1.877890014694677e+01   -1.247235257418914e+02   
7.249000000000000e+09    -1.877149732755466e+01   -1.252328296556670e+02   
7.250000000000000e+09    -1.875929874657839e+01   -1.258577921372335e+02   
7.251000000000000e+09    -1.875303186079023e+01   -1.264481935652097e+02   
7.252000000000000e+09    -1.873172553017518e+01   -1.269441527015861e+02   
7.253000000000000e+09    -1.872536025252824e+01   -1.274943197606797e+02   
7.254000000000000e+09    -1.869073453951516e+01   -1.279719652716741e+02   
7.255000000000000e+09    -1.867074254767990e+01   -1.285322400601468e+02   
7.256000000000000e+09    -1.865384788305427e+01   -1.290619207900782e+02   
