[Version] 2.0
! Rohde & Schwarz Vector Network Analyzer
! Rohde-Schwarz,ZNL20-2Port,1323001220200009,1.71.1.10-23.02.1.238
! 
! Trace info:
! Nominal Param -> Actual Exported Buffer
! ---------------------------------------
! S11 -> S22

! Created: GMT+3 2024-09-24 16:40:20

# Hz S DB R 50

[Number of Ports] 1
[Number of Frequencies] 6001

[Network Data] 
! freq[Hz]               S11[mag dB]              S11[ang]                 
7.000000000000000e+09    -1.775006524634724e+01   -1.572646073144500e+02   
7.001000000000000e+09    -1.781140846610513e+01   -1.574796267272157e+02   
7.002000000000000e+09    -1.787669965274342e+01   -1.576739348959523e+02   
7.003000000000000e+09    -1.794041662938685e+01   -1.578822721895351e+02   
7.004000000000000e+09    -1.800884581170861e+01   -1.581110061408885e+02   
7.005000000000000e+09    -1.807886247945467e+01   -1.583500671804831e+02   
7.006000000000000e+09    -1.814033163328148e+01   -1.586064848013874e+02   
7.007000000000000e+09    -1.820440830354771e+01   -1.589141710082859e+02   
7.008000000000000e+09    -1.826627003870636e+01   -1.592339367304907e+02   
7.009000000000000e+09    -1.833024024502391e+01   -1.595862771372506e+02   
7.010000000000000e+09    -1.839274522767351e+01   -1.599479182243605e+02   
7.011000000000000e+09    -1.846024048214758e+01   -1.602969076753005e+02   
7.012000000000000e+09    -1.851673378310290e+01   -1.607065868096676e+02   
7.013000000000000e+09    -1.857610513363114e+01   -1.611453980827383e+02   
7.014000000000000e+09    -1.863977332157864e+01   -1.615279421938718e+02   
7.015000000000000e+09    -1.869572558031651e+01   -1.619755182192726e+02   
7.016000000000000e+09    -1.875450159982269e+01   -1.624370561979237e+02   
7.017000000000000e+09    -1.880482252761880e+01   -1.628794281973925e+02   
7.018000000000000e+09    -1.886203600322282e+01   -1.633549840723019e+02   
7.019000000000000e+09    -1.890822501035099e+01   -1.637555766647308e+02   
7.020000000000000e+09    -1.894901474801166e+01   -1.642733808764059e+02   
7.021000000000000e+09    -1.900247558381579e+01   -1.647233384361946e+02   
7.022000000000000e+09    -1.905381970137985e+01   -1.651805500803012e+02   
7.023000000000000e+09    -1.909543908538942e+01   -1.656606242530009e+02   
7.024000000000000e+09    -1.913181942950107e+01   -1.660983446516385e+02   
7.025000000000000e+09    -1.917305589165110e+01   -1.666162735664843e+02   
7.026000000000000e+09    -1.920958798452794e+01   -1.670592039964488e+02   
7.027000000000000e+09    -1.924863521545081e+01   -1.674849377207819e+02   
7.028000000000000e+09    -1.928056559744016e+01   -1.679419550870532e+02   
7.029000000000000e+09    -1.932519671582391e+01   -1.683722173587410e+02   
7.030000000000000e+09    -1.935250138021755e+01   -1.687892298789930e+02   
7.031000000000000e+09    -1.939026423145894e+01   -1.692567642238238e+02   
7.032000000000000e+09    -1.941822502757840e+01   -1.696144605217939e+02   
7.033000000000000e+09    -1.944997063930603e+01   -1.700665111012292e+02   
7.034000000000000e+09    -1.948759651738915e+01   -1.704281691923616e+02   
7.035000000000000e+09    -1.951477735959214e+01   -1.707211784932912e+02   
7.036000000000000e+09    -1.955169106394851e+01   -1.709959859432262e+02   
7.037000000000000e+09    -1.957930980839482e+01   -1.712762289962350e+02   
7.038000000000000e+09    -1.959519548277410e+01   -1.716057511485766e+02   
7.039000000000000e+09    -1.962846816013769e+01   -1.719241684779510e+02   
7.040000000000000e+09    -1.964417173044684e+01   -1.721148902745635e+02   
7.041000000000000e+09    -1.968220547839968e+01   -1.723759002131170e+02   
7.042000000000000e+09    -1.971018098711205e+01   -1.726081831700309e+02   
7.043000000000000e+09    -1.973411165971979e+01   -1.727892071887938e+02   
7.044000000000000e+09    -1.974870436527336e+01   -1.729486865698723e+02   
7.045000000000000e+09    -1.978693579806490e+01   -1.730711645769004e+02   
7.046000000000000e+09    -1.981033517687214e+01   -1.731648926512744e+02   
7.047000000000000e+09    -1.983829954513730e+01   -1.732603896869992e+02   
7.048000000000000e+09    -1.987721328177513e+01   -1.732822736061782e+02   
7.049000000000000e+09    -1.989826806888898e+01   -1.732624886772891e+02   
7.050000000000000e+09    -1.992615627320643e+01   -1.731978058932259e+02   
7.051000000000000e+09    -1.995594240997513e+01   -1.732157863001653e+02   
7.052000000000000e+09    -1.999548319364104e+01   -1.731547206543164e+02   
7.053000000000000e+09    -2.000943049852438e+01   -1.730114234540443e+02   
7.054000000000000e+09    -2.004083186517765e+01   -1.728156268983279e+02   
7.055000000000000e+09    -2.008176006040008e+01   -1.726576604646594e+02   
7.056000000000000e+09    -2.010706459941046e+01   -1.724382128595815e+02   
7.057000000000000e+09    -2.012748883355432e+01   -1.722333415292963e+02   
7.058000000000000e+09    -2.017987189831585e+01   -1.719673444640941e+02   
7.059000000000000e+09    -2.021704138610304e+01   -1.716279570622906e+02   
7.060000000000000e+09    -2.023105182024974e+01   -1.713812695607230e+02   
7.061000000000000e+09    -2.028338100531074e+01   -1.709681849166322e+02   
7.062000000000000e+09    -2.030901518634407e+01   -1.706142946120191e+02   
7.063000000000000e+09    -2.034598535143749e+01   -1.701737002102211e+02   
7.064000000000000e+09    -2.038877144122307e+01   -1.696895839875327e+02   
7.065000000000000e+09    -2.042555600841582e+01   -1.692345301475361e+02   
7.066000000000000e+09    -2.045855177733003e+01   -1.687534482465444e+02   
7.067000000000000e+09    -2.051301680825577e+01   -1.681322043364189e+02   
7.068000000000000e+09    -2.055749208626864e+01   -1.676070571119529e+02   
7.069000000000000e+09    -2.060450381137084e+01   -1.670845985472541e+02   
7.070000000000000e+09    -2.065762042525537e+01   -1.664071513301394e+02   
7.071000000000000e+09    -2.070749943897204e+01   -1.658309286844215e+02   
7.072000000000000e+09    -2.076253299235471e+01   -1.651919508738574e+02   
7.073000000000000e+09    -2.080821465830611e+01   -1.645788621955062e+02   
7.074000000000000e+09    -2.085576371274174e+01   -1.638607911079748e+02   
7.075000000000000e+09    -2.092203156439629e+01   -1.632019465108711e+02   
7.076000000000000e+09    -2.097628055511027e+01   -1.624034176308694e+02   
7.077000000000000e+09    -2.104219910297484e+01   -1.616627345376242e+02   
7.078000000000000e+09    -2.110056613749598e+01   -1.609322567636823e+02   
7.079000000000000e+09    -2.116319306018335e+01   -1.601633260673532e+02   
7.080000000000000e+09    -2.122847616173764e+01   -1.594105541523309e+02   
7.081000000000000e+09    -2.130626514308025e+01   -1.586490370487581e+02   
7.082000000000000e+09    -2.137441234347158e+01   -1.577924807262377e+02   
7.083000000000000e+09    -2.143403661208943e+01   -1.570008474212714e+02   
7.084000000000000e+09    -2.150485474171926e+01   -1.561236845628015e+02   
7.085000000000000e+09    -2.157576169667400e+01   -1.552711056786530e+02   
7.086000000000000e+09    -2.164469484548517e+01   -1.544746581889182e+02   
7.087000000000000e+09    -2.172250951387496e+01   -1.536327868898416e+02   
7.088000000000000e+09    -2.179796317388849e+01   -1.528120398327902e+02   
7.089000000000000e+09    -2.187660490241970e+01   -1.518619606193172e+02   
7.090000000000000e+09    -2.194738790739730e+01   -1.510734381225548e+02   
7.091000000000000e+09    -2.203105651223974e+01   -1.502375079087560e+02   
7.092000000000000e+09    -2.211139907094403e+01   -1.493321222411210e+02   
7.093000000000000e+09    -2.218186277888405e+01   -1.484847672448785e+02   
7.094000000000000e+09    -2.226823670619165e+01   -1.476051349232565e+02   
7.095000000000000e+09    -2.234888711108604e+01   -1.467807874699451e+02   
7.096000000000000e+09    -2.240999475923217e+01   -1.458771606982699e+02   
7.097000000000000e+09    -2.249343103999114e+01   -1.451502546115003e+02   
7.098000000000000e+09    -2.257017173891435e+01   -1.442891809369299e+02   
7.099000000000000e+09    -2.263934900721600e+01   -1.435157742137125e+02   
7.100000000000000e+09    -2.270969695084310e+01   -1.427307514140437e+02   
7.101000000000000e+09    -2.279936208358128e+01   -1.418911205039640e+02   
7.102000000000000e+09    -2.287323211418614e+01   -1.411892556186944e+02   
7.103000000000000e+09    -2.296479510977396e+01   -1.404116029918963e+02   
7.104000000000000e+09    -2.303565125794111e+01   -1.396228627822034e+02   
7.105000000000000e+09    -2.310946138565934e+01   -1.389096533369170e+02   
7.106000000000000e+09    -2.318338704486491e+01   -1.382483505942008e+02   
7.107000000000000e+09    -2.327104450144660e+01   -1.374714840870530e+02   
7.108000000000000e+09    -2.333413883757698e+01   -1.368401599405397e+02   
7.109000000000000e+09    -2.341554554993253e+01   -1.361454581951544e+02   
7.110000000000000e+09    -2.348168947014889e+01   -1.354674452355238e+02   
7.111000000000000e+09    -2.356926931331738e+01   -1.348855076923411e+02   
7.112000000000000e+09    -2.363227078681167e+01   -1.342559637402335e+02   
7.113000000000000e+09    -2.371748539101438e+01   -1.337245807274375e+02   
7.114000000000000e+09    -2.379718557738655e+01   -1.331802318219221e+02   
7.115000000000000e+09    -2.386513359362706e+01   -1.325773931193499e+02   
7.116000000000000e+09    -2.394473703308361e+01   -1.320612095781856e+02   
7.117000000000000e+09    -2.400774675543093e+01   -1.315419808103291e+02   
7.118000000000000e+09    -2.406902207959726e+01   -1.311126648138577e+02   
7.119000000000000e+09    -2.414314153865039e+01   -1.306118434754822e+02   
7.120000000000000e+09    -2.422024903555431e+01   -1.301688622325623e+02   
7.121000000000000e+09    -2.426840578810929e+01   -1.297654361694726e+02   
7.122000000000000e+09    -2.433129314210071e+01   -1.294010514623957e+02   
7.123000000000000e+09    -2.439687192541413e+01   -1.290046215973818e+02   
7.124000000000000e+09    -2.444688187899370e+01   -1.286219626238287e+02   
7.125000000000000e+09    -2.451634270416487e+01   -1.283088387909372e+02   
7.126000000000000e+09    -2.453805422827326e+01   -1.280852233997548e+02   
7.127000000000000e+09    -2.458987001201424e+01   -1.278029801093436e+02   
7.128000000000000e+09    -2.461675692159390e+01   -1.277428322000707e+02   
7.129000000000000e+09    -2.463732784830548e+01   -1.273393313539901e+02   
7.130000000000000e+09    -2.468461601576253e+01   -1.272093994851897e+02   
7.131000000000000e+09    -2.469570051118957e+01   -1.269950584491463e+02   
7.132000000000000e+09    -2.472725582417325e+01   -1.267668209696214e+02   
7.133000000000000e+09    -2.471902642726729e+01   -1.267092577904316e+02   
7.134000000000000e+09    -2.473467672215840e+01   -1.265738772042760e+02   
7.135000000000000e+09    -2.471710723270252e+01   -1.266040000015955e+02   
7.136000000000000e+09    -2.471521423782395e+01   -1.265399188474242e+02   
7.137000000000000e+09    -2.469236701373366e+01   -1.264831656223780e+02   
7.138000000000000e+09    -2.465800753674987e+01   -1.264765673102686e+02   
7.139000000000000e+09    -2.462423635801397e+01   -1.264550351475113e+02   
7.140000000000000e+09    -2.459126592820365e+01   -1.266296305625785e+02   
7.141000000000000e+09    -2.453428709893263e+01   -1.266652897299913e+02   
7.142000000000000e+09    -2.448039932181045e+01   -1.266450714704540e+02   
7.143000000000000e+09    -2.443182564850215e+01   -1.265845432453040e+02   
7.144000000000000e+09    -2.436350137406516e+01   -1.265842960012989e+02   
7.145000000000000e+09    -2.429871653593627e+01   -1.267495289190018e+02   
7.146000000000000e+09    -2.420071232086902e+01   -1.266712047061484e+02   
7.147000000000000e+09    -2.410757648982802e+01   -1.267650016988700e+02   
7.148000000000000e+09    -2.402364536609877e+01   -1.267632652013477e+02   
7.149000000000000e+09    -2.393187917617136e+01   -1.267634900962980e+02   
7.150000000000000e+09    -2.382727576106258e+01   -1.267159934758615e+02   
7.151000000000000e+09    -2.371647870674537e+01   -1.267274881876681e+02   
7.152000000000000e+09    -2.361101809124170e+01   -1.266731711920032e+02   
7.153000000000000e+09    -2.350381655065180e+01   -1.265849086785390e+02   
7.154000000000000e+09    -2.339490777951405e+01   -1.265487457236034e+02   
7.155000000000000e+09    -2.325382835320308e+01   -1.264147180969258e+02   
7.156000000000000e+09    -2.311866872042621e+01   -1.263376174751653e+02   
7.157000000000000e+09    -2.299245607453200e+01   -1.261907352392444e+02   
7.158000000000000e+09    -2.287982622624035e+01   -1.260790542608806e+02   
7.159000000000000e+09    -2.273308421722817e+01   -1.259200993642032e+02   
7.160000000000000e+09    -2.260814387024868e+01   -1.257496153655569e+02   
7.161000000000000e+09    -2.246748091792154e+01   -1.255857499117959e+02   
7.162000000000000e+09    -2.233455269400223e+01   -1.254265921330003e+02   
7.163000000000000e+09    -2.219319973808858e+01   -1.252532958948003e+02   
7.164000000000000e+09    -2.206389734126070e+01   -1.249954864712199e+02   
7.165000000000000e+09    -2.193727241682704e+01   -1.247285805701442e+02   
7.166000000000000e+09    -2.180361952783243e+01   -1.245233638855745e+02   
7.167000000000000e+09    -2.166687372146096e+01   -1.242829326967781e+02   
7.168000000000000e+09    -2.153301146476611e+01   -1.240466951213649e+02   
7.169000000000000e+09    -2.140729740960241e+01   -1.237574687576020e+02   
7.170000000000000e+09    -2.126951811700397e+01   -1.234926739593063e+02   
7.171000000000000e+09    -2.114846059539283e+01   -1.232598278708354e+02   
7.172000000000000e+09    -2.101661716877152e+01   -1.229599991267695e+02   
7.173000000000000e+09    -2.090403639887413e+01   -1.226698793329329e+02   
7.174000000000000e+09    -2.077902006528856e+01   -1.223597096806454e+02   
7.175000000000000e+09    -2.065790030504361e+01   -1.221019340526526e+02   
7.176000000000000e+09    -2.053756756249049e+01   -1.218087078752462e+02   
7.177000000000000e+09    -2.042339026117331e+01   -1.215149005965712e+02   
7.178000000000000e+09    -2.029976955498480e+01   -1.211515584537401e+02   
7.179000000000000e+09    -2.018640992091015e+01   -1.209004313350742e+02   
7.180000000000000e+09    -2.007414775731783e+01   -1.205912653096451e+02   
7.181000000000000e+09    -1.996047505707402e+01   -1.203436274182504e+02   
7.182000000000000e+09    -1.986356301244363e+01   -1.199794425171905e+02   
7.183000000000000e+09    -1.975301530957690e+01   -1.197097781422310e+02   
7.184000000000000e+09    -1.965241101360238e+01   -1.195140758774407e+02   
7.185000000000000e+09    -1.955818044489391e+01   -1.191464522040841e+02   
7.186000000000000e+09    -1.946816841550355e+01   -1.189429351994527e+02   
7.187000000000000e+09    -1.937404089572940e+01   -1.186627916461599e+02   
7.188000000000000e+09    -1.928017859820260e+01   -1.184094930185233e+02   
7.189000000000000e+09    -1.919863944572845e+01   -1.181195052173634e+02   
7.190000000000000e+09    -1.912283300998297e+01   -1.178381455471833e+02   
7.191000000000000e+09    -1.903065759104003e+01   -1.176417240791101e+02   
7.192000000000000e+09    -1.895722002436058e+01   -1.174176458757205e+02   
7.193000000000000e+09    -1.887937234147364e+01   -1.171543351458490e+02   
7.194000000000000e+09    -1.881699974542978e+01   -1.169113836107179e+02   
7.195000000000000e+09    -1.875712019884573e+01   -1.166874892738690e+02   
7.196000000000000e+09    -1.869071894742685e+01   -1.164311740758665e+02   
7.197000000000000e+09    -1.862515090351302e+01   -1.162033494905757e+02   
7.198000000000000e+09    -1.856974557646842e+01   -1.160354442357224e+02   
7.199000000000000e+09    -1.851554832913615e+01   -1.157708958243554e+02   
7.200000000000000e+09    -1.847064021964409e+01   -1.156069956547445e+02   
7.201000000000000e+09    -1.842898660708693e+01   -1.153844403162452e+02   
7.202000000000000e+09    -1.838790585710154e+01   -1.152325536258910e+02   
7.203000000000000e+09    -1.834968948278516e+01   -1.150711904142344e+02   
7.204000000000000e+09    -1.832453354995834e+01   -1.149254953833198e+02   
7.205000000000000e+09    -1.829955463528011e+01   -1.147785278788752e+02   
7.206000000000000e+09    -1.827862061606650e+01   -1.146692460961585e+02   
7.207000000000000e+09    -1.826077297243305e+01   -1.144838449565387e+02   
7.208000000000000e+09    -1.823785633615742e+01   -1.143806873685809e+02   
7.209000000000000e+09    -1.822604603481125e+01   -1.143183930106610e+02   
7.210000000000000e+09    -1.822817007916326e+01   -1.142705331975517e+02   
7.211000000000000e+09    -1.821105337451768e+01   -1.141959677002037e+02   
7.212000000000000e+09    -1.822209404698632e+01   -1.141429469717782e+02   
7.213000000000000e+09    -1.822701599796916e+01   -1.141785983724096e+02   
7.214000000000000e+09    -1.822528905880666e+01   -1.141663739192823e+02   
7.215000000000000e+09    -1.823337974099434e+01   -1.142070996491693e+02   
7.216000000000000e+09    -1.824930376782855e+01   -1.142941160233986e+02   
7.217000000000000e+09    -1.825717292890575e+01   -1.144086787251272e+02   
7.218000000000000e+09    -1.828128850166476e+01   -1.145079826295835e+02   
7.219000000000000e+09    -1.829486860818987e+01   -1.146259602019935e+02   
7.220000000000000e+09    -1.831799905159281e+01   -1.148083087615401e+02   
7.221000000000000e+09    -1.833578675452721e+01   -1.149354271422467e+02   
7.222000000000000e+09    -1.836086248843186e+01   -1.151386266275008e+02   
7.223000000000000e+09    -1.839271137352711e+01   -1.154165539360688e+02   
7.224000000000000e+09    -1.841868302782967e+01   -1.156479861385397e+02   
7.225000000000000e+09    -1.844611996301881e+01   -1.158529243047881e+02   
7.226000000000000e+09    -1.847735851686173e+01   -1.161754757346078e+02   
7.227000000000000e+09    -1.850271016940749e+01   -1.165239963370496e+02   
7.228000000000000e+09    -1.854153619018513e+01   -1.168567258298288e+02   
7.229000000000000e+09    -1.855935350676829e+01   -1.171690702466580e+02   
7.230000000000000e+09    -1.858905747075535e+01   -1.175516841890366e+02   
7.231000000000000e+09    -1.862048675644744e+01   -1.179924689306342e+02   
7.232000000000000e+09    -1.863845961333528e+01   -1.184409860203751e+02   
7.233000000000000e+09    -1.866173859292965e+01   -1.188692938833802e+02   
7.234000000000000e+09    -1.868358852666609e+01   -1.193568068343061e+02   
7.235000000000000e+09    -1.871795585259349e+01   -1.198251999437709e+02   
7.236000000000000e+09    -1.873049979342779e+01   -1.203026427164056e+02   
7.237000000000000e+09    -1.875880830531612e+01   -1.208054440394517e+02   
7.238000000000000e+09    -1.877306351541252e+01   -1.212592007348684e+02   
7.239000000000000e+09    -1.878980992965384e+01   -1.218124119171708e+02   
7.240000000000000e+09    -1.880774446843368e+01   -1.223614222850130e+02   
7.241000000000000e+09    -1.880990265285404e+01   -1.229149110371033e+02   
7.242000000000000e+09    -1.882550538587806e+01   -1.234508052362724e+02   
7.243000000000000e+09    -1.882697649145948e+01   -1.240573838103225e+02   
7.244000000000000e+09    -1.883470151391592e+01   -1.245839458041299e+02   
7.245000000000000e+09    -1.884792221092103e+01   -1.251785985695816e+02   
7.246000000000000e+09    -1.884614606452865e+01   -1.257561912184703e+02   
7.247000000000000e+09    -1.884523554349595e+01   -1.262811964593853e+02   
7.248000000000000e+09    -1.883744572149438e+01   -1.268534173862277e+02   
7.249000000000000e+09    -1.883687373352820e+01   -1.273598441039943e+02   
7.250000000000000e+09    -1.882893783021365e+01   -1.279405619626236e+02   
7.251000000000000e+09    -1.881339718449511e+01   -1.284792420047943e+02   
7.252000000000000e+09    -1.880144356737411e+01   -1.290647978593756e+02   
7.253000000000000e+09    -1.879396153555561e+01   -1.295765916010276e+02   
7.254000000000000e+09    -1.876834954974631e+01   -1.300823007767746e+02   
7.255000000000000e+09    -1.875101828782545e+01   -1.305846040092855e+02   
7.256000000000000e+09    -1.873125649176644e+01   -1.311023451046213e+02   
