[Version] 2.0
! Rohde & Schwarz Vector Network Analyzer
! Rohde-Schwarz,ZNL20-2Port,1323001220200009,1.71.1.10-23.02.1.238
! 
! Trace info:
! Nominal Param -> Actual Exported Buffer
! ---------------------------------------
! S11 -> S22

! Created: GMT+3 2024-09-24 16:36:55

# Hz S DB R 50

[Number of Ports] 1
[Number of Frequencies] 6001

[Network Data] 
! freq[Hz]               S11[mag dB]              S11[ang]                 
7.000000000000000e+09    -1.817362357287508e+01   -1.419786480918058e+02   
7.001000000000000e+09    -1.820547438666879e+01   -1.419749265118459e+02   
7.002000000000000e+09    -1.823296899613684e+01   -1.419518135778890e+02   
7.003000000000000e+09    -1.825686220351943e+01   -1.419993415877829e+02   
7.004000000000000e+09    -1.827866955623051e+01   -1.420245563807341e+02   
7.005000000000000e+09    -1.830504388567575e+01   -1.420866567769564e+02   
7.006000000000000e+09    -1.833138163336247e+01   -1.421376413608064e+02   
7.007000000000000e+09    -1.835903435021847e+01   -1.422732992295409e+02   
7.008000000000000e+09    -1.838064569037060e+01   -1.424217932087869e+02   
7.009000000000000e+09    -1.840433215904331e+01   -1.425520817082163e+02   
7.010000000000000e+09    -1.842307414420520e+01   -1.427274187228325e+02   
7.011000000000000e+09    -1.844030465331134e+01   -1.429452804487553e+02   
7.012000000000000e+09    -1.846008254289914e+01   -1.431533287574656e+02   
7.013000000000000e+09    -1.848412148496460e+01   -1.434345727915643e+02   
7.014000000000000e+09    -1.849951635970431e+01   -1.437454056396391e+02   
7.015000000000000e+09    -1.851295567162662e+01   -1.440038292415375e+02   
7.016000000000000e+09    -1.852631816883055e+01   -1.443170871730041e+02   
7.017000000000000e+09    -1.854207773633082e+01   -1.446766671305546e+02   
7.018000000000000e+09    -1.854735655828490e+01   -1.449855916878256e+02   
7.019000000000000e+09    -1.855336976592741e+01   -1.452614826763627e+02   
7.020000000000000e+09    -1.856087286005945e+01   -1.456997871452716e+02   
7.021000000000000e+09    -1.856387715211445e+01   -1.460271831518869e+02   
7.022000000000000e+09    -1.857380319733225e+01   -1.463534670344233e+02   
7.023000000000000e+09    -1.856646800147215e+01   -1.467316388381524e+02   
7.024000000000000e+09    -1.856167125344216e+01   -1.471132132714914e+02   
7.025000000000000e+09    -1.855240935775265e+01   -1.474656602211890e+02   
7.026000000000000e+09    -1.853806859977831e+01   -1.478461169872054e+02   
7.027000000000000e+09    -1.853372211576435e+01   -1.482395783914443e+02   
7.028000000000000e+09    -1.852250952953844e+01   -1.486745485718196e+02   
7.029000000000000e+09    -1.851826126441681e+01   -1.490814411969587e+02   
7.030000000000000e+09    -1.849795408188816e+01   -1.494151665084011e+02   
7.031000000000000e+09    -1.849122360131774e+01   -1.498542373851310e+02   
7.032000000000000e+09    -1.847277965874202e+01   -1.501941934421158e+02   
7.033000000000000e+09    -1.845100150249687e+01   -1.506239216044446e+02   
7.034000000000000e+09    -1.843610777889015e+01   -1.509188296258006e+02   
7.035000000000000e+09    -1.841133850189612e+01   -1.512494804896710e+02   
7.036000000000000e+09    -1.839255393092492e+01   -1.516609430520499e+02   
7.037000000000000e+09    -1.836725999514720e+01   -1.519493589857912e+02   
7.038000000000000e+09    -1.833459425727183e+01   -1.523172612677684e+02   
7.039000000000000e+09    -1.831171830346724e+01   -1.526744029356678e+02   
7.040000000000000e+09    -1.827768930882234e+01   -1.530331755690689e+02   
7.041000000000000e+09    -1.825266353768389e+01   -1.533519006105694e+02   
7.042000000000000e+09    -1.823591727330783e+01   -1.536686595050849e+02   
7.043000000000000e+09    -1.820522288336410e+01   -1.539753181574020e+02   
7.044000000000000e+09    -1.816506095964014e+01   -1.543220892840546e+02   
7.045000000000000e+09    -1.814166160858582e+01   -1.546063115819712e+02   
7.046000000000000e+09    -1.810984376295994e+01   -1.548325991846073e+02   
7.047000000000000e+09    -1.807194116469293e+01   -1.550925281446798e+02   
7.048000000000000e+09    -1.805160048711690e+01   -1.553611675358423e+02   
7.049000000000000e+09    -1.801992106375193e+01   -1.555823554825353e+02   
7.050000000000000e+09    -1.798900757938496e+01   -1.558002915451675e+02   
7.051000000000000e+09    -1.795146148794234e+01   -1.560156040774666e+02   
7.052000000000000e+09    -1.792565728090570e+01   -1.562032413851054e+02   
7.053000000000000e+09    -1.789637241980071e+01   -1.563773477585229e+02   
7.054000000000000e+09    -1.786471703350281e+01   -1.565348864019302e+02   
7.055000000000000e+09    -1.783255626758157e+01   -1.566998544944116e+02   
7.056000000000000e+09    -1.780844255889964e+01   -1.568450859681511e+02   
7.057000000000000e+09    -1.778155724326542e+01   -1.569932986004393e+02   
7.058000000000000e+09    -1.776147769496386e+01   -1.570512002956032e+02   
7.059000000000000e+09    -1.773507547040035e+01   -1.571462504682498e+02   
7.060000000000000e+09    -1.769898342536878e+01   -1.572282571410292e+02   
7.061000000000000e+09    -1.768213895288597e+01   -1.572388516474525e+02   
7.062000000000000e+09    -1.765409494897309e+01   -1.573019245488426e+02   
7.063000000000000e+09    -1.763505391517235e+01   -1.573483092682405e+02   
7.064000000000000e+09    -1.762243683586426e+01   -1.573060417751968e+02   
7.065000000000000e+09    -1.761305092075267e+01   -1.573372526315104e+02   
7.066000000000000e+09    -1.759859800887866e+01   -1.572820833247178e+02   
7.067000000000000e+09    -1.758473078337936e+01   -1.572025783104673e+02   
7.068000000000000e+09    -1.758035278913763e+01   -1.571574105213999e+02   
7.069000000000000e+09    -1.757529937367133e+01   -1.571436368767865e+02   
7.070000000000000e+09    -1.757537292410725e+01   -1.570269727262897e+02   
7.071000000000000e+09    -1.757762213735542e+01   -1.569058424032658e+02   
7.072000000000000e+09    -1.758005337995686e+01   -1.568653934177592e+02   
7.073000000000000e+09    -1.758691730132377e+01   -1.567753210991748e+02   
7.074000000000000e+09    -1.759236862499372e+01   -1.566682682191390e+02   
7.075000000000000e+09    -1.761253509463819e+01   -1.565663546633706e+02   
7.076000000000000e+09    -1.762892421079829e+01   -1.563948522650376e+02   
7.077000000000000e+09    -1.765096000900792e+01   -1.562685282651228e+02   
7.078000000000000e+09    -1.767484661916097e+01   -1.561470687724637e+02   
7.079000000000000e+09    -1.770689866913628e+01   -1.559895258396728e+02   
7.080000000000000e+09    -1.773755510916569e+01   -1.558599119132094e+02   
7.081000000000000e+09    -1.777535572175227e+01   -1.557061050949666e+02   
7.082000000000000e+09    -1.781675818354317e+01   -1.555273026027049e+02   
7.083000000000000e+09    -1.785696964409628e+01   -1.553817734426818e+02   
7.084000000000000e+09    -1.790067461824851e+01   -1.552279567597210e+02   
7.085000000000000e+09    -1.794934763656192e+01   -1.550544087262911e+02   
7.086000000000000e+09    -1.800278069228209e+01   -1.548983754679018e+02   
7.087000000000000e+09    -1.805798364518045e+01   -1.548005819120660e+02   
7.088000000000000e+09    -1.811810453770954e+01   -1.546285992141717e+02   
7.089000000000000e+09    -1.817566445886149e+01   -1.544626807544723e+02   
7.090000000000000e+09    -1.823301874663449e+01   -1.543595930831068e+02   
7.091000000000000e+09    -1.830420382075149e+01   -1.542396345192333e+02   
7.092000000000000e+09    -1.837952174241578e+01   -1.541127649250172e+02   
7.093000000000000e+09    -1.844413241056100e+01   -1.539675889508530e+02   
7.094000000000000e+09    -1.852649516012173e+01   -1.538598187369072e+02   
7.095000000000000e+09    -1.859428301243403e+01   -1.537557324797977e+02   
7.096000000000000e+09    -1.866883610919084e+01   -1.536351671805825e+02   
7.097000000000000e+09    -1.875201812663074e+01   -1.535726565263271e+02   
7.098000000000000e+09    -1.882961235306400e+01   -1.534536229121662e+02   
7.099000000000000e+09    -1.891427322186028e+01   -1.534515959597693e+02   
7.100000000000000e+09    -1.899684223331270e+01   -1.533580979389702e+02   
7.101000000000000e+09    -1.908407862768464e+01   -1.532963047765451e+02   
7.102000000000000e+09    -1.918296461600482e+01   -1.532668937357725e+02   
7.103000000000000e+09    -1.927460351051542e+01   -1.532145532287593e+02   
7.104000000000000e+09    -1.936165096840285e+01   -1.532225621631293e+02   
7.105000000000000e+09    -1.946035393406141e+01   -1.531964613806194e+02   
7.106000000000000e+09    -1.955874643576943e+01   -1.532209255458987e+02   
7.107000000000000e+09    -1.966097341137751e+01   -1.531909212522074e+02   
7.108000000000000e+09    -1.974681378348457e+01   -1.531908686021007e+02   
7.109000000000000e+09    -1.985250936687738e+01   -1.532605329943094e+02   
7.110000000000000e+09    -1.993911366624652e+01   -1.532651571433553e+02   
7.111000000000000e+09    -2.005071253342198e+01   -1.533731165948708e+02   
7.112000000000000e+09    -2.014466924583884e+01   -1.534526809216987e+02   
7.113000000000000e+09    -2.025791183075754e+01   -1.535786120806272e+02   
7.114000000000000e+09    -2.034671761655217e+01   -1.536260356581380e+02   
7.115000000000000e+09    -2.044475274320138e+01   -1.537407045136590e+02   
7.116000000000000e+09    -2.055968720117790e+01   -1.538994651990332e+02   
7.117000000000000e+09    -2.065440074915801e+01   -1.540890871841031e+02   
7.118000000000000e+09    -2.074430027852870e+01   -1.542474975935982e+02   
7.119000000000000e+09    -2.085141458592709e+01   -1.545047747933118e+02   
7.120000000000000e+09    -2.096837633431096e+01   -1.546891977044453e+02   
7.121000000000000e+09    -2.105156560289901e+01   -1.549129191589219e+02   
7.122000000000000e+09    -2.114711496557905e+01   -1.551846262907299e+02   
7.123000000000000e+09    -2.123975169818614e+01   -1.554135543903076e+02   
7.124000000000000e+09    -2.133437941662255e+01   -1.556943280372647e+02   
7.125000000000000e+09    -2.143605382360509e+01   -1.560593002934865e+02   
7.126000000000000e+09    -2.151899382760798e+01   -1.562524517450452e+02   
7.127000000000000e+09    -2.160202003850944e+01   -1.566064874281730e+02   
7.128000000000000e+09    -2.168022058286100e+01   -1.569888640368719e+02   
7.129000000000000e+09    -2.176450263095542e+01   -1.571887143549812e+02   
7.130000000000000e+09    -2.182944269877105e+01   -1.575357641777288e+02   
7.131000000000000e+09    -2.189994805414166e+01   -1.578347651879795e+02   
7.132000000000000e+09    -2.197309411951495e+01   -1.582362197083220e+02   
7.133000000000000e+09    -2.202239650828983e+01   -1.586268662874006e+02   
7.134000000000000e+09    -2.209349411024753e+01   -1.590319014282115e+02   
7.135000000000000e+09    -2.213457500379748e+01   -1.593569882519837e+02   
7.136000000000000e+09    -2.218861402855495e+01   -1.596805980196700e+02   
7.137000000000000e+09    -2.223322621761940e+01   -1.600217892081410e+02   
7.138000000000000e+09    -2.226789970347198e+01   -1.603674615545716e+02   
7.139000000000000e+09    -2.231891642678606e+01   -1.606816484456515e+02   
7.140000000000000e+09    -2.233602148215162e+01   -1.609868718709586e+02   
7.141000000000000e+09    -2.237447624927930e+01   -1.612997189533839e+02   
7.142000000000000e+09    -2.238749058052154e+01   -1.615300772816490e+02   
7.143000000000000e+09    -2.242499203142039e+01   -1.617946425392088e+02   
7.144000000000000e+09    -2.244375935714449e+01   -1.619614422014857e+02   
7.145000000000000e+09    -2.245089414542069e+01   -1.621754709570738e+02   
7.146000000000000e+09    -2.245972977488190e+01   -1.622786395253879e+02   
7.147000000000000e+09    -2.246231948012094e+01   -1.625281819734216e+02   
7.148000000000000e+09    -2.246519016997340e+01   -1.625083800428168e+02   
7.149000000000000e+09    -2.247998445402440e+01   -1.626500124077032e+02   
7.150000000000000e+09    -2.246624046423208e+01   -1.626177829033836e+02   
7.151000000000000e+09    -2.247075785640752e+01   -1.626298815052435e+02   
7.152000000000000e+09    -2.246027672596551e+01   -1.626326383849287e+02   
7.153000000000000e+09    -2.246144968722027e+01   -1.626294784702627e+02   
7.154000000000000e+09    -2.245676740311108e+01   -1.625895755194494e+02   
7.155000000000000e+09    -2.244860483210051e+01   -1.623212746319368e+02   
7.156000000000000e+09    -2.243265900888758e+01   -1.621771353635120e+02   
7.157000000000000e+09    -2.243081483447865e+01   -1.620652280259339e+02   
7.158000000000000e+09    -2.242619531226253e+01   -1.618849660208034e+02   
7.159000000000000e+09    -2.241966074287042e+01   -1.615856472021258e+02   
7.160000000000000e+09    -2.242944553787049e+01   -1.613773075915491e+02   
7.161000000000000e+09    -2.241750399679300e+01   -1.610329785863904e+02   
7.162000000000000e+09    -2.240997719420601e+01   -1.606413505851876e+02   
7.163000000000000e+09    -2.239839565808283e+01   -1.602469517449536e+02   
7.164000000000000e+09    -2.239726080260534e+01   -1.598504132588887e+02   
7.165000000000000e+09    -2.240625142965038e+01   -1.593916221364945e+02   
7.166000000000000e+09    -2.239982465841099e+01   -1.588947300491195e+02   
7.167000000000000e+09    -2.240407169170410e+01   -1.584112354935390e+02   
7.168000000000000e+09    -2.240154534708095e+01   -1.577980356205081e+02   
7.169000000000000e+09    -2.241224176951329e+01   -1.572702232463702e+02   
7.170000000000000e+09    -2.241969741229629e+01   -1.565889360417242e+02   
7.171000000000000e+09    -2.242298627546091e+01   -1.560373387719033e+02   
7.172000000000000e+09    -2.242073950821743e+01   -1.552895518206258e+02   
7.173000000000000e+09    -2.243618468104126e+01   -1.546594938250475e+02   
7.174000000000000e+09    -2.243864906126814e+01   -1.540110702276706e+02   
7.175000000000000e+09    -2.245464218074398e+01   -1.532732609802185e+02   
7.176000000000000e+09    -2.245697757896431e+01   -1.525768070130628e+02   
7.177000000000000e+09    -2.247229665865828e+01   -1.517898814046135e+02   
7.178000000000000e+09    -2.248503454666873e+01   -1.509907210728867e+02   
7.179000000000000e+09    -2.250947876312633e+01   -1.501605307945170e+02   
7.180000000000000e+09    -2.251931494146142e+01   -1.492662019060180e+02   
7.181000000000000e+09    -2.254094919479490e+01   -1.484728629115445e+02   
7.182000000000000e+09    -2.255777178954584e+01   -1.474806214018424e+02   
7.183000000000000e+09    -2.258490591693392e+01   -1.465890976155043e+02   
7.184000000000000e+09    -2.258563228101156e+01   -1.457405566497592e+02   
7.185000000000000e+09    -2.261892069172897e+01   -1.447120554348024e+02   
7.186000000000000e+09    -2.265158722713458e+01   -1.438504880734893e+02   
7.187000000000000e+09    -2.266109406634279e+01   -1.428196132812821e+02   
7.188000000000000e+09    -2.267605009637166e+01   -1.417785774932296e+02   
7.189000000000000e+09    -2.270264560823365e+01   -1.408743391618659e+02   
7.190000000000000e+09    -2.273662981412634e+01   -1.397582975464881e+02   
7.191000000000000e+09    -2.273702948812597e+01   -1.387131052075183e+02   
7.192000000000000e+09    -2.276646884940171e+01   -1.377115811069992e+02   
7.193000000000000e+09    -2.278330061949280e+01   -1.366662772626943e+02   
7.194000000000000e+09    -2.281601538192942e+01   -1.355704412635131e+02   
7.195000000000000e+09    -2.283951425490988e+01   -1.345285976277087e+02   
7.196000000000000e+09    -2.285291953073447e+01   -1.333970945918485e+02   
7.197000000000000e+09    -2.288494332086247e+01   -1.322795445955231e+02   
7.198000000000000e+09    -2.290675547518834e+01   -1.312088425940978e+02   
7.199000000000000e+09    -2.292990578121580e+01   -1.301268333496320e+02   
7.200000000000000e+09    -2.296733175555299e+01   -1.289711871313267e+02   
7.201000000000000e+09    -2.298422660419198e+01   -1.278127053960967e+02   
7.202000000000000e+09    -2.301372674417668e+01   -1.268374464979004e+02   
7.203000000000000e+09    -2.303667051076369e+01   -1.257097153940344e+02   
7.204000000000000e+09    -2.307573039477516e+01   -1.246128892939790e+02   
7.205000000000000e+09    -2.311581899951181e+01   -1.234195745586272e+02   
7.206000000000000e+09    -2.313034409289150e+01   -1.224184864476968e+02   
7.207000000000000e+09    -2.318270070395542e+01   -1.212748428942415e+02   
7.208000000000000e+09    -2.319420565043902e+01   -1.202179530040840e+02   
7.209000000000000e+09    -2.322217028814254e+01   -1.191658481249113e+02   
7.210000000000000e+09    -2.325153514297523e+01   -1.180828761598831e+02   
7.211000000000000e+09    -2.327270063432595e+01   -1.169679063809859e+02   
7.212000000000000e+09    -2.330120100992195e+01   -1.159560038375706e+02   
7.213000000000000e+09    -2.333410227690086e+01   -1.150169165743815e+02   
7.214000000000000e+09    -2.334532307216303e+01   -1.139736714686094e+02   
7.215000000000000e+09    -2.336892245399811e+01   -1.131420410928142e+02   
7.216000000000000e+09    -2.340145500426473e+01   -1.122333688899677e+02   
7.217000000000000e+09    -2.340180385905678e+01   -1.113574540941714e+02   
7.218000000000000e+09    -2.344479260906673e+01   -1.104662380245684e+02   
7.219000000000000e+09    -2.344382454148244e+01   -1.096558949384706e+02   
7.220000000000000e+09    -2.345635176725507e+01   -1.088622993167176e+02   
7.221000000000000e+09    -2.347654632330529e+01   -1.081186769646541e+02   
7.222000000000000e+09    -2.349045459027609e+01   -1.074008501076096e+02   
7.223000000000000e+09    -2.348895750234103e+01   -1.067992234359061e+02   
7.224000000000000e+09    -2.349422172767720e+01   -1.061007818298860e+02   
7.225000000000000e+09    -2.349239477710475e+01   -1.054728455373240e+02   
7.226000000000000e+09    -2.350504645640154e+01   -1.050203228252891e+02   
7.227000000000000e+09    -2.350372967515179e+01   -1.045083465204894e+02   
7.228000000000000e+09    -2.350803359400713e+01   -1.040774084506539e+02   
7.229000000000000e+09    -2.349771805268762e+01   -1.036692422931733e+02   
7.230000000000000e+09    -2.349456862015033e+01   -1.032861882150110e+02   
7.231000000000000e+09    -2.349882344004095e+01   -1.031594590769079e+02   
7.232000000000000e+09    -2.346439085989514e+01   -1.028812910736146e+02   
7.233000000000000e+09    -2.344859432336719e+01   -1.026447411032992e+02   
7.234000000000000e+09    -2.343310770846968e+01   -1.024575537442303e+02   
7.235000000000000e+09    -2.340589853155075e+01   -1.024098673093305e+02   
7.236000000000000e+09    -2.338100162772906e+01   -1.021573235415862e+02   
7.237000000000000e+09    -2.336281824359468e+01   -1.022049368291453e+02   
7.238000000000000e+09    -2.334163851801014e+01   -1.020976863468196e+02   
7.239000000000000e+09    -2.328990082232446e+01   -1.021845870110208e+02   
7.240000000000000e+09    -2.325769016796681e+01   -1.022906011372360e+02   
7.241000000000000e+09    -2.320645408814220e+01   -1.022505577904758e+02   
7.242000000000000e+09    -2.316033923188087e+01   -1.025204747409692e+02   
7.243000000000000e+09    -2.309748202914662e+01   -1.027264186110692e+02   
7.244000000000000e+09    -2.305016154345620e+01   -1.028962382469899e+02   
7.245000000000000e+09    -2.299547858944007e+01   -1.030803613310294e+02   
7.246000000000000e+09    -2.293434056751630e+01   -1.033708896944677e+02   
7.247000000000000e+09    -2.287033496293700e+01   -1.036824432673131e+02   
7.248000000000000e+09    -2.281294291604256e+01   -1.039675009282333e+02   
7.249000000000000e+09    -2.272916430934063e+01   -1.041950646759248e+02   
7.250000000000000e+09    -2.264199076140942e+01   -1.045851080070444e+02   
7.251000000000000e+09    -2.256567604549890e+01   -1.049976007295122e+02   
7.252000000000000e+09    -2.248934945134005e+01   -1.052712575477255e+02   
7.253000000000000e+09    -2.240736975330089e+01   -1.056095414783870e+02   
7.254000000000000e+09    -2.231327961949021e+01   -1.059989039150426e+02   
7.255000000000000e+09    -2.221263290990722e+01   -1.063451814915783e+02   
7.256000000000000e+09    -2.211444421770521e+01   -1.067380826187271e+02   
