[Version] 2.0
! Rohde & Schwarz Vector Network Analyzer
! Rohde-Schwarz,ZNL20-2Port,1323001220200009,1.71.1.10-23.02.1.238
! 
! Trace info:
! Nominal Param -> Actual Exported Buffer
! ---------------------------------------
! S11 -> S22

! Created: GMT+3 2024-09-24 16:37:10

# Hz S DB R 50

[Number of Ports] 1
[Number of Frequencies] 6001

[Network Data] 
! freq[Hz]               S11[mag dB]              S11[ang]                 
7.000000000000000e+09    -1.821728842184944e+01   -1.418097521069146e+02   
7.001000000000000e+09    -1.824336163494057e+01   -1.417398757059541e+02   
7.002000000000000e+09    -1.827211749134078e+01   -1.417378921242120e+02   
7.003000000000000e+09    -1.829934421026021e+01   -1.417435893514589e+02   
7.004000000000000e+09    -1.831811232068253e+01   -1.417685409992309e+02   
7.005000000000000e+09    -1.835520923063214e+01   -1.418126410020336e+02   
7.006000000000000e+09    -1.837451121701178e+01   -1.418677906055362e+02   
7.007000000000000e+09    -1.839759533709604e+01   -1.419828188991431e+02   
7.008000000000000e+09    -1.842243195232461e+01   -1.420820714148468e+02   
7.009000000000000e+09    -1.844314040201730e+01   -1.421904547787342e+02   
7.010000000000000e+09    -1.847068790728434e+01   -1.423696138925064e+02   
7.011000000000000e+09    -1.847726763502735e+01   -1.425838866083512e+02   
7.012000000000000e+09    -1.849691240020303e+01   -1.428084744515138e+02   
7.013000000000000e+09    -1.852211530991227e+01   -1.430212868147784e+02   
7.014000000000000e+09    -1.853489410745264e+01   -1.433218440675300e+02   
7.015000000000000e+09    -1.854786582267441e+01   -1.436347620446011e+02   
7.016000000000000e+09    -1.855656800565699e+01   -1.439033039771604e+02   
7.017000000000000e+09    -1.856650174729857e+01   -1.442670145650809e+02   
7.018000000000000e+09    -1.857836024995607e+01   -1.445764382522788e+02   
7.019000000000000e+09    -1.857987276477249e+01   -1.448332902468311e+02   
7.020000000000000e+09    -1.859146698066117e+01   -1.452307108268576e+02   
7.021000000000000e+09    -1.858020206344034e+01   -1.456204631810324e+02   
7.022000000000000e+09    -1.859151337995347e+01   -1.459224049048610e+02   
7.023000000000000e+09    -1.858084793331291e+01   -1.463056400321014e+02   
7.024000000000000e+09    -1.857129246739097e+01   -1.466882055277121e+02   
7.025000000000000e+09    -1.856809175059004e+01   -1.470541199955272e+02   
7.026000000000000e+09    -1.855265503037944e+01   -1.474442245689274e+02   
7.027000000000000e+09    -1.854349736113872e+01   -1.477982898764072e+02   
7.028000000000000e+09    -1.853230470548814e+01   -1.482373889247170e+02   
7.029000000000000e+09    -1.852113382027824e+01   -1.486272935611150e+02   
7.030000000000000e+09    -1.850656413270421e+01   -1.489813839148688e+02   
7.031000000000000e+09    -1.848440708212848e+01   -1.493768661810593e+02   
7.032000000000000e+09    -1.848304230777986e+01   -1.498564618147155e+02   
7.033000000000000e+09    -1.845690699600727e+01   -1.502326006121333e+02   
7.034000000000000e+09    -1.844183792853400e+01   -1.505372947857057e+02   
7.035000000000000e+09    -1.841177910445676e+01   -1.508886549842457e+02   
7.036000000000000e+09    -1.840218086667234e+01   -1.512710760539929e+02   
7.037000000000000e+09    -1.837827638771099e+01   -1.515919251038896e+02   
7.038000000000000e+09    -1.834638356563423e+01   -1.519924601695427e+02   
7.039000000000000e+09    -1.832609944284808e+01   -1.523170060399556e+02   
7.040000000000000e+09    -1.828755613934121e+01   -1.526354289275046e+02   
7.041000000000000e+09    -1.826948524806066e+01   -1.529263611983573e+02   
7.042000000000000e+09    -1.824359743618651e+01   -1.533249351950280e+02   
7.043000000000000e+09    -1.821864919465023e+01   -1.536757932562564e+02   
7.044000000000000e+09    -1.817331836465010e+01   -1.539413459342311e+02   
7.045000000000000e+09    -1.815353024444108e+01   -1.541854858783292e+02   
7.046000000000000e+09    -1.812344189255735e+01   -1.545074133007638e+02   
7.047000000000000e+09    -1.809066597903779e+01   -1.546949160116770e+02   
7.048000000000000e+09    -1.805898705526738e+01   -1.549599976354812e+02   
7.049000000000000e+09    -1.802952203668233e+01   -1.551587450527900e+02   
7.050000000000000e+09    -1.800083390400437e+01   -1.553810894376382e+02   
7.051000000000000e+09    -1.795919126871458e+01   -1.556069351503483e+02   
7.052000000000000e+09    -1.793927148602706e+01   -1.558580445376679e+02   
7.053000000000000e+09    -1.790401415910915e+01   -1.559569620366957e+02   
7.054000000000000e+09    -1.787492290422637e+01   -1.561499417587266e+02   
7.055000000000000e+09    -1.783940339905198e+01   -1.562815905088880e+02   
7.056000000000000e+09    -1.781153265203360e+01   -1.563995195738537e+02   
7.057000000000000e+09    -1.777420221563948e+01   -1.565728024339805e+02   
7.058000000000000e+09    -1.775178440501832e+01   -1.566488061054128e+02   
7.059000000000000e+09    -1.772418764185001e+01   -1.567338158164892e+02   
7.060000000000000e+09    -1.769541264368040e+01   -1.568386852122056e+02   
7.061000000000000e+09    -1.767097016615823e+01   -1.568271248879502e+02   
7.062000000000000e+09    -1.764795830348377e+01   -1.569353850156592e+02   
7.063000000000000e+09    -1.762519270761046e+01   -1.569138811840200e+02   
7.064000000000000e+09    -1.760992826776618e+01   -1.568955556086217e+02   
7.065000000000000e+09    -1.759168411815737e+01   -1.569403655476451e+02   
7.066000000000000e+09    -1.758199528916705e+01   -1.569202347365549e+02   
7.067000000000000e+09    -1.757212699689562e+01   -1.568328416419977e+02   
7.068000000000000e+09    -1.756438773490375e+01   -1.567759642075265e+02   
7.069000000000000e+09    -1.755931504918783e+01   -1.567633204243950e+02   
7.070000000000000e+09    -1.755330025183057e+01   -1.566786667566023e+02   
7.071000000000000e+09    -1.756248418245956e+01   -1.565614282635266e+02   
7.072000000000000e+09    -1.755886170472854e+01   -1.565088188843243e+02   
7.073000000000000e+09    -1.757052229552654e+01   -1.564289540616332e+02   
7.074000000000000e+09    -1.757553850483034e+01   -1.563313004645469e+02   
7.075000000000000e+09    -1.759107778850711e+01   -1.561803160971485e+02   
7.076000000000000e+09    -1.760761775961832e+01   -1.560680642216831e+02   
7.077000000000000e+09    -1.762864479472035e+01   -1.558972552505850e+02   
7.078000000000000e+09    -1.765203432115529e+01   -1.557574332413250e+02   
7.079000000000000e+09    -1.768246188400625e+01   -1.556439760562367e+02   
7.080000000000000e+09    -1.770679419480014e+01   -1.554893315910262e+02   
7.081000000000000e+09    -1.774426662872703e+01   -1.553432128905383e+02   
7.082000000000000e+09    -1.777723310566579e+01   -1.551730217348408e+02   
7.083000000000000e+09    -1.782352176337328e+01   -1.550363526335315e+02   
7.084000000000000e+09    -1.786917686425979e+01   -1.548428731895732e+02   
7.085000000000000e+09    -1.791870122915407e+01   -1.547290639572065e+02   
7.086000000000000e+09    -1.796041050793282e+01   -1.545943341817600e+02   
7.087000000000000e+09    -1.801587518955932e+01   -1.544212659809392e+02   
7.088000000000000e+09    -1.807654477653345e+01   -1.542635034779594e+02   
7.089000000000000e+09    -1.813308230095849e+01   -1.541273635778809e+02   
7.090000000000000e+09    -1.818572354996219e+01   -1.539651757565872e+02   
7.091000000000000e+09    -1.825861471112583e+01   -1.538660259567215e+02   
7.092000000000000e+09    -1.832763897157719e+01   -1.537494651114411e+02   
7.093000000000000e+09    -1.839077666652334e+01   -1.536310108147574e+02   
7.094000000000000e+09    -1.846447902677715e+01   -1.535473929273952e+02   
7.095000000000000e+09    -1.854082878225022e+01   -1.534338976285540e+02   
7.096000000000000e+09    -1.861908774190059e+01   -1.533172878652522e+02   
7.097000000000000e+09    -1.869670724173638e+01   -1.532611450779741e+02   
7.098000000000000e+09    -1.877685593247635e+01   -1.531765977011372e+02   
7.099000000000000e+09    -1.885003393963030e+01   -1.531062869655276e+02   
7.100000000000000e+09    -1.893662675988939e+01   -1.530314443683065e+02   
7.101000000000000e+09    -1.901509926925365e+01   -1.529939110071602e+02   
7.102000000000000e+09    -1.911187964919453e+01   -1.529851657194385e+02   
7.103000000000000e+09    -1.920323850525551e+01   -1.529409374605621e+02   
7.104000000000000e+09    -1.928343589828891e+01   -1.529172108942938e+02   
7.105000000000000e+09    -1.937610235446807e+01   -1.530099398635025e+02   
7.106000000000000e+09    -1.947285056203174e+01   -1.530298209875695e+02   
7.107000000000000e+09    -1.957049556293225e+01   -1.529863093694889e+02   
7.108000000000000e+09    -1.965690405460156e+01   -1.530610968668066e+02   
7.109000000000000e+09    -1.976015754621548e+01   -1.531072510699281e+02   
7.110000000000000e+09    -1.985359724976267e+01   -1.531210436559750e+02   
7.111000000000000e+09    -1.996072410113808e+01   -1.532334551962214e+02   
7.112000000000000e+09    -2.005329967442395e+01   -1.533484480992216e+02   
7.113000000000000e+09    -2.015523132143912e+01   -1.535266434250909e+02   
7.114000000000000e+09    -2.025373971297878e+01   -1.535810524555822e+02   
7.115000000000000e+09    -2.034988774156054e+01   -1.536652827792601e+02   
7.116000000000000e+09    -2.046970452526555e+01   -1.538537772691538e+02   
7.117000000000000e+09    -2.056395292685235e+01   -1.540654227682690e+02   
7.118000000000000e+09    -2.065493701544419e+01   -1.542865235385450e+02   
7.119000000000000e+09    -2.077243030849267e+01   -1.545000470112896e+02   
7.120000000000000e+09    -2.086151527561384e+01   -1.547212560483329e+02   
7.121000000000000e+09    -2.096010371528768e+01   -1.549754677229964e+02   
7.122000000000000e+09    -2.106287905098569e+01   -1.552433599734623e+02   
7.123000000000000e+09    -2.115608076023981e+01   -1.555197465882724e+02   
7.124000000000000e+09    -2.125148831095130e+01   -1.557876739734596e+02   
7.125000000000000e+09    -2.134756005307361e+01   -1.561028830465353e+02   
7.126000000000000e+09    -2.143289744378453e+01   -1.563704255944661e+02   
7.127000000000000e+09    -2.151767347363199e+01   -1.567043542644891e+02   
7.128000000000000e+09    -2.160230814656731e+01   -1.571369963886250e+02   
7.129000000000000e+09    -2.168354181116837e+01   -1.572953298982948e+02   
7.130000000000000e+09    -2.175944314987192e+01   -1.576951978655795e+02   
7.131000000000000e+09    -2.182050220150271e+01   -1.580688853776495e+02   
7.132000000000000e+09    -2.190028855941213e+01   -1.583721305912273e+02   
7.133000000000000e+09    -2.194948586546752e+01   -1.586930117288777e+02   
7.134000000000000e+09    -2.201356454263471e+01   -1.591508797941267e+02   
7.135000000000000e+09    -2.206220124797493e+01   -1.595165891052395e+02   
7.136000000000000e+09    -2.212373884293168e+01   -1.598761548291266e+02   
7.137000000000000e+09    -2.215729107199021e+01   -1.601056463246591e+02   
7.138000000000000e+09    -2.219353367491852e+01   -1.605715095583827e+02   
7.139000000000000e+09    -2.223082322238847e+01   -1.607827559424841e+02   
7.140000000000000e+09    -2.226706639670029e+01   -1.612282716159080e+02   
7.141000000000000e+09    -2.228928914987704e+01   -1.614820496300054e+02   
7.142000000000000e+09    -2.231507340913122e+01   -1.617265387066598e+02   
7.143000000000000e+09    -2.234452990285730e+01   -1.619902305973544e+02   
7.144000000000000e+09    -2.236390709039178e+01   -1.621639565080912e+02   
7.145000000000000e+09    -2.238461229980549e+01   -1.624410094842005e+02   
7.146000000000000e+09    -2.240346564070123e+01   -1.625494507834617e+02   
7.147000000000000e+09    -2.241250519229106e+01   -1.626925855051337e+02   
7.148000000000000e+09    -2.240601720253196e+01   -1.627966582126622e+02   
7.149000000000000e+09    -2.241240756583405e+01   -1.629097740930665e+02   
7.150000000000000e+09    -2.241385588578643e+01   -1.629086012616429e+02   
7.151000000000000e+09    -2.241529225760644e+01   -1.629014417232112e+02   
7.152000000000000e+09    -2.241971406795901e+01   -1.628987162528421e+02   
7.153000000000000e+09    -2.241843146233941e+01   -1.629395962072258e+02   
7.154000000000000e+09    -2.241740208407131e+01   -1.629133229052717e+02   
7.155000000000000e+09    -2.240592310566214e+01   -1.626938061328276e+02   
7.156000000000000e+09    -2.239436685055194e+01   -1.624760193237346e+02   
7.157000000000000e+09    -2.239854829018035e+01   -1.623146831463648e+02   
7.158000000000000e+09    -2.239650106763904e+01   -1.621424888121722e+02   
7.159000000000000e+09    -2.238946619829370e+01   -1.618074465119831e+02   
7.160000000000000e+09    -2.239202423349636e+01   -1.615507619419399e+02   
7.161000000000000e+09    -2.238607373771688e+01   -1.612330500590604e+02   
7.162000000000000e+09    -2.238268573427879e+01   -1.608682737846698e+02   
7.163000000000000e+09    -2.236662461423387e+01   -1.604001483375218e+02   
7.164000000000000e+09    -2.236909476997761e+01   -1.600208286832316e+02   
7.165000000000000e+09    -2.237096423943746e+01   -1.595875906991865e+02   
7.166000000000000e+09    -2.237598382996170e+01   -1.589912691992574e+02   
7.167000000000000e+09    -2.237287270637241e+01   -1.585788455774550e+02   
7.168000000000000e+09    -2.237194766851363e+01   -1.580580119259072e+02   
7.169000000000000e+09    -2.238454770194798e+01   -1.574222982743445e+02   
7.170000000000000e+09    -2.238980388587590e+01   -1.567446614677612e+02   
7.171000000000000e+09    -2.238339424321786e+01   -1.561895890914770e+02   
7.172000000000000e+09    -2.238976052731728e+01   -1.554827974620632e+02   
7.173000000000000e+09    -2.240143719118800e+01   -1.548133994964787e+02   
7.174000000000000e+09    -2.240035517868096e+01   -1.541250391185817e+02   
7.175000000000000e+09    -2.241846797592455e+01   -1.533888820719801e+02   
7.176000000000000e+09    -2.242817310974285e+01   -1.527317196345176e+02   
7.177000000000000e+09    -2.243379761217838e+01   -1.519565576371783e+02   
7.178000000000000e+09    -2.244488946384905e+01   -1.511004210919535e+02   
7.179000000000000e+09    -2.246758461111168e+01   -1.502806096709409e+02   
7.180000000000000e+09    -2.248293419729058e+01   -1.494134595640735e+02   
7.181000000000000e+09    -2.249397146754385e+01   -1.486438441897863e+02   
7.182000000000000e+09    -2.251719366316027e+01   -1.476481129161872e+02   
7.183000000000000e+09    -2.252340674108005e+01   -1.467875950326770e+02   
7.184000000000000e+09    -2.253831391831690e+01   -1.459088103189668e+02   
7.185000000000000e+09    -2.255425740639886e+01   -1.448504547649473e+02   
7.186000000000000e+09    -2.258976851916335e+01   -1.440228571540007e+02   
7.187000000000000e+09    -2.260351108682817e+01   -1.430241784736798e+02   
7.188000000000000e+09    -2.261820544162245e+01   -1.420549794488043e+02   
7.189000000000000e+09    -2.264620035296959e+01   -1.411501599626152e+02   
7.190000000000000e+09    -2.267936295612270e+01   -1.400868912526818e+02   
7.191000000000000e+09    -2.268220561766069e+01   -1.391515148465824e+02   
7.192000000000000e+09    -2.271239500954707e+01   -1.380446777467322e+02   
7.193000000000000e+09    -2.273081169050020e+01   -1.370531850775132e+02   
7.194000000000000e+09    -2.276237977331552e+01   -1.359955661906942e+02   
7.195000000000000e+09    -2.278569232488778e+01   -1.350022562218666e+02   
7.196000000000000e+09    -2.281774876407838e+01   -1.338746908080046e+02   
7.197000000000000e+09    -2.285225767381128e+01   -1.329117362520703e+02   
7.198000000000000e+09    -2.287919968495905e+01   -1.318179832819424e+02   
7.199000000000000e+09    -2.289581044051668e+01   -1.306651676656419e+02   
7.200000000000000e+09    -2.293232373957459e+01   -1.296305835530975e+02   
7.201000000000000e+09    -2.296136536219257e+01   -1.284989856829526e+02   
7.202000000000000e+09    -2.300060477773730e+01   -1.274102933413902e+02   
7.203000000000000e+09    -2.301819979028238e+01   -1.263285885193949e+02   
7.204000000000000e+09    -2.307339905120713e+01   -1.252495296015083e+02   
7.205000000000000e+09    -2.310961703618792e+01   -1.240430686182207e+02   
7.206000000000000e+09    -2.316065700155662e+01   -1.230258107722562e+02   
7.207000000000000e+09    -2.318398236567404e+01   -1.218087695365679e+02   
7.208000000000000e+09    -2.320397414689356e+01   -1.207935087223158e+02   
7.209000000000000e+09    -2.323486018290211e+01   -1.197316687180146e+02   
7.210000000000000e+09    -2.327261583335710e+01   -1.186175237299878e+02   
7.211000000000000e+09    -2.328742771346950e+01   -1.175727075466485e+02   
7.212000000000000e+09    -2.333052134804736e+01   -1.165401801623977e+02   
7.213000000000000e+09    -2.336959283757944e+01   -1.155657726097256e+02   
7.214000000000000e+09    -2.338116308056154e+01   -1.145529191224627e+02   
7.215000000000000e+09    -2.340322017408941e+01   -1.136931083943264e+02   
7.216000000000000e+09    -2.344566490122467e+01   -1.128205487006569e+02   
7.217000000000000e+09    -2.345299101075455e+01   -1.119527923758968e+02   
7.218000000000000e+09    -2.349713315930734e+01   -1.111564950427211e+02   
7.219000000000000e+09    -2.350556539586689e+01   -1.102243665363625e+02   
7.220000000000000e+09    -2.352459445448003e+01   -1.094009003371791e+02   
7.221000000000000e+09    -2.354775349490923e+01   -1.086597091999306e+02   
7.222000000000000e+09    -2.356214991704781e+01   -1.079292813117968e+02   
7.223000000000000e+09    -2.356479550717150e+01   -1.073049737864397e+02   
7.224000000000000e+09    -2.357210474536098e+01   -1.066843370473989e+02   
7.225000000000000e+09    -2.357854237618225e+01   -1.060758750066546e+02   
7.226000000000000e+09    -2.360070235411708e+01   -1.055379648094812e+02   
7.227000000000000e+09    -2.359025366550566e+01   -1.050691472772117e+02   
7.228000000000000e+09    -2.358849853484155e+01   -1.045998815116538e+02   
7.229000000000000e+09    -2.358805024994091e+01   -1.041158358277529e+02   
7.230000000000000e+09    -2.359068165171953e+01   -1.037794830108163e+02   
7.231000000000000e+09    -2.359239363611177e+01   -1.035417957499444e+02   
7.232000000000000e+09    -2.357700474562624e+01   -1.032800450333716e+02   
7.233000000000000e+09    -2.355437710777858e+01   -1.030425127234531e+02   
7.234000000000000e+09    -2.355364652165288e+01   -1.028779298874761e+02   
7.235000000000000e+09    -2.354071434899392e+01   -1.027446619076198e+02   
7.236000000000000e+09    -2.350492216087456e+01   -1.025600709024371e+02   
7.237000000000000e+09    -2.349355886197202e+01   -1.025565952620491e+02   
7.238000000000000e+09    -2.346744033948241e+01   -1.023765390532751e+02   
7.239000000000000e+09    -2.341245466383606e+01   -1.023761739277587e+02   
7.240000000000000e+09    -2.339804340881311e+01   -1.024312029329436e+02   
7.241000000000000e+09    -2.332244044443676e+01   -1.024791790482020e+02   
7.242000000000000e+09    -2.328352759885014e+01   -1.025354814472984e+02   
7.243000000000000e+09    -2.322079213428761e+01   -1.028157514261978e+02   
7.244000000000000e+09    -2.316775967538012e+01   -1.028880215380468e+02   
7.245000000000000e+09    -2.310724348276858e+01   -1.031541932755771e+02   
7.246000000000000e+09    -2.305212284662502e+01   -1.034281696861433e+02   
7.247000000000000e+09    -2.298060254945623e+01   -1.036880540627893e+02   
7.248000000000000e+09    -2.291372975940139e+01   -1.040383181034260e+02   
7.249000000000000e+09    -2.284769495042050e+01   -1.041415161913939e+02   
7.250000000000000e+09    -2.275727646370520e+01   -1.046147623910089e+02   
7.251000000000000e+09    -2.267465885491029e+01   -1.049110239373391e+02   
7.252000000000000e+09    -2.259370688475718e+01   -1.052462004853300e+02   
7.253000000000000e+09    -2.250818453579995e+01   -1.055744246563407e+02   
7.254000000000000e+09    -2.240055619925650e+01   -1.058855552270886e+02   
7.255000000000000e+09    -2.230817781226951e+01   -1.062980468813135e+02   
7.256000000000000e+09    -2.219322513522529e+01   -1.066760163678380e+02   
