[Version] 2.0
! Rohde & Schwarz Vector Network Analyzer
! Rohde-Schwarz,ZNL20-2Port,1323001220200009,1.71.1.10-23.02.1.238
! 
! Trace info:
! Nominal Param -> Actual Exported Buffer
! ---------------------------------------
! S11 -> S22

! Created: GMT+3 2024-09-24 16:37:23

# Hz S DB R 50

[Number of Ports] 1
[Number of Frequencies] 6001

[Network Data] 
! freq[Hz]               S11[mag dB]              S11[ang]                 
7.000000000000000e+09    -1.827930015817308e+01   -1.416132329411784e+02   
7.001000000000000e+09    -1.829952599239606e+01   -1.415967715689914e+02   
7.002000000000000e+09    -1.832816825143196e+01   -1.415949947813276e+02   
7.003000000000000e+09    -1.835507616382769e+01   -1.415961201699364e+02   
7.004000000000000e+09    -1.838093644342671e+01   -1.415974066631809e+02   
7.005000000000000e+09    -1.841091687072308e+01   -1.416728385731597e+02   
7.006000000000000e+09    -1.843227280446002e+01   -1.417116295508471e+02   
7.007000000000000e+09    -1.846195509279971e+01   -1.417973824651413e+02   
7.008000000000000e+09    -1.848223193570039e+01   -1.419210647513177e+02   
7.009000000000000e+09    -1.850653008289612e+01   -1.420919267237130e+02   
7.010000000000000e+09    -1.852782712163507e+01   -1.422423214019168e+02   
7.011000000000000e+09    -1.854693306621536e+01   -1.424185225123728e+02   
7.012000000000000e+09    -1.856313814573544e+01   -1.426211629296803e+02   
7.013000000000000e+09    -1.858553015860432e+01   -1.428540507048128e+02   
7.014000000000000e+09    -1.859845753723068e+01   -1.431593216285897e+02   
7.015000000000000e+09    -1.861174144377383e+01   -1.434361622336014e+02   
7.016000000000000e+09    -1.863061198422397e+01   -1.437075774953012e+02   
7.017000000000000e+09    -1.863651017005163e+01   -1.440557366234666e+02   
7.018000000000000e+09    -1.865315488890728e+01   -1.443568415866300e+02   
7.019000000000000e+09    -1.865338377093592e+01   -1.446220712169533e+02   
7.020000000000000e+09    -1.866183796012721e+01   -1.450124410159493e+02   
7.021000000000000e+09    -1.866180526868499e+01   -1.453632774185150e+02   
7.022000000000000e+09    -1.866825071252850e+01   -1.456292587532942e+02   
7.023000000000000e+09    -1.866145618258362e+01   -1.460565471748888e+02   
7.024000000000000e+09    -1.865339544189747e+01   -1.464170818133297e+02   
7.025000000000000e+09    -1.865388855715777e+01   -1.467492355572865e+02   
7.026000000000000e+09    -1.863403180370553e+01   -1.471489555855351e+02   
7.027000000000000e+09    -1.862748524238208e+01   -1.475102716551107e+02   
7.028000000000000e+09    -1.861430954721888e+01   -1.478888644035322e+02   
7.029000000000000e+09    -1.860053037120883e+01   -1.483267901810933e+02   
7.030000000000000e+09    -1.858172344682130e+01   -1.486486475333628e+02   
7.031000000000000e+09    -1.857042062007165e+01   -1.490195044502393e+02   
7.032000000000000e+09    -1.855691480896893e+01   -1.494179270733661e+02   
7.033000000000000e+09    -1.852979843485412e+01   -1.498417093399251e+02   
7.034000000000000e+09    -1.851033726853450e+01   -1.501369191574830e+02   
7.035000000000000e+09    -1.848583220922050e+01   -1.504951700304570e+02   
7.036000000000000e+09    -1.846645629836615e+01   -1.508444243905263e+02   
7.037000000000000e+09    -1.844600416730571e+01   -1.510916268775490e+02   
7.038000000000000e+09    -1.840968624090371e+01   -1.514586660548089e+02   
7.039000000000000e+09    -1.838705816559215e+01   -1.518201878296836e+02   
7.040000000000000e+09    -1.835210007605049e+01   -1.521806306835342e+02   
7.041000000000000e+09    -1.833177958251749e+01   -1.524803564560843e+02   
7.042000000000000e+09    -1.830312182954641e+01   -1.528011328823271e+02   
7.043000000000000e+09    -1.827358670214345e+01   -1.531616563541891e+02   
7.044000000000000e+09    -1.822751690629551e+01   -1.533845253524693e+02   
7.045000000000000e+09    -1.821311043524649e+01   -1.537149860963107e+02   
7.046000000000000e+09    -1.816706186202398e+01   -1.539678799107139e+02   
7.047000000000000e+09    -1.813914765929202e+01   -1.541873589125655e+02   
7.048000000000000e+09    -1.810893154786727e+01   -1.544422722236983e+02   
7.049000000000000e+09    -1.807874097640858e+01   -1.546600000689936e+02   
7.050000000000000e+09    -1.804260880060884e+01   -1.548482123848715e+02   
7.051000000000000e+09    -1.800974327413303e+01   -1.550864542366090e+02   
7.052000000000000e+09    -1.798387001267717e+01   -1.552366095330023e+02   
7.053000000000000e+09    -1.794354736927175e+01   -1.554046155343555e+02   
7.054000000000000e+09    -1.790900616602810e+01   -1.555736405918634e+02   
7.055000000000000e+09    -1.786850680991753e+01   -1.557348494811833e+02   
7.056000000000000e+09    -1.783715155156138e+01   -1.558617476941062e+02   
7.057000000000000e+09    -1.780562596382368e+01   -1.560254592732066e+02   
7.058000000000000e+09    -1.779092090720492e+01   -1.560694538407265e+02   
7.059000000000000e+09    -1.775428719223491e+01   -1.561474232305274e+02   
7.060000000000000e+09    -1.772440394533001e+01   -1.562495219050521e+02   
7.061000000000000e+09    -1.770233479877793e+01   -1.562538893554585e+02   
7.062000000000000e+09    -1.767097680026153e+01   -1.563436226349498e+02   
7.063000000000000e+09    -1.764564512888414e+01   -1.563556354767832e+02   
7.064000000000000e+09    -1.763311183770803e+01   -1.563508426461663e+02   
7.065000000000000e+09    -1.761433660250994e+01   -1.563735319220689e+02   
7.066000000000000e+09    -1.759521162376378e+01   -1.562998609667588e+02   
7.067000000000000e+09    -1.758479455302648e+01   -1.562979516989338e+02   
7.068000000000000e+09    -1.757238449063897e+01   -1.562087937618733e+02   
7.069000000000000e+09    -1.756778784469699e+01   -1.562138547976184e+02   
7.070000000000000e+09    -1.756538916974012e+01   -1.560934459170083e+02   
7.071000000000000e+09    -1.756267654692281e+01   -1.559795118698288e+02   
7.072000000000000e+09    -1.756392462896067e+01   -1.559293237763144e+02   
7.073000000000000e+09    -1.756522502625085e+01   -1.558293577154840e+02   
7.074000000000000e+09    -1.757795757940982e+01   -1.557232582069870e+02   
7.075000000000000e+09    -1.758547657725801e+01   -1.555805098656592e+02   
7.076000000000000e+09    -1.760466479733469e+01   -1.554485581359598e+02   
7.077000000000000e+09    -1.761885919861091e+01   -1.552957834418146e+02   
7.078000000000000e+09    -1.764197583040455e+01   -1.551720547938067e+02   
7.079000000000000e+09    -1.766668057866090e+01   -1.550391721423780e+02   
7.080000000000000e+09    -1.768930741473534e+01   -1.548985167261307e+02   
7.081000000000000e+09    -1.772222357479012e+01   -1.547737839725234e+02   
7.082000000000000e+09    -1.775971718326303e+01   -1.546183657591108e+02   
7.083000000000000e+09    -1.780253437852401e+01   -1.544692730250894e+02   
7.084000000000000e+09    -1.783909238826390e+01   -1.543409393385220e+02   
7.085000000000000e+09    -1.788427139589122e+01   -1.541500212158304e+02   
7.086000000000000e+09    -1.793583544820548e+01   -1.540581360834381e+02   
7.087000000000000e+09    -1.798841979276975e+01   -1.539442074142353e+02   
7.088000000000000e+09    -1.804120926524589e+01   -1.537683736373910e+02   
7.089000000000000e+09    -1.809775369772435e+01   -1.535935795122769e+02   
7.090000000000000e+09    -1.815716155051047e+01   -1.534638763677297e+02   
7.091000000000000e+09    -1.822164939010518e+01   -1.533955249271267e+02   
7.092000000000000e+09    -1.828591853444595e+01   -1.532724866654056e+02   
7.093000000000000e+09    -1.835704369328649e+01   -1.531420909386991e+02   
7.094000000000000e+09    -1.842299689443176e+01   -1.530604869010716e+02   
7.095000000000000e+09    -1.850175645246982e+01   -1.529716627483676e+02   
7.096000000000000e+09    -1.856851380467718e+01   -1.528682669998107e+02   
7.097000000000000e+09    -1.864569000637917e+01   -1.528302774833160e+02   
7.098000000000000e+09    -1.872715481812377e+01   -1.527262743476510e+02   
7.099000000000000e+09    -1.880504719351992e+01   -1.526252160181907e+02   
7.100000000000000e+09    -1.888894227945703e+01   -1.526177155580523e+02   
7.101000000000000e+09    -1.897246930607950e+01   -1.526068136192702e+02   
7.102000000000000e+09    -1.906295691437772e+01   -1.525643335894994e+02   
7.103000000000000e+09    -1.914963496813756e+01   -1.525748581389829e+02   
7.104000000000000e+09    -1.923887995518924e+01   -1.526051031762370e+02   
7.105000000000000e+09    -1.933401736850636e+01   -1.525508054023425e+02   
7.106000000000000e+09    -1.942609742254236e+01   -1.526245065066485e+02   
7.107000000000000e+09    -1.952949996604163e+01   -1.526170903247011e+02   
7.108000000000000e+09    -1.961839904896204e+01   -1.526262733308670e+02   
7.109000000000000e+09    -1.971952547856071e+01   -1.526339750587396e+02   
7.110000000000000e+09    -1.981218658627798e+01   -1.526793473780368e+02   
7.111000000000000e+09    -1.990610444359858e+01   -1.527800665612894e+02   
7.112000000000000e+09    -2.000442640645183e+01   -1.528436088832997e+02   
7.113000000000000e+09    -2.011148984982995e+01   -1.529801715720047e+02   
7.114000000000000e+09    -2.021045655176600e+01   -1.531253071333969e+02   
7.115000000000000e+09    -2.030174770803503e+01   -1.532254113646147e+02   
7.116000000000000e+09    -2.040773212978724e+01   -1.533090726430021e+02   
7.117000000000000e+09    -2.050179281751463e+01   -1.535131397027554e+02   
7.118000000000000e+09    -2.058931001910272e+01   -1.537238199529089e+02   
7.119000000000000e+09    -2.069904058802637e+01   -1.539257864113439e+02   
7.120000000000000e+09    -2.079451709718857e+01   -1.541540388895140e+02   
7.121000000000000e+09    -2.089457994437447e+01   -1.543917845636199e+02   
7.122000000000000e+09    -2.098274040626284e+01   -1.546702978545940e+02   
7.123000000000000e+09    -2.107356042214817e+01   -1.549043116532782e+02   
7.124000000000000e+09    -2.116687583407223e+01   -1.551556922766028e+02   
7.125000000000000e+09    -2.125986573078760e+01   -1.555052558434120e+02   
7.126000000000000e+09    -2.134806647804970e+01   -1.557584500155568e+02   
7.127000000000000e+09    -2.143280569750180e+01   -1.560285098688669e+02   
7.128000000000000e+09    -2.150513038912016e+01   -1.564870377358138e+02   
7.129000000000000e+09    -2.159341465185736e+01   -1.566881897447815e+02   
7.130000000000000e+09    -2.165872673800673e+01   -1.571086528594624e+02   
7.131000000000000e+09    -2.172438219834747e+01   -1.574723263431108e+02   
7.132000000000000e+09    -2.180345181941989e+01   -1.577555112928895e+02   
7.133000000000000e+09    -2.184149778969626e+01   -1.581507947237289e+02   
7.134000000000000e+09    -2.190906320438796e+01   -1.585864308311434e+02   
7.135000000000000e+09    -2.196827322245370e+01   -1.588924212879746e+02   
7.136000000000000e+09    -2.200566212721400e+01   -1.592580930724399e+02   
7.137000000000000e+09    -2.205895502992652e+01   -1.596137284848325e+02   
7.138000000000000e+09    -2.208838457668666e+01   -1.599721461024568e+02   
7.139000000000000e+09    -2.212661333701098e+01   -1.602031294024482e+02   
7.140000000000000e+09    -2.216202558843174e+01   -1.606442783482188e+02   
7.141000000000000e+09    -2.217936126884592e+01   -1.610000481131775e+02   
7.142000000000000e+09    -2.220232045512629e+01   -1.611501306896008e+02   
7.143000000000000e+09    -2.223276310809512e+01   -1.614494544808448e+02   
7.144000000000000e+09    -2.225673864118490e+01   -1.616399449331335e+02   
7.145000000000000e+09    -2.227403178712059e+01   -1.618689240533747e+02   
7.146000000000000e+09    -2.227646112961636e+01   -1.620472459369813e+02   
7.147000000000000e+09    -2.227776848484212e+01   -1.621645524452463e+02   
7.148000000000000e+09    -2.229099777077760e+01   -1.622041523554926e+02   
7.149000000000000e+09    -2.230021481532260e+01   -1.623420943884785e+02   
7.150000000000000e+09    -2.228848805100715e+01   -1.623737282125673e+02   
7.151000000000000e+09    -2.228915521710097e+01   -1.623900163986570e+02   
7.152000000000000e+09    -2.229160202672106e+01   -1.624238820288112e+02   
7.153000000000000e+09    -2.228180770524441e+01   -1.624057632349329e+02   
7.154000000000000e+09    -2.227723135332548e+01   -1.623883041300766e+02   
7.155000000000000e+09    -2.225973677059751e+01   -1.621836284670458e+02   
7.156000000000000e+09    -2.224756433121295e+01   -1.619820390866832e+02   
7.157000000000000e+09    -2.224503943484460e+01   -1.618524593088727e+02   
7.158000000000000e+09    -2.224384438182059e+01   -1.616937030769510e+02   
7.159000000000000e+09    -2.222717016713975e+01   -1.614123952538471e+02   
7.160000000000000e+09    -2.223174465533619e+01   -1.612234550552733e+02   
7.161000000000000e+09    -2.221343440600191e+01   -1.609427935768851e+02   
7.162000000000000e+09    -2.221513234247642e+01   -1.605945186074533e+02   
7.163000000000000e+09    -2.220073843902158e+01   -1.602205597470230e+02   
7.164000000000000e+09    -2.220247206889414e+01   -1.598576005140941e+02   
7.165000000000000e+09    -2.219433583095780e+01   -1.594823477059134e+02   
7.166000000000000e+09    -2.221009437605761e+01   -1.590472255215230e+02   
7.167000000000000e+09    -2.220135287848171e+01   -1.585568285948149e+02   
7.168000000000000e+09    -2.220318636074836e+01   -1.580703985810951e+02   
7.169000000000000e+09    -2.220750262415536e+01   -1.574993651219557e+02   
7.170000000000000e+09    -2.220664118294435e+01   -1.568486561375793e+02   
7.171000000000000e+09    -2.221022719687813e+01   -1.562822694259465e+02   
7.172000000000000e+09    -2.222357918417574e+01   -1.556906826439338e+02   
7.173000000000000e+09    -2.223293498009058e+01   -1.550625069921184e+02   
7.174000000000000e+09    -2.224420377711541e+01   -1.543693951022053e+02   
7.175000000000000e+09    -2.224404136502445e+01   -1.537051654612344e+02   
7.176000000000000e+09    -2.225651595125925e+01   -1.529943531817321e+02   
7.177000000000000e+09    -2.227157509500273e+01   -1.522727565181120e+02   
7.178000000000000e+09    -2.228707333183359e+01   -1.515350805181830e+02   
7.179000000000000e+09    -2.231870204241709e+01   -1.507482087602257e+02   
7.180000000000000e+09    -2.232529627182578e+01   -1.499001609731946e+02   
7.181000000000000e+09    -2.234205925271791e+01   -1.491496004905028e+02   
7.182000000000000e+09    -2.236341075929755e+01   -1.482583734158418e+02   
7.183000000000000e+09    -2.238523303669551e+01   -1.474352740406688e+02   
7.184000000000000e+09    -2.241027108067587e+01   -1.466294852655116e+02   
7.185000000000000e+09    -2.243892693784622e+01   -1.456348074985551e+02   
7.186000000000000e+09    -2.246599575256329e+01   -1.447412247465382e+02   
7.187000000000000e+09    -2.248313966734328e+01   -1.438296092384322e+02   
7.188000000000000e+09    -2.250064941745893e+01   -1.428021547206157e+02   
7.189000000000000e+09    -2.253976376926486e+01   -1.418835341458225e+02   
7.190000000000000e+09    -2.256001560522933e+01   -1.409119241509013e+02   
7.191000000000000e+09    -2.257760331702860e+01   -1.399737296764779e+02   
7.192000000000000e+09    -2.261197480042512e+01   -1.389106838483327e+02   
7.193000000000000e+09    -2.263634921113816e+01   -1.379136525877289e+02   
7.194000000000000e+09    -2.267099623736363e+01   -1.368919501550538e+02   
7.195000000000000e+09    -2.269367996475148e+01   -1.358553111192370e+02   
7.196000000000000e+09    -2.272708954377568e+01   -1.347896724262571e+02   
7.197000000000000e+09    -2.275929708606866e+01   -1.336890812370989e+02   
7.198000000000000e+09    -2.278259310444066e+01   -1.326528026005803e+02   
7.199000000000000e+09    -2.280600942423371e+01   -1.315866058689076e+02   
7.200000000000000e+09    -2.284132620212346e+01   -1.305572071784524e+02   
7.201000000000000e+09    -2.289062743550208e+01   -1.294706880302949e+02   
7.202000000000000e+09    -2.291801929864000e+01   -1.284313661658246e+02   
7.203000000000000e+09    -2.295458369323045e+01   -1.274018630815023e+02   
7.204000000000000e+09    -2.299666533302680e+01   -1.263595129002417e+02   
7.205000000000000e+09    -2.304860148346803e+01   -1.252717038709498e+02   
7.206000000000000e+09    -2.308234294859614e+01   -1.242546971194404e+02   
7.207000000000000e+09    -2.312577240768963e+01   -1.231117498373711e+02   
7.208000000000000e+09    -2.317065584548524e+01   -1.220284090517731e+02   
7.209000000000000e+09    -2.320661229005268e+01   -1.209847980856379e+02   
7.210000000000000e+09    -2.324433062069872e+01   -1.198979207580399e+02   
7.211000000000000e+09    -2.327053036109996e+01   -1.188880364964718e+02   
7.212000000000000e+09    -2.331609844697147e+01   -1.178718568243530e+02   
7.213000000000000e+09    -2.335189864768589e+01   -1.169274281396996e+02   
7.214000000000000e+09    -2.338203773799359e+01   -1.159091175269810e+02   
7.215000000000000e+09    -2.341086470597786e+01   -1.150706595254972e+02   
7.216000000000000e+09    -2.345636932650158e+01   -1.141495779317857e+02   
7.217000000000000e+09    -2.348723853458107e+01   -1.133049663004254e+02   
7.218000000000000e+09    -2.351394629241122e+01   -1.123636035853214e+02   
7.219000000000000e+09    -2.354301155934985e+01   -1.115052978430955e+02   
7.220000000000000e+09    -2.356561057624440e+01   -1.107571200678425e+02   
7.221000000000000e+09    -2.358664565892873e+01   -1.100155619842519e+02   
7.222000000000000e+09    -2.361598064425396e+01   -1.093657617099937e+02   
7.223000000000000e+09    -2.363910797014024e+01   -1.086085031093086e+02   
7.224000000000000e+09    -2.366268113461263e+01   -1.079825006778814e+02   
7.225000000000000e+09    -2.366801766148617e+01   -1.072987811512229e+02   
7.226000000000000e+09    -2.369005046952585e+01   -1.067810650655239e+02   
7.227000000000000e+09    -2.368620940391208e+01   -1.062376286571851e+02   
7.228000000000000e+09    -2.370597916824164e+01   -1.057901543604455e+02   
7.229000000000000e+09    -2.368770815533234e+01   -1.052828463539755e+02   
7.230000000000000e+09    -2.368703981495075e+01   -1.048645226554744e+02   
7.231000000000000e+09    -2.368944592797438e+01   -1.046157341472946e+02   
7.232000000000000e+09    -2.368296043304995e+01   -1.044385427163726e+02   
7.233000000000000e+09    -2.367595179477093e+01   -1.041332704332448e+02   
7.234000000000000e+09    -2.365534183233034e+01   -1.039621453966457e+02   
7.235000000000000e+09    -2.365019680344368e+01   -1.038312228622677e+02   
7.236000000000000e+09    -2.362116200115544e+01   -1.035699252783447e+02   
7.237000000000000e+09    -2.362130915798783e+01   -1.034911131948462e+02   
7.238000000000000e+09    -2.359979991395792e+01   -1.033841457216426e+02   
7.239000000000000e+09    -2.355981096735297e+01   -1.034100373094467e+02   
7.240000000000000e+09    -2.353000636134403e+01   -1.034168333936133e+02   
7.241000000000000e+09    -2.347661934868564e+01   -1.034857750513232e+02   
7.242000000000000e+09    -2.343407194825078e+01   -1.036021722775934e+02   
7.243000000000000e+09    -2.337613683620098e+01   -1.038384481649317e+02   
7.244000000000000e+09    -2.332301331101976e+01   -1.038492204141904e+02   
7.245000000000000e+09    -2.329093753966765e+01   -1.040881681312401e+02   
7.246000000000000e+09    -2.322146168341723e+01   -1.042612817224207e+02   
7.247000000000000e+09    -2.315719239805361e+01   -1.044802502610757e+02   
7.248000000000000e+09    -2.307659462235014e+01   -1.048396455746995e+02   
7.249000000000000e+09    -2.301558821571039e+01   -1.050333383449515e+02   
7.250000000000000e+09    -2.292953075221737e+01   -1.053441940311060e+02   
7.251000000000000e+09    -2.284868744887398e+01   -1.056588783120214e+02   
7.252000000000000e+09    -2.276803411907677e+01   -1.060218033391238e+02   
7.253000000000000e+09    -2.268215365604820e+01   -1.062344913074758e+02   
7.254000000000000e+09    -2.258328317999357e+01   -1.065557554073449e+02   
7.255000000000000e+09    -2.248501897125335e+01   -1.068457393007420e+02   
7.256000000000000e+09    -2.239505613251738e+01   -1.072563221058064e+02   
