[Version] 2.0
! Rohde & Schwarz Vector Network Analyzer
! Rohde-Schwarz,ZNL20-2Port,1323001220200009,1.71.1.10-23.02.1.238
! 
! Trace info:
! Nominal Param -> Actual Exported Buffer
! ---------------------------------------
! S11 -> S22

! Created: GMT+3 2024-09-24 16:37:34

# Hz S DB R 50

[Number of Ports] 1
[Number of Frequencies] 6001

[Network Data] 
! freq[Hz]               S11[mag dB]              S11[ang]                 
7.000000000000000e+09    -1.834948676203528e+01   -1.412486492144517e+02   
7.001000000000000e+09    -1.836851582200143e+01   -1.412045374165685e+02   
7.002000000000000e+09    -1.839425330610226e+01   -1.411626866941905e+02   
7.003000000000000e+09    -1.841589753540133e+01   -1.411423175979818e+02   
7.004000000000000e+09    -1.844286007760042e+01   -1.411418411135547e+02   
7.005000000000000e+09    -1.846961184995361e+01   -1.411567611198994e+02   
7.006000000000000e+09    -1.849393900397246e+01   -1.412047591433715e+02   
7.007000000000000e+09    -1.851298090517798e+01   -1.413178563086265e+02   
7.008000000000000e+09    -1.853748472427059e+01   -1.414054627449371e+02   
7.009000000000000e+09    -1.855704942624392e+01   -1.415685255964115e+02   
7.010000000000000e+09    -1.858181113224001e+01   -1.416839951408588e+02   
7.011000000000000e+09    -1.859199586544987e+01   -1.419034184795588e+02   
7.012000000000000e+09    -1.861181888012992e+01   -1.420704238736303e+02   
7.013000000000000e+09    -1.863147280721768e+01   -1.423525155461841e+02   
7.014000000000000e+09    -1.864515286653705e+01   -1.426147887771010e+02   
7.015000000000000e+09    -1.865736355653018e+01   -1.428791204465428e+02   
7.016000000000000e+09    -1.867037270494464e+01   -1.431389552932503e+02   
7.017000000000000e+09    -1.867398619628431e+01   -1.434838211140965e+02   
7.018000000000000e+09    -1.868409487924225e+01   -1.437761860295761e+02   
7.019000000000000e+09    -1.868539937752774e+01   -1.440720530707121e+02   
7.020000000000000e+09    -1.869142543925989e+01   -1.444462767786804e+02   
7.021000000000000e+09    -1.869216926306908e+01   -1.447737474176012e+02   
7.022000000000000e+09    -1.870029937050382e+01   -1.450602035189001e+02   
7.023000000000000e+09    -1.868482517348750e+01   -1.454515218619205e+02   
7.024000000000000e+09    -1.867840915751353e+01   -1.458358576964873e+02   
7.025000000000000e+09    -1.867233187424496e+01   -1.462035914400996e+02   
7.026000000000000e+09    -1.865598375142094e+01   -1.465875755226798e+02   
7.027000000000000e+09    -1.864676830914788e+01   -1.469119793732217e+02   
7.028000000000000e+09    -1.862866239092856e+01   -1.473234892388478e+02   
7.029000000000000e+09    -1.861606620148453e+01   -1.477247232853086e+02   
7.030000000000000e+09    -1.859990373299175e+01   -1.480758565104373e+02   
7.031000000000000e+09    -1.859021206676300e+01   -1.484475592137039e+02   
7.032000000000000e+09    -1.857460571974401e+01   -1.488575148320465e+02   
7.033000000000000e+09    -1.855449607491925e+01   -1.492704815124636e+02   
7.034000000000000e+09    -1.853362194853543e+01   -1.495722961118087e+02   
7.035000000000000e+09    -1.850871632469403e+01   -1.498892454882321e+02   
7.036000000000000e+09    -1.849316936144703e+01   -1.502655162695757e+02   
7.037000000000000e+09    -1.846048598595421e+01   -1.505437167596640e+02   
7.038000000000000e+09    -1.842375261568108e+01   -1.509459986958422e+02   
7.039000000000000e+09    -1.840743693658835e+01   -1.512875875383991e+02   
7.040000000000000e+09    -1.837278447271596e+01   -1.516513174765807e+02   
7.041000000000000e+09    -1.833968214991305e+01   -1.519146403096777e+02   
7.042000000000000e+09    -1.831605742831064e+01   -1.522243044069464e+02   
7.043000000000000e+09    -1.828277060761391e+01   -1.525931216242781e+02   
7.044000000000000e+09    -1.823889332495543e+01   -1.528446837663919e+02   
7.045000000000000e+09    -1.821725670535395e+01   -1.531295819660442e+02   
7.046000000000000e+09    -1.817675032129333e+01   -1.534299982461267e+02   
7.047000000000000e+09    -1.814993236563203e+01   -1.536483371590406e+02   
7.048000000000000e+09    -1.811507165834653e+01   -1.538785749981147e+02   
7.049000000000000e+09    -1.808076288870776e+01   -1.540822696058350e+02   
7.050000000000000e+09    -1.803923174006371e+01   -1.543376346588555e+02   
7.051000000000000e+09    -1.800614730053332e+01   -1.545581605617709e+02   
7.052000000000000e+09    -1.798069759868500e+01   -1.547285538077374e+02   
7.053000000000000e+09    -1.794596597620325e+01   -1.549423170052124e+02   
7.054000000000000e+09    -1.790522236290283e+01   -1.550531831942476e+02   
7.055000000000000e+09    -1.787215736467260e+01   -1.552296179371782e+02   
7.056000000000000e+09    -1.784260036866239e+01   -1.553395291302162e+02   
7.057000000000000e+09    -1.780127255042931e+01   -1.555136084101615e+02   
7.058000000000000e+09    -1.777969510767371e+01   -1.555853288486864e+02   
7.059000000000000e+09    -1.774123221321270e+01   -1.556658434267088e+02   
7.060000000000000e+09    -1.771353403063383e+01   -1.557597845955006e+02   
7.061000000000000e+09    -1.769257434363899e+01   -1.558019895301697e+02   
7.062000000000000e+09    -1.766017840262341e+01   -1.559058265681423e+02   
7.063000000000000e+09    -1.763647568674873e+01   -1.558887982011981e+02   
7.064000000000000e+09    -1.761398953707311e+01   -1.558560710356182e+02   
7.065000000000000e+09    -1.759733935390339e+01   -1.559331306233752e+02   
7.066000000000000e+09    -1.758114821330782e+01   -1.558803967441422e+02   
7.067000000000000e+09    -1.756416884680823e+01   -1.558369401499180e+02   
7.068000000000000e+09    -1.755730875865345e+01   -1.557799184648672e+02   
7.069000000000000e+09    -1.754910741898458e+01   -1.557637079010228e+02   
7.070000000000000e+09    -1.754196388072933e+01   -1.556037801592628e+02   
7.071000000000000e+09    -1.753879556290088e+01   -1.555363133367630e+02   
7.072000000000000e+09    -1.754568065685675e+01   -1.555121452223686e+02   
7.073000000000000e+09    -1.754375296652082e+01   -1.554249006684914e+02   
7.074000000000000e+09    -1.754944888256764e+01   -1.552756205041167e+02   
7.075000000000000e+09    -1.756239940422229e+01   -1.551724554434595e+02   
7.076000000000000e+09    -1.757987500339289e+01   -1.550261561411569e+02   
7.077000000000000e+09    -1.759142278195610e+01   -1.549124724616022e+02   
7.078000000000000e+09    -1.761604588674863e+01   -1.548093513068087e+02   
7.079000000000000e+09    -1.763647479279935e+01   -1.545912224732162e+02   
7.080000000000000e+09    -1.765815371065728e+01   -1.544687761950897e+02   
7.081000000000000e+09    -1.769661467870062e+01   -1.543599464391645e+02   
7.082000000000000e+09    -1.773144927979278e+01   -1.542024271342761e+02   
7.083000000000000e+09    -1.776226323228646e+01   -1.540934830052079e+02   
7.084000000000000e+09    -1.780931577437785e+01   -1.538928614454707e+02   
7.085000000000000e+09    -1.785243542626371e+01   -1.537716003065067e+02   
7.086000000000000e+09    -1.790087494980286e+01   -1.536585287922546e+02   
7.087000000000000e+09    -1.794754252610422e+01   -1.535189057742903e+02   
7.088000000000000e+09    -1.800527665715170e+01   -1.533564438284257e+02   
7.089000000000000e+09    -1.806010242120927e+01   -1.532240030748046e+02   
7.090000000000000e+09    -1.811142294844992e+01   -1.530904942479631e+02   
7.091000000000000e+09    -1.817822816900606e+01   -1.529728509253049e+02   
7.092000000000000e+09    -1.824323292929147e+01   -1.528795120073481e+02   
7.093000000000000e+09    -1.830441832584838e+01   -1.527582535641548e+02   
7.094000000000000e+09    -1.838116914271254e+01   -1.526866269042082e+02   
7.095000000000000e+09    -1.844891201196408e+01   -1.525778271540586e+02   
7.096000000000000e+09    -1.851810702968976e+01   -1.524554425974901e+02   
7.097000000000000e+09    -1.859785089180275e+01   -1.524081099865072e+02   
7.098000000000000e+09    -1.867175936899599e+01   -1.523264833374442e+02   
7.099000000000000e+09    -1.875377308445655e+01   -1.522914197071929e+02   
7.100000000000000e+09    -1.882944715975850e+01   -1.522418633605209e+02   
7.101000000000000e+09    -1.891252961023754e+01   -1.521965902778983e+02   
7.102000000000000e+09    -1.899963005677171e+01   -1.521560367695841e+02   
7.103000000000000e+09    -1.908685113104735e+01   -1.521482795218637e+02   
7.104000000000000e+09    -1.917114019073448e+01   -1.521780014830228e+02   
7.105000000000000e+09    -1.926766645297485e+01   -1.521790838913378e+02   
7.106000000000000e+09    -1.935407631037669e+01   -1.522186638880260e+02   
7.107000000000000e+09    -1.945589383903305e+01   -1.522485262971261e+02   
7.108000000000000e+09    -1.953745325615481e+01   -1.522775102900847e+02   
7.109000000000000e+09    -1.963190104134295e+01   -1.523189221831235e+02   
7.110000000000000e+09    -1.972435216481760e+01   -1.523419109414908e+02   
7.111000000000000e+09    -1.982366520757057e+01   -1.524727467685907e+02   
7.112000000000000e+09    -1.991583656989012e+01   -1.525534476206814e+02   
7.113000000000000e+09    -2.002115675355539e+01   -1.526844430377124e+02   
7.114000000000000e+09    -2.011485809763190e+01   -1.528368250600487e+02   
7.115000000000000e+09    -2.021355695786974e+01   -1.529727249781255e+02   
7.116000000000000e+09    -2.031804803329196e+01   -1.530699499233707e+02   
7.117000000000000e+09    -2.041382428534076e+01   -1.533117815661401e+02   
7.118000000000000e+09    -2.050012875019335e+01   -1.535284239779369e+02   
7.119000000000000e+09    -2.060918860654537e+01   -1.536946910183464e+02   
7.120000000000000e+09    -2.071049076333723e+01   -1.539593424961266e+02   
7.121000000000000e+09    -2.080432903640870e+01   -1.542148646884829e+02   
7.122000000000000e+09    -2.089269493658178e+01   -1.544934973726589e+02   
7.123000000000000e+09    -2.098323434903009e+01   -1.547592880719001e+02   
7.124000000000000e+09    -2.107901631076533e+01   -1.549202948730897e+02   
7.125000000000000e+09    -2.117848329398640e+01   -1.553835034154821e+02   
7.126000000000000e+09    -2.124930112190764e+01   -1.555820420700962e+02   
7.127000000000000e+09    -2.134216838476121e+01   -1.558967712795423e+02   
7.128000000000000e+09    -2.141758258231437e+01   -1.562933676075422e+02   
7.129000000000000e+09    -2.149204969465623e+01   -1.564781687174145e+02   
7.130000000000000e+09    -2.156644247942386e+01   -1.568983880536989e+02   
7.131000000000000e+09    -2.162873075292517e+01   -1.572418930764556e+02   
7.132000000000000e+09    -2.171115793392269e+01   -1.575823562286845e+02   
7.133000000000000e+09    -2.176145853354736e+01   -1.579461790165657e+02   
7.134000000000000e+09    -2.182406844920477e+01   -1.582896650000536e+02   
7.135000000000000e+09    -2.186775279485014e+01   -1.586596421071834e+02   
7.136000000000000e+09    -2.192128178054312e+01   -1.590038492105023e+02   
7.137000000000000e+09    -2.195539960580352e+01   -1.593804005740666e+02   
7.138000000000000e+09    -2.198117989131464e+01   -1.597678441260131e+02   
7.139000000000000e+09    -2.202485419470270e+01   -1.600579578354694e+02   
7.140000000000000e+09    -2.205474922885760e+01   -1.604307140740742e+02   
7.141000000000000e+09    -2.207675492672695e+01   -1.607591534343385e+02   
7.142000000000000e+09    -2.210593152001797e+01   -1.610589782560313e+02   
7.143000000000000e+09    -2.212122705252949e+01   -1.613030944397882e+02   
7.144000000000000e+09    -2.213809897729121e+01   -1.614395422950615e+02   
7.145000000000000e+09    -2.216493709410424e+01   -1.616966128421214e+02   
7.146000000000000e+09    -2.216649811014306e+01   -1.618857587564857e+02   
7.147000000000000e+09    -2.217224585456643e+01   -1.620310570211034e+02   
7.148000000000000e+09    -2.217470549623437e+01   -1.621689572178338e+02   
7.149000000000000e+09    -2.217891111546720e+01   -1.622385959076572e+02   
7.150000000000000e+09    -2.217534900328774e+01   -1.623084784431670e+02   
7.151000000000000e+09    -2.217717844783190e+01   -1.623541078069784e+02   
7.152000000000000e+09    -2.215875264302222e+01   -1.623326817474498e+02   
7.153000000000000e+09    -2.217086195409385e+01   -1.623345616219411e+02   
7.154000000000000e+09    -2.216851062246933e+01   -1.623786570432001e+02   
7.155000000000000e+09    -2.214902836887067e+01   -1.622222514526573e+02   
7.156000000000000e+09    -2.213900544948200e+01   -1.620287679366174e+02   
7.157000000000000e+09    -2.213560900479708e+01   -1.618967834088141e+02   
7.158000000000000e+09    -2.213459209676575e+01   -1.617632888431010e+02   
7.159000000000000e+09    -2.211669181217859e+01   -1.614916129005123e+02   
7.160000000000000e+09    -2.212021221050239e+01   -1.612795437082973e+02   
7.161000000000000e+09    -2.210537341221155e+01   -1.610329767473755e+02   
7.162000000000000e+09    -2.210722988455326e+01   -1.606941668470324e+02   
7.163000000000000e+09    -2.209845428693686e+01   -1.603405757405879e+02   
7.164000000000000e+09    -2.209932483826503e+01   -1.600793261213939e+02   
7.165000000000000e+09    -2.210447815353901e+01   -1.596375588083246e+02   
7.166000000000000e+09    -2.209016005147231e+01   -1.591236584342400e+02   
7.167000000000000e+09    -2.210146151008992e+01   -1.587181325172738e+02   
7.168000000000000e+09    -2.210075262020583e+01   -1.582298866060752e+02   
7.169000000000000e+09    -2.211505208858835e+01   -1.576988217187962e+02   
7.170000000000000e+09    -2.211390865724661e+01   -1.571165421468007e+02   
7.171000000000000e+09    -2.211745415573207e+01   -1.566502514657166e+02   
7.172000000000000e+09    -2.212380366143036e+01   -1.559304860869345e+02   
7.173000000000000e+09    -2.214131209006906e+01   -1.553537499609989e+02   
7.174000000000000e+09    -2.213910004950232e+01   -1.546615715685781e+02   
7.175000000000000e+09    -2.215182067767331e+01   -1.539543445119900e+02   
7.176000000000000e+09    -2.216590453047077e+01   -1.533374415868261e+02   
7.177000000000000e+09    -2.217574474361675e+01   -1.526602932186013e+02   
7.178000000000000e+09    -2.220363833986024e+01   -1.518827380439415e+02   
7.179000000000000e+09    -2.222579925023745e+01   -1.511019488033211e+02   
7.180000000000000e+09    -2.224391868814347e+01   -1.503752084126352e+02   
7.181000000000000e+09    -2.225452462457831e+01   -1.495886460534981e+02   
7.182000000000000e+09    -2.227589398448511e+01   -1.486310786134869e+02   
7.183000000000000e+09    -2.229072356065675e+01   -1.478363130353197e+02   
7.184000000000000e+09    -2.231950153621388e+01   -1.470580932691771e+02   
7.185000000000000e+09    -2.235128923917575e+01   -1.461303827734214e+02   
7.186000000000000e+09    -2.237024077291930e+01   -1.453101360074340e+02   
7.187000000000000e+09    -2.239513851921507e+01   -1.443754769502861e+02   
7.188000000000000e+09    -2.241261614604144e+01   -1.434438604699704e+02   
7.189000000000000e+09    -2.245227046696962e+01   -1.425373264597762e+02   
7.190000000000000e+09    -2.248664796512343e+01   -1.415530227609724e+02   
7.191000000000000e+09    -2.248230099617399e+01   -1.406113176526092e+02   
7.192000000000000e+09    -2.253557153591427e+01   -1.396450261595053e+02   
7.193000000000000e+09    -2.255561245988673e+01   -1.386130619309343e+02   
7.194000000000000e+09    -2.259764889769373e+01   -1.376329612171264e+02   
7.195000000000000e+09    -2.263578296652057e+01   -1.366611705945827e+02   
7.196000000000000e+09    -2.266780359472295e+01   -1.356199239775999e+02   
7.197000000000000e+09    -2.272317414702588e+01   -1.346125161111205e+02   
7.198000000000000e+09    -2.274730509733503e+01   -1.335366653894005e+02   
7.199000000000000e+09    -2.277425746365467e+01   -1.325271130934439e+02   
7.200000000000000e+09    -2.281868249329806e+01   -1.315009992096251e+02   
7.201000000000000e+09    -2.285507883284548e+01   -1.304168982431418e+02   
7.202000000000000e+09    -2.289557286561007e+01   -1.293690893866233e+02   
7.203000000000000e+09    -2.294067618276836e+01   -1.283449390450836e+02   
7.204000000000000e+09    -2.299875832858044e+01   -1.272971493313336e+02   
7.205000000000000e+09    -2.304874982560847e+01   -1.261232231661425e+02   
7.206000000000000e+09    -2.309695681291192e+01   -1.250852497775323e+02   
7.207000000000000e+09    -2.315000604408009e+01   -1.239592949458778e+02   
7.208000000000000e+09    -2.318220547890082e+01   -1.229522311231954e+02   
7.209000000000000e+09    -2.322599582718452e+01   -1.218806333606556e+02   
7.210000000000000e+09    -2.327572307058969e+01   -1.208283319244000e+02   
7.211000000000000e+09    -2.329955088451295e+01   -1.196570278607603e+02   
7.212000000000000e+09    -2.335279351346951e+01   -1.187154244111072e+02   
7.213000000000000e+09    -2.340022699141423e+01   -1.178430686000484e+02   
7.214000000000000e+09    -2.342535263735329e+01   -1.167408718540984e+02   
7.215000000000000e+09    -2.347190998683935e+01   -1.158721907528845e+02   
7.216000000000000e+09    -2.351245860437597e+01   -1.150154217126333e+02   
7.217000000000000e+09    -2.354296931568670e+01   -1.140777070858807e+02   
7.218000000000000e+09    -2.358486568559309e+01   -1.132588550348637e+02   
7.219000000000000e+09    -2.359668583475882e+01   -1.123777918635504e+02   
7.220000000000000e+09    -2.362847128045661e+01   -1.115465678952013e+02   
7.221000000000000e+09    -2.367460151957898e+01   -1.108233958573812e+02   
7.222000000000000e+09    -2.369459324493944e+01   -1.100469305901894e+02   
7.223000000000000e+09    -2.371091639451926e+01   -1.093774331921623e+02   
7.224000000000000e+09    -2.373730314440053e+01   -1.086859175811507e+02   
7.225000000000000e+09    -2.374167601878404e+01   -1.079784942006403e+02   
7.226000000000000e+09    -2.378601554997495e+01   -1.074877302715170e+02   
7.227000000000000e+09    -2.378003730323029e+01   -1.069406875033640e+02   
7.228000000000000e+09    -2.379404246681680e+01   -1.064811348070812e+02   
7.229000000000000e+09    -2.379047815533892e+01   -1.059754532849567e+02   
7.230000000000000e+09    -2.379068754622561e+01   -1.055636380224456e+02   
7.231000000000000e+09    -2.381196869861153e+01   -1.052667398755223e+02   
7.232000000000000e+09    -2.378707543611799e+01   -1.050163743304724e+02   
7.233000000000000e+09    -2.378054248249377e+01   -1.047956690833982e+02   
7.234000000000000e+09    -2.377780174143274e+01   -1.045154526819488e+02   
7.235000000000000e+09    -2.376614265744072e+01   -1.044355100047957e+02   
7.236000000000000e+09    -2.374617340778097e+01   -1.041095028674720e+02   
7.237000000000000e+09    -2.374830428299651e+01   -1.040215537042954e+02   
7.238000000000000e+09    -2.371231914580367e+01   -1.038911142393043e+02   
7.239000000000000e+09    -2.368643169657764e+01   -1.039647843669238e+02   
7.240000000000000e+09    -2.364548240973489e+01   -1.039229503139995e+02   
7.241000000000000e+09    -2.360855139603166e+01   -1.039075962838297e+02   
7.242000000000000e+09    -2.356300081711604e+01   -1.039457121687326e+02   
7.243000000000000e+09    -2.351274964799532e+01   -1.042169837963626e+02   
7.244000000000000e+09    -2.345697114718833e+01   -1.042703411063573e+02   
7.245000000000000e+09    -2.340573621500971e+01   -1.044646715690755e+02   
7.246000000000000e+09    -2.334490238800084e+01   -1.046531850927700e+02   
7.247000000000000e+09    -2.327961255698229e+01   -1.048742370895674e+02   
7.248000000000000e+09    -2.321414618703262e+01   -1.051540916345451e+02   
7.249000000000000e+09    -2.314446316722137e+01   -1.053249536821522e+02   
7.250000000000000e+09    -2.305235639667515e+01   -1.056667046927630e+02   
7.251000000000000e+09    -2.297937269421971e+01   -1.059101355685754e+02   
7.252000000000000e+09    -2.290059773092117e+01   -1.061988475691386e+02   
7.253000000000000e+09    -2.280820896438271e+01   -1.065364239239465e+02   
7.254000000000000e+09    -2.270568555216986e+01   -1.068409659266849e+02   
7.255000000000000e+09    -2.261309412000618e+01   -1.070913346582872e+02   
7.256000000000000e+09    -2.250670198484254e+01   -1.074743962702340e+02   
