[Version] 2.0
! Rohde & Schwarz Vector Network Analyzer
! Rohde-Schwarz,ZNL20-2Port,1323001220200009,1.71.1.10-23.02.1.238
! 
! Trace info:
! Nominal Param -> Actual Exported Buffer
! ---------------------------------------
! S11 -> S22

! Created: GMT+3 2024-09-24 16:37:47

# Hz S DB R 50

[Number of Ports] 1
[Number of Frequencies] 6001

[Network Data] 
! freq[Hz]               S11[mag dB]              S11[ang]                 
7.000000000000000e+09    -1.842046498005576e+01   -1.407725649851912e+02   
7.001000000000000e+09    -1.844563011017761e+01   -1.407578603456344e+02   
7.002000000000000e+09    -1.847545594461277e+01   -1.406779697422148e+02   
7.003000000000000e+09    -1.849507987823171e+01   -1.406982012204971e+02   
7.004000000000000e+09    -1.851713207906844e+01   -1.406510679222464e+02   
7.005000000000000e+09    -1.854360123826718e+01   -1.406785145418405e+02   
7.006000000000000e+09    -1.856930260874240e+01   -1.407210569532729e+02   
7.007000000000000e+09    -1.858961661966389e+01   -1.408169394575494e+02   
7.008000000000000e+09    -1.861114743406942e+01   -1.409216638473031e+02   
7.009000000000000e+09    -1.863598354111062e+01   -1.410611754643856e+02   
7.010000000000000e+09    -1.864838792070080e+01   -1.411654943019427e+02   
7.011000000000000e+09    -1.866922476232350e+01   -1.413548557634899e+02   
7.012000000000000e+09    -1.868411776639163e+01   -1.415335524688407e+02   
7.013000000000000e+09    -1.870102866240779e+01   -1.417776797903730e+02   
7.014000000000000e+09    -1.871587861913901e+01   -1.420609021215752e+02   
7.015000000000000e+09    -1.872603974493575e+01   -1.423402629784711e+02   
7.016000000000000e+09    -1.873994485949963e+01   -1.425898781260595e+02   
7.017000000000000e+09    -1.875018099386628e+01   -1.429196175954845e+02   
7.018000000000000e+09    -1.875393936758550e+01   -1.431773239152261e+02   
7.019000000000000e+09    -1.875533830436242e+01   -1.435047454356030e+02   
7.020000000000000e+09    -1.876066015431019e+01   -1.438803915505503e+02   
7.021000000000000e+09    -1.875487107957970e+01   -1.441826478161283e+02   
7.022000000000000e+09    -1.876241663829940e+01   -1.444880453821803e+02   
7.023000000000000e+09    -1.875049739057357e+01   -1.449098781741952e+02   
7.024000000000000e+09    -1.874030394774447e+01   -1.452662070591368e+02   
7.025000000000000e+09    -1.873596334904342e+01   -1.455922419181501e+02   
7.026000000000000e+09    -1.871806458773848e+01   -1.460042457394608e+02   
7.027000000000000e+09    -1.870693633896415e+01   -1.462919812619587e+02   
7.028000000000000e+09    -1.869005799842137e+01   -1.467504466640716e+02   
7.029000000000000e+09    -1.868166691972256e+01   -1.471397140283640e+02   
7.030000000000000e+09    -1.866405778804693e+01   -1.474950474075598e+02   
7.031000000000000e+09    -1.864492125845725e+01   -1.478642460113126e+02   
7.032000000000000e+09    -1.863576795762700e+01   -1.482758812111766e+02   
7.033000000000000e+09    -1.861401190386795e+01   -1.486451895014320e+02   
7.034000000000000e+09    -1.859030624573593e+01   -1.489547304333348e+02   
7.035000000000000e+09    -1.856459208074056e+01   -1.492894880383489e+02   
7.036000000000000e+09    -1.854614438775348e+01   -1.496328143628642e+02   
7.037000000000000e+09    -1.851298615683770e+01   -1.499632684461708e+02   
7.038000000000000e+09    -1.848073949581106e+01   -1.503206709604351e+02   
7.039000000000000e+09    -1.846113360953047e+01   -1.506417292605979e+02   
7.040000000000000e+09    -1.842163335968467e+01   -1.509921578033680e+02   
7.041000000000000e+09    -1.839988862530972e+01   -1.512960090222316e+02   
7.042000000000000e+09    -1.837279479669527e+01   -1.516336608995401e+02   
7.043000000000000e+09    -1.832926803573673e+01   -1.519843317717756e+02   
7.044000000000000e+09    -1.829945639047668e+01   -1.522054907113492e+02   
7.045000000000000e+09    -1.827283995797223e+01   -1.524713061480769e+02   
7.046000000000000e+09    -1.823312503581952e+01   -1.527845067731301e+02   
7.047000000000000e+09    -1.819646235987917e+01   -1.530185294458398e+02   
7.048000000000000e+09    -1.816692002664423e+01   -1.531785602181375e+02   
7.049000000000000e+09    -1.813045624389471e+01   -1.534794742854255e+02   
7.050000000000000e+09    -1.809190727326835e+01   -1.536391059020452e+02   
7.051000000000000e+09    -1.805701354754899e+01   -1.538620178452928e+02   
7.052000000000000e+09    -1.802785335724938e+01   -1.540508531601710e+02   
7.053000000000000e+09    -1.799303889314132e+01   -1.542275973495865e+02   
7.054000000000000e+09    -1.795190142919144e+01   -1.543645377729523e+02   
7.055000000000000e+09    -1.791404688474624e+01   -1.545105717627357e+02   
7.056000000000000e+09    -1.787573915517940e+01   -1.546259797305977e+02   
7.057000000000000e+09    -1.783735344894421e+01   -1.547946039106187e+02   
7.058000000000000e+09    -1.781577046444627e+01   -1.548699374094754e+02   
7.059000000000000e+09    -1.778147484420014e+01   -1.549947187845478e+02   
7.060000000000000e+09    -1.774027137666815e+01   -1.550358368517730e+02   
7.061000000000000e+09    -1.771798335549071e+01   -1.550313133409330e+02   
7.062000000000000e+09    -1.768263835994647e+01   -1.551258825589427e+02   
7.063000000000000e+09    -1.766166418957548e+01   -1.551533053267952e+02   
7.064000000000000e+09    -1.763761152281787e+01   -1.551101694022780e+02   
7.065000000000000e+09    -1.761990497129817e+01   -1.551506866460551e+02   
7.066000000000000e+09    -1.760224939277566e+01   -1.550911606093096e+02   
7.067000000000000e+09    -1.758210202755811e+01   -1.550710675443321e+02   
7.068000000000000e+09    -1.757357371883507e+01   -1.549627222408078e+02   
7.069000000000000e+09    -1.756319736184648e+01   -1.549564513593195e+02   
7.070000000000000e+09    -1.755148184015770e+01   -1.548174236758964e+02   
7.071000000000000e+09    -1.755110552468260e+01   -1.547440253430098e+02   
7.072000000000000e+09    -1.754214136344814e+01   -1.546608777241105e+02   
7.073000000000000e+09    -1.754359817583062e+01   -1.545897524169982e+02   
7.074000000000000e+09    -1.754873061579538e+01   -1.545039497255942e+02   
7.075000000000000e+09    -1.756249627362284e+01   -1.543456485998476e+02   
7.076000000000000e+09    -1.756892505470265e+01   -1.541804939331328e+02   
7.077000000000000e+09    -1.758010897623438e+01   -1.540702052215942e+02   
7.078000000000000e+09    -1.760271703953638e+01   -1.539663705578860e+02   
7.079000000000000e+09    -1.761765555343716e+01   -1.538149208565890e+02   
7.080000000000000e+09    -1.764684140975289e+01   -1.536668501595929e+02   
7.081000000000000e+09    -1.767989649141128e+01   -1.535750313119128e+02   
7.082000000000000e+09    -1.770264088676957e+01   -1.533895150528153e+02   
7.083000000000000e+09    -1.774245756538555e+01   -1.532340361761037e+02   
7.084000000000000e+09    -1.777948833345603e+01   -1.530793913033494e+02   
7.085000000000000e+09    -1.782245552192536e+01   -1.529056085511945e+02   
7.086000000000000e+09    -1.786348481039708e+01   -1.528030102694542e+02   
7.087000000000000e+09    -1.791340563871700e+01   -1.526169446526115e+02   
7.088000000000000e+09    -1.796581969830554e+01   -1.525029639565485e+02   
7.089000000000000e+09    -1.801694773591986e+01   -1.523350357261317e+02   
7.090000000000000e+09    -1.806724820675329e+01   -1.522472180089111e+02   
7.091000000000000e+09    -1.812691876612877e+01   -1.521282142101353e+02   
7.092000000000000e+09    -1.818738174316840e+01   -1.520145449099388e+02   
7.093000000000000e+09    -1.825344201588085e+01   -1.518883475308747e+02   
7.094000000000000e+09    -1.832472795450466e+01   -1.517708923959273e+02   
7.095000000000000e+09    -1.838363239368011e+01   -1.516889643159789e+02   
7.096000000000000e+09    -1.845407258121269e+01   -1.516130158307758e+02   
7.097000000000000e+09    -1.852403177632082e+01   -1.515469679587048e+02   
7.098000000000000e+09    -1.860215401172488e+01   -1.514479565883922e+02   
7.099000000000000e+09    -1.867864203989306e+01   -1.514137296411841e+02   
7.100000000000000e+09    -1.874890383354521e+01   -1.513385746947679e+02   
7.101000000000000e+09    -1.882615994462943e+01   -1.513027179439903e+02   
7.102000000000000e+09    -1.890969314627139e+01   -1.512800820196892e+02   
7.103000000000000e+09    -1.899707342573805e+01   -1.512836312841693e+02   
7.104000000000000e+09    -1.907274966429118e+01   -1.512903105323420e+02   
7.105000000000000e+09    -1.916623553493675e+01   -1.512981377235100e+02   
7.106000000000000e+09    -1.924759662302966e+01   -1.513385269273733e+02   
7.107000000000000e+09    -1.934032215838449e+01   -1.513064211169602e+02   
7.108000000000000e+09    -1.942149985871793e+01   -1.514126684564055e+02   
7.109000000000000e+09    -1.951517059646393e+01   -1.514680163080937e+02   
7.110000000000000e+09    -1.960173511575432e+01   -1.514752701588096e+02   
7.111000000000000e+09    -1.969711683515366e+01   -1.516336485618523e+02   
7.112000000000000e+09    -1.978956735468200e+01   -1.517281829729353e+02   
7.113000000000000e+09    -1.988309224387783e+01   -1.519132677139492e+02   
7.114000000000000e+09    -1.998293567942005e+01   -1.519978776791132e+02   
7.115000000000000e+09    -2.006856791875619e+01   -1.521691655011810e+02   
7.116000000000000e+09    -2.016949976827443e+01   -1.522151881414001e+02   
7.117000000000000e+09    -2.026216118845193e+01   -1.524915872112164e+02   
7.118000000000000e+09    -2.034939126776101e+01   -1.526775057956700e+02   
7.119000000000000e+09    -2.045184630127734e+01   -1.529175681032872e+02   
7.120000000000000e+09    -2.054568833163749e+01   -1.530945807934832e+02   
7.121000000000000e+09    -2.062456182552701e+01   -1.534083999282230e+02   
7.122000000000000e+09    -2.071486297488722e+01   -1.536123624041067e+02   
7.123000000000000e+09    -2.080293232865438e+01   -1.539686335906156e+02   
7.124000000000000e+09    -2.088948727902905e+01   -1.542252866491401e+02   
7.125000000000000e+09    -2.097410157193262e+01   -1.545833106005415e+02   
7.126000000000000e+09    -2.104622854027202e+01   -1.548691673277959e+02   
7.127000000000000e+09    -2.112954896885216e+01   -1.551883425218640e+02   
7.128000000000000e+09    -2.120927480885635e+01   -1.556337438903814e+02   
7.129000000000000e+09    -2.127978872833871e+01   -1.558827251897890e+02   
7.130000000000000e+09    -2.134320395205009e+01   -1.563084922258846e+02   
7.131000000000000e+09    -2.141300835348322e+01   -1.566581185609511e+02   
7.132000000000000e+09    -2.147712292923721e+01   -1.570441577494049e+02   
7.133000000000000e+09    -2.152314636027047e+01   -1.574884099330579e+02   
7.134000000000000e+09    -2.158246676777041e+01   -1.578120690914457e+02   
7.135000000000000e+09    -2.163270349354333e+01   -1.582447994857175e+02   
7.136000000000000e+09    -2.166826197367608e+01   -1.586264259163395e+02   
7.137000000000000e+09    -2.171584632449731e+01   -1.590161427585153e+02   
7.138000000000000e+09    -2.174719917709239e+01   -1.593905738292999e+02   
7.139000000000000e+09    -2.177917133996015e+01   -1.596820260788429e+02   
7.140000000000000e+09    -2.180909322126449e+01   -1.602036980422790e+02   
7.141000000000000e+09    -2.183884573742480e+01   -1.604730773784626e+02   
7.142000000000000e+09    -2.186126722922547e+01   -1.608276455758412e+02   
7.143000000000000e+09    -2.189047501554395e+01   -1.611299283916485e+02   
7.144000000000000e+09    -2.191433327731662e+01   -1.613420155007272e+02   
7.145000000000000e+09    -2.192354093688139e+01   -1.617365276483860e+02   
7.146000000000000e+09    -2.192861087981606e+01   -1.618227971742585e+02   
7.147000000000000e+09    -2.193449299242763e+01   -1.620549082495856e+02   
7.148000000000000e+09    -2.195350630110275e+01   -1.621824467001655e+02   
7.149000000000000e+09    -2.195169371242610e+01   -1.623633103985678e+02   
7.150000000000000e+09    -2.194272684876636e+01   -1.624118935844761e+02   
7.151000000000000e+09    -2.195424880580902e+01   -1.625333183753751e+02   
7.152000000000000e+09    -2.194071020515391e+01   -1.625570000740226e+02   
7.153000000000000e+09    -2.195116730191661e+01   -1.625598463628402e+02   
7.154000000000000e+09    -2.194713223230298e+01   -1.625754245256475e+02   
7.155000000000000e+09    -2.193877560996239e+01   -1.624612882783031e+02   
7.156000000000000e+09    -2.193153283048087e+01   -1.623647847475673e+02   
7.157000000000000e+09    -2.193095987558001e+01   -1.622609530110624e+02   
7.158000000000000e+09    -2.193326437056658e+01   -1.621989886620622e+02   
7.159000000000000e+09    -2.191254071450606e+01   -1.618869051054661e+02   
7.160000000000000e+09    -2.192444137876161e+01   -1.617340534255876e+02   
7.161000000000000e+09    -2.191204521031407e+01   -1.615007163652176e+02   
7.162000000000000e+09    -2.190456030693248e+01   -1.611362995073743e+02   
7.163000000000000e+09    -2.189659634099141e+01   -1.609335207936257e+02   
7.164000000000000e+09    -2.190169581148617e+01   -1.605165207994043e+02   
7.165000000000000e+09    -2.191241727291094e+01   -1.601478370865827e+02   
7.166000000000000e+09    -2.190333054576248e+01   -1.596680346039910e+02   
7.167000000000000e+09    -2.190413834187133e+01   -1.593366480274353e+02   
7.168000000000000e+09    -2.191569659144952e+01   -1.588687437760014e+02   
7.169000000000000e+09    -2.193371250250795e+01   -1.583903528191644e+02   
7.170000000000000e+09    -2.194025753649560e+01   -1.578132260760952e+02   
7.171000000000000e+09    -2.195575284038487e+01   -1.573364162444679e+02   
7.172000000000000e+09    -2.196035092127870e+01   -1.567080531608856e+02   
7.173000000000000e+09    -2.197290026402408e+01   -1.562092710595720e+02   
7.174000000000000e+09    -2.199003609864317e+01   -1.554998476458025e+02   
7.175000000000000e+09    -2.200533151739044e+01   -1.548672870024506e+02   
7.176000000000000e+09    -2.203084094499859e+01   -1.543069617229413e+02   
7.177000000000000e+09    -2.204947258371035e+01   -1.535403234873459e+02   
7.178000000000000e+09    -2.207726549199311e+01   -1.527873245055397e+02   
7.179000000000000e+09    -2.209187216086772e+01   -1.520806505845164e+02   
7.180000000000000e+09    -2.211341352969616e+01   -1.512669834643367e+02   
7.181000000000000e+09    -2.214190124979358e+01   -1.506076435903190e+02   
7.182000000000000e+09    -2.218405206275467e+01   -1.497224535355577e+02   
7.183000000000000e+09    -2.219777297527092e+01   -1.488357026822339e+02   
7.184000000000000e+09    -2.223514159688377e+01   -1.480406295756813e+02   
7.185000000000000e+09    -2.226519902598151e+01   -1.471028024163003e+02   
7.186000000000000e+09    -2.229204877069188e+01   -1.462762446288185e+02   
7.187000000000000e+09    -2.231979067803039e+01   -1.453853756695436e+02   
7.188000000000000e+09    -2.235268156217836e+01   -1.444045457753560e+02   
7.189000000000000e+09    -2.239152741232385e+01   -1.434962491413264e+02   
7.190000000000000e+09    -2.243932325449437e+01   -1.425278180342466e+02   
7.191000000000000e+09    -2.244748040791643e+01   -1.415657284847918e+02   
7.192000000000000e+09    -2.249925823006065e+01   -1.405450124007086e+02   
7.193000000000000e+09    -2.252521445605030e+01   -1.395064742492444e+02   
7.194000000000000e+09    -2.257065453073638e+01   -1.385208338400496e+02   
7.195000000000000e+09    -2.259228605417817e+01   -1.375688795719922e+02   
7.196000000000000e+09    -2.264125199831226e+01   -1.365322627229872e+02   
7.197000000000000e+09    -2.268546749561059e+01   -1.355065758357175e+02   
7.198000000000000e+09    -2.272158968509066e+01   -1.344687248430306e+02   
7.199000000000000e+09    -2.275000298710086e+01   -1.333770916747869e+02   
7.200000000000000e+09    -2.278611606177424e+01   -1.323763156340559e+02   
7.201000000000000e+09    -2.283773102168825e+01   -1.313143714656542e+02   
7.202000000000000e+09    -2.288315179278256e+01   -1.302516888625676e+02   
7.203000000000000e+09    -2.291287825675501e+01   -1.292221209542737e+02   
7.204000000000000e+09    -2.297713333282800e+01   -1.281865150491032e+02   
7.205000000000000e+09    -2.302437922862548e+01   -1.270813590985802e+02   
7.206000000000000e+09    -2.307617664539357e+01   -1.260172012367745e+02   
7.207000000000000e+09    -2.311984411301955e+01   -1.249656611434111e+02   
7.208000000000000e+09    -2.315098296828810e+01   -1.239334733393660e+02   
7.209000000000000e+09    -2.320665316102201e+01   -1.229180875070341e+02   
7.210000000000000e+09    -2.327214088929106e+01   -1.218162380738367e+02   
7.211000000000000e+09    -2.329289506449664e+01   -1.208607925109815e+02   
7.212000000000000e+09    -2.334602566899293e+01   -1.198654992873383e+02   
7.213000000000000e+09    -2.338251872528416e+01   -1.188983777970091e+02   
7.214000000000000e+09    -2.343299360317793e+01   -1.178831660925940e+02   
7.215000000000000e+09    -2.348404789036106e+01   -1.170472792527157e+02   
7.216000000000000e+09    -2.353275793870404e+01   -1.161831078629389e+02   
7.217000000000000e+09    -2.355690436763921e+01   -1.153311546320313e+02   
7.218000000000000e+09    -2.360714643480696e+01   -1.144600593770905e+02   
7.219000000000000e+09    -2.364484408419733e+01   -1.135526309757827e+02   
7.220000000000000e+09    -2.367344547899659e+01   -1.127548798004827e+02   
7.221000000000000e+09    -2.370911898280853e+01   -1.120007631620329e+02   
7.222000000000000e+09    -2.374460922495328e+01   -1.112956535552270e+02   
7.223000000000000e+09    -2.376209591323588e+01   -1.106312925258130e+02   
7.224000000000000e+09    -2.379811795525343e+01   -1.100038215864227e+02   
7.225000000000000e+09    -2.381526201287164e+01   -1.093065634889309e+02   
7.226000000000000e+09    -2.383179857944091e+01   -1.088004708003092e+02   
7.227000000000000e+09    -2.386099972213957e+01   -1.082707479558260e+02   
7.228000000000000e+09    -2.386513460422320e+01   -1.077948773298502e+02   
7.229000000000000e+09    -2.387483933194110e+01   -1.072772546802536e+02   
7.230000000000000e+09    -2.389396634724185e+01   -1.069200725635159e+02   
7.231000000000000e+09    -2.390228727091358e+01   -1.066516603312119e+02   
7.232000000000000e+09    -2.389549512659851e+01   -1.063146717898536e+02   
7.233000000000000e+09    -2.388975822339122e+01   -1.060924926484360e+02   
7.234000000000000e+09    -2.388257285508825e+01   -1.058489450145096e+02   
7.235000000000000e+09    -2.389237787563423e+01   -1.057719345079311e+02   
7.236000000000000e+09    -2.386868782746550e+01   -1.055257406686219e+02   
7.237000000000000e+09    -2.386583099098256e+01   -1.053944865306035e+02   
7.238000000000000e+09    -2.385792730264544e+01   -1.052660801418072e+02   
7.239000000000000e+09    -2.381261266487677e+01   -1.052539145833292e+02   
7.240000000000000e+09    -2.380978305125791e+01   -1.051590466880556e+02   
7.241000000000000e+09    -2.376600943748734e+01   -1.052711902832833e+02   
7.242000000000000e+09    -2.372166096804906e+01   -1.053191041399467e+02   
7.243000000000000e+09    -2.366729422975811e+01   -1.055413599135981e+02   
7.244000000000000e+09    -2.361206907566221e+01   -1.054664594002067e+02   
7.245000000000000e+09    -2.357760939739417e+01   -1.056268262261965e+02   
7.246000000000000e+09    -2.351659750403685e+01   -1.057817632515764e+02   
7.247000000000000e+09    -2.345628366852739e+01   -1.060077225933159e+02   
7.248000000000000e+09    -2.338910942537883e+01   -1.063159823882706e+02   
7.249000000000000e+09    -2.332043959523147e+01   -1.064314717778617e+02   
7.250000000000000e+09    -2.323495410817820e+01   -1.067481248573262e+02   
7.251000000000000e+09    -2.315837964933734e+01   -1.070967928895218e+02   
7.252000000000000e+09    -2.307510917339703e+01   -1.073606420412820e+02   
7.253000000000000e+09    -2.298545181059213e+01   -1.075733440301863e+02   
7.254000000000000e+09    -2.289352579326087e+01   -1.079304137610102e+02   
7.255000000000000e+09    -2.280044859901333e+01   -1.081412303404783e+02   
7.256000000000000e+09    -2.272024639488708e+01   -1.084408084760878e+02   
