[Version] 2.0
! Rohde & Schwarz Vector Network Analyzer
! Rohde-Schwarz,ZNL20-2Port,1323001220200009,1.71.1.10-23.02.1.238
! 
! Trace info:
! Nominal Param -> Actual Exported Buffer
! ---------------------------------------
! S11 -> S22

! Created: GMT+3 2024-09-24 16:37:56

# Hz S DB R 50

[Number of Ports] 1
[Number of Frequencies] 6001

[Network Data] 
! freq[Hz]               S11[mag dB]              S11[ang]                 
7.000000000000000e+09    -1.858949722599673e+01   -1.400262383160697e+02   
7.001000000000000e+09    -1.861179820958496e+01   -1.399540300932297e+02   
7.002000000000000e+09    -1.864157727145972e+01   -1.399012515267931e+02   
7.003000000000000e+09    -1.865791535266343e+01   -1.398737275906932e+02   
7.004000000000000e+09    -1.867569914916640e+01   -1.398094501765342e+02   
7.005000000000000e+09    -1.870445627005697e+01   -1.398225356372862e+02   
7.006000000000000e+09    -1.872475546308530e+01   -1.398577378580301e+02   
7.007000000000000e+09    -1.874460138012858e+01   -1.399109306914442e+02   
7.008000000000000e+09    -1.876588081355293e+01   -1.399965644163422e+02   
7.009000000000000e+09    -1.878680556459985e+01   -1.401330752750085e+02   
7.010000000000000e+09    -1.880472607571489e+01   -1.402387906071409e+02   
7.011000000000000e+09    -1.881479052863017e+01   -1.404065596810065e+02   
7.012000000000000e+09    -1.883069513273195e+01   -1.405538628571501e+02   
7.013000000000000e+09    -1.885371228625917e+01   -1.407735365066072e+02   
7.014000000000000e+09    -1.886343122832231e+01   -1.410587188320127e+02   
7.015000000000000e+09    -1.886837642462379e+01   -1.412821220482412e+02   
7.016000000000000e+09    -1.888326279924125e+01   -1.415826516747271e+02   
7.017000000000000e+09    -1.888518647338147e+01   -1.418531114476062e+02   
7.018000000000000e+09    -1.889971201086177e+01   -1.421499503605564e+02   
7.019000000000000e+09    -1.889207763420331e+01   -1.424374830230281e+02   
7.020000000000000e+09    -1.889855046692489e+01   -1.427638193382655e+02   
7.021000000000000e+09    -1.889656268373263e+01   -1.430826951616964e+02   
7.022000000000000e+09    -1.890533455352816e+01   -1.433554975271504e+02   
7.023000000000000e+09    -1.888724264462264e+01   -1.437239264231782e+02   
7.024000000000000e+09    -1.888046093961477e+01   -1.440380577851708e+02   
7.025000000000000e+09    -1.887033648979212e+01   -1.444168743396487e+02   
7.026000000000000e+09    -1.885739346656340e+01   -1.447825207594841e+02   
7.027000000000000e+09    -1.883875202764924e+01   -1.451014939493205e+02   
7.028000000000000e+09    -1.882054899964145e+01   -1.455172705183687e+02   
7.029000000000000e+09    -1.880841307672521e+01   -1.459294935871594e+02   
7.030000000000000e+09    -1.879642728375843e+01   -1.462233160632425e+02   
7.031000000000000e+09    -1.876880665779104e+01   -1.465955938142359e+02   
7.032000000000000e+09    -1.875409583539649e+01   -1.469819765319165e+02   
7.033000000000000e+09    -1.873312218430912e+01   -1.473990083654760e+02   
7.034000000000000e+09    -1.870901451744831e+01   -1.476808604275142e+02   
7.035000000000000e+09    -1.868099809360551e+01   -1.479747306112118e+02   
7.036000000000000e+09    -1.865388248019547e+01   -1.483302044175455e+02   
7.037000000000000e+09    -1.862438369714551e+01   -1.486153751068077e+02   
7.038000000000000e+09    -1.858271262420224e+01   -1.489919146157781e+02   
7.039000000000000e+09    -1.855821803579332e+01   -1.492852944589048e+02   
7.040000000000000e+09    -1.851585370460863e+01   -1.496852700882805e+02   
7.041000000000000e+09    -1.848921192682590e+01   -1.499165059238790e+02   
7.042000000000000e+09    -1.846144223651341e+01   -1.501987500758712e+02   
7.043000000000000e+09    -1.843048264337254e+01   -1.505675608338907e+02   
7.044000000000000e+09    -1.838331315638237e+01   -1.508420669453705e+02   
7.045000000000000e+09    -1.835511966429848e+01   -1.510640689764364e+02   
7.046000000000000e+09    -1.830933667377283e+01   -1.513657233502968e+02   
7.047000000000000e+09    -1.827055206222541e+01   -1.516180554509228e+02   
7.048000000000000e+09    -1.823628615754528e+01   -1.517881795695644e+02   
7.049000000000000e+09    -1.818897128448399e+01   -1.520157208583867e+02   
7.050000000000000e+09    -1.815534658980669e+01   -1.522120522958660e+02   
7.051000000000000e+09    -1.811928678279191e+01   -1.524762419229893e+02   
7.052000000000000e+09    -1.808289908856850e+01   -1.526056680710958e+02   
7.053000000000000e+09    -1.804342574455856e+01   -1.527753331913821e+02   
7.054000000000000e+09    -1.799451345038393e+01   -1.529077550253488e+02   
7.055000000000000e+09    -1.795807342432082e+01   -1.530606069019263e+02   
7.056000000000000e+09    -1.791754875411501e+01   -1.531619599631260e+02   
7.057000000000000e+09    -1.787922052576246e+01   -1.533264146712152e+02   
7.058000000000000e+09    -1.784739307802632e+01   -1.534291763606544e+02   
7.059000000000000e+09    -1.780745079325784e+01   -1.534686688138198e+02   
7.060000000000000e+09    -1.777138278226447e+01   -1.535815528452264e+02   
7.061000000000000e+09    -1.773864739298853e+01   -1.536024278676688e+02   
7.062000000000000e+09    -1.770671154818503e+01   -1.536796044692009e+02   
7.063000000000000e+09    -1.767372181571174e+01   -1.537080630898096e+02   
7.064000000000000e+09    -1.764386462687646e+01   -1.536734005162429e+02   
7.065000000000000e+09    -1.762320464565861e+01   -1.536808825920307e+02   
7.066000000000000e+09    -1.759912758942987e+01   -1.537055000364915e+02   
7.067000000000000e+09    -1.757445944937257e+01   -1.535930989905457e+02   
7.068000000000000e+09    -1.755980324124712e+01   -1.535224014689929e+02   
7.069000000000000e+09    -1.754220743517652e+01   -1.535267205596838e+02   
7.070000000000000e+09    -1.753190560611245e+01   -1.533958832131786e+02   
7.071000000000000e+09    -1.752019830056441e+01   -1.533452336686134e+02   
7.072000000000000e+09    -1.751182954694704e+01   -1.532916621117672e+02   
7.073000000000000e+09    -1.750795829743351e+01   -1.531746530138539e+02   
7.074000000000000e+09    -1.750894068459777e+01   -1.531152314808562e+02   
7.075000000000000e+09    -1.751111005009457e+01   -1.529897347313589e+02   
7.076000000000000e+09    -1.751605793797025e+01   -1.528621208450347e+02   
7.077000000000000e+09    -1.752381001639935e+01   -1.527117472125259e+02   
7.078000000000000e+09    -1.753609966507684e+01   -1.525948665957081e+02   
7.079000000000000e+09    -1.754992568581380e+01   -1.524520577602418e+02   
7.080000000000000e+09    -1.756691439924455e+01   -1.523220653880414e+02   
7.081000000000000e+09    -1.759633918382639e+01   -1.521818329867783e+02   
7.082000000000000e+09    -1.761892063273948e+01   -1.520695176803133e+02   
7.083000000000000e+09    -1.764742821453160e+01   -1.519239685857444e+02   
7.084000000000000e+09    -1.768293745750934e+01   -1.517848145928284e+02   
7.085000000000000e+09    -1.771225320191373e+01   -1.516679364390187e+02   
7.086000000000000e+09    -1.775291572132304e+01   -1.515551978963541e+02   
7.087000000000000e+09    -1.779965742313274e+01   -1.514074775465858e+02   
7.088000000000000e+09    -1.784554919644657e+01   -1.513029781585700e+02   
7.089000000000000e+09    -1.788521944305110e+01   -1.511583912059577e+02   
7.090000000000000e+09    -1.793387042835744e+01   -1.510285266311330e+02   
7.091000000000000e+09    -1.799610120524155e+01   -1.509624720360788e+02   
7.092000000000000e+09    -1.805397385013480e+01   -1.508658304457950e+02   
7.093000000000000e+09    -1.811109811168427e+01   -1.507899814484910e+02   
7.094000000000000e+09    -1.817636071577901e+01   -1.507096127827616e+02   
7.095000000000000e+09    -1.823768311286761e+01   -1.506134910306574e+02   
7.096000000000000e+09    -1.829972434316662e+01   -1.504956708361280e+02   
7.097000000000000e+09    -1.836774233018644e+01   -1.505316191106633e+02   
7.098000000000000e+09    -1.843257282096203e+01   -1.503976853690321e+02   
7.099000000000000e+09    -1.851006396243448e+01   -1.503995538782162e+02   
7.100000000000000e+09    -1.857804991926447e+01   -1.503744860722398e+02   
7.101000000000000e+09    -1.864820782837012e+01   -1.503349855789936e+02   
7.102000000000000e+09    -1.872976436513867e+01   -1.503258488659852e+02   
7.103000000000000e+09    -1.881829044915773e+01   -1.503581263566514e+02   
7.104000000000000e+09    -1.888811121661580e+01   -1.503781958649759e+02   
7.105000000000000e+09    -1.896756445020511e+01   -1.504322120313751e+02   
7.106000000000000e+09    -1.905983554873191e+01   -1.505037199977045e+02   
7.107000000000000e+09    -1.914182816065321e+01   -1.504972854885681e+02   
7.108000000000000e+09    -1.922417721739165e+01   -1.505707884400486e+02   
7.109000000000000e+09    -1.931422681093622e+01   -1.507099875907242e+02   
7.110000000000000e+09    -1.939565985132592e+01   -1.507566394328144e+02   
7.111000000000000e+09    -1.948712443310247e+01   -1.508622894976090e+02   
7.112000000000000e+09    -1.957083201639808e+01   -1.509495752750577e+02   
7.113000000000000e+09    -1.967196380782765e+01   -1.511591819771633e+02   
7.114000000000000e+09    -1.976668624917749e+01   -1.512877776424223e+02   
7.115000000000000e+09    -1.986276284066022e+01   -1.514325152868502e+02   
7.116000000000000e+09    -1.994623022351299e+01   -1.516418103341925e+02   
7.117000000000000e+09    -2.004686386596140e+01   -1.517919974795203e+02   
7.118000000000000e+09    -2.012411899672909e+01   -1.520749902590403e+02   
7.119000000000000e+09    -2.022848591677417e+01   -1.522909083962655e+02   
7.120000000000000e+09    -2.031134373041681e+01   -1.525179453102199e+02   
7.121000000000000e+09    -2.040919497513425e+01   -1.528398396166947e+02   
7.122000000000000e+09    -2.049596089519182e+01   -1.531170065648951e+02   
7.123000000000000e+09    -2.057780079691249e+01   -1.533564925590534e+02   
7.124000000000000e+09    -2.066192977714013e+01   -1.535804910102292e+02   
7.125000000000000e+09    -2.075571241423195e+01   -1.540335881866907e+02   
7.126000000000000e+09    -2.082730300193941e+01   -1.543509615575129e+02   
7.127000000000000e+09    -2.091447714105533e+01   -1.546606512961453e+02   
7.128000000000000e+09    -2.097848887696297e+01   -1.550997847735431e+02   
7.129000000000000e+09    -2.105373946527273e+01   -1.553748997428538e+02   
7.130000000000000e+09    -2.111329142255577e+01   -1.557601727147574e+02   
7.131000000000000e+09    -2.118566561532886e+01   -1.561548426961231e+02   
7.132000000000000e+09    -2.125536757685450e+01   -1.565099225041847e+02   
7.133000000000000e+09    -2.130497166568633e+01   -1.568777379115659e+02   
7.134000000000000e+09    -2.136821409196073e+01   -1.574052576534146e+02   
7.135000000000000e+09    -2.140234789377828e+01   -1.577366303391617e+02   
7.136000000000000e+09    -2.144978710268742e+01   -1.581520686388102e+02   
7.137000000000000e+09    -2.149579098546571e+01   -1.585172707159702e+02   
7.138000000000000e+09    -2.152314209012432e+01   -1.589594865405292e+02   
7.139000000000000e+09    -2.156229987934743e+01   -1.592589421275529e+02   
7.140000000000000e+09    -2.158615935822194e+01   -1.597221716484853e+02   
7.141000000000000e+09    -2.161253423763168e+01   -1.600045572945251e+02   
7.142000000000000e+09    -2.163844744471817e+01   -1.603220372540414e+02   
7.143000000000000e+09    -2.166762558077225e+01   -1.605992165568992e+02   
7.144000000000000e+09    -2.167708318678109e+01   -1.609640108366366e+02   
7.145000000000000e+09    -2.169599136873574e+01   -1.611697645479281e+02   
7.146000000000000e+09    -2.170426870824737e+01   -1.613990869435820e+02   
7.147000000000000e+09    -2.171433655146955e+01   -1.615459982748766e+02   
7.148000000000000e+09    -2.171619189956991e+01   -1.617116295258429e+02   
7.149000000000000e+09    -2.171744943803468e+01   -1.618649530447301e+02   
7.150000000000000e+09    -2.170599407903720e+01   -1.619296987998408e+02   
7.151000000000000e+09    -2.171980398206623e+01   -1.621327451765467e+02   
7.152000000000000e+09    -2.170654293235071e+01   -1.621625045882912e+02   
7.153000000000000e+09    -2.170820823390484e+01   -1.621849407648464e+02   
7.154000000000000e+09    -2.170523003633087e+01   -1.621784265826433e+02   
7.155000000000000e+09    -2.169733676001487e+01   -1.621004692346506e+02   
7.156000000000000e+09    -2.167760127280229e+01   -1.619662044430004e+02   
7.157000000000000e+09    -2.167040564474294e+01   -1.619339705395836e+02   
7.158000000000000e+09    -2.167157368771998e+01   -1.618674770414663e+02   
7.159000000000000e+09    -2.165648639760395e+01   -1.616761964374711e+02   
7.160000000000000e+09    -2.165974044233927e+01   -1.615028659756948e+02   
7.161000000000000e+09    -2.164439822576519e+01   -1.613459190686071e+02   
7.162000000000000e+09    -2.164683334097916e+01   -1.610753683110119e+02   
7.163000000000000e+09    -2.163183970237544e+01   -1.608378671801471e+02   
7.164000000000000e+09    -2.163046912403578e+01   -1.604409437590347e+02   
7.165000000000000e+09    -2.164448093798579e+01   -1.602065373928593e+02   
7.166000000000000e+09    -2.163315525243787e+01   -1.597535747978853e+02   
7.167000000000000e+09    -2.164680689860873e+01   -1.593943174198395e+02   
7.168000000000000e+09    -2.165300307385235e+01   -1.589771641823126e+02   
7.169000000000000e+09    -2.166620307406576e+01   -1.585083732481420e+02   
7.170000000000000e+09    -2.167667490156010e+01   -1.580211609309015e+02   
7.171000000000000e+09    -2.168163479868138e+01   -1.575519924616134e+02   
7.172000000000000e+09    -2.169415313568550e+01   -1.570030670955441e+02   
7.173000000000000e+09    -2.170479705479939e+01   -1.564467275562534e+02   
7.174000000000000e+09    -2.172216270669058e+01   -1.558374090632844e+02   
7.175000000000000e+09    -2.174365156131504e+01   -1.552433903105370e+02   
7.176000000000000e+09    -2.175666920532061e+01   -1.546773129944020e+02   
7.177000000000000e+09    -2.176236519505316e+01   -1.540800973585638e+02   
7.178000000000000e+09    -2.179959563553851e+01   -1.533775072561852e+02   
7.179000000000000e+09    -2.181760920628954e+01   -1.527042090239454e+02   
7.180000000000000e+09    -2.184236248297434e+01   -1.519747723836203e+02   
7.181000000000000e+09    -2.186677125710864e+01   -1.512713495733486e+02   
7.182000000000000e+09    -2.190381634117374e+01   -1.505168527325808e+02   
7.183000000000000e+09    -2.192881079599256e+01   -1.497321639273578e+02   
7.184000000000000e+09    -2.195551541208319e+01   -1.490085889551347e+02   
7.185000000000000e+09    -2.198595895098962e+01   -1.481732301756986e+02   
7.186000000000000e+09    -2.203363388380956e+01   -1.474454436021780e+02   
7.187000000000000e+09    -2.206599568356665e+01   -1.465455444402381e+02   
7.188000000000000e+09    -2.209820116258756e+01   -1.456349683373727e+02   
7.189000000000000e+09    -2.213581398210152e+01   -1.448543457602084e+02   
7.190000000000000e+09    -2.218501448491739e+01   -1.439387116651598e+02   
7.191000000000000e+09    -2.220934104493040e+01   -1.430372260459415e+02   
7.192000000000000e+09    -2.225533859635836e+01   -1.421239199881540e+02   
7.193000000000000e+09    -2.229609505717759e+01   -1.412088634914438e+02   
7.194000000000000e+09    -2.233883974108204e+01   -1.402136068255599e+02   
7.195000000000000e+09    -2.238212712622006e+01   -1.393276702239525e+02   
7.196000000000000e+09    -2.243720119914349e+01   -1.383225980983726e+02   
7.197000000000000e+09    -2.248240310322031e+01   -1.374572512258294e+02   
7.198000000000000e+09    -2.252403565934756e+01   -1.363551588143402e+02   
7.199000000000000e+09    -2.257301447742607e+01   -1.354017005122111e+02   
7.200000000000000e+09    -2.262414427153958e+01   -1.344915270762114e+02   
7.201000000000000e+09    -2.267872448875685e+01   -1.334599025587031e+02   
7.202000000000000e+09    -2.273024940240348e+01   -1.324839285391963e+02   
7.203000000000000e+09    -2.278212431108860e+01   -1.314576673273615e+02   
7.204000000000000e+09    -2.284887056922213e+01   -1.305067766570587e+02   
7.205000000000000e+09    -2.291564117320602e+01   -1.294553451767681e+02   
7.206000000000000e+09    -2.298128521697559e+01   -1.284748161441212e+02   
7.207000000000000e+09    -2.305473974781682e+01   -1.274804613981821e+02   
7.208000000000000e+09    -2.309330196681593e+01   -1.264315878068963e+02   
7.209000000000000e+09    -2.315625430905452e+01   -1.255034309213038e+02   
7.210000000000000e+09    -2.322618399318251e+01   -1.244409269594435e+02   
7.211000000000000e+09    -2.326682482389587e+01   -1.234737023873509e+02   
7.212000000000000e+09    -2.335813757147336e+01   -1.225188354685604e+02   
7.213000000000000e+09    -2.342285370800581e+01   -1.215916481709106e+02   
7.214000000000000e+09    -2.346511676337014e+01   -1.205545286229866e+02   
7.215000000000000e+09    -2.352435708505717e+01   -1.197381272306233e+02   
7.216000000000000e+09    -2.360588705165017e+01   -1.187894552599144e+02   
7.217000000000000e+09    -2.363849450480103e+01   -1.180178909918571e+02   
7.218000000000000e+09    -2.370571858724466e+01   -1.171079393357737e+02   
7.219000000000000e+09    -2.375238552432706e+01   -1.162426353113012e+02   
7.220000000000000e+09    -2.379435805396938e+01   -1.153930921900456e+02   
7.221000000000000e+09    -2.383829473653642e+01   -1.145792372882998e+02   
7.222000000000000e+09    -2.389108106892895e+01   -1.139087636220068e+02   
7.223000000000000e+09    -2.392191183022900e+01   -1.131543890300835e+02   
7.224000000000000e+09    -2.397004443636358e+01   -1.124934874372337e+02   
7.225000000000000e+09    -2.400014125347503e+01   -1.117510128266921e+02   
7.226000000000000e+09    -2.404966008579819e+01   -1.112704524633902e+02   
7.227000000000000e+09    -2.407995624402107e+01   -1.105750494532531e+02   
7.228000000000000e+09    -2.410482179284145e+01   -1.101361821578423e+02   
7.229000000000000e+09    -2.410803138016995e+01   -1.096262005240364e+02   
7.230000000000000e+09    -2.413316967202138e+01   -1.092159642989731e+02   
7.231000000000000e+09    -2.416657461838744e+01   -1.087991375327370e+02   
7.232000000000000e+09    -2.415886865188285e+01   -1.085186174411269e+02   
7.233000000000000e+09    -2.415220997034037e+01   -1.082041275146065e+02   
7.234000000000000e+09    -2.416997350115553e+01   -1.079704597588392e+02   
7.235000000000000e+09    -2.418374036395835e+01   -1.078037695145012e+02   
7.236000000000000e+09    -2.417748554210569e+01   -1.074210821839892e+02   
7.237000000000000e+09    -2.417092832763554e+01   -1.073801829008854e+02   
7.238000000000000e+09    -2.416809718223856e+01   -1.071298851997110e+02   
7.239000000000000e+09    -2.414286054457194e+01   -1.072194355257391e+02   
7.240000000000000e+09    -2.411352845534664e+01   -1.070758797792560e+02   
7.241000000000000e+09    -2.407578316653828e+01   -1.069159606494112e+02   
7.242000000000000e+09    -2.403728286679843e+01   -1.070456889443656e+02   
7.243000000000000e+09    -2.398908689982379e+01   -1.071190965016667e+02   
7.244000000000000e+09    -2.393959495974345e+01   -1.071793105759406e+02   
7.245000000000000e+09    -2.391491874693255e+01   -1.072999830906126e+02   
7.246000000000000e+09    -2.385507700733598e+01   -1.074061898280264e+02   
7.247000000000000e+09    -2.379880523729488e+01   -1.076204313919702e+02   
7.248000000000000e+09    -2.373618391962026e+01   -1.078317863234561e+02   
7.249000000000000e+09    -2.365895734444828e+01   -1.078321733717861e+02   
7.250000000000000e+09    -2.358008374118420e+01   -1.081840645866690e+02   
7.251000000000000e+09    -2.351202240863883e+01   -1.084047309225107e+02   
7.252000000000000e+09    -2.342231888946964e+01   -1.085899817082880e+02   
7.253000000000000e+09    -2.335296092352827e+01   -1.087626864710317e+02   
7.254000000000000e+09    -2.324926725004953e+01   -1.090431601903583e+02   
7.255000000000000e+09    -2.314559756607278e+01   -1.092531586182669e+02   
7.256000000000000e+09    -2.305243605960312e+01   -1.094938849639271e+02   
