[Version] 2.0
! Rohde & Schwarz Vector Network Analyzer
! Rohde-Schwarz,ZNL20-2Port,1323001220200009,1.71.1.10-23.02.1.238
! 
! Trace info:
! Nominal Param -> Actual Exported Buffer
! ---------------------------------------
! S11 -> S22

! Created: GMT+3 2024-09-24 16:38:09

# Hz S DB R 50

[Number of Ports] 1
[Number of Frequencies] 6001

[Network Data] 
! freq[Hz]               S11[mag dB]              S11[ang]                 
7.000000000000000e+09    -1.888479707768117e+01   -1.392682865102245e+02   
7.001000000000000e+09    -1.890456788084737e+01   -1.391491203137547e+02   
7.002000000000000e+09    -1.893542033040081e+01   -1.390445066394196e+02   
7.003000000000000e+09    -1.894937755275489e+01   -1.389951291618719e+02   
7.004000000000000e+09    -1.896837866522743e+01   -1.388733518069372e+02   
7.005000000000000e+09    -1.899815354479151e+01   -1.388389326134204e+02   
7.006000000000000e+09    -1.901827441952303e+01   -1.387811257619073e+02   
7.007000000000000e+09    -1.903841122272083e+01   -1.388348606575733e+02   
7.008000000000000e+09    -1.905294802239405e+01   -1.389146606837867e+02   
7.009000000000000e+09    -1.907225706580317e+01   -1.389360363735884e+02   
7.010000000000000e+09    -1.908379705419063e+01   -1.390205561798905e+02   
7.011000000000000e+09    -1.910398564239483e+01   -1.391559666294559e+02   
7.012000000000000e+09    -1.911759712357868e+01   -1.392611000542717e+02   
7.013000000000000e+09    -1.913320588587308e+01   -1.394585616820702e+02   
7.014000000000000e+09    -1.914117056456612e+01   -1.396854486422012e+02   
7.015000000000000e+09    -1.914579192783811e+01   -1.398683018050985e+02   
7.016000000000000e+09    -1.915933909757835e+01   -1.401078489488273e+02   
7.017000000000000e+09    -1.916576518276732e+01   -1.403953966756315e+02   
7.018000000000000e+09    -1.916578464515257e+01   -1.406107227206988e+02   
7.019000000000000e+09    -1.916333510132262e+01   -1.408379321333970e+02   
7.020000000000000e+09    -1.916327471540329e+01   -1.411792416479439e+02   
7.021000000000000e+09    -1.915534865854535e+01   -1.414701016342071e+02   
7.022000000000000e+09    -1.916364975130481e+01   -1.417065568348316e+02   
7.023000000000000e+09    -1.914377144076823e+01   -1.420284064502489e+02   
7.024000000000000e+09    -1.912744712662064e+01   -1.423476810283369e+02   
7.025000000000000e+09    -1.912054714451312e+01   -1.426541701178265e+02   
7.026000000000000e+09    -1.909372955924115e+01   -1.430368883818334e+02   
7.027000000000000e+09    -1.907470840865853e+01   -1.432955767694777e+02   
7.028000000000000e+09    -1.906024032023794e+01   -1.437162742279702e+02   
7.029000000000000e+09    -1.904311149518768e+01   -1.441165964966205e+02   
7.030000000000000e+09    -1.901938303907082e+01   -1.443612991121554e+02   
7.031000000000000e+09    -1.898818106423208e+01   -1.447737673594720e+02   
7.032000000000000e+09    -1.897423582395477e+01   -1.451805531483128e+02   
7.033000000000000e+09    -1.894592415363212e+01   -1.455682195965795e+02   
7.034000000000000e+09    -1.892036208731807e+01   -1.458350428003965e+02   
7.035000000000000e+09    -1.888748233541717e+01   -1.461420638450132e+02   
7.036000000000000e+09    -1.886169208070025e+01   -1.464471394704739e+02   
7.037000000000000e+09    -1.882550633244914e+01   -1.467202114595210e+02   
7.038000000000000e+09    -1.878929689181034e+01   -1.471086909785740e+02   
7.039000000000000e+09    -1.875719532628064e+01   -1.473809037842458e+02   
7.040000000000000e+09    -1.871433048111347e+01   -1.477146905632076e+02   
7.041000000000000e+09    -1.868300543672054e+01   -1.479800194251565e+02   
7.042000000000000e+09    -1.864264469953609e+01   -1.482166135159852e+02   
7.043000000000000e+09    -1.859933986760688e+01   -1.485487463670301e+02   
7.044000000000000e+09    -1.854958277641233e+01   -1.488142976240087e+02   
7.045000000000000e+09    -1.851564986893979e+01   -1.490552347088382e+02   
7.046000000000000e+09    -1.846595268526818e+01   -1.493251535911476e+02   
7.047000000000000e+09    -1.842963346856347e+01   -1.495544963826815e+02   
7.048000000000000e+09    -1.838030422689336e+01   -1.497887763035292e+02   
7.049000000000000e+09    -1.833694031395090e+01   -1.499372234173937e+02   
7.050000000000000e+09    -1.829616571233628e+01   -1.501907580843400e+02   
7.051000000000000e+09    -1.824624160039452e+01   -1.503428569191904e+02   
7.052000000000000e+09    -1.820661558240994e+01   -1.505378073668494e+02   
7.053000000000000e+09    -1.814987805923788e+01   -1.507052173464636e+02   
7.054000000000000e+09    -1.810583367963604e+01   -1.508084710312187e+02   
7.055000000000000e+09    -1.805671204328229e+01   -1.509591144050092e+02   
7.056000000000000e+09    -1.801111748777143e+01   -1.510966508752248e+02   
7.057000000000000e+09    -1.796356654305285e+01   -1.512389140837006e+02   
7.058000000000000e+09    -1.792385902474310e+01   -1.513222811644700e+02   
7.059000000000000e+09    -1.787960389134065e+01   -1.513488719492066e+02   
7.060000000000000e+09    -1.783112578806255e+01   -1.514720001159396e+02   
7.061000000000000e+09    -1.779586164244628e+01   -1.515086252080251e+02   
7.062000000000000e+09    -1.775005847954602e+01   -1.515531412755474e+02   
7.063000000000000e+09    -1.771595435308610e+01   -1.516171736549048e+02   
7.064000000000000e+09    -1.767802001337713e+01   -1.515766730483492e+02   
7.065000000000000e+09    -1.764418803884958e+01   -1.516341982857247e+02   
7.066000000000000e+09    -1.761203045875265e+01   -1.516119262966847e+02   
7.067000000000000e+09    -1.758581734756003e+01   -1.515353373831572e+02   
7.068000000000000e+09    -1.756443477396925e+01   -1.515088036701990e+02   
7.069000000000000e+09    -1.753969322041501e+01   -1.515002194506345e+02   
7.070000000000000e+09    -1.751582467457144e+01   -1.514127942056207e+02   
7.071000000000000e+09    -1.750090329764540e+01   -1.513411120805337e+02   
7.072000000000000e+09    -1.748374663368364e+01   -1.512672804970307e+02   
7.073000000000000e+09    -1.747397124009034e+01   -1.512196850856708e+02   
7.074000000000000e+09    -1.746555566631220e+01   -1.511205113070527e+02   
7.075000000000000e+09    -1.746460669317988e+01   -1.509940017717998e+02   
7.076000000000000e+09    -1.746452317591858e+01   -1.508673359074759e+02   
7.077000000000000e+09    -1.746790439753749e+01   -1.507623801795988e+02   
7.078000000000000e+09    -1.747162109932101e+01   -1.506625413369090e+02   
7.079000000000000e+09    -1.748444073896321e+01   -1.505331681342457e+02   
7.080000000000000e+09    -1.749197149297191e+01   -1.503937749853419e+02   
7.081000000000000e+09    -1.751380743613377e+01   -1.502946267416535e+02   
7.082000000000000e+09    -1.752962415747087e+01   -1.501734017244945e+02   
7.083000000000000e+09    -1.755496892646191e+01   -1.500625751653291e+02   
7.084000000000000e+09    -1.758153326785314e+01   -1.499227496367099e+02   
7.085000000000000e+09    -1.760990462442680e+01   -1.497590406156807e+02   
7.086000000000000e+09    -1.763769191925358e+01   -1.496844391996045e+02   
7.087000000000000e+09    -1.768426692902370e+01   -1.495881290020671e+02   
7.088000000000000e+09    -1.772276702182726e+01   -1.494760434775684e+02   
7.089000000000000e+09    -1.775959488567387e+01   -1.493785403495458e+02   
7.090000000000000e+09    -1.780109376273032e+01   -1.492694374647329e+02   
7.091000000000000e+09    -1.785766119183281e+01   -1.492065702886129e+02   
7.092000000000000e+09    -1.790305604172417e+01   -1.491188657442687e+02   
7.093000000000000e+09    -1.795256741854310e+01   -1.490067489766390e+02   
7.094000000000000e+09    -1.801197664531518e+01   -1.489502830364552e+02   
7.095000000000000e+09    -1.807238830750483e+01   -1.489410270236866e+02   
7.096000000000000e+09    -1.812791479246674e+01   -1.488370729050885e+02   
7.097000000000000e+09    -1.818821651850475e+01   -1.488414281331210e+02   
7.098000000000000e+09    -1.825013594361027e+01   -1.487900287855971e+02   
7.099000000000000e+09    -1.831538949225422e+01   -1.487424531135355e+02   
7.100000000000000e+09    -1.837990355998961e+01   -1.487702606424376e+02   
7.101000000000000e+09    -1.845227486159941e+01   -1.487711976159120e+02   
7.102000000000000e+09    -1.852590608699677e+01   -1.488103269657299e+02   
7.103000000000000e+09    -1.859762217571753e+01   -1.488608561231866e+02   
7.104000000000000e+09    -1.867683028967780e+01   -1.488806562299124e+02   
7.105000000000000e+09    -1.875236293493033e+01   -1.489564809385539e+02   
7.106000000000000e+09    -1.883692590294973e+01   -1.490317965790835e+02   
7.107000000000000e+09    -1.892429672769470e+01   -1.490920737206815e+02   
7.108000000000000e+09    -1.899792266994377e+01   -1.491120863588206e+02   
7.109000000000000e+09    -1.908023676994760e+01   -1.492481204051888e+02   
7.110000000000000e+09    -1.915886078243506e+01   -1.493111325002289e+02   
7.111000000000000e+09    -1.924258564013125e+01   -1.494889930003653e+02   
7.112000000000000e+09    -1.932637460790638e+01   -1.496221582684523e+02   
7.113000000000000e+09    -1.941657692970982e+01   -1.497785537920993e+02   
7.114000000000000e+09    -1.950880937627960e+01   -1.499186925922862e+02   
7.115000000000000e+09    -1.958580799633254e+01   -1.501073206744551e+02   
7.116000000000000e+09    -1.967868814626090e+01   -1.502922876400319e+02   
7.117000000000000e+09    -1.976811299825779e+01   -1.505363135180225e+02   
7.118000000000000e+09    -1.985136428849486e+01   -1.507507150768290e+02   
7.119000000000000e+09    -1.994726209963182e+01   -1.510051736912959e+02   
7.120000000000000e+09    -2.003097159759349e+01   -1.512649306207271e+02   
7.121000000000000e+09    -2.011244561428189e+01   -1.515245011093893e+02   
7.122000000000000e+09    -2.019666057796037e+01   -1.518519004122022e+02   
7.123000000000000e+09    -2.027873848024582e+01   -1.521596944798014e+02   
7.124000000000000e+09    -2.036382212245305e+01   -1.524258045638109e+02   
7.125000000000000e+09    -2.044758541310517e+01   -1.528611830817589e+02   
7.126000000000000e+09    -2.052277915451593e+01   -1.531712030986525e+02   
7.127000000000000e+09    -2.060265033209109e+01   -1.535141370719340e+02   
7.128000000000000e+09    -2.066506608327813e+01   -1.539846990953094e+02   
7.129000000000000e+09    -2.073912949246668e+01   -1.542368312366943e+02   
7.130000000000000e+09    -2.080382967699909e+01   -1.546246680925033e+02   
7.131000000000000e+09    -2.086460889207044e+01   -1.550267745453211e+02   
7.132000000000000e+09    -2.093655361305284e+01   -1.554470515794920e+02   
7.133000000000000e+09    -2.098308515807199e+01   -1.558636819586471e+02   
7.134000000000000e+09    -2.103853360050687e+01   -1.562608620879548e+02   
7.135000000000000e+09    -2.107290133589232e+01   -1.566114664174763e+02   
7.136000000000000e+09    -2.112698286082414e+01   -1.570451657827500e+02   
7.137000000000000e+09    -2.116218602932819e+01   -1.574396140061170e+02   
7.138000000000000e+09    -2.119579687094204e+01   -1.578487101974268e+02   
7.139000000000000e+09    -2.122684164488681e+01   -1.581631639778762e+02   
7.140000000000000e+09    -2.125189812053111e+01   -1.586327884735826e+02   
7.141000000000000e+09    -2.127793709280063e+01   -1.589262712799190e+02   
7.142000000000000e+09    -2.130305323005853e+01   -1.592987430600182e+02   
7.143000000000000e+09    -2.132710234479446e+01   -1.596247034527480e+02   
7.144000000000000e+09    -2.133601110425518e+01   -1.598676083695639e+02   
7.145000000000000e+09    -2.135643059640239e+01   -1.601857798505500e+02   
7.146000000000000e+09    -2.134621627077309e+01   -1.603572318182081e+02   
7.147000000000000e+09    -2.136064712050131e+01   -1.606199283394251e+02   
7.148000000000000e+09    -2.136486973980324e+01   -1.607898595994222e+02   
7.149000000000000e+09    -2.136099621997803e+01   -1.609463319978758e+02   
7.150000000000000e+09    -2.135247072597884e+01   -1.611125701526804e+02   
7.151000000000000e+09    -2.135482068926206e+01   -1.612145780297761e+02   
7.152000000000000e+09    -2.134168126230631e+01   -1.613284995489392e+02   
7.153000000000000e+09    -2.134475334166403e+01   -1.613855828936405e+02   
7.154000000000000e+09    -2.133555671738704e+01   -1.614119367845556e+02   
7.155000000000000e+09    -2.132130611039769e+01   -1.613933494911890e+02   
7.156000000000000e+09    -2.129909838539710e+01   -1.613060839083517e+02   
7.157000000000000e+09    -2.129551351425249e+01   -1.612848024502991e+02   
7.158000000000000e+09    -2.128939730487185e+01   -1.613240317110049e+02   
7.159000000000000e+09    -2.128856499410881e+01   -1.611401474281824e+02   
7.160000000000000e+09    -2.128068944364787e+01   -1.610361214266429e+02   
7.161000000000000e+09    -2.127500589523909e+01   -1.608528137099786e+02   
7.162000000000000e+09    -2.126411774342251e+01   -1.605927399399453e+02   
7.163000000000000e+09    -2.125154929217392e+01   -1.603678500695014e+02   
7.164000000000000e+09    -2.124541758570469e+01   -1.601684386679986e+02   
7.165000000000000e+09    -2.125111008806316e+01   -1.599287147284957e+02   
7.166000000000000e+09    -2.125602906216782e+01   -1.595151626427963e+02   
7.167000000000000e+09    -2.126041939125131e+01   -1.592262872205699e+02   
7.168000000000000e+09    -2.126273608092074e+01   -1.589150863209299e+02   
7.169000000000000e+09    -2.127751375618594e+01   -1.585234337838903e+02   
7.170000000000000e+09    -2.128454885294702e+01   -1.580162113974310e+02   
7.171000000000000e+09    -2.128345343783377e+01   -1.575933073645282e+02   
7.172000000000000e+09    -2.129014401153162e+01   -1.571776555284159e+02   
7.173000000000000e+09    -2.131274573221512e+01   -1.567282202158593e+02   
7.174000000000000e+09    -2.131959727802158e+01   -1.561872082500591e+02   
7.175000000000000e+09    -2.133537291772026e+01   -1.556781204189691e+02   
7.176000000000000e+09    -2.135361725337728e+01   -1.551383863735816e+02   
7.177000000000000e+09    -2.137679113284068e+01   -1.545420209135326e+02   
7.178000000000000e+09    -2.139263607868487e+01   -1.540110824452681e+02   
7.179000000000000e+09    -2.142069304988097e+01   -1.534097318049941e+02   
7.180000000000000e+09    -2.143163634572701e+01   -1.527398942192387e+02   
7.181000000000000e+09    -2.146234944997925e+01   -1.521666346947669e+02   
7.182000000000000e+09    -2.150495498193040e+01   -1.515331108358768e+02   
7.183000000000000e+09    -2.152425856115257e+01   -1.508036807927045e+02   
7.184000000000000e+09    -2.155368336114698e+01   -1.501714653237620e+02   
7.185000000000000e+09    -2.159885745429747e+01   -1.493714847659556e+02   
7.186000000000000e+09    -2.164591292537816e+01   -1.487998628842077e+02   
7.187000000000000e+09    -2.167683730451230e+01   -1.479951076928395e+02   
7.188000000000000e+09    -2.170590859780851e+01   -1.472047015154364e+02   
7.189000000000000e+09    -2.176394861370685e+01   -1.464660887847625e+02   
7.190000000000000e+09    -2.181131330795064e+01   -1.456443103803942e+02   
7.191000000000000e+09    -2.183716622381727e+01   -1.448946145336578e+02   
7.192000000000000e+09    -2.189363789090845e+01   -1.440367324422438e+02   
7.193000000000000e+09    -2.194205025686104e+01   -1.432283829113127e+02   
7.194000000000000e+09    -2.200796292752548e+01   -1.423578431644208e+02   
7.195000000000000e+09    -2.205249375856461e+01   -1.415207078071023e+02   
7.196000000000000e+09    -2.211103053624578e+01   -1.406332483809399e+02   
7.197000000000000e+09    -2.217665376580475e+01   -1.398920262993979e+02   
7.198000000000000e+09    -2.222577252405908e+01   -1.389262906839518e+02   
7.199000000000000e+09    -2.227992003013351e+01   -1.380073103157088e+02   
7.200000000000000e+09    -2.235053246049956e+01   -1.371338538747420e+02   
7.201000000000000e+09    -2.240416998195249e+01   -1.362069625738699e+02   
7.202000000000000e+09    -2.247962926062737e+01   -1.353554397877175e+02   
7.203000000000000e+09    -2.253911899311184e+01   -1.344192357368875e+02   
7.204000000000000e+09    -2.262853969356854e+01   -1.335863357907772e+02   
7.205000000000000e+09    -2.270125778065358e+01   -1.326135103013419e+02   
7.206000000000000e+09    -2.278494001751598e+01   -1.317361500214001e+02   
7.207000000000000e+09    -2.287334826760256e+01   -1.307317913348912e+02   
7.208000000000000e+09    -2.293452063172829e+01   -1.297510315808187e+02   
7.209000000000000e+09    -2.301113779766062e+01   -1.288661904187971e+02   
7.210000000000000e+09    -2.310078138975849e+01   -1.279297847565990e+02   
7.211000000000000e+09    -2.316937578839973e+01   -1.269873024488206e+02   
7.212000000000000e+09    -2.325629064824183e+01   -1.261192355068421e+02   
7.213000000000000e+09    -2.335053614358055e+01   -1.252658498813099e+02   
7.214000000000000e+09    -2.341128994134253e+01   -1.243534433019884e+02   
7.215000000000000e+09    -2.348248975850411e+01   -1.234580781645343e+02   
7.216000000000000e+09    -2.357727872194376e+01   -1.226021523823378e+02   
7.217000000000000e+09    -2.364383771034487e+01   -1.217664309600195e+02   
7.218000000000000e+09    -2.374000763792573e+01   -1.209572894819610e+02   
7.219000000000000e+09    -2.379860890994430e+01   -1.201221640887082e+02   
7.220000000000000e+09    -2.386877512613366e+01   -1.193994621435902e+02   
7.221000000000000e+09    -2.395101271342254e+01   -1.186034412596879e+02   
7.222000000000000e+09    -2.400992847034549e+01   -1.177982369114818e+02   
7.223000000000000e+09    -2.406575017803320e+01   -1.170893077166059e+02   
7.224000000000000e+09    -2.413699134123073e+01   -1.164564151034862e+02   
7.225000000000000e+09    -2.418718596332820e+01   -1.157476283628828e+02   
7.226000000000000e+09    -2.424146396862064e+01   -1.151649528518347e+02   
7.227000000000000e+09    -2.430659180470679e+01   -1.145434669823232e+02   
7.228000000000000e+09    -2.433934818345880e+01   -1.139782841526895e+02   
7.229000000000000e+09    -2.437669648239874e+01   -1.134147461634812e+02   
7.230000000000000e+09    -2.441190634613172e+01   -1.129568812145640e+02   
7.231000000000000e+09    -2.445688212754112e+01   -1.125882005219750e+02   
7.232000000000000e+09    -2.447142917192230e+01   -1.121819701178100e+02   
7.233000000000000e+09    -2.449649027874342e+01   -1.118081898735154e+02   
7.234000000000000e+09    -2.451889296593853e+01   -1.114879053667192e+02   
7.235000000000000e+09    -2.453542169705461e+01   -1.112124265452673e+02   
7.236000000000000e+09    -2.452804046435821e+01   -1.108207244642547e+02   
7.237000000000000e+09    -2.455505736429108e+01   -1.107156734987936e+02   
7.238000000000000e+09    -2.455348510096952e+01   -1.103771144990273e+02   
7.239000000000000e+09    -2.451949501998295e+01   -1.103328711038895e+02   
7.240000000000000e+09    -2.451240840676619e+01   -1.101574791681035e+02   
7.241000000000000e+09    -2.449873280093063e+01   -1.100385934128085e+02   
7.242000000000000e+09    -2.447127238735601e+01   -1.099676411387404e+02   
7.243000000000000e+09    -2.443273587008104e+01   -1.100441684995578e+02   
7.244000000000000e+09    -2.438844904075099e+01   -1.099166437868704e+02   
7.245000000000000e+09    -2.434536969145318e+01   -1.100787339955217e+02   
7.246000000000000e+09    -2.430367429681492e+01   -1.100684090641378e+02   
7.247000000000000e+09    -2.425945564745835e+01   -1.100251323006980e+02   
7.248000000000000e+09    -2.418460815844368e+01   -1.102581404141996e+02   
7.249000000000000e+09    -2.412739053181438e+01   -1.102662564300374e+02   
7.250000000000000e+09    -2.404516025314406e+01   -1.104278916332654e+02   
7.251000000000000e+09    -2.396389716095307e+01   -1.106387621404171e+02   
7.252000000000000e+09    -2.388512735470157e+01   -1.107945282413278e+02   
7.253000000000000e+09    -2.379802616918041e+01   -1.108253695891092e+02   
7.254000000000000e+09    -2.369005086982446e+01   -1.110529618019810e+02   
7.255000000000000e+09    -2.359927726041464e+01   -1.111788141789794e+02   
7.256000000000000e+09    -2.350407554746899e+01   -1.114784361418112e+02   
