[Version] 2.0
! Rohde & Schwarz Vector Network Analyzer
! Rohde-Schwarz,ZNL20-2Port,1323001220200009,1.71.1.10-23.02.1.238
! 
! Trace info:
! Nominal Param -> Actual Exported Buffer
! ---------------------------------------
! S11 -> S22

! Created: GMT+3 2024-09-24 16:38:22

# Hz S DB R 50

[Number of Ports] 1
[Number of Frequencies] 6001

[Network Data] 
! freq[Hz]               S11[mag dB]              S11[ang]                 
7.000000000000000e+09    -1.926284067903200e+01   -1.384846712064704e+02   
7.001000000000000e+09    -1.928383370358113e+01   -1.383510672232617e+02   
7.002000000000000e+09    -1.930591713800250e+01   -1.381658820370800e+02   
7.003000000000000e+09    -1.932844476109212e+01   -1.381111017851185e+02   
7.004000000000000e+09    -1.935006713707886e+01   -1.379518929699927e+02   
7.005000000000000e+09    -1.936911442829380e+01   -1.378920706756585e+02   
7.006000000000000e+09    -1.938909286978942e+01   -1.378166800051721e+02   
7.007000000000000e+09    -1.940482912397422e+01   -1.378050744113053e+02   
7.008000000000000e+09    -1.942582448639223e+01   -1.378070391971861e+02   
7.009000000000000e+09    -1.944190093761038e+01   -1.378319281182529e+02   
7.010000000000000e+09    -1.945785849572595e+01   -1.378995198486303e+02   
7.011000000000000e+09    -1.946172233808456e+01   -1.379511003904862e+02   
7.012000000000000e+09    -1.947897956120474e+01   -1.381151639310708e+02   
7.013000000000000e+09    -1.949592641264761e+01   -1.382583482143851e+02   
7.014000000000000e+09    -1.950609200816807e+01   -1.384248681621921e+02   
7.015000000000000e+09    -1.951084514909529e+01   -1.386099226732897e+02   
7.016000000000000e+09    -1.952179507936756e+01   -1.388245767436844e+02   
7.017000000000000e+09    -1.952529892899678e+01   -1.390388496873954e+02   
7.018000000000000e+09    -1.952335018901812e+01   -1.393103210514355e+02   
7.019000000000000e+09    -1.951947371377945e+01   -1.394656183007455e+02   
7.020000000000000e+09    -1.952031413936951e+01   -1.397716856035993e+02   
7.021000000000000e+09    -1.951216256302681e+01   -1.401179785707154e+02   
7.022000000000000e+09    -1.951526046298072e+01   -1.403203449138075e+02   
7.023000000000000e+09    -1.949446682035743e+01   -1.406538456881524e+02   
7.024000000000000e+09    -1.947984748515620e+01   -1.408995818008502e+02   
7.025000000000000e+09    -1.947147474826878e+01   -1.412000035658263e+02   
7.026000000000000e+09    -1.944289283051049e+01   -1.415252676596182e+02   
7.027000000000000e+09    -1.942399985655761e+01   -1.418123185266552e+02   
7.028000000000000e+09    -1.940489165051471e+01   -1.421711810917868e+02   
7.029000000000000e+09    -1.938431538856681e+01   -1.425259201326100e+02   
7.030000000000000e+09    -1.935729528618033e+01   -1.427756951621648e+02   
7.031000000000000e+09    -1.933048824295748e+01   -1.431578444707369e+02   
7.032000000000000e+09    -1.930873977555293e+01   -1.434821577204638e+02   
7.033000000000000e+09    -1.927943547670796e+01   -1.438397714156856e+02   
7.034000000000000e+09    -1.924470487198441e+01   -1.440707340673577e+02   
7.035000000000000e+09    -1.920331679209324e+01   -1.443615584162972e+02   
7.036000000000000e+09    -1.918240043168631e+01   -1.446724737078063e+02   
7.037000000000000e+09    -1.915008159869424e+01   -1.449539075299514e+02   
7.038000000000000e+09    -1.909623083125241e+01   -1.453238025708215e+02   
7.039000000000000e+09    -1.905788049912382e+01   -1.455952235280068e+02   
7.040000000000000e+09    -1.901311450746197e+01   -1.459265746289140e+02   
7.041000000000000e+09    -1.898806260278008e+01   -1.461572799517180e+02   
7.042000000000000e+09    -1.894706070626276e+01   -1.463651300615486e+02   
7.043000000000000e+09    -1.889228304151270e+01   -1.467197814930464e+02   
7.044000000000000e+09    -1.884046906639931e+01   -1.469609749850298e+02   
7.045000000000000e+09    -1.880602994623779e+01   -1.471911273501413e+02   
7.046000000000000e+09    -1.874898648074199e+01   -1.473580813720436e+02   
7.047000000000000e+09    -1.870434647423880e+01   -1.475924791758016e+02   
7.048000000000000e+09    -1.866076542042438e+01   -1.477454493536750e+02   
7.049000000000000e+09    -1.860480688604166e+01   -1.479320328291730e+02   
7.050000000000000e+09    -1.855001719963130e+01   -1.480746899291808e+02   
7.051000000000000e+09    -1.850027022625392e+01   -1.482949710318053e+02   
7.052000000000000e+09    -1.845311309579022e+01   -1.484027173822412e+02   
7.053000000000000e+09    -1.840002283801608e+01   -1.485576442800632e+02   
7.054000000000000e+09    -1.834088779972205e+01   -1.486618332441650e+02   
7.055000000000000e+09    -1.828458657382030e+01   -1.487737818305403e+02   
7.056000000000000e+09    -1.823751969554874e+01   -1.488651002731448e+02   
7.057000000000000e+09    -1.817511004271717e+01   -1.489861729610271e+02   
7.058000000000000e+09    -1.813406882669244e+01   -1.490303378889706e+02   
7.059000000000000e+09    -1.808133123874672e+01   -1.491059303077167e+02   
7.060000000000000e+09    -1.803595149365579e+01   -1.491749807288328e+02   
7.061000000000000e+09    -1.798412704596006e+01   -1.491775769296005e+02   
7.062000000000000e+09    -1.792685252938262e+01   -1.492323764579533e+02   
7.063000000000000e+09    -1.788455212062338e+01   -1.492191307435155e+02   
7.064000000000000e+09    -1.784843302652736e+01   -1.491428046448291e+02   
7.065000000000000e+09    -1.780346465270199e+01   -1.491973775530995e+02   
7.066000000000000e+09    -1.776125240387443e+01   -1.491612493017732e+02   
7.067000000000000e+09    -1.772842952445387e+01   -1.490780441172543e+02   
7.068000000000000e+09    -1.769613445966073e+01   -1.490138688921638e+02   
7.069000000000000e+09    -1.766730791215086e+01   -1.489657011489738e+02   
7.070000000000000e+09    -1.763821549226709e+01   -1.488464682611357e+02   
7.071000000000000e+09    -1.761390372975615e+01   -1.488060738566592e+02   
7.072000000000000e+09    -1.759240449218283e+01   -1.487355681033669e+02   
7.073000000000000e+09    -1.758112618819103e+01   -1.486048599750416e+02   
7.074000000000000e+09    -1.755665661481189e+01   -1.484707659832830e+02   
7.075000000000000e+09    -1.754780027006514e+01   -1.483867338248423e+02   
7.076000000000000e+09    -1.753292823501245e+01   -1.482289676370881e+02   
7.077000000000000e+09    -1.753090630712117e+01   -1.481017132373267e+02   
7.078000000000000e+09    -1.752192023204260e+01   -1.480003344098350e+02   
7.079000000000000e+09    -1.752206933614140e+01   -1.478594005722755e+02   
7.080000000000000e+09    -1.752864475001030e+01   -1.477022555776651e+02   
7.081000000000000e+09    -1.753651433891587e+01   -1.475313259796802e+02   
7.082000000000000e+09    -1.753850656203459e+01   -1.474692493662454e+02   
7.083000000000000e+09    -1.754896158488415e+01   -1.473105806537031e+02   
7.084000000000000e+09    -1.756698715665688e+01   -1.471633870188408e+02   
7.085000000000000e+09    -1.758536611807219e+01   -1.470149709241241e+02   
7.086000000000000e+09    -1.760671082237220e+01   -1.469453581668320e+02   
7.087000000000000e+09    -1.764251295713118e+01   -1.468488355400001e+02   
7.088000000000000e+09    -1.766723447728842e+01   -1.467059298476231e+02   
7.089000000000000e+09    -1.770011766152002e+01   -1.465919297086000e+02   
7.090000000000000e+09    -1.772747302790234e+01   -1.464707461905597e+02   
7.091000000000000e+09    -1.777528706122667e+01   -1.463974035506196e+02   
7.092000000000000e+09    -1.781844444744674e+01   -1.462815866738922e+02   
7.093000000000000e+09    -1.785315919780557e+01   -1.462374582444862e+02   
7.094000000000000e+09    -1.789744329610996e+01   -1.461797430001547e+02   
7.095000000000000e+09    -1.794269952782979e+01   -1.461632222236917e+02   
7.096000000000000e+09    -1.799196851921587e+01   -1.460754583784887e+02   
7.097000000000000e+09    -1.804592794962490e+01   -1.460848493642522e+02   
7.098000000000000e+09    -1.809698461468269e+01   -1.460353645100639e+02   
7.099000000000000e+09    -1.814474148966499e+01   -1.460533931472478e+02   
7.100000000000000e+09    -1.820281193616666e+01   -1.460497832469701e+02   
7.101000000000000e+09    -1.825948972787434e+01   -1.460760170068452e+02   
7.102000000000000e+09    -1.832564679120017e+01   -1.460909490670066e+02   
7.103000000000000e+09    -1.839138363195571e+01   -1.461675925022088e+02   
7.104000000000000e+09    -1.845135900451544e+01   -1.462222478032717e+02   
7.105000000000000e+09    -1.852197519776801e+01   -1.462761197523303e+02   
7.106000000000000e+09    -1.859156588304567e+01   -1.464413936126502e+02   
7.107000000000000e+09    -1.865539784158748e+01   -1.464432848840724e+02   
7.108000000000000e+09    -1.872761363920213e+01   -1.465802304849377e+02   
7.109000000000000e+09    -1.880267900035404e+01   -1.466570351002617e+02   
7.110000000000000e+09    -1.887070576736566e+01   -1.467936817898018e+02   
7.111000000000000e+09    -1.894324432379216e+01   -1.469796765130566e+02   
7.112000000000000e+09    -1.901811390456974e+01   -1.471128501993870e+02   
7.113000000000000e+09    -1.910067201835911e+01   -1.473103734483349e+02   
7.114000000000000e+09    -1.917406400467848e+01   -1.474849803311505e+02   
7.115000000000000e+09    -1.924984460296966e+01   -1.476664734093094e+02   
7.116000000000000e+09    -1.933724982815265e+01   -1.478879254790835e+02   
7.117000000000000e+09    -1.941234680013010e+01   -1.481668709038344e+02   
7.118000000000000e+09    -1.949055704606823e+01   -1.484938423780574e+02   
7.119000000000000e+09    -1.957222582280097e+01   -1.487504598422067e+02   
7.120000000000000e+09    -1.965157612667115e+01   -1.490451540143802e+02   
7.121000000000000e+09    -1.973175691599583e+01   -1.493475047242626e+02   
7.122000000000000e+09    -1.980521127143531e+01   -1.496543899729633e+02   
7.123000000000000e+09    -1.988365441277433e+01   -1.500029635759488e+02   
7.124000000000000e+09    -1.995654348162828e+01   -1.503375470709328e+02   
7.125000000000000e+09    -2.003186869947240e+01   -1.507279350554686e+02   
7.126000000000000e+09    -2.011045307115689e+01   -1.510953007147351e+02   
7.127000000000000e+09    -2.018041453043518e+01   -1.514869864618381e+02   
7.128000000000000e+09    -2.024439104053850e+01   -1.519108701235188e+02   
7.129000000000000e+09    -2.030816668762668e+01   -1.522390199614411e+02   
7.130000000000000e+09    -2.036608705963950e+01   -1.527068172624039e+02   
7.131000000000000e+09    -2.042242725180465e+01   -1.531159757048944e+02   
7.132000000000000e+09    -2.048517700513238e+01   -1.535335552191328e+02   
7.133000000000000e+09    -2.053487690975181e+01   -1.540155189569976e+02   
7.134000000000000e+09    -2.058359951095079e+01   -1.543805999338846e+02   
7.135000000000000e+09    -2.062218461485584e+01   -1.548562664726876e+02   
7.136000000000000e+09    -2.067054705381052e+01   -1.552676582788362e+02   
7.137000000000000e+09    -2.070293816333708e+01   -1.557443386279178e+02   
7.138000000000000e+09    -2.072715894716514e+01   -1.561761766998623e+02   
7.139000000000000e+09    -2.076012275840238e+01   -1.565495585063227e+02   
7.140000000000000e+09    -2.078056965098287e+01   -1.570160541295610e+02   
7.141000000000000e+09    -2.081404493784765e+01   -1.574573612591054e+02   
7.142000000000000e+09    -2.083293149902480e+01   -1.577879887645475e+02   
7.143000000000000e+09    -2.085185943149866e+01   -1.581738241601319e+02   
7.144000000000000e+09    -2.086634106489321e+01   -1.584920246509021e+02   
7.145000000000000e+09    -2.088020195790188e+01   -1.588211984250080e+02   
7.146000000000000e+09    -2.088481064312858e+01   -1.590738838207170e+02   
7.147000000000000e+09    -2.088847184452444e+01   -1.593640564031603e+02   
7.148000000000000e+09    -2.089683658279812e+01   -1.595930363784856e+02   
7.149000000000000e+09    -2.089689479903690e+01   -1.597978464654783e+02   
7.150000000000000e+09    -2.088935817243859e+01   -1.599625843590441e+02   
7.151000000000000e+09    -2.088303625962613e+01   -1.601721766445052e+02   
7.152000000000000e+09    -2.088342633446643e+01   -1.602569314463832e+02   
7.153000000000000e+09    -2.088016227148450e+01   -1.604323689789430e+02   
7.154000000000000e+09    -2.087386971088148e+01   -1.604882818997390e+02   
7.155000000000000e+09    -2.085775006915307e+01   -1.604708433670411e+02   
7.156000000000000e+09    -2.085206533278094e+01   -1.605061323126315e+02   
7.157000000000000e+09    -2.084984472143168e+01   -1.605282878514591e+02   
7.158000000000000e+09    -2.083761258100701e+01   -1.605024295567306e+02   
7.159000000000000e+09    -2.083265796554436e+01   -1.603704040395425e+02   
7.160000000000000e+09    -2.083057198916379e+01   -1.603184225400123e+02   
7.161000000000000e+09    -2.081890322852241e+01   -1.602268982238489e+02   
7.162000000000000e+09    -2.081053897219221e+01   -1.600245120565465e+02   
7.163000000000000e+09    -2.080543302143234e+01   -1.598948728020215e+02   
7.164000000000000e+09    -2.080052323498616e+01   -1.596631033019594e+02   
7.165000000000000e+09    -2.081638187887209e+01   -1.594268223627372e+02   
7.166000000000000e+09    -2.081092593769638e+01   -1.591361673649023e+02   
7.167000000000000e+09    -2.080845466738521e+01   -1.589281378360323e+02   
7.168000000000000e+09    -2.080393401124228e+01   -1.586813143371731e+02   
7.169000000000000e+09    -2.082482878061089e+01   -1.582700702901433e+02   
7.170000000000000e+09    -2.082883834997003e+01   -1.579445095936850e+02   
7.171000000000000e+09    -2.083849111978097e+01   -1.575555331877657e+02   
7.172000000000000e+09    -2.085132206309076e+01   -1.571127162520813e+02   
7.173000000000000e+09    -2.086486466587365e+01   -1.567310083737786e+02   
7.174000000000000e+09    -2.087302721562369e+01   -1.562666942140041e+02   
7.175000000000000e+09    -2.088730916707489e+01   -1.557914736079174e+02   
7.176000000000000e+09    -2.090518654748355e+01   -1.554087052269696e+02   
7.177000000000000e+09    -2.093147129864654e+01   -1.549082968390769e+02   
7.178000000000000e+09    -2.094698900143984e+01   -1.543841230263402e+02   
7.179000000000000e+09    -2.097558677956394e+01   -1.538583238052972e+02   
7.180000000000000e+09    -2.099962421218280e+01   -1.533010095388219e+02   
7.181000000000000e+09    -2.101899470447140e+01   -1.528170099514930e+02   
7.182000000000000e+09    -2.106058237999201e+01   -1.521386450591477e+02   
7.183000000000000e+09    -2.108583903540588e+01   -1.515564068352742e+02   
7.184000000000000e+09    -2.112536453806984e+01   -1.510139672429128e+02   
7.185000000000000e+09    -2.116157982644135e+01   -1.502720451569110e+02   
7.186000000000000e+09    -2.120607059408083e+01   -1.497963655035310e+02   
7.187000000000000e+09    -2.124532002318361e+01   -1.490315602555614e+02   
7.188000000000000e+09    -2.128226320687870e+01   -1.483926799957064e+02   
7.189000000000000e+09    -2.132537855010246e+01   -1.476845675158534e+02   
7.190000000000000e+09    -2.138153279151223e+01   -1.470325921840714e+02   
7.191000000000000e+09    -2.141425110907750e+01   -1.463011130177832e+02   
7.192000000000000e+09    -2.147543084944552e+01   -1.455800275872018e+02   
7.193000000000000e+09    -2.152295179587398e+01   -1.447808598664091e+02   
7.194000000000000e+09    -2.157821698794727e+01   -1.440383203481999e+02   
7.195000000000000e+09    -2.163167065160728e+01   -1.432966311770991e+02   
7.196000000000000e+09    -2.169466908626823e+01   -1.424990879631576e+02   
7.197000000000000e+09    -2.176392648244764e+01   -1.418090099239635e+02   
7.198000000000000e+09    -2.182184823511288e+01   -1.409904836279327e+02   
7.199000000000000e+09    -2.187672133722963e+01   -1.401414065409006e+02   
7.200000000000000e+09    -2.194600234803838e+01   -1.393697268707050e+02   
7.201000000000000e+09    -2.201742576287454e+01   -1.385824990527442e+02   
7.202000000000000e+09    -2.208559058833155e+01   -1.378342203745974e+02   
7.203000000000000e+09    -2.216247782410955e+01   -1.370693423524606e+02   
7.204000000000000e+09    -2.224726637459704e+01   -1.361921469075977e+02   
7.205000000000000e+09    -2.233051838346308e+01   -1.353798952329338e+02   
7.206000000000000e+09    -2.241685624879501e+01   -1.345720277882249e+02   
7.207000000000000e+09    -2.250362584749427e+01   -1.337723085505524e+02   
7.208000000000000e+09    -2.258763329499844e+01   -1.329971872432357e+02   
7.209000000000000e+09    -2.267194376457545e+01   -1.322494281124602e+02   
7.210000000000000e+09    -2.277365021522291e+01   -1.313161603653645e+02   
7.211000000000000e+09    -2.285304146791386e+01   -1.305537560220947e+02   
7.212000000000000e+09    -2.295945246535267e+01   -1.298283467390426e+02   
7.213000000000000e+09    -2.305939839138681e+01   -1.290500582308222e+02   
7.214000000000000e+09    -2.313821457619456e+01   -1.282419369936136e+02   
7.215000000000000e+09    -2.323398520276341e+01   -1.275866586439366e+02   
7.216000000000000e+09    -2.334226141281260e+01   -1.268271931175531e+02   
7.217000000000000e+09    -2.342948728032313e+01   -1.261373448617665e+02   
7.218000000000000e+09    -2.353976714798970e+01   -1.254116487694456e+02   
7.219000000000000e+09    -2.362576969151642e+01   -1.245987816447986e+02   
7.220000000000000e+09    -2.371622717837704e+01   -1.239122874354970e+02   
7.221000000000000e+09    -2.380698946793459e+01   -1.232232982669206e+02   
7.222000000000000e+09    -2.389693969197652e+01   -1.225856119455222e+02   
7.223000000000000e+09    -2.398590299808424e+01   -1.219212273453100e+02   
7.224000000000000e+09    -2.406760099187055e+01   -1.213283677497190e+02   
7.225000000000000e+09    -2.414778191008291e+01   -1.205719862266282e+02   
7.226000000000000e+09    -2.423028991895792e+01   -1.200654381910729e+02   
7.227000000000000e+09    -2.429602546053528e+01   -1.194801400035402e+02   
7.228000000000000e+09    -2.436318593406845e+01   -1.190636401260121e+02   
7.229000000000000e+09    -2.442102540202846e+01   -1.185501839698101e+02   
7.230000000000000e+09    -2.449854676572741e+01   -1.180587630126690e+02   
7.231000000000000e+09    -2.453518601794819e+01   -1.176756657426444e+02   
7.232000000000000e+09    -2.458044408196429e+01   -1.172538546510384e+02   
7.233000000000000e+09    -2.463099698263195e+01   -1.170013110929142e+02   
7.234000000000000e+09    -2.467999297111080e+01   -1.166448936081818e+02   
7.235000000000000e+09    -2.470507567692438e+01   -1.164879770106595e+02   
7.236000000000000e+09    -2.473741179564703e+01   -1.160171312081910e+02   
7.237000000000000e+09    -2.477924342697974e+01   -1.158801934645497e+02   
7.238000000000000e+09    -2.480253665676969e+01   -1.155849912391999e+02   
7.239000000000000e+09    -2.480361333150928e+01   -1.154325866444911e+02   
7.240000000000000e+09    -2.480742506370264e+01   -1.152172593334753e+02   
7.241000000000000e+09    -2.479800335484410e+01   -1.150125340100183e+02   
7.242000000000000e+09    -2.478012460167479e+01   -1.149938845186791e+02   
7.243000000000000e+09    -2.476372907893481e+01   -1.149892567482907e+02   
7.244000000000000e+09    -2.474043719548815e+01   -1.148001010936200e+02   
7.245000000000000e+09    -2.471465973707648e+01   -1.148056570274528e+02   
7.246000000000000e+09    -2.467849142813730e+01   -1.148212151606579e+02   
7.247000000000000e+09    -2.464535896580874e+01   -1.148093478467287e+02   
7.248000000000000e+09    -2.459558782475148e+01   -1.148288630230418e+02   
7.249000000000000e+09    -2.454216993473157e+01   -1.147813158187164e+02   
7.250000000000000e+09    -2.447421869862127e+01   -1.148814500656780e+02   
7.251000000000000e+09    -2.440620631326336e+01   -1.149898753246120e+02   
7.252000000000000e+09    -2.434391442151838e+01   -1.149326236627690e+02   
7.253000000000000e+09    -2.427284691916576e+01   -1.150080189993974e+02   
7.254000000000000e+09    -2.416858177331925e+01   -1.150293962383770e+02   
7.255000000000000e+09    -2.408639387671510e+01   -1.150819810405838e+02   
7.256000000000000e+09    -2.400158989786168e+01   -1.151976104112094e+02   
