[Version] 2.0
! Rohde & Schwarz Vector Network Analyzer
! Rohde-Schwarz,ZNL20-2Port,1323001220200009,1.71.1.10-23.02.1.238
! 
! Trace info:
! Nominal Param -> Actual Exported Buffer
! ---------------------------------------
! S11 -> S22

! Created: GMT+3 2024-09-24 16:25:37

# Hz S DB R 50

[Number of Ports] 1
[Number of Frequencies] 6001

[Network Data] 
! freq[Hz]               S11[mag dB]              S11[ang]                 
7.000000000000000e+09    -1.950851823640415e+01   -1.366489285196716e+02   
7.001000000000000e+09    -1.952634335445280e+01   -1.364449799967202e+02   
7.002000000000000e+09    -1.954614500556855e+01   -1.362573715600563e+02   
7.003000000000000e+09    -1.956733620465086e+01   -1.360097843681353e+02   
7.004000000000000e+09    -1.958456769933490e+01   -1.358329723554732e+02   
7.005000000000000e+09    -1.959961115172959e+01   -1.357353633009588e+02   
7.006000000000000e+09    -1.962143797942108e+01   -1.355788974977434e+02   
7.007000000000000e+09    -1.962916358134134e+01   -1.355421880451732e+02   
7.008000000000000e+09    -1.964103022355361e+01   -1.354854553514924e+02   
7.009000000000000e+09    -1.965426941782016e+01   -1.354475121682280e+02   
7.010000000000000e+09    -1.966557962640518e+01   -1.354100467188977e+02   
7.011000000000000e+09    -1.967067453316265e+01   -1.354797327448756e+02   
7.012000000000000e+09    -1.968468906556828e+01   -1.355225228046996e+02   
7.013000000000000e+09    -1.969620712320055e+01   -1.356222043864372e+02   
7.014000000000000e+09    -1.969022922798460e+01   -1.358034043212564e+02   
7.015000000000000e+09    -1.969446063937135e+01   -1.359164034121232e+02   
7.016000000000000e+09    -1.969339740454731e+01   -1.360990369645488e+02   
7.017000000000000e+09    -1.969413501030897e+01   -1.362965189842286e+02   
7.018000000000000e+09    -1.969147798995947e+01   -1.364589653501692e+02   
7.019000000000000e+09    -1.967440321885900e+01   -1.366145119539538e+02   
7.020000000000000e+09    -1.967865462875426e+01   -1.368656891343643e+02   
7.021000000000000e+09    -1.965368451518064e+01   -1.371017966514164e+02   
7.022000000000000e+09    -1.965747157660193e+01   -1.372796867159105e+02   
7.023000000000000e+09    -1.962161643543552e+01   -1.376249244588850e+02   
7.024000000000000e+09    -1.960297337566163e+01   -1.378656793088658e+02   
7.025000000000000e+09    -1.958929588441406e+01   -1.381350550640571e+02   
7.026000000000000e+09    -1.955747358986625e+01   -1.385211833867349e+02   
7.027000000000000e+09    -1.953443410709332e+01   -1.387922152441523e+02   
7.028000000000000e+09    -1.950001775279460e+01   -1.391007143952907e+02   
7.029000000000000e+09    -1.947586855451964e+01   -1.394203657087662e+02   
7.030000000000000e+09    -1.944833487235256e+01   -1.396913738053767e+02   
7.031000000000000e+09    -1.941536120459183e+01   -1.400017487892918e+02   
7.032000000000000e+09    -1.938078861067870e+01   -1.403721719668452e+02   
7.033000000000000e+09    -1.935363077079642e+01   -1.406780895614383e+02   
7.034000000000000e+09    -1.931145505641941e+01   -1.409902922133177e+02   
7.035000000000000e+09    -1.927030858382377e+01   -1.412517882176928e+02   
7.036000000000000e+09    -1.924039123537725e+01   -1.415343159964325e+02   
7.037000000000000e+09    -1.919591973653921e+01   -1.417894152186015e+02   
7.038000000000000e+09    -1.914196485963266e+01   -1.421118660054093e+02   
7.039000000000000e+09    -1.910130835465923e+01   -1.424086072754248e+02   
7.040000000000000e+09    -1.905218379988455e+01   -1.426642783876372e+02   
7.041000000000000e+09    -1.900461922537082e+01   -1.429729260020907e+02   
7.042000000000000e+09    -1.896707834669600e+01   -1.432407493007395e+02   
7.043000000000000e+09    -1.891421367753809e+01   -1.435532221029367e+02   
7.044000000000000e+09    -1.885334810880623e+01   -1.438158484445561e+02   
7.045000000000000e+09    -1.880431766323026e+01   -1.440320018963068e+02   
7.046000000000000e+09    -1.874311496655266e+01   -1.442200446090045e+02   
7.047000000000000e+09    -1.869726739520805e+01   -1.444711466023279e+02   
7.048000000000000e+09    -1.863781384588112e+01   -1.447256525631365e+02   
7.049000000000000e+09    -1.857906724650658e+01   -1.448794265760440e+02   
7.050000000000000e+09    -1.852381040947556e+01   -1.450499573203720e+02   
7.051000000000000e+09    -1.846331695605807e+01   -1.453067110864829e+02   
7.052000000000000e+09    -1.841084651312432e+01   -1.454886191196940e+02   
7.053000000000000e+09    -1.835631301738906e+01   -1.456204420272840e+02   
7.054000000000000e+09    -1.829155547683629e+01   -1.457535991986677e+02   
7.055000000000000e+09    -1.822924777983949e+01   -1.458900781650997e+02   
7.056000000000000e+09    -1.817755511667116e+01   -1.460276779598036e+02   
7.057000000000000e+09    -1.811178465192934e+01   -1.461845884385471e+02   
7.058000000000000e+09    -1.806347709517023e+01   -1.462217461450789e+02   
7.059000000000000e+09    -1.800491111984052e+01   -1.463736727380710e+02   
7.060000000000000e+09    -1.794782065120926e+01   -1.464543519302747e+02   
7.061000000000000e+09    -1.789537761714660e+01   -1.464126810092198e+02   
7.062000000000000e+09    -1.783796257037180e+01   -1.465225306154751e+02   
7.063000000000000e+09    -1.778464687114870e+01   -1.465625878242895e+02   
7.064000000000000e+09    -1.773247314406139e+01   -1.465392329375039e+02   
7.065000000000000e+09    -1.769126379258078e+01   -1.466012945716677e+02   
7.066000000000000e+09    -1.763707675254533e+01   -1.465946419327803e+02   
7.067000000000000e+09    -1.759545140672811e+01   -1.465176348038514e+02   
7.068000000000000e+09    -1.756363886092767e+01   -1.465311711739495e+02   
7.069000000000000e+09    -1.752012649080805e+01   -1.464936845714307e+02   
7.070000000000000e+09    -1.749038344121345e+01   -1.464236409769139e+02   
7.071000000000000e+09    -1.746110719149221e+01   -1.463611541431115e+02   
7.072000000000000e+09    -1.742958990736673e+01   -1.463200016418035e+02   
7.073000000000000e+09    -1.740719161983520e+01   -1.462252397196177e+02   
7.074000000000000e+09    -1.738312477592482e+01   -1.461389705912314e+02   
7.075000000000000e+09    -1.736834706989124e+01   -1.460293717494213e+02   
7.076000000000000e+09    -1.735070768682360e+01   -1.459201399082406e+02   
7.077000000000000e+09    -1.733874782468235e+01   -1.458375376324472e+02   
7.078000000000000e+09    -1.732718249872350e+01   -1.457431441554520e+02   
7.079000000000000e+09    -1.732705993924120e+01   -1.456129530714882e+02   
7.080000000000000e+09    -1.732200158520828e+01   -1.454800162599016e+02   
7.081000000000000e+09    -1.732288178317972e+01   -1.453621759659527e+02   
7.082000000000000e+09    -1.733001199533903e+01   -1.452221216765622e+02   
7.083000000000000e+09    -1.732940014106207e+01   -1.451502486992545e+02   
7.084000000000000e+09    -1.734371323048874e+01   -1.450097865897135e+02   
7.085000000000000e+09    -1.735583444654124e+01   -1.448913729037708e+02   
7.086000000000000e+09    -1.737546384472406e+01   -1.448691955659912e+02   
7.087000000000000e+09    -1.739351538205355e+01   -1.447555691317840e+02   
7.088000000000000e+09    -1.741816581414236e+01   -1.446331440747882e+02   
7.089000000000000e+09    -1.744122303788161e+01   -1.445258251422918e+02   
7.090000000000000e+09    -1.746523036940557e+01   -1.444785702429464e+02   
7.091000000000000e+09    -1.750279462277889e+01   -1.443651420008104e+02   
7.092000000000000e+09    -1.753611635076474e+01   -1.443264618548991e+02   
7.093000000000000e+09    -1.756519529947720e+01   -1.442955996052785e+02   
7.094000000000000e+09    -1.760681869201077e+01   -1.442719556458222e+02   
7.095000000000000e+09    -1.765420830020286e+01   -1.442344783493594e+02   
7.096000000000000e+09    -1.769659091474050e+01   -1.441887201009433e+02   
7.097000000000000e+09    -1.773938420792816e+01   -1.442097951930712e+02   
7.098000000000000e+09    -1.779031876680749e+01   -1.441382567935044e+02   
7.099000000000000e+09    -1.783891580751014e+01   -1.441876437479261e+02   
7.100000000000000e+09    -1.789161760322922e+01   -1.441843854542917e+02   
7.101000000000000e+09    -1.793866737481905e+01   -1.442350274060429e+02   
7.102000000000000e+09    -1.800187014067057e+01   -1.443013520891854e+02   
7.103000000000000e+09    -1.804983466042867e+01   -1.443222208023783e+02   
7.104000000000000e+09    -1.811264901482247e+01   -1.444151600505197e+02   
7.105000000000000e+09    -1.817506540891680e+01   -1.444944618830376e+02   
7.106000000000000e+09    -1.823417388269835e+01   -1.446111414082876e+02   
7.107000000000000e+09    -1.829991662132537e+01   -1.447176623585226e+02   
7.108000000000000e+09    -1.836201573069902e+01   -1.448648952949583e+02   
7.109000000000000e+09    -1.842920477155837e+01   -1.449368357973848e+02   
7.110000000000000e+09    -1.849639653821331e+01   -1.450696630305368e+02   
7.111000000000000e+09    -1.856900859010021e+01   -1.452416637617623e+02   
7.112000000000000e+09    -1.863107256592270e+01   -1.454195073953722e+02   
7.113000000000000e+09    -1.871230333380944e+01   -1.456293858017954e+02   
7.114000000000000e+09    -1.877875899783781e+01   -1.458338054286327e+02   
7.115000000000000e+09    -1.885483621916188e+01   -1.460119932009044e+02   
7.116000000000000e+09    -1.893318614160442e+01   -1.462160650298374e+02   
7.117000000000000e+09    -1.900227604329743e+01   -1.464996588902036e+02   
7.118000000000000e+09    -1.906896802530778e+01   -1.467842417601078e+02   
7.119000000000000e+09    -1.914909242902097e+01   -1.470115123679013e+02   
7.120000000000000e+09    -1.922722851866871e+01   -1.473295077310439e+02   
7.121000000000000e+09    -1.929732096043934e+01   -1.476256245549939e+02   
7.122000000000000e+09    -1.936471490137153e+01   -1.479723700647058e+02   
7.123000000000000e+09    -1.943889590662545e+01   -1.483211666392170e+02   
7.124000000000000e+09    -1.951443656716919e+01   -1.486153523154342e+02   
7.125000000000000e+09    -1.958497975127832e+01   -1.490812439688315e+02   
7.126000000000000e+09    -1.964404966336621e+01   -1.493917182279163e+02   
7.127000000000000e+09    -1.970901273052250e+01   -1.497733361492800e+02   
7.128000000000000e+09    -1.977475079496103e+01   -1.501790954320118e+02   
7.129000000000000e+09    -1.983118489101023e+01   -1.505694802427878e+02   
7.130000000000000e+09    -1.989157817732474e+01   -1.509832366423188e+02   
7.131000000000000e+09    -1.994398548111241e+01   -1.513996930683817e+02   
7.132000000000000e+09    -1.999237003517601e+01   -1.518090056339289e+02   
7.133000000000000e+09    -2.003268829756882e+01   -1.522701332233624e+02   
7.134000000000000e+09    -2.008238112175697e+01   -1.527069125190051e+02   
7.135000000000000e+09    -2.010847859175006e+01   -1.531880977392858e+02   
7.136000000000000e+09    -2.015278099026891e+01   -1.535672996279283e+02   
7.137000000000000e+09    -2.018629573711997e+01   -1.540133345646632e+02   
7.138000000000000e+09    -2.019940360522158e+01   -1.545219724651994e+02   
7.139000000000000e+09    -2.023078508265050e+01   -1.549049379961612e+02   
7.140000000000000e+09    -2.025894413218626e+01   -1.553649673985392e+02   
7.141000000000000e+09    -2.027133065183284e+01   -1.557867904577320e+02   
7.142000000000000e+09    -2.028506209219977e+01   -1.561383850622538e+02   
7.143000000000000e+09    -2.030183212696741e+01   -1.565150338965208e+02   
7.144000000000000e+09    -2.030635783164070e+01   -1.568512094863288e+02   
7.145000000000000e+09    -2.032234565736079e+01   -1.572457339000233e+02   
7.146000000000000e+09    -2.031179765420790e+01   -1.575268065698254e+02   
7.147000000000000e+09    -2.031329437395452e+01   -1.578394923986105e+02   
7.148000000000000e+09    -2.031880670271774e+01   -1.580870247614683e+02   
7.149000000000000e+09    -2.031338156867957e+01   -1.583224622160512e+02   
7.150000000000000e+09    -2.029779494422213e+01   -1.585212086966491e+02   
7.151000000000000e+09    -2.028817024722429e+01   -1.587462868975344e+02   
7.152000000000000e+09    -2.027467229628140e+01   -1.589106601475381e+02   
7.153000000000000e+09    -2.026957354240436e+01   -1.590446200454847e+02   
7.154000000000000e+09    -2.027141006760115e+01   -1.592322455759787e+02   
7.155000000000000e+09    -2.024740622756143e+01   -1.593211665088060e+02   
7.156000000000000e+09    -2.022576064402349e+01   -1.593216356615757e+02   
7.157000000000000e+09    -2.022327289668612e+01   -1.593735238708171e+02   
7.158000000000000e+09    -2.021041144625310e+01   -1.594409444071118e+02   
7.159000000000000e+09    -2.020119438431268e+01   -1.593895897660246e+02   
7.160000000000000e+09    -2.019681414682333e+01   -1.594199066324200e+02   
7.161000000000000e+09    -2.018565421525765e+01   -1.593927116996883e+02   
7.162000000000000e+09    -2.017455190170628e+01   -1.592592912402606e+02   
7.163000000000000e+09    -2.016171617824925e+01   -1.591716825654048e+02   
7.164000000000000e+09    -2.015679014695484e+01   -1.590160235228274e+02   
7.165000000000000e+09    -2.015936946626950e+01   -1.588993602598966e+02   
7.166000000000000e+09    -2.014276873721888e+01   -1.586790550058766e+02   
7.167000000000000e+09    -2.014844876589425e+01   -1.584448284798093e+02   
7.168000000000000e+09    -2.014812739479039e+01   -1.583021428227057e+02   
7.169000000000000e+09    -2.015790843650690e+01   -1.580103943620140e+02   
7.170000000000000e+09    -2.016239873193172e+01   -1.577502786529649e+02   
7.171000000000000e+09    -2.015764834090181e+01   -1.575092535170868e+02   
7.172000000000000e+09    -2.016869865556121e+01   -1.571759298399675e+02   
7.173000000000000e+09    -2.018383821371687e+01   -1.568688771060068e+02   
7.174000000000000e+09    -2.018865302265554e+01   -1.565724772623372e+02   
7.175000000000000e+09    -2.020196209256314e+01   -1.561802525024603e+02   
7.176000000000000e+09    -2.021527698624002e+01   -1.558802477467518e+02   
7.177000000000000e+09    -2.024158272221982e+01   -1.554946299721212e+02   
7.178000000000000e+09    -2.026112140670176e+01   -1.550880659302505e+02   
7.179000000000000e+09    -2.029390203052775e+01   -1.546784057773596e+02   
7.180000000000000e+09    -2.030369264568001e+01   -1.542343900704377e+02   
7.181000000000000e+09    -2.034051816555834e+01   -1.538330059274724e+02   
7.182000000000000e+09    -2.036638727917910e+01   -1.533275194588414e+02   
7.183000000000000e+09    -2.040351272395228e+01   -1.528495853775358e+02   
7.184000000000000e+09    -2.042852611670876e+01   -1.523769985790939e+02   
7.185000000000000e+09    -2.047739018570265e+01   -1.518561495437815e+02   
7.186000000000000e+09    -2.051867912332445e+01   -1.513751365279367e+02   
7.187000000000000e+09    -2.055495163738947e+01   -1.508379368695453e+02   
7.188000000000000e+09    -2.059347716535699e+01   -1.502905194787672e+02   
7.189000000000000e+09    -2.065163093808462e+01   -1.497431058237039e+02   
7.190000000000000e+09    -2.070481043367205e+01   -1.491601670696599e+02   
7.191000000000000e+09    -2.073152627548744e+01   -1.486160895551001e+02   
7.192000000000000e+09    -2.079336642754618e+01   -1.480234324116301e+02   
7.193000000000000e+09    -2.084154320105519e+01   -1.474227716270627e+02   
7.194000000000000e+09    -2.089940358832524e+01   -1.468385914466492e+02   
7.195000000000000e+09    -2.096206407820571e+01   -1.463400477705562e+02   
7.196000000000000e+09    -2.103012560272781e+01   -1.456894561534926e+02   
7.197000000000000e+09    -2.110189466453210e+01   -1.451393686864587e+02   
7.198000000000000e+09    -2.116762664179257e+01   -1.444970644023458e+02   
7.199000000000000e+09    -2.124965886541784e+01   -1.438362451839821e+02   
7.200000000000000e+09    -2.132527948357071e+01   -1.432064331707867e+02   
7.201000000000000e+09    -2.140316979867655e+01   -1.426122011278616e+02   
7.202000000000000e+09    -2.148940351132023e+01   -1.420283350401947e+02   
7.203000000000000e+09    -2.157661150718062e+01   -1.413885175077151e+02   
7.204000000000000e+09    -2.167345259815350e+01   -1.407527384491738e+02   
7.205000000000000e+09    -2.178829933116536e+01   -1.401023498489498e+02   
7.206000000000000e+09    -2.187370016664775e+01   -1.394336481792434e+02   
7.207000000000000e+09    -2.198586570820492e+01   -1.388041741955761e+02   
7.208000000000000e+09    -2.207194984381917e+01   -1.381714967975688e+02   
7.209000000000000e+09    -2.217334371833118e+01   -1.375213587236718e+02   
7.210000000000000e+09    -2.228632734285979e+01   -1.368976156781262e+02   
7.211000000000000e+09    -2.238067702145452e+01   -1.362180217829920e+02   
7.212000000000000e+09    -2.251401240331417e+01   -1.356059645069625e+02   
7.213000000000000e+09    -2.262310716349151e+01   -1.350492162533059e+02   
7.214000000000000e+09    -2.273356268481303e+01   -1.344366916513006e+02   
7.215000000000000e+09    -2.284293042828661e+01   -1.338601300858133e+02   
7.216000000000000e+09    -2.296295923092708e+01   -1.334538751968179e+02   
7.217000000000000e+09    -2.307971524430803e+01   -1.328572115634521e+02   
7.218000000000000e+09    -2.320942449173874e+01   -1.323031714898050e+02   
7.219000000000000e+09    -2.331829669156705e+01   -1.317380606648991e+02   
7.220000000000000e+09    -2.343909416450495e+01   -1.312717835089766e+02   
7.221000000000000e+09    -2.356349059761208e+01   -1.306550568334486e+02   
7.222000000000000e+09    -2.369050450325920e+01   -1.302129330603814e+02   
7.223000000000000e+09    -2.380020632915211e+01   -1.297112474114555e+02   
7.224000000000000e+09    -2.390679638048189e+01   -1.293293229950746e+02   
7.225000000000000e+09    -2.401429085808374e+01   -1.287359000866479e+02   
7.226000000000000e+09    -2.413825362307902e+01   -1.284882424996646e+02   
7.227000000000000e+09    -2.423638507735638e+01   -1.279609009110081e+02   
7.228000000000000e+09    -2.433443309039596e+01   -1.276615513769025e+02   
7.229000000000000e+09    -2.442713443078930e+01   -1.272055548599010e+02   
7.230000000000000e+09    -2.452458006650058e+01   -1.268538869359214e+02   
7.231000000000000e+09    -2.462839184982651e+01   -1.266253742271170e+02   
7.232000000000000e+09    -2.469794432709403e+01   -1.263537611370150e+02   
7.233000000000000e+09    -2.476477646365734e+01   -1.260624705417518e+02   
7.234000000000000e+09    -2.484891222942353e+01   -1.257834417279986e+02   
7.235000000000000e+09    -2.491259078202157e+01   -1.255879344159146e+02   
7.236000000000000e+09    -2.497927750851495e+01   -1.252672859881331e+02   
7.237000000000000e+09    -2.503811812893414e+01   -1.251677414943138e+02   
7.238000000000000e+09    -2.511784626261770e+01   -1.249852138727717e+02   
7.239000000000000e+09    -2.513259996788188e+01   -1.248082956449086e+02   
7.240000000000000e+09    -2.518923477276057e+01   -1.247134896317743e+02   
7.241000000000000e+09    -2.520287612297009e+01   -1.244240399340178e+02   
7.242000000000000e+09    -2.522952073688901e+01   -1.243631071047393e+02   
7.243000000000000e+09    -2.523414796979425e+01   -1.243780168447842e+02   
7.244000000000000e+09    -2.522351568090968e+01   -1.241693536549604e+02   
7.245000000000000e+09    -2.525805181067478e+01   -1.242124629671945e+02   
7.246000000000000e+09    -2.523921966494687e+01   -1.240966908232755e+02   
7.247000000000000e+09    -2.522843548906408e+01   -1.240263494701055e+02   
7.248000000000000e+09    -2.521676663646013e+01   -1.239966193923218e+02   
7.249000000000000e+09    -2.519849069225461e+01   -1.238883280072837e+02   
7.250000000000000e+09    -2.515064921195082e+01   -1.239052298320911e+02   
7.251000000000000e+09    -2.510822226409748e+01   -1.238698673811861e+02   
7.252000000000000e+09    -2.505411522942396e+01   -1.237915749078736e+02   
7.253000000000000e+09    -2.501104613626742e+01   -1.237128357304343e+02   
7.254000000000000e+09    -2.492286417223773e+01   -1.235297343698794e+02   
7.255000000000000e+09    -2.487381779036771e+01   -1.234275867916563e+02   
7.256000000000000e+09    -2.479329199800684e+01   -1.234231959549876e+02   
