[Version] 2.0
! Rohde & Schwarz Vector Network Analyzer
! Rohde-Schwarz,ZNL20-2Port,1323001220200009,1.71.1.10-23.02.1.238
! 
! Trace info:
! Nominal Param -> Actual Exported Buffer
! ---------------------------------------
! S11 -> S22

! Created: GMT+3 2024-09-24 16:26:34

# Hz S DB R 50

[Number of Ports] 1
[Number of Frequencies] 6001

[Network Data] 
! freq[Hz]               S11[mag dB]              S11[ang]                 
7.000000000000000e+09    -1.993357347917392e+01   -1.544028752397962e+02   
7.001000000000000e+09    -1.999296989170442e+01   -1.542087000594099e+02   
7.002000000000000e+09    -2.006688084815853e+01   -1.540668699530373e+02   
7.003000000000000e+09    -2.012820528668572e+01   -1.539294837847224e+02   
7.004000000000000e+09    -2.019223735761118e+01   -1.537405775905185e+02   
7.005000000000000e+09    -2.025719888225746e+01   -1.536561380305029e+02   
7.006000000000000e+09    -2.032290827391984e+01   -1.535318196956871e+02   
7.007000000000000e+09    -2.037925179311702e+01   -1.535325745633071e+02   
7.008000000000000e+09    -2.044068692793269e+01   -1.535347588517416e+02   
7.009000000000000e+09    -2.050676753903499e+01   -1.535349745509763e+02   
7.010000000000000e+09    -2.055438894691034e+01   -1.535572966676282e+02   
7.011000000000000e+09    -2.060704766503889e+01   -1.537037820791264e+02   
7.012000000000000e+09    -2.066052537443447e+01   -1.537215558345834e+02   
7.013000000000000e+09    -2.071774477223020e+01   -1.539303018584191e+02   
7.014000000000000e+09    -2.077201365364584e+01   -1.541024187879348e+02   
7.015000000000000e+09    -2.081572848350346e+01   -1.541908657992395e+02   
7.016000000000000e+09    -2.086341846335156e+01   -1.544545782661953e+02   
7.017000000000000e+09    -2.091274024955579e+01   -1.546689511539769e+02   
7.018000000000000e+09    -2.096509353098434e+01   -1.548450061035871e+02   
7.019000000000000e+09    -2.099572242469958e+01   -1.550016387714295e+02   
7.020000000000000e+09    -2.104289677639052e+01   -1.552842676773732e+02   
7.021000000000000e+09    -2.107991725286475e+01   -1.554857314294154e+02   
7.022000000000000e+09    -2.113004458174589e+01   -1.556344919004152e+02   
7.023000000000000e+09    -2.116090354260783e+01   -1.559044894545747e+02   
7.024000000000000e+09    -2.118944298577003e+01   -1.561221678102797e+02   
7.025000000000000e+09    -2.122271053028947e+01   -1.562656781470720e+02   
7.026000000000000e+09    -2.123680544761184e+01   -1.564756920333117e+02   
7.027000000000000e+09    -2.126729707177749e+01   -1.566311026374346e+02   
7.028000000000000e+09    -2.128059250867991e+01   -1.568021782778100e+02   
7.029000000000000e+09    -2.131031878918559e+01   -1.568851818033149e+02   
7.030000000000000e+09    -2.131655691710424e+01   -1.570059036671435e+02   
7.031000000000000e+09    -2.132884984826395e+01   -1.571431330925036e+02   
7.032000000000000e+09    -2.134060279938970e+01   -1.573014867462702e+02   
7.033000000000000e+09    -2.134486579732319e+01   -1.574126943219460e+02   
7.034000000000000e+09    -2.134028775924316e+01   -1.573858635330459e+02   
7.035000000000000e+09    -2.132280916512553e+01   -1.574181877487530e+02   
7.036000000000000e+09    -2.132285618574750e+01   -1.574986731184894e+02   
7.037000000000000e+09    -2.131242516129053e+01   -1.574227798181419e+02   
7.038000000000000e+09    -2.128804096973713e+01   -1.575023211503573e+02   
7.039000000000000e+09    -2.127151181934884e+01   -1.574666225611655e+02   
7.040000000000000e+09    -2.124392520159181e+01   -1.574884891000991e+02   
7.041000000000000e+09    -2.122033455076451e+01   -1.574781422860100e+02   
7.042000000000000e+09    -2.119948100538532e+01   -1.574524200031847e+02   
7.043000000000000e+09    -2.116034826885531e+01   -1.574656068629303e+02   
7.044000000000000e+09    -2.111831839487276e+01   -1.573495477208701e+02   
7.045000000000000e+09    -2.109169521150105e+01   -1.573354555572544e+02   
7.046000000000000e+09    -2.104516813964175e+01   -1.573214438999891e+02   
7.047000000000000e+09    -2.101100015035536e+01   -1.571743104977015e+02   
7.048000000000000e+09    -2.096308679285522e+01   -1.571142318976466e+02   
7.049000000000000e+09    -2.092938334780587e+01   -1.569710676903739e+02   
7.050000000000000e+09    -2.087794184597463e+01   -1.568553715384514e+02   
7.051000000000000e+09    -2.083994122357567e+01   -1.568708687563861e+02   
7.052000000000000e+09    -2.080408674893328e+01   -1.566254290544024e+02   
7.053000000000000e+09    -2.076163179498354e+01   -1.564563220822011e+02   
7.054000000000000e+09    -2.072751231373923e+01   -1.562692617277677e+02   
7.055000000000000e+09    -2.068531129118132e+01   -1.561590142851320e+02   
7.056000000000000e+09    -2.065267507185773e+01   -1.559230625869587e+02   
7.057000000000000e+09    -2.060614558093116e+01   -1.557959227463868e+02   
7.058000000000000e+09    -2.058770376775499e+01   -1.555014000773280e+02   
7.059000000000000e+09    -2.053928205732819e+01   -1.551818059472311e+02   
7.060000000000000e+09    -2.051362394775172e+01   -1.549574065149341e+02   
7.061000000000000e+09    -2.048128007249073e+01   -1.545661328704436e+02   
7.062000000000000e+09    -2.044626842996234e+01   -1.543108572902670e+02   
7.063000000000000e+09    -2.041583434612150e+01   -1.538952487115234e+02   
7.064000000000000e+09    -2.039470070132805e+01   -1.534539234270888e+02   
7.065000000000000e+09    -2.036409970399726e+01   -1.530998004247783e+02   
7.066000000000000e+09    -2.033496162217965e+01   -1.526796386561807e+02   
7.067000000000000e+09    -2.031542129117167e+01   -1.521668886632589e+02   
7.068000000000000e+09    -2.028606150105658e+01   -1.516832978453623e+02   
7.069000000000000e+09    -2.026958259308919e+01   -1.512493806458272e+02   
7.070000000000000e+09    -2.023907001277500e+01   -1.506542354410065e+02   
7.071000000000000e+09    -2.022444657779246e+01   -1.501354576953876e+02   
7.072000000000000e+09    -2.019908448920772e+01   -1.496394416154700e+02   
7.073000000000000e+09    -2.018604867601176e+01   -1.490529271146432e+02   
7.074000000000000e+09    -2.016510847268829e+01   -1.485305614951780e+02   
7.075000000000000e+09    -2.015854877302285e+01   -1.479280899463524e+02   
7.076000000000000e+09    -2.013869726333544e+01   -1.473203827838175e+02   
7.077000000000000e+09    -2.011917476895714e+01   -1.467130519671379e+02   
7.078000000000000e+09    -2.011517475600957e+01   -1.461655639231960e+02   
7.079000000000000e+09    -2.010118019168632e+01   -1.455972318283916e+02   
7.080000000000000e+09    -2.009343720334773e+01   -1.449922656070138e+02   
7.081000000000000e+09    -2.009446104197906e+01   -1.444158134065456e+02   
7.082000000000000e+09    -2.008650180018179e+01   -1.438418734156140e+02   
7.083000000000000e+09    -2.008463699291491e+01   -1.433027535730541e+02   
7.084000000000000e+09    -2.007747570902677e+01   -1.427133649171726e+02   
7.085000000000000e+09    -2.007699084851355e+01   -1.421858025139440e+02   
7.086000000000000e+09    -2.009162780658419e+01   -1.416816638979295e+02   
7.087000000000000e+09    -2.009650267544904e+01   -1.412200689780423e+02   
7.088000000000000e+09    -2.010923135873452e+01   -1.406627142404537e+02   
7.089000000000000e+09    -2.012359894748508e+01   -1.401884379072743e+02   
7.090000000000000e+09    -2.014165349766864e+01   -1.396957748242797e+02   
7.091000000000000e+09    -2.016501003243612e+01   -1.392433547475455e+02   
7.092000000000000e+09    -2.018674915755897e+01   -1.387482723426907e+02   
7.093000000000000e+09    -2.020964727373941e+01   -1.382559563683299e+02   
7.094000000000000e+09    -2.024277788092752e+01   -1.378142737853152e+02   
7.095000000000000e+09    -2.026528593537943e+01   -1.374616407030092e+02   
7.096000000000000e+09    -2.029082656151576e+01   -1.368935425653599e+02   
7.097000000000000e+09    -2.033364505627251e+01   -1.366252699821327e+02   
7.098000000000000e+09    -2.036031433572532e+01   -1.361617347751641e+02   
7.099000000000000e+09    -2.040302826621743e+01   -1.357540207118004e+02   
7.100000000000000e+09    -2.042802111233451e+01   -1.353838322540636e+02   
7.101000000000000e+09    -2.047616928277660e+01   -1.349322972144451e+02   
7.102000000000000e+09    -2.052412673434612e+01   -1.346480832772000e+02   
7.103000000000000e+09    -2.057222989554401e+01   -1.342650432391088e+02   
7.104000000000000e+09    -2.060770080292588e+01   -1.338890694586419e+02   
7.105000000000000e+09    -2.065111431330739e+01   -1.336191794825090e+02   
7.106000000000000e+09    -2.069828240460561e+01   -1.333093646156625e+02   
7.107000000000000e+09    -2.074197056928309e+01   -1.329937052823128e+02   
7.108000000000000e+09    -2.077297551230025e+01   -1.326345052808687e+02   
7.109000000000000e+09    -2.082401294366805e+01   -1.324003448525885e+02   
7.110000000000000e+09    -2.086349508494514e+01   -1.320952278271894e+02   
7.111000000000000e+09    -2.092341428518965e+01   -1.318871039185718e+02   
7.112000000000000e+09    -2.095476515634432e+01   -1.316721062050843e+02   
7.113000000000000e+09    -2.100775588291543e+01   -1.314973458379326e+02   
7.114000000000000e+09    -2.105792729830364e+01   -1.313402842179001e+02   
7.115000000000000e+09    -2.109627971267123e+01   -1.311639241173822e+02   
7.116000000000000e+09    -2.115038179103820e+01   -1.309710326199170e+02   
7.117000000000000e+09    -2.118993904632043e+01   -1.309554255455893e+02   
7.118000000000000e+09    -2.122444295490633e+01   -1.309240159010826e+02   
7.119000000000000e+09    -2.127816971184734e+01   -1.308413512327885e+02   
7.120000000000000e+09    -2.132254817011852e+01   -1.308427867635235e+02   
7.121000000000000e+09    -2.136223914798784e+01   -1.308594571903824e+02   
7.122000000000000e+09    -2.140069323353595e+01   -1.309352871316932e+02   
7.123000000000000e+09    -2.144913053025765e+01   -1.309871135646578e+02   
7.124000000000000e+09    -2.149068070618149e+01   -1.311181873533598e+02   
7.125000000000000e+09    -2.153869947235389e+01   -1.312803599281935e+02   
7.126000000000000e+09    -2.157079447266589e+01   -1.314383544989571e+02   
7.127000000000000e+09    -2.160551112245361e+01   -1.315848306861148e+02   
7.128000000000000e+09    -2.164805151342759e+01   -1.318806728185533e+02   
7.129000000000000e+09    -2.167804734542834e+01   -1.319945400565207e+02   
7.130000000000000e+09    -2.171674523147114e+01   -1.322468332343892e+02   
7.131000000000000e+09    -2.174783811230298e+01   -1.325096640684104e+02   
7.132000000000000e+09    -2.177780792509272e+01   -1.327545479670996e+02   
7.133000000000000e+09    -2.179831505994880e+01   -1.330641432355127e+02   
7.134000000000000e+09    -2.182915728505950e+01   -1.333775478876952e+02   
7.135000000000000e+09    -2.183685876728262e+01   -1.335842660727435e+02   
7.136000000000000e+09    -2.186407671643192e+01   -1.339325854634777e+02   
7.137000000000000e+09    -2.185605438299113e+01   -1.342459499895783e+02   
7.138000000000000e+09    -2.185954109889712e+01   -1.345964540530482e+02   
7.139000000000000e+09    -2.186433752237080e+01   -1.347791570387114e+02   
7.140000000000000e+09    -2.184604249178982e+01   -1.353133878483446e+02   
7.141000000000000e+09    -2.184347958455800e+01   -1.355682899677805e+02   
7.142000000000000e+09    -2.182892482782420e+01   -1.357636128679720e+02   
7.143000000000000e+09    -2.180992581748202e+01   -1.360322270457098e+02   
7.144000000000000e+09    -2.177837674144244e+01   -1.362760537857999e+02   
7.145000000000000e+09    -2.175381553170483e+01   -1.365917374379825e+02   
7.146000000000000e+09    -2.171515490855207e+01   -1.367845425617448e+02   
7.147000000000000e+09    -2.167366414319097e+01   -1.370596082359620e+02   
7.148000000000000e+09    -2.162815589364826e+01   -1.371957875058278e+02   
7.149000000000000e+09    -2.157111293735511e+01   -1.373992654469337e+02   
7.150000000000000e+09    -2.151567665122603e+01   -1.375942431837358e+02   
7.151000000000000e+09    -2.146671983177692e+01   -1.377650189059797e+02   
7.152000000000000e+09    -2.140635657655881e+01   -1.379097667726516e+02   
7.153000000000000e+09    -2.133844552570887e+01   -1.380415031757901e+02   
7.154000000000000e+09    -2.128760620020453e+01   -1.381684815350987e+02   
7.155000000000000e+09    -2.120407060859954e+01   -1.382504105209893e+02   
7.156000000000000e+09    -2.112532736547836e+01   -1.382729927929323e+02   
7.157000000000000e+09    -2.107218256184081e+01   -1.383449148454722e+02   
7.158000000000000e+09    -2.101402986876872e+01   -1.384200075083103e+02   
7.159000000000000e+09    -2.092201036207054e+01   -1.384236380737469e+02   
7.160000000000000e+09    -2.086115448905797e+01   -1.383929163287677e+02   
7.161000000000000e+09    -2.077992677267346e+01   -1.384451482956809e+02   
7.162000000000000e+09    -2.072129523804402e+01   -1.383481083735927e+02   
7.163000000000000e+09    -2.065767225393440e+01   -1.383350147103728e+02   
7.164000000000000e+09    -2.058459385527819e+01   -1.382404012014834e+02   
7.165000000000000e+09    -2.052855419133824e+01   -1.381588679644962e+02   
7.166000000000000e+09    -2.045556521919004e+01   -1.379590075909981e+02   
7.167000000000000e+09    -2.039609470893765e+01   -1.377844002429179e+02   
7.168000000000000e+09    -2.033518505389382e+01   -1.376923566283870e+02   
7.169000000000000e+09    -2.028437488958295e+01   -1.374841601694442e+02   
7.170000000000000e+09    -2.022173512320961e+01   -1.372139867980841e+02   
7.171000000000000e+09    -2.016301517439502e+01   -1.370498430198005e+02   
7.172000000000000e+09    -2.011126284758653e+01   -1.367552010191762e+02   
7.173000000000000e+09    -2.007038058426098e+01   -1.365051447889878e+02   
7.174000000000000e+09    -2.001017131620443e+01   -1.361922948466351e+02   
7.175000000000000e+09    -1.996709221738431e+01   -1.359045569398681e+02   
7.176000000000000e+09    -1.991830464262136e+01   -1.355936103336458e+02   
7.177000000000000e+09    -1.986072739611199e+01   -1.352720476395241e+02   
7.178000000000000e+09    -1.981867804878512e+01   -1.349046646525755e+02   
7.179000000000000e+09    -1.976806755051029e+01   -1.345000105696419e+02   
7.180000000000000e+09    -1.972244586029459e+01   -1.341412910634604e+02   
7.181000000000000e+09    -1.967429587764821e+01   -1.337714540284121e+02   
7.182000000000000e+09    -1.963802793097330e+01   -1.333735404903643e+02   
7.183000000000000e+09    -1.958554447429893e+01   -1.330162744137778e+02   
7.184000000000000e+09    -1.955068741338511e+01   -1.326874287670176e+02   
7.185000000000000e+09    -1.950369191291865e+01   -1.322124989159857e+02   
7.186000000000000e+09    -1.947367123225131e+01   -1.318765008456223e+02   
7.187000000000000e+09    -1.942800029962299e+01   -1.314473624730604e+02   
7.188000000000000e+09    -1.939783112209504e+01   -1.310829601634238e+02   
7.189000000000000e+09    -1.936187246667949e+01   -1.306727414829683e+02   
7.190000000000000e+09    -1.933817768283488e+01   -1.302612830438705e+02   
7.191000000000000e+09    -1.930177354511827e+01   -1.299063055221619e+02   
7.192000000000000e+09    -1.927739217069755e+01   -1.295348866932474e+02   
7.193000000000000e+09    -1.924275784389415e+01   -1.291614881559126e+02   
7.194000000000000e+09    -1.922162028223280e+01   -1.287477894408093e+02   
7.195000000000000e+09    -1.920882840652606e+01   -1.284521519943090e+02   
7.196000000000000e+09    -1.919539572977455e+01   -1.280104752638545e+02   
7.197000000000000e+09    -1.918159043691643e+01   -1.277207406629524e+02   
7.198000000000000e+09    -1.917227154909741e+01   -1.273423980304357e+02   
7.199000000000000e+09    -1.916431585899244e+01   -1.269732936643014e+02   
7.200000000000000e+09    -1.916699132104437e+01   -1.266511987233262e+02   
7.201000000000000e+09    -1.917138052931890e+01   -1.263481462409564e+02   
7.202000000000000e+09    -1.917931719023459e+01   -1.259868662051832e+02   
7.203000000000000e+09    -1.918768239507486e+01   -1.256963842695588e+02   
7.204000000000000e+09    -1.920946390808468e+01   -1.253719661395561e+02   
7.205000000000000e+09    -1.922991539548001e+01   -1.250164741387064e+02   
7.206000000000000e+09    -1.925958562454273e+01   -1.247350536992738e+02   
7.207000000000000e+09    -1.928393587459425e+01   -1.244136651669739e+02   
7.208000000000000e+09    -1.931423130504267e+01   -1.240854383277019e+02   
7.209000000000000e+09    -1.934384343870289e+01   -1.238298725435636e+02   
7.210000000000000e+09    -1.938328729728174e+01   -1.235421390283076e+02   
7.211000000000000e+09    -1.941932304586136e+01   -1.232857178054053e+02   
7.212000000000000e+09    -1.946948354911209e+01   -1.230180799208058e+02   
7.213000000000000e+09    -1.951175869527692e+01   -1.227511744903509e+02   
7.214000000000000e+09    -1.955363539750902e+01   -1.224471818008811e+02   
7.215000000000000e+09    -1.959950208977045e+01   -1.222920861300265e+02   
7.216000000000000e+09    -1.965702330176526e+01   -1.221021219822562e+02   
7.217000000000000e+09    -1.968583396842963e+01   -1.219486057950147e+02   
7.218000000000000e+09    -1.974364111211406e+01   -1.217489921222586e+02   
7.219000000000000e+09    -1.979331553778227e+01   -1.216103697364952e+02   
7.220000000000000e+09    -1.983788495579422e+01   -1.214611150434639e+02   
7.221000000000000e+09    -1.988599543777616e+01   -1.213529300968198e+02   
7.222000000000000e+09    -1.993372164173350e+01   -1.212618176860808e+02   
7.223000000000000e+09    -1.997672292504729e+01   -1.211786091956943e+02   
7.224000000000000e+09    -2.002132412924855e+01   -1.211287300868843e+02   
7.225000000000000e+09    -2.005512874545357e+01   -1.211338698044934e+02   
7.226000000000000e+09    -2.010789988381097e+01   -1.212224684670840e+02   
7.227000000000000e+09    -2.014876018829904e+01   -1.212713136347443e+02   
7.228000000000000e+09    -2.017780901188842e+01   -1.213537253089138e+02   
7.229000000000000e+09    -2.021164711510623e+01   -1.214601550035458e+02   
7.230000000000000e+09    -2.024974127053313e+01   -1.215667543604166e+02   
7.231000000000000e+09    -2.028097975773289e+01   -1.218481888833650e+02   
7.232000000000000e+09    -2.030729735932308e+01   -1.220751120827694e+02   
7.233000000000000e+09    -2.033029085566099e+01   -1.223111285154063e+02   
7.234000000000000e+09    -2.035873110408269e+01   -1.226114916937154e+02   
7.235000000000000e+09    -2.038915937948101e+01   -1.229354449935239e+02   
7.236000000000000e+09    -2.041004016555356e+01   -1.231699005656760e+02   
7.237000000000000e+09    -2.043717853755910e+01   -1.235925689333080e+02   
7.238000000000000e+09    -2.046458925276829e+01   -1.238820517139799e+02   
7.239000000000000e+09    -2.046804218733000e+01   -1.243694413538108e+02   
7.240000000000000e+09    -2.048910143173237e+01   -1.247467071878691e+02   
7.241000000000000e+09    -2.050039888748132e+01   -1.251175262422826e+02   
7.242000000000000e+09    -2.052232684024818e+01   -1.255205729218033e+02   
7.243000000000000e+09    -2.052121234542778e+01   -1.260120139154958e+02   
7.244000000000000e+09    -2.053055364504115e+01   -1.263772683202509e+02   
7.245000000000000e+09    -2.054726113825438e+01   -1.268163061883167e+02   
7.246000000000000e+09    -2.054389569276239e+01   -1.272730542691019e+02   
7.247000000000000e+09    -2.055041815642194e+01   -1.276307585649740e+02   
7.248000000000000e+09    -2.054635058548736e+01   -1.280337688154928e+02   
7.249000000000000e+09    -2.054162829144749e+01   -1.284392495687716e+02   
7.250000000000000e+09    -2.052851467490522e+01   -1.288035665368999e+02   
7.251000000000000e+09    -2.051782685278900e+01   -1.292746392946404e+02   
7.252000000000000e+09    -2.049954308095565e+01   -1.295692398694940e+02   
7.253000000000000e+09    -2.048501756331127e+01   -1.298687523247527e+02   
7.254000000000000e+09    -2.045460326097795e+01   -1.302260823723131e+02   
7.255000000000000e+09    -2.043869672204011e+01   -1.305100574030456e+02   
7.256000000000000e+09    -2.040247520355860e+01   -1.308426766586833e+02   
