[Version] 2.0
! Rohde & Schwarz Vector Network Analyzer
! Rohde-Schwarz,ZNL20-2Port,1323001220200009,1.71.1.10-23.02.1.238
! 
! Port Assignments:
! Nominal Port -> Actual Test Port
! --------------------------------
!   1 -> 1

! Created: GMT 2024-08-27 13:47:31

# Hz S DB R 50

[Number of Ports] 1
[Number of Frequencies] 2001

[Network Data] 
! freq[Hz]               S11[mag dB]              S11[ang]                 
1.000000000000000e+10    -1.989939039968340e+01   -1.234378472650163e+02   
1.000100000000000e+10    -1.989321375549428e+01   -1.231408917222443e+02   
1.000200000000000e+10    -1.986635371940897e+01   -1.228244437461096e+02   
1.000300000000000e+10    -1.987174252781577e+01   -1.227631348001281e+02   
1.000400000000000e+10    -1.985521789221171e+01   -1.227610975286716e+02   
1.000500000000000e+10    -1.983255518217847e+01   -1.226513872079170e+02   
1.000600000000000e+10    -1.983396188043233e+01   -1.224400991801363e+02   
1.000700000000000e+10    -1.981475457432066e+01   -1.222331277559595e+02   
1.000800000000000e+10    -1.980639643284184e+01   -1.221554955368716e+02   
1.000900000000000e+10    -1.981186827758864e+01   -1.221641120380928e+02   
1.001000000000000e+10    -1.979078550938555e+01   -1.218514045206924e+02   
1.001100000000000e+10    -1.978447541001304e+01   -1.218037222989300e+02   
1.001200000000000e+10    -1.976460353157656e+01   -1.217361195540933e+02   
1.001300000000000e+10    -1.978245960151000e+01   -1.216312315848324e+02   
1.001400000000000e+10    -1.975547390962952e+01   -1.216676323836485e+02   
1.001500000000000e+10    -1.974277760220969e+01   -1.215204676162598e+02   
1.001600000000000e+10    -1.970857587244818e+01   -1.214295839480817e+02   
1.001700000000000e+10    -1.972228025567793e+01   -1.214297524072634e+02   
1.001800000000000e+10    -1.969872857312708e+01   -1.213992370323012e+02   
1.001900000000000e+10    -1.968200080442925e+01   -1.213018714882570e+02   
1.002000000000000e+10    -1.968064149351031e+01   -1.213605508248362e+02   
1.002100000000000e+10    -1.966235106159688e+01   -1.213115338346854e+02   
1.002200000000000e+10    -1.963228870040480e+01   -1.212116345455674e+02   
1.002300000000000e+10    -1.960176442601918e+01   -1.212414053660172e+02   
1.002400000000000e+10    -1.958027110342241e+01   -1.212728915339273e+02   
1.002500000000000e+10    -1.958090159036785e+01   -1.211019651270480e+02   
1.002600000000000e+10    -1.957127573797264e+01   -1.213193072215803e+02   
1.002700000000000e+10    -1.954635850489576e+01   -1.213350739573427e+02   
1.002800000000000e+10    -1.952788824739648e+01   -1.211863534276560e+02   
1.002900000000000e+10    -1.949553324117682e+01   -1.211216058228501e+02   
1.003000000000000e+10    -1.949355773347790e+01   -1.209831417398463e+02   
1.003100000000000e+10    -1.945168517432131e+01   -1.212473027655968e+02   
1.003200000000000e+10    -1.944207479149924e+01   -1.212161943412905e+02   
1.003300000000000e+10    -1.939154686726047e+01   -1.212706476886788e+02   
1.003400000000000e+10    -1.936711812052095e+01   -1.211566804572393e+02   
1.003500000000000e+10    -1.936255025083158e+01   -1.211469622083616e+02   
1.003600000000000e+10    -1.929020800462070e+01   -1.210911757492567e+02   
1.003700000000000e+10    -1.929273960625810e+01   -1.211017859693507e+02   
1.003800000000000e+10    -1.926598157911236e+01   -1.211649707970336e+02   
1.003900000000000e+10    -1.924810679853929e+01   -1.211282623186359e+02   
1.004000000000000e+10    -1.919554280357277e+01   -1.212809706811624e+02   
1.004100000000000e+10    -1.918026769799912e+01   -1.211763899467672e+02   
1.004200000000000e+10    -1.912637881155724e+01   -1.212170488242788e+02   
1.004300000000000e+10    -1.910550129957207e+01   -1.211916405801379e+02   
1.004400000000000e+10    -1.908355398847179e+01   -1.212405152297950e+02   
1.004500000000000e+10    -1.902652386044671e+01   -1.212200053521775e+02   
1.004600000000000e+10    -1.900172361842768e+01   -1.211407741310632e+02   
1.004700000000000e+10    -1.897084109230343e+01   -1.212038146136135e+02   
1.004800000000000e+10    -1.892447573490195e+01   -1.211831299814645e+02   
1.004900000000000e+10    -1.888334476514616e+01   -1.212331375402680e+02   
1.005000000000000e+10    -1.886303612116631e+01   -1.213366741002715e+02   
1.005100000000000e+10    -1.879177846242427e+01   -1.213390857908909e+02   
1.005200000000000e+10    -1.876163365770743e+01   -1.211570242841593e+02   
1.005300000000000e+10    -1.873062674049462e+01   -1.212713476949204e+02   
1.005400000000000e+10    -1.869228215081113e+01   -1.213023769389173e+02   
1.005500000000000e+10    -1.864985905501413e+01   -1.212678030534410e+02   
1.005600000000000e+10    -1.863540005657730e+01   -1.212292547247627e+02   
1.005700000000000e+10    -1.857042757624329e+01   -1.212440081880167e+02   
1.005800000000000e+10    -1.853699992197853e+01   -1.213302278723965e+02   
1.005900000000000e+10    -1.851136031839345e+01   -1.213910854093300e+02   
1.006000000000000e+10    -1.845429948194033e+01   -1.213669601751719e+02   
1.006100000000000e+10    -1.842696233532109e+01   -1.212614858577449e+02   
1.006200000000000e+10    -1.839400391780820e+01   -1.212993570099417e+02   
1.006300000000000e+10    -1.836044566271942e+01   -1.212715287381245e+02   
1.006400000000000e+10    -1.830959216689430e+01   -1.213398004953245e+02   
1.006500000000000e+10    -1.827955014201001e+01   -1.213246788640996e+02   
1.006600000000000e+10    -1.824564773469796e+01   -1.212377041511641e+02   
1.006700000000000e+10    -1.822069687217487e+01   -1.213822913715982e+02   
1.006800000000000e+10    -1.816410994078264e+01   -1.212642939035623e+02   
1.006900000000000e+10    -1.813159489116363e+01   -1.212142761198752e+02   
1.007000000000000e+10    -1.809670035071196e+01   -1.213102654027931e+02   
1.007100000000000e+10    -1.805857959271350e+01   -1.213831759243105e+02   
1.007200000000000e+10    -1.802498746411259e+01   -1.212664995643724e+02   
1.007300000000000e+10    -1.800836818574082e+01   -1.214229768055196e+02   
1.007400000000000e+10    -1.794746548415092e+01   -1.213288812146804e+02   
1.007500000000000e+10    -1.794138276618721e+01   -1.213039880420116e+02   
1.007600000000000e+10    -1.791721165040326e+01   -1.213073203913443e+02   
1.007700000000000e+10    -1.786116138165264e+01   -1.213398147140248e+02   
1.007800000000000e+10    -1.782660979535788e+01   -1.212857204834651e+02   
1.007900000000000e+10    -1.780029648527713e+01   -1.214041018616676e+02   
1.008000000000000e+10    -1.779356221292844e+01   -1.213158038734044e+02   
1.008100000000000e+10    -1.773854494773807e+01   -1.213487217071116e+02   
1.008200000000000e+10    -1.769553750581109e+01   -1.213406841524851e+02   
1.008300000000000e+10    -1.767825070458532e+01   -1.214249744576915e+02   
1.008400000000000e+10    -1.767177589263217e+01   -1.214184388298648e+02   
1.008500000000000e+10    -1.762388637718213e+01   -1.214847976316463e+02   
1.008600000000000e+10    -1.759498479759441e+01   -1.215199843556519e+02   
1.008700000000000e+10    -1.757078012907264e+01   -1.216060801187791e+02   
1.008800000000000e+10    -1.754355916149076e+01   -1.216903229072759e+02   
1.008900000000000e+10    -1.753283668167385e+01   -1.216408025201479e+02   
1.009000000000000e+10    -1.750656916316377e+01   -1.217568536734292e+02   
1.009100000000000e+10    -1.748712696274767e+01   -1.216780005986339e+02   
1.009200000000000e+10    -1.747573621750408e+01   -1.218698032244907e+02   
1.009300000000000e+10    -1.743082270309534e+01   -1.220256543416063e+02   
1.009400000000000e+10    -1.742468201570600e+01   -1.220440505403732e+02   
1.009500000000000e+10    -1.739722109551850e+01   -1.220101218619712e+02   
1.009600000000000e+10    -1.736852821566270e+01   -1.221506772589600e+02   
1.009700000000000e+10    -1.735986900945218e+01   -1.222531083435458e+02   
1.009800000000000e+10    -1.732877357523914e+01   -1.224006609474037e+02   
1.009900000000000e+10    -1.731460855990859e+01   -1.223171301124186e+02   
1.010000000000000e+10    -1.730266664192852e+01   -1.226040682446049e+02   
1.010100000000000e+10    -1.729188977517793e+01   -1.225672311986983e+02   
1.010200000000000e+10    -1.726077343459986e+01   -1.227556806279883e+02   
1.010300000000000e+10    -1.724737100732733e+01   -1.227400214585640e+02   
1.010400000000000e+10    -1.722461346362814e+01   -1.229347252694451e+02   
1.010500000000000e+10    -1.720902609218557e+01   -1.232115535729064e+02   
1.010600000000000e+10    -1.719628348299230e+01   -1.231968407952741e+02   
1.010700000000000e+10    -1.716998944627609e+01   -1.233237401221662e+02   
1.010800000000000e+10    -1.714549485199651e+01   -1.236321192451339e+02   
1.010900000000000e+10    -1.712564578723149e+01   -1.237052266791199e+02   
1.011000000000000e+10    -1.710963582483087e+01   -1.239210216883997e+02   
1.011100000000000e+10    -1.709545279752746e+01   -1.240157351530335e+02   
1.011200000000000e+10    -1.708268353916734e+01   -1.242929135040011e+02   
1.011300000000000e+10    -1.706881247090556e+01   -1.243095366797132e+02   
1.011400000000000e+10    -1.702633868682920e+01   -1.244912547191180e+02   
1.011500000000000e+10    -1.702304471322524e+01   -1.246560188666106e+02   
1.011600000000000e+10    -1.701508273338770e+01   -1.249564525293568e+02   
1.011700000000000e+10    -1.697949758627510e+01   -1.249972678282691e+02   
1.011800000000000e+10    -1.697917321316512e+01   -1.252615659911694e+02   
1.011900000000000e+10    -1.694365463954766e+01   -1.255120745215979e+02   
1.012000000000000e+10    -1.691655577600256e+01   -1.256526315436259e+02   
1.012100000000000e+10    -1.691587416959277e+01   -1.258805877557896e+02   
1.012200000000000e+10    -1.688412290362157e+01   -1.260580647858624e+02   
1.012300000000000e+10    -1.686885209281265e+01   -1.263441318535909e+02   
1.012400000000000e+10    -1.684190082904196e+01   -1.264066599047092e+02   
1.012500000000000e+10    -1.682969239254667e+01   -1.265544921020602e+02   
1.012600000000000e+10    -1.680754604856235e+01   -1.267887001466389e+02   
1.012700000000000e+10    -1.678327330927506e+01   -1.270766846079281e+02   
1.012800000000000e+10    -1.677041108575104e+01   -1.272098089315555e+02   
1.012900000000000e+10    -1.673770147956777e+01   -1.274239634920816e+02   
1.013000000000000e+10    -1.674243378215832e+01   -1.276785372400829e+02   
1.013100000000000e+10    -1.670166224862209e+01   -1.277297766981803e+02   
1.013200000000000e+10    -1.667988704805176e+01   -1.280758369478027e+02   
1.013300000000000e+10    -1.665512730537408e+01   -1.281985511913647e+02   
1.013400000000000e+10    -1.664653463863570e+01   -1.284680152536544e+02   
1.013500000000000e+10    -1.662468055635622e+01   -1.286459511386094e+02   
1.013600000000000e+10    -1.660230298715839e+01   -1.289131027008673e+02   
1.013700000000000e+10    -1.658097444770194e+01   -1.289816834182527e+02   
1.013800000000000e+10    -1.656297002488418e+01   -1.293367866595982e+02   
1.013900000000000e+10    -1.653573808898012e+01   -1.294934408778732e+02   
1.014000000000000e+10    -1.654265335260733e+01   -1.297031184627535e+02   
1.014100000000000e+10    -1.652121242063146e+01   -1.298858913033594e+02   
1.014200000000000e+10    -1.651023279232662e+01   -1.301241044600787e+02   
1.014300000000000e+10    -1.648079112722114e+01   -1.302923161610563e+02   
1.014400000000000e+10    -1.648173931487308e+01   -1.305440233389207e+02   
1.014500000000000e+10    -1.644581565697558e+01   -1.307140340376144e+02   
1.014600000000000e+10    -1.642678394546040e+01   -1.309153140927105e+02   
1.014700000000000e+10    -1.641801786149215e+01   -1.311120372493525e+02   
1.014800000000000e+10    -1.640486570229923e+01   -1.313783896284024e+02   
1.014900000000000e+10    -1.637344782476558e+01   -1.314532943103343e+02   
1.015000000000000e+10    -1.637117805426344e+01   -1.317491681459161e+02   
1.015100000000000e+10    -1.634803974085988e+01   -1.318417988158431e+02   
1.015200000000000e+10    -1.633976335838553e+01   -1.320550769008138e+02   
1.015300000000000e+10    -1.631015392955758e+01   -1.323503682974679e+02   
1.015400000000000e+10    -1.631807206414187e+01   -1.325144575548422e+02   
1.015500000000000e+10    -1.629665873452563e+01   -1.326798002067290e+02   
1.015600000000000e+10    -1.628697797197355e+01   -1.327778385650158e+02   
1.015700000000000e+10    -1.626414540489888e+01   -1.329608141685715e+02   
1.015800000000000e+10    -1.624714317992173e+01   -1.331258982713688e+02   
1.015900000000000e+10    -1.623078153925575e+01   -1.334237590320103e+02   
1.016000000000000e+10    -1.623448374503888e+01   -1.336534173880941e+02   
1.016100000000000e+10    -1.623258685035069e+01   -1.337778515498839e+02   
1.016200000000000e+10    -1.622181825072749e+01   -1.339682164709772e+02   
1.016300000000000e+10    -1.620128320196188e+01   -1.341273879474094e+02   
1.016400000000000e+10    -1.619555079368044e+01   -1.342744352685018e+02   
1.016500000000000e+10    -1.618141089164531e+01   -1.344219664757617e+02   
1.016600000000000e+10    -1.618794285070136e+01   -1.345941533534833e+02   
1.016700000000000e+10    -1.617826060489498e+01   -1.348338386780751e+02   
1.016800000000000e+10    -1.616435096175469e+01   -1.349261838503870e+02   
1.016900000000000e+10    -1.616818007997269e+01   -1.352008166286873e+02   
1.017000000000000e+10    -1.615645731855409e+01   -1.353570842098437e+02   
1.017100000000000e+10    -1.616408427838990e+01   -1.356077407149949e+02   
1.017200000000000e+10    -1.615464412833904e+01   -1.356453599987306e+02   
1.017300000000000e+10    -1.614959886841660e+01   -1.357922364697282e+02   
1.017400000000000e+10    -1.614308928600149e+01   -1.359884350198054e+02   
1.017500000000000e+10    -1.616988551529255e+01   -1.361417557176691e+02   
1.017600000000000e+10    -1.613644225961809e+01   -1.364141693959413e+02   
1.017700000000000e+10    -1.615091111134848e+01   -1.365677801482208e+02   
1.017800000000000e+10    -1.614835244368906e+01   -1.366847438870251e+02   
1.017900000000000e+10    -1.613499211295805e+01   -1.368736510991321e+02   
1.018000000000000e+10    -1.616752898889707e+01   -1.369782930702218e+02   
1.018100000000000e+10    -1.615066241938694e+01   -1.371961077528476e+02   
1.018200000000000e+10    -1.617856217424177e+01   -1.373713545539026e+02   
1.018300000000000e+10    -1.616840663281829e+01   -1.375954902267611e+02   
1.018400000000000e+10    -1.615790766659233e+01   -1.377705263195183e+02   
1.018500000000000e+10    -1.617345452693564e+01   -1.380202626210232e+02   
1.018600000000000e+10    -1.617304244564525e+01   -1.381428177321936e+02   
1.018700000000000e+10    -1.619182150572312e+01   -1.383285504862342e+02   
1.018800000000000e+10    -1.619422878620297e+01   -1.383975249633779e+02   
1.018900000000000e+10    -1.619430082527719e+01   -1.385726729899070e+02   
1.019000000000000e+10    -1.620417406960540e+01   -1.387912287999720e+02   
1.019100000000000e+10    -1.620799039361881e+01   -1.389967259420043e+02   
1.019200000000000e+10    -1.620143360508554e+01   -1.391871515810377e+02   
1.019300000000000e+10    -1.619876190532193e+01   -1.393257740787133e+02   
1.019400000000000e+10    -1.621850718540797e+01   -1.395312203765742e+02   
1.019500000000000e+10    -1.621951891720289e+01   -1.396578423704160e+02   
1.019600000000000e+10    -1.623212309999903e+01   -1.398903974728452e+02   
1.019700000000000e+10    -1.623001646889159e+01   -1.400660163677790e+02   
1.019800000000000e+10    -1.623162277119265e+01   -1.403108420934367e+02   
1.019900000000000e+10    -1.623671409452005e+01   -1.404400531727135e+02   
1.020000000000000e+10    -1.625768051757432e+01   -1.406641951893826e+02   
1.020100000000000e+10    -1.624633147837772e+01   -1.407427428069775e+02   
1.020200000000000e+10    -1.626265784119864e+01   -1.409560581327558e+02   
1.020300000000000e+10    -1.625474396099563e+01   -1.410175377587833e+02   
1.020400000000000e+10    -1.627400346509234e+01   -1.412137183238868e+02   
1.020500000000000e+10    -1.628170305640382e+01   -1.414623324260471e+02   
1.020600000000000e+10    -1.627439699811662e+01   -1.416135217321729e+02   
1.020700000000000e+10    -1.627205465498963e+01   -1.418442063463714e+02   
1.020800000000000e+10    -1.628303028531723e+01   -1.419436914757852e+02   
1.020900000000000e+10    -1.631013740871408e+01   -1.421436509255929e+02   
1.021000000000000e+10    -1.631230087570486e+01   -1.422990325320508e+02   
1.021100000000000e+10    -1.630984633375497e+01   -1.424484375082787e+02   
1.021200000000000e+10    -1.633190595012058e+01   -1.425896493756968e+02   
1.021300000000000e+10    -1.633362845515774e+01   -1.427689909578400e+02   
1.021400000000000e+10    -1.634080391568730e+01   -1.429176724321345e+02   
1.021500000000000e+10    -1.634203905134291e+01   -1.430165199904361e+02   
1.021600000000000e+10    -1.635292059919262e+01   -1.432669807050838e+02   
1.021700000000000e+10    -1.635741256536902e+01   -1.434344406540030e+02   
1.021800000000000e+10    -1.636420702421286e+01   -1.435269186546710e+02   
1.021900000000000e+10    -1.638117463125824e+01   -1.436152257365044e+02   
1.022000000000000e+10    -1.638743204695299e+01   -1.438151457643111e+02   
1.022100000000000e+10    -1.638163944138645e+01   -1.440189622598166e+02   
1.022200000000000e+10    -1.641511176832056e+01   -1.440451501656051e+02   
1.022300000000000e+10    -1.641550581544957e+01   -1.441973455674579e+02   
1.022400000000000e+10    -1.642975965672527e+01   -1.443923645985363e+02   
1.022500000000000e+10    -1.642774962376733e+01   -1.444744158128762e+02   
1.022600000000000e+10    -1.645774132096797e+01   -1.447420266237672e+02   
1.022700000000000e+10    -1.646156193297446e+01   -1.448436912000064e+02   
1.022800000000000e+10    -1.646847938956666e+01   -1.449861998994778e+02   
1.022900000000000e+10    -1.648542163329685e+01   -1.451951532760671e+02   
1.023000000000000e+10    -1.647734198891684e+01   -1.453314977860172e+02   
1.023100000000000e+10    -1.648380815563065e+01   -1.455091906472572e+02   
1.023200000000000e+10    -1.650819336606898e+01   -1.456737061058654e+02   
1.023300000000000e+10    -1.651808962285471e+01   -1.457569553006805e+02   
1.023400000000000e+10    -1.652448251849450e+01   -1.459757588658917e+02   
1.023500000000000e+10    -1.656368182010125e+01   -1.459898699140838e+02   
1.023600000000000e+10    -1.653786383032813e+01   -1.461542795864121e+02   
1.023700000000000e+10    -1.656423886127126e+01   -1.463927095024147e+02   
1.023800000000000e+10    -1.656751616146506e+01   -1.464250595972926e+02   
1.023900000000000e+10    -1.658184627181977e+01   -1.467190231830006e+02   
1.024000000000000e+10    -1.660869308151675e+01   -1.467487990632698e+02   
1.024100000000000e+10    -1.659374825645399e+01   -1.468207345262613e+02   
1.024200000000000e+10    -1.661027393310546e+01   -1.470360893874129e+02   
1.024300000000000e+10    -1.663641409514573e+01   -1.471619873382315e+02   
1.024400000000000e+10    -1.664832820910414e+01   -1.473231504320680e+02   
1.024500000000000e+10    -1.664710192200972e+01   -1.474581286113938e+02   
1.024600000000000e+10    -1.666313163304818e+01   -1.476693956886901e+02   
1.024700000000000e+10    -1.667275310319175e+01   -1.477838645282807e+02   
1.024800000000000e+10    -1.668823433962945e+01   -1.478337560467939e+02   
1.024900000000000e+10    -1.672188792501149e+01   -1.480583744446213e+02   
1.025000000000000e+10    -1.671417750369842e+01   -1.482263855808693e+02   
1.025100000000000e+10    -1.671713400037493e+01   -1.482024664793670e+02   
1.025200000000000e+10    -1.674661858694120e+01   -1.484793866602094e+02   
1.025300000000000e+10    -1.673880764166435e+01   -1.485384966492816e+02   
1.025400000000000e+10    -1.676007780377058e+01   -1.486569416814837e+02   
1.025500000000000e+10    -1.679357007916452e+01   -1.487918166597511e+02   
1.025600000000000e+10    -1.680218046017804e+01   -1.489330606186647e+02   
