[Version] 2.0
! Rohde & Schwarz Vector Network Analyzer
! Rohde-Schwarz,ZNL20-2Port,1323001220200009,1.71.1.10-23.02.1.238
! 
! Port Assignments:
! Nominal Port -> Actual Test Port
! --------------------------------
!   1 -> 1

! Created: GMT 2024-08-27 13:48:00

# Hz S DB R 50

[Number of Ports] 1
[Number of Frequencies] 2001

[Network Data] 
! freq[Hz]               S11[mag dB]              S11[ang]                 
1.000000000000000e+10    -2.002896303692323e+01   -1.238866004066241e+02   
1.000100000000000e+10    -2.002354792187020e+01   -1.235786858667493e+02   
1.000200000000000e+10    -1.999418508240495e+01   -1.232279598386130e+02   
1.000300000000000e+10    -2.000247048099969e+01   -1.231462162855520e+02   
1.000400000000000e+10    -1.998984019861001e+01   -1.231065866848087e+02   
1.000500000000000e+10    -1.996433996177630e+01   -1.229724448135848e+02   
1.000600000000000e+10    -1.996372509645392e+01   -1.227552003802629e+02   
1.000700000000000e+10    -1.994460596151963e+01   -1.225407646120752e+02   
1.000800000000000e+10    -1.993599763946179e+01   -1.224220258092379e+02   
1.000900000000000e+10    -1.994068490856587e+01   -1.224250318806802e+02   
1.001000000000000e+10    -1.992017662363302e+01   -1.221040381022028e+02   
1.001100000000000e+10    -1.991597392008732e+01   -1.220349573793198e+02   
1.001200000000000e+10    -1.989097353932266e+01   -1.219740217539741e+02   
1.001300000000000e+10    -1.991268579472278e+01   -1.218553208192026e+02   
1.001400000000000e+10    -1.988978421537352e+01   -1.218528857931733e+02   
1.001500000000000e+10    -1.987454339070921e+01   -1.216850076316817e+02   
1.001600000000000e+10    -1.983680095091313e+01   -1.215912493686199e+02   
1.001700000000000e+10    -1.985269270475624e+01   -1.216009727188552e+02   
1.001800000000000e+10    -1.982915019820238e+01   -1.215301308847165e+02   
1.001900000000000e+10    -1.981415529863193e+01   -1.214219104964291e+02   
1.002000000000000e+10    -1.981051506901861e+01   -1.214716695743803e+02   
1.002100000000000e+10    -1.978959381412776e+01   -1.214071799198946e+02   
1.002200000000000e+10    -1.976118754204729e+01   -1.212679180945172e+02   
1.002300000000000e+10    -1.973478589125565e+01   -1.213103933359206e+02   
1.002400000000000e+10    -1.970828132538505e+01   -1.213359148967150e+02   
1.002500000000000e+10    -1.970731054169925e+01   -1.211326234256004e+02   
1.002600000000000e+10    -1.970341489989783e+01   -1.213316533291754e+02   
1.002700000000000e+10    -1.967236967701471e+01   -1.213282207791757e+02   
1.002800000000000e+10    -1.965712337514273e+01   -1.211722938376577e+02   
1.002900000000000e+10    -1.961901710335785e+01   -1.210846633808929e+02   
1.003000000000000e+10    -1.961726435661995e+01   -1.209438821664678e+02   
1.003100000000000e+10    -1.957430107903200e+01   -1.211898030884172e+02   
1.003200000000000e+10    -1.956253979766382e+01   -1.211683773194299e+02   
1.003300000000000e+10    -1.951342157698707e+01   -1.211985772155213e+02   
1.003400000000000e+10    -1.948196457058208e+01   -1.210695234100187e+02   
1.003500000000000e+10    -1.948057778887754e+01   -1.210538817390592e+02   
1.003600000000000e+10    -1.940243385037192e+01   -1.209943118707277e+02   
1.003700000000000e+10    -1.940628691888449e+01   -1.210144863910901e+02   
1.003800000000000e+10    -1.937686587871872e+01   -1.210678329809163e+02   
1.003900000000000e+10    -1.936108771212935e+01   -1.210286952214898e+02   
1.004000000000000e+10    -1.930699786576777e+01   -1.211846215151255e+02   
1.004100000000000e+10    -1.929298239028321e+01   -1.210623146457370e+02   
1.004200000000000e+10    -1.923521976108038e+01   -1.211051871065246e+02   
1.004300000000000e+10    -1.921524192643534e+01   -1.210573280829079e+02   
1.004400000000000e+10    -1.919489326503562e+01   -1.211100213265700e+02   
1.004500000000000e+10    -1.913541101534517e+01   -1.210858627967072e+02   
1.004600000000000e+10    -1.911210045706527e+01   -1.210176892178510e+02   
1.004700000000000e+10    -1.907862826096346e+01   -1.210434718715935e+02   
1.004800000000000e+10    -1.903394637189485e+01   -1.210207621766534e+02   
1.004900000000000e+10    -1.899099364424956e+01   -1.210545980796322e+02   
1.005000000000000e+10    -1.896803193577102e+01   -1.211739262139697e+02   
1.005100000000000e+10    -1.890033925797282e+01   -1.211627826822943e+02   
1.005200000000000e+10    -1.886750523889132e+01   -1.209846822434414e+02   
1.005300000000000e+10    -1.883288668345211e+01   -1.210679174743790e+02   
1.005400000000000e+10    -1.879551596331184e+01   -1.211048366345739e+02   
1.005500000000000e+10    -1.875237518802021e+01   -1.210693277999840e+02   
1.005600000000000e+10    -1.873902532080800e+01   -1.210213911813346e+02   
1.005700000000000e+10    -1.867460150088908e+01   -1.210197825098857e+02   
1.005800000000000e+10    -1.864299070673228e+01   -1.210968183863100e+02   
1.005900000000000e+10    -1.861478855150027e+01   -1.211501281958140e+02   
1.006000000000000e+10    -1.855330860225799e+01   -1.211125816009679e+02   
1.006100000000000e+10    -1.852924125769881e+01   -1.209807398048529e+02   
1.006200000000000e+10    -1.849417592864955e+01   -1.210301505540045e+02   
1.006300000000000e+10    -1.845787898022128e+01   -1.209823127508171e+02   
1.006400000000000e+10    -1.840967366619009e+01   -1.210515119676077e+02   
1.006500000000000e+10    -1.837725684138795e+01   -1.210268736332006e+02   
1.006600000000000e+10    -1.834291560719927e+01   -1.209366939041308e+02   
1.006700000000000e+10    -1.831810873911664e+01   -1.210656848062162e+02   
1.006800000000000e+10    -1.826144039297510e+01   -1.209618054529362e+02   
1.006900000000000e+10    -1.822741159672484e+01   -1.208933648362665e+02   
1.007000000000000e+10    -1.818845864400194e+01   -1.209852912674763e+02   
1.007100000000000e+10    -1.814989407732209e+01   -1.210583136201433e+02   
1.007200000000000e+10    -1.811470220701696e+01   -1.209385857943439e+02   
1.007300000000000e+10    -1.809493221792992e+01   -1.210748937962970e+02   
1.007400000000000e+10    -1.803563504490937e+01   -1.209773341617489e+02   
1.007500000000000e+10    -1.802509692602086e+01   -1.209488246179046e+02   
1.007600000000000e+10    -1.800399786407470e+01   -1.209392780303308e+02   
1.007700000000000e+10    -1.794607824673929e+01   -1.209727290539647e+02   
1.007800000000000e+10    -1.791089086828131e+01   -1.209069638261332e+02   
1.007900000000000e+10    -1.788388246733983e+01   -1.210368258151788e+02   
1.008000000000000e+10    -1.787723118852904e+01   -1.209428261183115e+02   
1.008100000000000e+10    -1.782301573474278e+01   -1.209689387963682e+02   
1.008200000000000e+10    -1.777688718542843e+01   -1.209477673979244e+02   
1.008300000000000e+10    -1.776281388847964e+01   -1.210220802381816e+02   
1.008400000000000e+10    -1.775350730298534e+01   -1.210122078309669e+02   
1.008500000000000e+10    -1.770314496992350e+01   -1.210848310715074e+02   
1.008600000000000e+10    -1.767540486931026e+01   -1.210834068447807e+02   
1.008700000000000e+10    -1.764756651762454e+01   -1.211693584547313e+02   
1.008800000000000e+10    -1.762208084640108e+01   -1.212513831985239e+02   
1.008900000000000e+10    -1.760918092742247e+01   -1.211942208155805e+02   
1.009000000000000e+10    -1.758413026197228e+01   -1.212992419875726e+02   
1.009100000000000e+10    -1.756248273342728e+01   -1.212294619791773e+02   
1.009200000000000e+10    -1.754820216782266e+01   -1.213936136094871e+02   
1.009300000000000e+10    -1.750391129918342e+01   -1.215458309931863e+02   
1.009400000000000e+10    -1.749784572580889e+01   -1.215538261779214e+02   
1.009500000000000e+10    -1.746721564130618e+01   -1.215310187628571e+02   
1.009600000000000e+10    -1.743973527626240e+01   -1.216546140080886e+02   
1.009700000000000e+10    -1.742960096821398e+01   -1.217443898183867e+02   
1.009800000000000e+10    -1.739692599469860e+01   -1.218859282539495e+02   
1.009900000000000e+10    -1.738115266646958e+01   -1.218088817529090e+02   
1.010000000000000e+10    -1.737013531406610e+01   -1.220799399393614e+02   
1.010100000000000e+10    -1.735648855693921e+01   -1.220434741484913e+02   
1.010200000000000e+10    -1.732364347416265e+01   -1.222187248520483e+02   
1.010300000000000e+10    -1.730954308880954e+01   -1.221985425330153e+02   
1.010400000000000e+10    -1.728751529603921e+01   -1.223871640835233e+02   
1.010500000000000e+10    -1.727054115212673e+01   -1.226548706165517e+02   
1.010600000000000e+10    -1.725639526350645e+01   -1.226282529927058e+02   
1.010700000000000e+10    -1.723130729077069e+01   -1.227420902133650e+02   
1.010800000000000e+10    -1.720520840129291e+01   -1.230593241678200e+02   
1.010900000000000e+10    -1.718306866542633e+01   -1.231292090958332e+02   
1.011000000000000e+10    -1.716569910168189e+01   -1.233168746816346e+02   
1.011100000000000e+10    -1.715293229045920e+01   -1.234100205308879e+02   
1.011200000000000e+10    -1.713764122732637e+01   -1.236844057570339e+02   
1.011300000000000e+10    -1.712189993190625e+01   -1.236962858404623e+02   
1.011400000000000e+10    -1.707758253937831e+01   -1.238810510866832e+02   
1.011500000000000e+10    -1.707483105018623e+01   -1.240301430869233e+02   
1.011600000000000e+10    -1.706469187443219e+01   -1.243367054876777e+02   
1.011700000000000e+10    -1.702880472385102e+01   -1.243662395432978e+02   
1.011800000000000e+10    -1.702674830543744e+01   -1.246112638355688e+02   
1.011900000000000e+10    -1.699012279957086e+01   -1.248623500686450e+02   
1.012000000000000e+10    -1.696084897046744e+01   -1.249999154638926e+02   
1.012100000000000e+10    -1.695937468322282e+01   -1.252320974100486e+02   
1.012200000000000e+10    -1.692591054757275e+01   -1.253847269096332e+02   
1.012300000000000e+10    -1.691020331877234e+01   -1.256610196821927e+02   
1.012400000000000e+10    -1.688162413131531e+01   -1.257206712260362e+02   
1.012500000000000e+10    -1.686967227267905e+01   -1.258710508440440e+02   
1.012600000000000e+10    -1.684476614812758e+01   -1.260993287383128e+02   
1.012700000000000e+10    -1.682098204209597e+01   -1.263770334612559e+02   
1.012800000000000e+10    -1.680614789619138e+01   -1.265089760101030e+02   
1.012900000000000e+10    -1.677222669478830e+01   -1.267050044099849e+02   
1.013000000000000e+10    -1.677437208109947e+01   -1.269548701384353e+02   
1.013100000000000e+10    -1.673057800691769e+01   -1.270097499493708e+02   
1.013200000000000e+10    -1.670748611102436e+01   -1.273513153611307e+02   
1.013300000000000e+10    -1.668261754577649e+01   -1.274608439638533e+02   
1.013400000000000e+10    -1.667324316869320e+01   -1.277298708775023e+02   
1.013500000000000e+10    -1.664810209757489e+01   -1.278949236555259e+02   
1.013600000000000e+10    -1.662341095559079e+01   -1.281565889521142e+02   
1.013700000000000e+10    -1.659963106068791e+01   -1.282274536530866e+02   
1.013800000000000e+10    -1.658089745080474e+01   -1.285710078225509e+02   
1.013900000000000e+10    -1.655174482428134e+01   -1.287377416205190e+02   
1.014000000000000e+10    -1.655654488625829e+01   -1.289280232326078e+02   
1.014100000000000e+10    -1.653174810283839e+01   -1.291176976562627e+02   
1.014200000000000e+10    -1.651845016589559e+01   -1.293644746264441e+02   
1.014300000000000e+10    -1.648848704856579e+01   -1.295189774265871e+02   
1.014400000000000e+10    -1.648626812378040e+01   -1.297632599049831e+02   
1.014500000000000e+10    -1.644991101321515e+01   -1.299386898108919e+02   
1.014600000000000e+10    -1.643024653388773e+01   -1.301374197832393e+02   
1.014700000000000e+10    -1.641813951153969e+01   -1.303312132640439e+02   
1.014800000000000e+10    -1.640575738979354e+01   -1.306082907734853e+02   
1.014900000000000e+10    -1.637011844050337e+01   -1.306864848711557e+02   
1.015000000000000e+10    -1.636738905070729e+01   -1.309639325965078e+02   
1.015100000000000e+10    -1.634272491742235e+01   -1.310723233927879e+02   
1.015200000000000e+10    -1.633172210454419e+01   -1.312881981181963e+02   
1.015300000000000e+10    -1.630151065861595e+01   -1.315640560694536e+02   
1.015400000000000e+10    -1.630566797391569e+01   -1.317391181193650e+02   
1.015500000000000e+10    -1.628281916164044e+01   -1.319089331921245e+02   
1.015600000000000e+10    -1.627024232895156e+01   -1.320038658669918e+02   
1.015700000000000e+10    -1.624586203964634e+01   -1.321797168871710e+02   
1.015800000000000e+10    -1.622589670317431e+01   -1.323577886667634e+02   
1.015900000000000e+10    -1.621036009145343e+01   -1.326619124604316e+02   
1.016000000000000e+10    -1.620965569485465e+01   -1.328962047355543e+02   
1.016100000000000e+10    -1.620672624181427e+01   -1.330145061572717e+02   
1.016200000000000e+10    -1.619439445434160e+01   -1.332247119052049e+02   
1.016300000000000e+10    -1.617182703898731e+01   -1.333830276513367e+02   
1.016400000000000e+10    -1.616595667619577e+01   -1.335153454030113e+02   
1.016500000000000e+10    -1.614698012858847e+01   -1.336659587713649e+02   
1.016600000000000e+10    -1.615153451668125e+01   -1.338572236186994e+02   
1.016700000000000e+10    -1.614130492492836e+01   -1.340962444295965e+02   
1.016800000000000e+10    -1.612331733703951e+01   -1.342115697924997e+02   
1.016900000000000e+10    -1.612647657869564e+01   -1.344709308468940e+02   
1.017000000000000e+10    -1.611108602074311e+01   -1.346456143137870e+02   
1.017100000000000e+10    -1.611956014189246e+01   -1.348929119443592e+02   
1.017200000000000e+10    -1.610549180415184e+01   -1.349544001310441e+02   
1.017300000000000e+10    -1.609802628792930e+01   -1.351116474287098e+02   
1.017400000000000e+10    -1.608932349014987e+01   -1.352967420043241e+02   
1.017500000000000e+10    -1.611471856549667e+01   -1.354436326243282e+02   
1.017600000000000e+10    -1.608075709021087e+01   -1.357489571874929e+02   
1.017700000000000e+10    -1.609137763698123e+01   -1.359180108645462e+02   
1.017800000000000e+10    -1.608856283840450e+01   -1.360322588278142e+02   
1.017900000000000e+10    -1.607382264944329e+01   -1.362318223371773e+02   
1.018000000000000e+10    -1.610226121574292e+01   -1.363464738432728e+02   
1.018100000000000e+10    -1.608567001017433e+01   -1.365652764396960e+02   
1.018200000000000e+10    -1.610922032288321e+01   -1.367475605927216e+02   
1.018300000000000e+10    -1.610136311552415e+01   -1.369828506255685e+02   
1.018400000000000e+10    -1.608830679120581e+01   -1.371767289231526e+02   
1.018500000000000e+10    -1.609973235973609e+01   -1.374224560720313e+02   
1.018600000000000e+10    -1.610012364318797e+01   -1.375612397309719e+02   
1.018700000000000e+10    -1.611602052091882e+01   -1.377591098918429e+02   
1.018800000000000e+10    -1.611670677213929e+01   -1.378396074757937e+02   
1.018900000000000e+10    -1.611545838705629e+01   -1.380274884996667e+02   
1.019000000000000e+10    -1.612278093561502e+01   -1.382630674023366e+02   
1.019100000000000e+10    -1.612663086776074e+01   -1.384930018997793e+02   
1.019200000000000e+10    -1.611705084576941e+01   -1.386995500656276e+02   
1.019300000000000e+10    -1.611711655955380e+01   -1.388474410687087e+02   
1.019400000000000e+10    -1.613382487852648e+01   -1.390532466408287e+02   
1.019500000000000e+10    -1.613271467766661e+01   -1.391994474118642e+02   
1.019600000000000e+10    -1.614857223928950e+01   -1.394400180029717e+02   
1.019700000000000e+10    -1.614302039733266e+01   -1.396273847739253e+02   
1.019800000000000e+10    -1.614271987709130e+01   -1.398825800991090e+02   
1.019900000000000e+10    -1.614651809561040e+01   -1.400065199944939e+02   
1.020000000000000e+10    -1.616836499395424e+01   -1.402382827509043e+02   
1.020100000000000e+10    -1.615733910797002e+01   -1.403377800507257e+02   
1.020200000000000e+10    -1.617121274212396e+01   -1.405825507993602e+02   
1.020300000000000e+10    -1.616518488512207e+01   -1.406415441713126e+02   
1.020400000000000e+10    -1.618337823621323e+01   -1.408386111358490e+02   
1.020500000000000e+10    -1.618836194397076e+01   -1.411166308294977e+02   
1.020600000000000e+10    -1.618383374893639e+01   -1.412724545601811e+02   
1.020700000000000e+10    -1.618015910849457e+01   -1.415245305356334e+02   
1.020800000000000e+10    -1.619177844866683e+01   -1.416316792173754e+02   
1.020900000000000e+10    -1.621978858695279e+01   -1.418236471378392e+02   
1.021000000000000e+10    -1.621892932544798e+01   -1.420151840262552e+02   
1.021100000000000e+10    -1.621574503374611e+01   -1.421627121254301e+02   
1.021200000000000e+10    -1.624011577986385e+01   -1.423056999314495e+02   
1.021300000000000e+10    -1.623850359157533e+01   -1.424924256412044e+02   
1.021400000000000e+10    -1.624798256730681e+01   -1.426486141226904e+02   
1.021500000000000e+10    -1.624930219245264e+01   -1.427479295981039e+02   
1.021600000000000e+10    -1.625617510266112e+01   -1.430103025373667e+02   
1.021700000000000e+10    -1.626239665437969e+01   -1.431878529364253e+02   
1.021800000000000e+10    -1.626914881559000e+01   -1.432866394697026e+02   
1.021900000000000e+10    -1.628725998985363e+01   -1.433848916588564e+02   
1.022000000000000e+10    -1.629481903766106e+01   -1.435867442223037e+02   
1.022100000000000e+10    -1.628796036924395e+01   -1.438023102204271e+02   
1.022200000000000e+10    -1.632076572805170e+01   -1.438220235877902e+02   
1.022300000000000e+10    -1.632140195061799e+01   -1.439974482056753e+02   
1.022400000000000e+10    -1.633524449232563e+01   -1.441941179239842e+02   
1.022500000000000e+10    -1.633372393874444e+01   -1.442678910236754e+02   
1.022600000000000e+10    -1.636439218367245e+01   -1.445435688917182e+02   
1.022700000000000e+10    -1.636672513140957e+01   -1.446636290448206e+02   
1.022800000000000e+10    -1.637491938667823e+01   -1.448072480508658e+02   
1.022900000000000e+10    -1.639046524633646e+01   -1.450256586731192e+02   
1.023000000000000e+10    -1.638313853205514e+01   -1.451806527731446e+02   
1.023100000000000e+10    -1.639166417043716e+01   -1.453629644394265e+02   
1.023200000000000e+10    -1.641390514975613e+01   -1.455309215453008e+02   
1.023300000000000e+10    -1.642668126080535e+01   -1.456212797455465e+02   
1.023400000000000e+10    -1.643257942819390e+01   -1.458376872867952e+02   
1.023500000000000e+10    -1.646934870852025e+01   -1.458397524560524e+02   
1.023600000000000e+10    -1.644460716379445e+01   -1.460285269102344e+02   
1.023700000000000e+10    -1.647023719018105e+01   -1.462650120415976e+02   
1.023800000000000e+10    -1.647562234095289e+01   -1.463094057996440e+02   
1.023900000000000e+10    -1.649057154214803e+01   -1.466048974782362e+02   
1.024000000000000e+10    -1.651789631467850e+01   -1.466389579018876e+02   
1.024100000000000e+10    -1.650126586532541e+01   -1.467131665742960e+02   
1.024200000000000e+10    -1.651845039510453e+01   -1.469398260982593e+02   
1.024300000000000e+10    -1.654471792560678e+01   -1.470593637733512e+02   
1.024400000000000e+10    -1.655644768382608e+01   -1.472293919287690e+02   
1.024500000000000e+10    -1.655190892472736e+01   -1.473589641102619e+02   
1.024600000000000e+10    -1.657189910998966e+01   -1.475773429342707e+02   
1.024700000000000e+10    -1.658139574768656e+01   -1.477005749299943e+02   
1.024800000000000e+10    -1.659505473057289e+01   -1.477392305932835e+02   
1.024900000000000e+10    -1.662820153362632e+01   -1.479780425964748e+02   
1.025000000000000e+10    -1.662268357732728e+01   -1.481619548521654e+02   
1.025100000000000e+10    -1.662239702623701e+01   -1.481295967290686e+02   
1.025200000000000e+10    -1.665240455055304e+01   -1.484158271350525e+02   
1.025300000000000e+10    -1.664507187610811e+01   -1.484803899739927e+02   
1.025400000000000e+10    -1.666464720176599e+01   -1.486050780865004e+02   
1.025500000000000e+10    -1.669943902264968e+01   -1.487415344515993e+02   
1.025600000000000e+10    -1.670616342480901e+01   -1.488856313282048e+02   
