[Version] 2.0
! Rohde & Schwarz Vector Network Analyzer
! Rohde-Schwarz,ZNL20-2Port,1323001220200009,1.71.1.10-23.02.1.238
! 
! Port Assignments:
! Nominal Port -> Actual Test Port
! --------------------------------
!   1 -> 1

! Created: GMT 2024-08-27 13:53:27

# Hz S DB R 50

[Number of Ports] 1
[Number of Frequencies] 2001

[Network Data] 
! freq[Hz]               S11[mag dB]              S11[ang]                 
1.000000000000000e+10    -2.073134976992416e+01   -1.367414724134647e+02   
1.000100000000000e+10    -2.077125211409335e+01   -1.362880191111585e+02   
1.000200000000000e+10    -2.079395687160218e+01   -1.358156557857866e+02   
1.000300000000000e+10    -2.084347453768225e+01   -1.356282867969838e+02   
1.000400000000000e+10    -2.086016914112991e+01   -1.354804508607037e+02   
1.000500000000000e+10    -2.087701356396562e+01   -1.351849696268145e+02   
1.000600000000000e+10    -2.091873348830039e+01   -1.348119251424776e+02   
1.000700000000000e+10    -2.094033891256677e+01   -1.344126270978608e+02   
1.000800000000000e+10    -2.097001003178691e+01   -1.341391148699813e+02   
1.000900000000000e+10    -2.101167952192669e+01   -1.340226465187629e+02   
1.001000000000000e+10    -2.102729247047719e+01   -1.334964863138229e+02   
1.001100000000000e+10    -2.105846589527681e+01   -1.332811359391225e+02   
1.001200000000000e+10    -2.106192595182832e+01   -1.330005572213226e+02   
1.001300000000000e+10    -2.112255674870687e+01   -1.327330228687179e+02   
1.001400000000000e+10    -2.111889554597553e+01   -1.325794762662883e+02   
1.001500000000000e+10    -2.113896528860657e+01   -1.321937819361342e+02   
1.001600000000000e+10    -2.112546510034021e+01   -1.318708494556769e+02   
1.001700000000000e+10    -2.116907473282563e+01   -1.317420077694883e+02   
1.001800000000000e+10    -2.116485251117513e+01   -1.315010010294343e+02   
1.001900000000000e+10    -2.117585792592224e+01   -1.312029543322038e+02   
1.002000000000000e+10    -2.119611025113192e+01   -1.310895326372936e+02   
1.002100000000000e+10    -2.119919675000501e+01   -1.308220910212051e+02   
1.002200000000000e+10    -2.118897450774755e+01   -1.304730346531690e+02   
1.002300000000000e+10    -2.117753302213946e+01   -1.302852539209030e+02   
1.002400000000000e+10    -2.116704790086306e+01   -1.301330338098821e+02   
1.002500000000000e+10    -2.119366723645460e+01   -1.297314372627273e+02   
1.002600000000000e+10    -2.119901372554551e+01   -1.298287442040899e+02   
1.002700000000000e+10    -2.118589438077538e+01   -1.296319850422691e+02   
1.002800000000000e+10    -2.118227578471493e+01   -1.292499451140308e+02   
1.002900000000000e+10    -2.116242633434849e+01   -1.289578927237935e+02   
1.003000000000000e+10    -2.118240933137577e+01   -1.286065576341463e+02   
1.003100000000000e+10    -2.114168723098290e+01   -1.286941472779904e+02   
1.003200000000000e+10    -2.114629667722156e+01   -1.284941990453911e+02   
1.003300000000000e+10    -2.109961725976219e+01   -1.283216776224701e+02   
1.003400000000000e+10    -2.108403463768164e+01   -1.279743900993742e+02   
1.003500000000000e+10    -2.109329446099443e+01   -1.277861366192063e+02   
1.003600000000000e+10    -2.101948910087520e+01   -1.274936604194067e+02   
1.003700000000000e+10    -2.103438156706098e+01   -1.273701546048851e+02   
1.003800000000000e+10    -2.101307194657050e+01   -1.272301102070373e+02   
1.003900000000000e+10    -2.100945739799321e+01   -1.270205717308559e+02   
1.004000000000000e+10    -2.095451912369313e+01   -1.269969170018693e+02   
1.004100000000000e+10    -2.095106763937428e+01   -1.266831893829288e+02   
1.004200000000000e+10    -2.089404094376369e+01   -1.264985822820088e+02   
1.004300000000000e+10    -2.087960850791491e+01   -1.263035003446900e+02   
1.004400000000000e+10    -2.086346525249144e+01   -1.261962859920366e+02   
1.004500000000000e+10    -2.080165546798364e+01   -1.259855477993704e+02   
1.004600000000000e+10    -2.078496271782065e+01   -1.257161716340941e+02   
1.004700000000000e+10    -2.075779551276425e+01   -1.255662856830138e+02   
1.004800000000000e+10    -2.071097140864196e+01   -1.253808838139545e+02   
1.004900000000000e+10    -2.066759613879050e+01   -1.252417805187664e+02   
1.005000000000000e+10    -2.065185453362513e+01   -1.252027789346878e+02   
1.005100000000000e+10    -2.057253115726125e+01   -1.250415928469813e+02   
1.005200000000000e+10    -2.054326443790629e+01   -1.246168699597172e+02   
1.005300000000000e+10    -2.051146600655042e+01   -1.245694163252262e+02   
1.005400000000000e+10    -2.047142949445604e+01   -1.244668254879883e+02   
1.005500000000000e+10    -2.043312570851167e+01   -1.242315968636948e+02   
1.005600000000000e+10    -2.042012479581564e+01   -1.240130507359742e+02   
1.005700000000000e+10    -2.034975805099977e+01   -1.238520741472866e+02   
1.005800000000000e+10    -2.031376768107111e+01   -1.237615257612453e+02   
1.005900000000000e+10    -2.028754813490970e+01   -1.237136073822516e+02   
1.006000000000000e+10    -2.022663734617638e+01   -1.234736421097133e+02   
1.006100000000000e+10    -2.019670471077366e+01   -1.231747973105009e+02   
1.006200000000000e+10    -2.016307745862636e+01   -1.230757950039305e+02   
1.006300000000000e+10    -2.012893497596176e+01   -1.228305955295315e+02   
1.006400000000000e+10    -2.007116115381681e+01   -1.227594915069838e+02   
1.006500000000000e+10    -2.004155820257685e+01   -1.225896136193231e+02   
1.006600000000000e+10    -2.000401801622915e+01   -1.222836084853820e+02   
1.006700000000000e+10    -1.998073920400404e+01   -1.222819352196327e+02   
1.006800000000000e+10    -1.991642015748820e+01   -1.219759363805543e+02   
1.006900000000000e+10    -1.987873012131410e+01   -1.217301860079753e+02   
1.007000000000000e+10    -1.984014303057603e+01   -1.216837626881577e+02   
1.007100000000000e+10    -1.979529974346433e+01   -1.215962545137192e+02   
1.007200000000000e+10    -1.975239436129076e+01   -1.213014467170369e+02   
1.007300000000000e+10    -1.973701223974495e+01   -1.212804782363869e+02   
1.007400000000000e+10    -1.966618694343338e+01   -1.210058038619245e+02   
1.007500000000000e+10    -1.965654309337138e+01   -1.208056065981649e+02   
1.007600000000000e+10    -1.962895244237347e+01   -1.206219233843747e+02   
1.007700000000000e+10    -1.956431478723299e+01   -1.205108469208119e+02   
1.007800000000000e+10    -1.952222304740271e+01   -1.202615020164919e+02   
1.007900000000000e+10    -1.949345399884080e+01   -1.202467614647478e+02   
1.008000000000000e+10    -1.948443554864931e+01   -1.199649507399471e+02   
1.008100000000000e+10    -1.941716400736822e+01   -1.198091727421661e+02   
1.008200000000000e+10    -1.936165546664919e+01   -1.196398087251817e+02   
1.008300000000000e+10    -1.934370938645585e+01   -1.195573098488134e+02   
1.008400000000000e+10    -1.933174447172197e+01   -1.193522499534542e+02   
1.008500000000000e+10    -1.927148095432853e+01   -1.192851627757313e+02   
1.008600000000000e+10    -1.923376733692702e+01   -1.191280546168657e+02   
1.008700000000000e+10    -1.919882829373659e+01   -1.190649763450763e+02   
1.008800000000000e+10    -1.916472047065840e+01   -1.189951769429273e+02   
1.008900000000000e+10    -1.914726798395253e+01   -1.187571088585495e+02   
1.009000000000000e+10    -1.911265196811044e+01   -1.187428448216826e+02   
1.009100000000000e+10    -1.908156991591364e+01   -1.184766834673265e+02   
1.009200000000000e+10    -1.905893388330507e+01   -1.185471016945779e+02   
1.009300000000000e+10    -1.900251242894485e+01   -1.185596423874135e+02   
1.009400000000000e+10    -1.899176086351978e+01   -1.184024388521757e+02   
1.009500000000000e+10    -1.894597550577784e+01   -1.182235249457355e+02   
1.009600000000000e+10    -1.890617940216116e+01   -1.182544767205858e+02   
1.009700000000000e+10    -1.888850763297582e+01   -1.181827363772734e+02   
1.009800000000000e+10    -1.884523775379665e+01   -1.182085594996111e+02   
1.009900000000000e+10    -1.882033720439896e+01   -1.179490586278291e+02   
1.010000000000000e+10    -1.879993734971587e+01   -1.181227553726849e+02   
1.010100000000000e+10    -1.877811488298590e+01   -1.179506025212663e+02   
1.010200000000000e+10    -1.873268373718145e+01   -1.180038046999030e+02   
1.010300000000000e+10    -1.870622628055407e+01   -1.178509335022530e+02   
1.010400000000000e+10    -1.867394852613189e+01   -1.179005484707157e+02   
1.010500000000000e+10    -1.864875538865031e+01   -1.180817568257037e+02   
1.010600000000000e+10    -1.862395780812862e+01   -1.178995870840928e+02   
1.010700000000000e+10    -1.858512433184081e+01   -1.179042184818440e+02   
1.010800000000000e+10    -1.854997441636725e+01   -1.181369547955231e+02   
1.010900000000000e+10    -1.851460028091974e+01   -1.180665670732632e+02   
1.011000000000000e+10    -1.848801544899927e+01   -1.181485963388140e+02   
1.011100000000000e+10    -1.846149295927886e+01   -1.181149284970878e+02   
1.011200000000000e+10    -1.843881185799709e+01   -1.182857500559097e+02   
1.011300000000000e+10    -1.840918476300359e+01   -1.181516893758453e+02   
1.011400000000000e+10    -1.834428843048539e+01   -1.182508979838755e+02   
1.011500000000000e+10    -1.833117278331867e+01   -1.182855205701752e+02   
1.011600000000000e+10    -1.831348216609651e+01   -1.184817389147305e+02   
1.011700000000000e+10    -1.825648477056776e+01   -1.184117966530365e+02   
1.011800000000000e+10    -1.824606728108792e+01   -1.185784489297772e+02   
1.011900000000000e+10    -1.819531836857425e+01   -1.187290239915492e+02   
1.012000000000000e+10    -1.814733531101788e+01   -1.187862808348885e+02   
1.012100000000000e+10    -1.813981839850128e+01   -1.189044222043299e+02   
1.012200000000000e+10    -1.809001086845047e+01   -1.189831614302663e+02   
1.012300000000000e+10    -1.806096517922570e+01   -1.191794288914404e+02   
1.012400000000000e+10    -1.801535160761359e+01   -1.191422052063287e+02   
1.012500000000000e+10    -1.798838988543442e+01   -1.191946867019614e+02   
1.012600000000000e+10    -1.795130880624038e+01   -1.193377545793662e+02   
1.012700000000000e+10    -1.791246003824954e+01   -1.195365231809102e+02   
1.012800000000000e+10    -1.788116143922209e+01   -1.195645410186025e+02   
1.012900000000000e+10    -1.783076490856154e+01   -1.197221511370188e+02   
1.013000000000000e+10    -1.782192216161941e+01   -1.198800401702885e+02   
1.013100000000000e+10    -1.775679702883325e+01   -1.198616010049538e+02   
1.013200000000000e+10    -1.772201352606163e+01   -1.201343525512375e+02   
1.013300000000000e+10    -1.767664247534609e+01   -1.201591298054473e+02   
1.013400000000000e+10    -1.765305907845230e+01   -1.203595953110418e+02   
1.013500000000000e+10    -1.761072195747323e+01   -1.204623934193219e+02   
1.013600000000000e+10    -1.757213818707474e+01   -1.206593941047295e+02   
1.013700000000000e+10    -1.752913855314738e+01   -1.206616226888234e+02   
1.013800000000000e+10    -1.749733219355367e+01   -1.209621458110261e+02   
1.013900000000000e+10    -1.744807362318276e+01   -1.210450394118426e+02   
1.014000000000000e+10    -1.743810173828810e+01   -1.211611823130997e+02   
1.014100000000000e+10    -1.739669725702132e+01   -1.212828568285652e+02   
1.014200000000000e+10    -1.736853707194403e+01   -1.214759391303471e+02   
1.014300000000000e+10    -1.732048658054920e+01   -1.215812521934253e+02   
1.014400000000000e+10    -1.730379746858330e+01   -1.217460788635807e+02   
1.014500000000000e+10    -1.724874020174054e+01   -1.218867120335179e+02   
1.014600000000000e+10    -1.721131721142418e+01   -1.220095837299062e+02   
1.014700000000000e+10    -1.718052751918054e+01   -1.221413598996040e+02   
1.014800000000000e+10    -1.715105058683877e+01   -1.223697259714433e+02   
1.014900000000000e+10    -1.709529884699599e+01   -1.223873147593013e+02   
1.015000000000000e+10    -1.707630916775221e+01   -1.226056782535822e+02   
1.015100000000000e+10    -1.703355553442501e+01   -1.226682972454125e+02   
1.015200000000000e+10    -1.700139106703383e+01   -1.228317118284550e+02   
1.015300000000000e+10    -1.695468635879909e+01   -1.230917347789983e+02   
1.015400000000000e+10    -1.694182048973267e+01   -1.231953179825479e+02   
1.015500000000000e+10    -1.690061005101952e+01   -1.232998239611555e+02   
1.015600000000000e+10    -1.686702565757659e+01   -1.233485812673426e+02   
1.015700000000000e+10    -1.682364444729334e+01   -1.234981985911312e+02   
1.015800000000000e+10    -1.678299405816587e+01   -1.236301984661996e+02   
1.015900000000000e+10    -1.675018658765651e+01   -1.239069754168292e+02   
1.016000000000000e+10    -1.673394372828989e+01   -1.240938797528687e+02   
1.016100000000000e+10    -1.670957898086364e+01   -1.241600323477309e+02   
1.016200000000000e+10    -1.667879679428223e+01   -1.243120799189212e+02   
1.016300000000000e+10    -1.663620102472792e+01   -1.244411928271699e+02   
1.016400000000000e+10    -1.660842232519967e+01   -1.245433011425283e+02   
1.016500000000000e+10    -1.657104424234427e+01   -1.246633411446272e+02   
1.016600000000000e+10    -1.655557379620005e+01   -1.247947136468290e+02   
1.016700000000000e+10    -1.652533481047485e+01   -1.250091072444842e+02   
1.016800000000000e+10    -1.648453570271868e+01   -1.251003747891834e+02   
1.016900000000000e+10    -1.647014949645095e+01   -1.253121832881465e+02   
1.017000000000000e+10    -1.643256009322409e+01   -1.254626033422523e+02   
1.017100000000000e+10    -1.642270178388626e+01   -1.256612077561116e+02   
1.017200000000000e+10    -1.638354367791737e+01   -1.257039911034642e+02   
1.017300000000000e+10    -1.635262865311856e+01   -1.258330324071632e+02   
1.017400000000000e+10    -1.632379137749617e+01   -1.260095782189184e+02   
1.017500000000000e+10    -1.632783048109739e+01   -1.261201486504482e+02   
1.017600000000000e+10    -1.627443757666604e+01   -1.264304970047316e+02   
1.017700000000000e+10    -1.626313394691629e+01   -1.265492972431039e+02   
1.017800000000000e+10    -1.623408218997299e+01   -1.266533701392696e+02   
1.017900000000000e+10    -1.619816773525403e+01   -1.268625729124936e+02   
1.018000000000000e+10    -1.620221322944725e+01   -1.269423286935351e+02   
1.018100000000000e+10    -1.616548732231478e+01   -1.271848284970737e+02   
1.018200000000000e+10    -1.616765773048389e+01   -1.273228351463525e+02   
1.018300000000000e+10    -1.613838451829668e+01   -1.275713536170817e+02   
1.018400000000000e+10    -1.610357677462273e+01   -1.277813174327595e+02   
1.018500000000000e+10    -1.609472388668318e+01   -1.280091758989511e+02   
1.018600000000000e+10    -1.607012842490776e+01   -1.281558628830274e+02   
1.018700000000000e+10    -1.606436645630667e+01   -1.283338812355889e+02   
1.018800000000000e+10    -1.603974761764222e+01   -1.284377300984430e+02   
1.018900000000000e+10    -1.601501034211967e+01   -1.286388719102998e+02   
1.019000000000000e+10    -1.600084729640353e+01   -1.288832711240851e+02   
1.019100000000000e+10    -1.598433147221316e+01   -1.291274509821168e+02   
1.019200000000000e+10    -1.595716946271442e+01   -1.293518761265680e+02   
1.019300000000000e+10    -1.592979497513070e+01   -1.295337855394510e+02   
1.019400000000000e+10    -1.592689633865551e+01   -1.297672841262047e+02   
1.019500000000000e+10    -1.590384738329993e+01   -1.299319759313558e+02   
1.019600000000000e+10    -1.589604106433240e+01   -1.301934856245345e+02   
1.019700000000000e+10    -1.587196742859421e+01   -1.304302094527925e+02   
1.019800000000000e+10    -1.585106650083948e+01   -1.307217046232473e+02   
1.019900000000000e+10    -1.583270483184377e+01   -1.309049778940475e+02   
1.020000000000000e+10    -1.583215679619688e+01   -1.311553094298407e+02   
1.020100000000000e+10    -1.579997308680369e+01   -1.312981956612912e+02   
1.020200000000000e+10    -1.579257593721248e+01   -1.315814864494913e+02   
1.020300000000000e+10    -1.576363610377673e+01   -1.317148784471847e+02   
1.020400000000000e+10    -1.575792864266581e+01   -1.319601833559980e+02   
1.020500000000000e+10    -1.574711890560409e+01   -1.322722072738206e+02   
1.020600000000000e+10    -1.572081222702552e+01   -1.325167674296814e+02   
1.020700000000000e+10    -1.569968963597166e+01   -1.328303762672800e+02   
1.020800000000000e+10    -1.568937558920508e+01   -1.330015271370855e+02   
1.020900000000000e+10    -1.569580205688176e+01   -1.332540434721151e+02   
1.021000000000000e+10    -1.567841420288008e+01   -1.335074278651961e+02   
1.021100000000000e+10    -1.565604920086276e+01   -1.337416026605291e+02   
1.021200000000000e+10    -1.565875916357259e+01   -1.339552699847283e+02   
1.021300000000000e+10    -1.564179159198036e+01   -1.342125305478602e+02   
1.021400000000000e+10    -1.563086835514029e+01   -1.344528801998053e+02   
1.021500000000000e+10    -1.561534496342268e+01   -1.346529400983652e+02   
1.021600000000000e+10    -1.560540467160261e+01   -1.349811988636943e+02   
1.021700000000000e+10    -1.559519078619888e+01   -1.352273159114771e+02   
1.021800000000000e+10    -1.558519775533481e+01   -1.354281394543732e+02   
1.021900000000000e+10    -1.558406913539240e+01   -1.355982887468875e+02   
1.022000000000000e+10    -1.557473053145048e+01   -1.358886354109684e+02   
1.022100000000000e+10    -1.555431005274598e+01   -1.361809237948972e+02   
1.022200000000000e+10    -1.556678122146062e+01   -1.362923232663566e+02   
1.022300000000000e+10    -1.555352990268464e+01   -1.365584691114887e+02   
1.022400000000000e+10    -1.555059772912594e+01   -1.368311756479058e+02   
1.022500000000000e+10    -1.553508280457271e+01   -1.370245535744748e+02   
1.022600000000000e+10    -1.555042812805136e+01   -1.373633611610041e+02   
1.022700000000000e+10    -1.553754507527418e+01   -1.375815442521696e+02   
1.022800000000000e+10    -1.553133873865856e+01   -1.378291573122525e+02   
1.022900000000000e+10    -1.553377683551969e+01   -1.381282751761041e+02   
1.023000000000000e+10    -1.551661939455186e+01   -1.383811652551015e+02   
1.023100000000000e+10    -1.551275153373848e+01   -1.386561166415862e+02   
1.023200000000000e+10    -1.552076208977995e+01   -1.389166552218335e+02   
1.023300000000000e+10    -1.551891464060379e+01   -1.391184579480393e+02   
1.023400000000000e+10    -1.551733845913860e+01   -1.394240904979892e+02   
1.023500000000000e+10    -1.553687911160006e+01   -1.395317425851720e+02   
1.023600000000000e+10    -1.550659777776183e+01   -1.398275940831875e+02   
1.023700000000000e+10    -1.551978973265473e+01   -1.401308764276228e+02   
1.023800000000000e+10    -1.551275458811168e+01   -1.402999655557932e+02   
1.023900000000000e+10    -1.551911076325135e+01   -1.406805157334664e+02   
1.024000000000000e+10    -1.553103450976873e+01   -1.407990984538691e+02   
1.024100000000000e+10    -1.551075281878928e+01   -1.410092719878808e+02   
1.024200000000000e+10    -1.551699238459465e+01   -1.413334821409189e+02   
1.024300000000000e+10    -1.553009883081930e+01   -1.415426237408983e+02   
1.024400000000000e+10    -1.553418666499158e+01   -1.418077598536917e+02   
1.024500000000000e+10    -1.552492520896574e+01   -1.420539379161622e+02   
1.024600000000000e+10    -1.553503135226316e+01   -1.423528220291862e+02   
1.024700000000000e+10    -1.553712447111085e+01   -1.425823138170523e+02   
1.024800000000000e+10    -1.554240474235933e+01   -1.427352902792405e+02   
1.024900000000000e+10    -1.556773170968411e+01   -1.430298921609796e+02   
1.025000000000000e+10    -1.555486464861844e+01   -1.433222879687806e+02   
1.025100000000000e+10    -1.555120607998024e+01   -1.434075477228596e+02   
1.025200000000000e+10    -1.557225783208509e+01   -1.437546628496863e+02   
1.025300000000000e+10    -1.555866884064630e+01   -1.439331605337515e+02   
1.025400000000000e+10    -1.557181745159133e+01   -1.441595580345331e+02   
1.025500000000000e+10    -1.559725355750772e+01   -1.443762058284821e+02   
1.025600000000000e+10    -1.559932328869178e+01   -1.446202332508674e+02   
