[Version] 2.0
! Rohde & Schwarz Vector Network Analyzer
! Rohde-Schwarz,ZNL20-2Port,1323001220200009,1.71.1.10-23.02.1.238
! 
! Port Assignments:
! Nominal Port -> Actual Test Port
! --------------------------------
!   1 -> 1

! Created: GMT 2024-08-27 13:54:41

# Hz S DB R 50

[Number of Ports] 1
[Number of Frequencies] 2001

[Network Data] 
! freq[Hz]               S11[mag dB]              S11[ang]                 
1.000000000000000e+10    -2.056037106784053e+01   -1.388686096485419e+02   
1.000100000000000e+10    -2.061157992221865e+01   -1.384954169774167e+02   
1.000200000000000e+10    -2.064278518621261e+01   -1.380461249291257e+02   
1.000300000000000e+10    -2.069622986520444e+01   -1.378793970287325e+02   
1.000400000000000e+10    -2.072393824442623e+01   -1.377571189147255e+02   
1.000500000000000e+10    -2.075025503768184e+01   -1.374812153203393e+02   
1.000600000000000e+10    -2.079915417808174e+01   -1.371402814746035e+02   
1.000700000000000e+10    -2.083091422884867e+01   -1.367765720541134e+02   
1.000800000000000e+10    -2.086977389495308e+01   -1.365631550061376e+02   
1.000900000000000e+10    -2.091689736997381e+01   -1.364571339801611e+02   
1.001000000000000e+10    -2.094521410366766e+01   -1.359469046279357e+02   
1.001100000000000e+10    -2.097936604835092e+01   -1.357474233913831e+02   
1.001200000000000e+10    -2.099822071229323e+01   -1.354797456579230e+02   
1.001300000000000e+10    -2.106588780474927e+01   -1.352404478084134e+02   
1.001400000000000e+10    -2.107300966820775e+01   -1.350658474534408e+02   
1.001500000000000e+10    -2.110087489415823e+01   -1.347231252002649e+02   
1.001600000000000e+10    -2.109696390306187e+01   -1.343932721988122e+02   
1.001700000000000e+10    -2.114842079674509e+01   -1.342894734655166e+02   
1.001800000000000e+10    -2.115824739719447e+01   -1.340227686837125e+02   
1.001900000000000e+10    -2.117579603258716e+01   -1.336880508567753e+02   
1.002000000000000e+10    -2.120411787789063e+01   -1.335628416123464e+02   
1.002100000000000e+10    -2.121370497827007e+01   -1.333021400013606e+02   
1.002200000000000e+10    -2.121869154774711e+01   -1.329355156112200e+02   
1.002300000000000e+10    -2.121358515091616e+01   -1.327583684504522e+02   
1.002400000000000e+10    -2.120694248038065e+01   -1.325620960254296e+02   
1.002500000000000e+10    -2.124424663261995e+01   -1.321532887149331e+02   
1.002600000000000e+10    -2.125330256229339e+01   -1.322232632794193e+02   
1.002700000000000e+10    -2.124514750857740e+01   -1.319986665515312e+02   
1.002800000000000e+10    -2.125362792045100e+01   -1.316209427926829e+02   
1.002900000000000e+10    -2.124042134857233e+01   -1.312939490179235e+02   
1.003000000000000e+10    -2.126888174851975e+01   -1.309261303336782e+02   
1.003100000000000e+10    -2.123286741650517e+01   -1.309744953399606e+02   
1.003200000000000e+10    -2.123845852752167e+01   -1.307518412689440e+02   
1.003300000000000e+10    -2.120489360940195e+01   -1.305534142304054e+02   
1.003400000000000e+10    -2.118914626538756e+01   -1.301759360911936e+02   
1.003500000000000e+10    -2.120679879276515e+01   -1.299509113669469e+02   
1.003600000000000e+10    -2.113599442807374e+01   -1.296262080047553e+02   
1.003700000000000e+10    -2.116008888278239e+01   -1.294713820805547e+02   
1.003800000000000e+10    -2.114441748785337e+01   -1.293134746579583e+02   
1.003900000000000e+10    -2.113920715666145e+01   -1.290796812616329e+02   
1.004000000000000e+10    -2.109348408117260e+01   -1.290030020786196e+02   
1.004100000000000e+10    -2.109365649236824e+01   -1.286675046475302e+02   
1.004200000000000e+10    -2.103809739977882e+01   -1.284710657159319e+02   
1.004300000000000e+10    -2.102767336465715e+01   -1.282254626132631e+02   
1.004400000000000e+10    -2.101860235438601e+01   -1.280853820653964e+02   
1.004500000000000e+10    -2.096169243171587e+01   -1.277955147353098e+02   
1.004600000000000e+10    -2.094749991310147e+01   -1.275483468380125e+02   
1.004700000000000e+10    -2.092155523962440e+01   -1.273912185692134e+02   
1.004800000000000e+10    -2.088014168457134e+01   -1.271506753913549e+02   
1.004900000000000e+10    -2.084111277646915e+01   -1.269726837393297e+02   
1.005000000000000e+10    -2.082714360777653e+01   -1.268940521852417e+02   
1.005100000000000e+10    -2.074887182599054e+01   -1.266982704235971e+02   
1.005200000000000e+10    -2.072806611201670e+01   -1.262755672783627e+02   
1.005300000000000e+10    -2.069752204515515e+01   -1.261822912923552e+02   
1.005400000000000e+10    -2.065862137743179e+01   -1.260340212729049e+02   
1.005500000000000e+10    -2.061963013623215e+01   -1.257592182393401e+02   
1.005600000000000e+10    -2.061335887640395e+01   -1.255254387411799e+02   
1.005700000000000e+10    -2.054200639704061e+01   -1.253302959732790e+02   
1.005800000000000e+10    -2.051017701234593e+01   -1.252200468920789e+02   
1.005900000000000e+10    -2.048618189571840e+01   -1.251119052748669e+02   
1.006000000000000e+10    -2.042278885939062e+01   -1.248488943643451e+02   
1.006100000000000e+10    -2.040125988916790e+01   -1.245283991794041e+02   
1.006200000000000e+10    -2.036602664436506e+01   -1.244054048313979e+02   
1.006300000000000e+10    -2.033202245921240e+01   -1.241568367158472e+02   
1.006400000000000e+10    -2.027707831175567e+01   -1.240474369456042e+02   
1.006500000000000e+10    -2.024662351278458e+01   -1.238235119974099e+02   
1.006600000000000e+10    -2.020968656799186e+01   -1.234999418740991e+02   
1.006700000000000e+10    -2.018863689331724e+01   -1.234930777884325e+02   
1.006800000000000e+10    -2.012686787131045e+01   -1.231292184439563e+02   
1.006900000000000e+10    -2.009136640945770e+01   -1.228813386663853e+02   
1.007000000000000e+10    -2.005216777676145e+01   -1.228047274295404e+02   
1.007100000000000e+10    -2.000726635887102e+01   -1.227053745889818e+02   
1.007200000000000e+10    -1.996700358593525e+01   -1.223810289067413e+02   
1.007300000000000e+10    -1.995507203210317e+01   -1.223627827991519e+02   
1.007400000000000e+10    -1.988560857068745e+01   -1.220614592825321e+02   
1.007500000000000e+10    -1.988034900779331e+01   -1.218302535659456e+02   
1.007600000000000e+10    -1.985661748917789e+01   -1.216396836664721e+02   
1.007700000000000e+10    -1.979048205048474e+01   -1.214829599964743e+02   
1.007800000000000e+10    -1.975058976987836e+01   -1.212008043927458e+02   
1.007900000000000e+10    -1.972250454675685e+01   -1.211538815856518e+02   
1.008000000000000e+10    -1.971585045400447e+01   -1.208517210552466e+02   
1.008100000000000e+10    -1.965204456283330e+01   -1.206865050975968e+02   
1.008200000000000e+10    -1.959647162795534e+01   -1.204709413601226e+02   
1.008300000000000e+10    -1.958364705117958e+01   -1.203657617574311e+02   
1.008400000000000e+10    -1.957251832911749e+01   -1.201543004564667e+02   
1.008500000000000e+10    -1.951450938939916e+01   -1.200650230354449e+02   
1.008600000000000e+10    -1.947388956698219e+01   -1.198561816975561e+02   
1.008700000000000e+10    -1.944181416533624e+01   -1.197916115665632e+02   
1.008800000000000e+10    -1.940742928474145e+01   -1.196892050056948e+02   
1.008900000000000e+10    -1.939387085468227e+01   -1.194198886175814e+02   
1.009000000000000e+10    -1.935768395573778e+01   -1.193793420891753e+02   
1.009100000000000e+10    -1.932985297508817e+01   -1.190854413603460e+02   
1.009200000000000e+10    -1.931151207029257e+01   -1.191190299187344e+02   
1.009300000000000e+10    -1.925335676081473e+01   -1.191184833441393e+02   
1.009400000000000e+10    -1.924284840996263e+01   -1.189343991616842e+02   
1.009500000000000e+10    -1.919944360162589e+01   -1.187325190160196e+02   
1.009600000000000e+10    -1.916236120077067e+01   -1.187149317008933e+02   
1.009700000000000e+10    -1.914591323654220e+01   -1.186151111852602e+02   
1.009800000000000e+10    -1.910151866750688e+01   -1.186318909091710e+02   
1.009900000000000e+10    -1.907574186444546e+01   -1.183424653241799e+02   
1.010000000000000e+10    -1.905364108147577e+01   -1.184828389114719e+02   
1.010100000000000e+10    -1.903550090361754e+01   -1.182802468704650e+02   
1.010200000000000e+10    -1.898909664097698e+01   -1.183207982471023e+02   
1.010300000000000e+10    -1.896497996500496e+01   -1.181304392500340e+02   
1.010400000000000e+10    -1.893208709597859e+01   -1.181771696710689e+02   
1.010500000000000e+10    -1.890465621248423e+01   -1.183376485918446e+02   
1.010600000000000e+10    -1.888101127759716e+01   -1.181032807806850e+02   
1.010700000000000e+10    -1.884067781981992e+01   -1.181020817725662e+02   
1.010800000000000e+10    -1.880765531091523e+01   -1.182883899890531e+02   
1.010900000000000e+10    -1.877368605616781e+01   -1.182083320168241e+02   
1.011000000000000e+10    -1.874585173116282e+01   -1.182712724544567e+02   
1.011100000000000e+10    -1.871759482942561e+01   -1.181988117440694e+02   
1.011200000000000e+10    -1.869345280749768e+01   -1.183508475890159e+02   
1.011300000000000e+10    -1.866373108731456e+01   -1.181857674675267e+02   
1.011400000000000e+10    -1.860236764719826e+01   -1.182575936888043e+02   
1.011500000000000e+10    -1.858544809377387e+01   -1.182873541965220e+02   
1.011600000000000e+10    -1.856882682431888e+01   -1.184510312408392e+02   
1.011700000000000e+10    -1.850906533067304e+01   -1.183501164860415e+02   
1.011800000000000e+10    -1.849891059211697e+01   -1.184857696548034e+02   
1.011900000000000e+10    -1.844659003297480e+01   -1.186231294774433e+02   
1.012000000000000e+10    -1.840138961475315e+01   -1.186439201010144e+02   
1.012100000000000e+10    -1.838995573926668e+01   -1.187319818208223e+02   
1.012200000000000e+10    -1.833889232419397e+01   -1.187975129299576e+02   
1.012300000000000e+10    -1.831036073990851e+01   -1.189686508852175e+02   
1.012400000000000e+10    -1.826111748691022e+01   -1.189099779160485e+02   
1.012500000000000e+10    -1.823257744741174e+01   -1.189203885780521e+02   
1.012600000000000e+10    -1.819552640596630e+01   -1.190577400364917e+02   
1.012700000000000e+10    -1.815273534231710e+01   -1.192386446794994e+02   
1.012800000000000e+10    -1.812265554166712e+01   -1.192446973652008e+02   
1.012900000000000e+10    -1.806969459416329e+01   -1.193709570801430e+02   
1.013000000000000e+10    -1.806113101658561e+01   -1.194953147390275e+02   
1.013100000000000e+10    -1.799080519204374e+01   -1.194524127583369e+02   
1.013200000000000e+10    -1.795693392873946e+01   -1.197285475740719e+02   
1.013300000000000e+10    -1.790734950680658e+01   -1.197349647231278e+02   
1.013400000000000e+10    -1.788328461839829e+01   -1.199116940542904e+02   
1.013500000000000e+10    -1.784046851901588e+01   -1.199995148606225e+02   
1.013600000000000e+10    -1.779902266764818e+01   -1.201704141724639e+02   
1.013700000000000e+10    -1.775420240458475e+01   -1.201418156190642e+02   
1.013800000000000e+10    -1.771894556816087e+01   -1.204192453665289e+02   
1.013900000000000e+10    -1.766775184435075e+01   -1.204987438893908e+02   
1.014000000000000e+10    -1.765660146721748e+01   -1.205837669800568e+02   
1.014100000000000e+10    -1.761150076216018e+01   -1.207037526160063e+02   
1.014200000000000e+10    -1.758139475383212e+01   -1.208419316881772e+02   
1.014300000000000e+10    -1.752779901439735e+01   -1.209495256678380e+02   
1.014400000000000e+10    -1.751105900453123e+01   -1.211055288556606e+02   
1.014500000000000e+10    -1.745272927607149e+01   -1.212283400968246e+02   
1.014600000000000e+10    -1.741341686113396e+01   -1.213390936489281e+02   
1.014700000000000e+10    -1.737905974720990e+01   -1.214538255956403e+02   
1.014800000000000e+10    -1.734921156784436e+01   -1.216776760277142e+02   
1.014900000000000e+10    -1.728820673183388e+01   -1.216778257982765e+02   
1.015000000000000e+10    -1.726638639622156e+01   -1.218767318598868e+02   
1.015100000000000e+10    -1.722188345805662e+01   -1.219393594263269e+02   
1.015200000000000e+10    -1.718954057659035e+01   -1.220792251511480e+02   
1.015300000000000e+10    -1.713879702461194e+01   -1.223450739189039e+02   
1.015400000000000e+10    -1.712485050930005e+01   -1.224099531833125e+02   
1.015500000000000e+10    -1.707905585045996e+01   -1.225267557955713e+02   
1.015600000000000e+10    -1.704420604967585e+01   -1.225451556470766e+02   
1.015700000000000e+10    -1.699765891063688e+01   -1.227016397242420e+02   
1.015800000000000e+10    -1.695506386424866e+01   -1.228012514159339e+02   
1.015900000000000e+10    -1.692262646676860e+01   -1.230707132002418e+02   
1.016000000000000e+10    -1.690363279439337e+01   -1.232370085117785e+02   
1.016100000000000e+10    -1.687636364510042e+01   -1.233004108845496e+02   
1.016200000000000e+10    -1.684220166516627e+01   -1.234537692902193e+02   
1.016300000000000e+10    -1.679781496946174e+01   -1.235603283067264e+02   
1.016400000000000e+10    -1.676697704113099e+01   -1.236550661487227e+02   
1.016500000000000e+10    -1.672549573146838e+01   -1.237649622452840e+02   
1.016600000000000e+10    -1.670806222010545e+01   -1.238954522882839e+02   
1.016700000000000e+10    -1.667603037830500e+01   -1.240962204805741e+02   
1.016800000000000e+10    -1.663318956246896e+01   -1.241724183990155e+02   
1.016900000000000e+10    -1.661593517150669e+01   -1.243840719663406e+02   
1.017000000000000e+10    -1.657742529871287e+01   -1.245304658063487e+02   
1.017100000000000e+10    -1.656441469843476e+01   -1.247335990444782e+02   
1.017200000000000e+10    -1.652276109409378e+01   -1.247503546234567e+02   
1.017300000000000e+10    -1.649085925473157e+01   -1.248820527278231e+02   
1.017400000000000e+10    -1.645965252026235e+01   -1.250494833079053e+02   
1.017500000000000e+10    -1.645933342268058e+01   -1.251481468284748e+02   
1.017600000000000e+10    -1.640437836276869e+01   -1.254611831252184e+02   
1.017700000000000e+10    -1.639224441786001e+01   -1.255742274058147e+02   
1.017800000000000e+10    -1.636146649537222e+01   -1.256758690723330e+02   
1.017900000000000e+10    -1.632167040680587e+01   -1.258827100737311e+02   
1.018000000000000e+10    -1.632389896689204e+01   -1.259318464292928e+02   
1.018100000000000e+10    -1.628537964181511e+01   -1.261699120468095e+02   
1.018200000000000e+10    -1.628543920805835e+01   -1.263183258873280e+02   
1.018300000000000e+10    -1.625476103040295e+01   -1.265563525016779e+02   
1.018400000000000e+10    -1.621608936890455e+01   -1.267631128093157e+02   
1.018500000000000e+10    -1.620610238100765e+01   -1.269743899679346e+02   
1.018600000000000e+10    -1.618159262486398e+01   -1.271178386567570e+02   
1.018700000000000e+10    -1.617105156661262e+01   -1.272863000531814e+02   
1.018800000000000e+10    -1.614676859049963e+01   -1.273872159815246e+02   
1.018900000000000e+10    -1.611809355240387e+01   -1.275821340114946e+02   
1.019000000000000e+10    -1.610329730825931e+01   -1.278186696660917e+02   
1.019100000000000e+10    -1.608524949311529e+01   -1.280441496685750e+02   
1.019200000000000e+10    -1.605250351324187e+01   -1.282939890861131e+02   
1.019300000000000e+10    -1.602573319303278e+01   -1.284652077535235e+02   
1.019400000000000e+10    -1.602161767618901e+01   -1.286750015727742e+02   
1.019500000000000e+10    -1.599688737423361e+01   -1.288349707015158e+02   
1.019600000000000e+10    -1.598875783137755e+01   -1.290885357684914e+02   
1.019700000000000e+10    -1.595929757268400e+01   -1.293149228821385e+02   
1.019800000000000e+10    -1.593905377948532e+01   -1.296162898177128e+02   
1.019900000000000e+10    -1.591954539621423e+01   -1.297701607816085e+02   
1.020000000000000e+10    -1.591495509788819e+01   -1.300155887905213e+02   
1.020100000000000e+10    -1.588007923509919e+01   -1.301755638924690e+02   
1.020200000000000e+10    -1.587035963325930e+01   -1.304500627748759e+02   
1.020300000000000e+10    -1.583960911460005e+01   -1.305644802243765e+02   
1.020400000000000e+10    -1.583345167065215e+01   -1.307841224287773e+02   
1.020500000000000e+10    -1.581848589093626e+01   -1.310961347847922e+02   
1.020600000000000e+10    -1.579117191081974e+01   -1.313396993014009e+02   
1.020700000000000e+10    -1.576826422624709e+01   -1.316447655702990e+02   
1.020800000000000e+10    -1.575527972504445e+01   -1.318156227197707e+02   
1.020900000000000e+10    -1.575811522062945e+01   -1.320663886538314e+02   
1.021000000000000e+10    -1.573819689172839e+01   -1.322990490808190e+02   
1.021100000000000e+10    -1.571561538477503e+01   -1.325311696155301e+02   
1.021200000000000e+10    -1.571268490894362e+01   -1.327242889639675e+02   
1.021300000000000e+10    -1.569442470179725e+01   -1.329949310954783e+02   
1.021400000000000e+10    -1.568026149124937e+01   -1.332249965455443e+02   
1.021500000000000e+10    -1.565911653619444e+01   -1.334192888097426e+02   
1.021600000000000e+10    -1.564904251617449e+01   -1.337404348588451e+02   
1.021700000000000e+10    -1.563561905619267e+01   -1.339887119518681e+02   
1.021800000000000e+10    -1.562125176118991e+01   -1.341872950465375e+02   
1.021900000000000e+10    -1.561635666974673e+01   -1.343593950101210e+02   
1.022000000000000e+10    -1.560442346575326e+01   -1.346447464599584e+02   
1.022100000000000e+10    -1.558089662172226e+01   -1.349355364906611e+02   
1.022200000000000e+10    -1.559163006720662e+01   -1.350470116814059e+02   
1.022300000000000e+10    -1.557428516656251e+01   -1.353080459057020e+02   
1.022400000000000e+10    -1.556791591188726e+01   -1.355917589777562e+02   
1.022500000000000e+10    -1.554811145609830e+01   -1.357798211794121e+02   
1.022600000000000e+10    -1.556201102169975e+01   -1.361200016902576e+02   
1.022700000000000e+10    -1.554726716188696e+01   -1.363351264425386e+02   
1.022800000000000e+10    -1.553815488285778e+01   -1.365844761999006e+02   
1.022900000000000e+10    -1.553659768941020e+01   -1.368877143350949e+02   
1.023000000000000e+10    -1.551718983980354e+01   -1.371467254103476e+02   
1.023100000000000e+10    -1.550934157828466e+01   -1.374239975163574e+02   
1.023200000000000e+10    -1.551632720987665e+01   -1.376844068586861e+02   
1.023300000000000e+10    -1.551039887771731e+01   -1.378872931946883e+02   
1.023400000000000e+10    -1.550485948481856e+01   -1.381790636856806e+02   
1.023500000000000e+10    -1.552219896261484e+01   -1.382949100831384e+02   
1.023600000000000e+10    -1.548781859179202e+01   -1.385998314357444e+02   
1.023700000000000e+10    -1.550003736193232e+01   -1.389064220286121e+02   
1.023800000000000e+10    -1.548894845631881e+01   -1.390966730816833e+02   
1.023900000000000e+10    -1.549333193465133e+01   -1.394660425755546e+02   
1.024000000000000e+10    -1.550185726711497e+01   -1.396053869351209e+02   
1.024100000000000e+10    -1.547813832964655e+01   -1.398183935688716e+02   
1.024200000000000e+10    -1.548331858483352e+01   -1.401425146845562e+02   
1.024300000000000e+10    -1.549413505577102e+01   -1.403508555708356e+02   
1.024400000000000e+10    -1.549524310960401e+01   -1.406292559769020e+02   
1.024500000000000e+10    -1.548386432817024e+01   -1.408961765018750e+02   
1.024600000000000e+10    -1.549021177962810e+01   -1.412050705470572e+02   
1.024700000000000e+10    -1.548999205565676e+01   -1.414372807590179e+02   
1.024800000000000e+10    -1.549401319355307e+01   -1.415960294666194e+02   
1.024900000000000e+10    -1.551712623364011e+01   -1.418970666015647e+02   
1.025000000000000e+10    -1.550224818570372e+01   -1.422152678968222e+02   
1.025100000000000e+10    -1.549468842735886e+01   -1.423030989135429e+02   
1.025200000000000e+10    -1.551456476826101e+01   -1.426544274561154e+02   
1.025300000000000e+10    -1.549934944291141e+01   -1.428442807964307e+02   
1.025400000000000e+10    -1.550859981019052e+01   -1.430782139460957e+02   
1.025500000000000e+10    -1.553212821635064e+01   -1.432995948876945e+02   
1.025600000000000e+10    -1.553166059201010e+01   -1.435522422695690e+02   
