[Version] 2.0
! Rohde & Schwarz Vector Network Analyzer
! Rohde-Schwarz,ZNL20-2Port,1323001220200009,1.71.1.10-23.02.1.238
! 
! Port Assignments:
! Nominal Port -> Actual Test Port
! --------------------------------
!   1 -> 1

! Created: GMT 2024-08-27 13:55:04

# Hz S DB R 50

[Number of Ports] 1
[Number of Frequencies] 2001

[Network Data] 
! freq[Hz]               S11[mag dB]              S11[ang]                 
1.000000000000000e+10    -2.050421318144960e+01   -1.393401518094568e+02   
1.000100000000000e+10    -2.055365864993874e+01   -1.389817811977412e+02   
1.000200000000000e+10    -2.058544319398903e+01   -1.385376108222148e+02   
1.000300000000000e+10    -2.064294487208951e+01   -1.384098575565982e+02   
1.000400000000000e+10    -2.067306292535577e+01   -1.382822954592347e+02   
1.000500000000000e+10    -2.069869906814775e+01   -1.380395555464727e+02   
1.000600000000000e+10    -2.075197879552486e+01   -1.377167954221045e+02   
1.000700000000000e+10    -2.078667282615335e+01   -1.373568045471405e+02   
1.000800000000000e+10    -2.082396318693210e+01   -1.371320812653200e+02   
1.000900000000000e+10    -2.087980632800424e+01   -1.370513722960625e+02   
1.001000000000000e+10    -2.090870928748028e+01   -1.365409287670787e+02   
1.001100000000000e+10    -2.094979793201373e+01   -1.363589077835548e+02   
1.001200000000000e+10    -2.096587681338607e+01   -1.361030659336496e+02   
1.001300000000000e+10    -2.103529933524383e+01   -1.358728647995409e+02   
1.001400000000000e+10    -2.104794373413056e+01   -1.357307265043186e+02   
1.001500000000000e+10    -2.107698733926802e+01   -1.353628061102754e+02   
1.001600000000000e+10    -2.107766005008796e+01   -1.350339675194357e+02   
1.001700000000000e+10    -2.113379009491456e+01   -1.349104115806685e+02   
1.001800000000000e+10    -2.114367985464794e+01   -1.346749484097724e+02   
1.001900000000000e+10    -2.116788796931923e+01   -1.343478646620201e+02   
1.002000000000000e+10    -2.119763652348885e+01   -1.342133785018495e+02   
1.002100000000000e+10    -2.120831150289951e+01   -1.339400521423181e+02   
1.002200000000000e+10    -2.121530568364248e+01   -1.335962564951156e+02   
1.002300000000000e+10    -2.121011971769281e+01   -1.333960556809998e+02   
1.002400000000000e+10    -2.120771860192345e+01   -1.332003363115290e+02   
1.002500000000000e+10    -2.125093974613213e+01   -1.328234387219152e+02   
1.002600000000000e+10    -2.126025389074699e+01   -1.328723658534793e+02   
1.002700000000000e+10    -2.125702291156819e+01   -1.326577547267640e+02   
1.002800000000000e+10    -2.126579310434112e+01   -1.322490113592850e+02   
1.002900000000000e+10    -2.125369115003573e+01   -1.319238561658741e+02   
1.003000000000000e+10    -2.128492698195237e+01   -1.315617240438840e+02   
1.003100000000000e+10    -2.124955107741373e+01   -1.316025057620977e+02   
1.003200000000000e+10    -2.126061743585709e+01   -1.313684863525366e+02   
1.003300000000000e+10    -2.122574367557899e+01   -1.311603863826059e+02   
1.003400000000000e+10    -2.121880908087544e+01   -1.307780698465340e+02   
1.003500000000000e+10    -2.123630596750152e+01   -1.305532430980412e+02   
1.003600000000000e+10    -2.116652447917888e+01   -1.302001163656882e+02   
1.003700000000000e+10    -2.119179912706785e+01   -1.300567189190667e+02   
1.003800000000000e+10    -2.117349486296147e+01   -1.298717347452236e+02   
1.003900000000000e+10    -2.117601944261161e+01   -1.296495985061190e+02   
1.004000000000000e+10    -2.112966667266723e+01   -1.295730943933914e+02   
1.004100000000000e+10    -2.113480709003210e+01   -1.292115217469663e+02   
1.004200000000000e+10    -2.107890274483161e+01   -1.289886752441992e+02   
1.004300000000000e+10    -2.106971894803688e+01   -1.287396153335756e+02   
1.004400000000000e+10    -2.106146751559178e+01   -1.285685750345177e+02   
1.004500000000000e+10    -2.100496871347311e+01   -1.283004451587842e+02   
1.004600000000000e+10    -2.099227720260460e+01   -1.280019183478570e+02   
1.004700000000000e+10    -2.096534465621096e+01   -1.278485136475486e+02   
1.004800000000000e+10    -2.092641475245173e+01   -1.275756342330498e+02   
1.004900000000000e+10    -2.088476338079808e+01   -1.273949682128425e+02   
1.005000000000000e+10    -2.087359313370252e+01   -1.273366526288488e+02   
1.005100000000000e+10    -2.079393693570992e+01   -1.271217293493580e+02   
1.005200000000000e+10    -2.077426244338773e+01   -1.266646992999794e+02   
1.005300000000000e+10    -2.074699263560289e+01   -1.265777185407378e+02   
1.005400000000000e+10    -2.071378177933438e+01   -1.264014590874970e+02   
1.005500000000000e+10    -2.067024710774142e+01   -1.261368306636152e+02   
1.005600000000000e+10    -2.066377889069524e+01   -1.258694980007428e+02   
1.005700000000000e+10    -2.059078558788672e+01   -1.256541461646048e+02   
1.005800000000000e+10    -2.055897524565959e+01   -1.255662596226472e+02   
1.005900000000000e+10    -2.053578798766989e+01   -1.254528040752358e+02   
1.006000000000000e+10    -2.047089608872625e+01   -1.251748898761705e+02   
1.006100000000000e+10    -2.044852071155304e+01   -1.248371224670882e+02   
1.006200000000000e+10    -2.041344944066149e+01   -1.247108343251485e+02   
1.006300000000000e+10    -2.037851868279983e+01   -1.244649877084134e+02   
1.006400000000000e+10    -2.032291926413732e+01   -1.243398894499977e+02   
1.006500000000000e+10    -2.029335002895554e+01   -1.241207671060114e+02   
1.006600000000000e+10    -2.026132073258821e+01   -1.237830998480183e+02   
1.006700000000000e+10    -2.023542308380614e+01   -1.237771884921363e+02   
1.006800000000000e+10    -2.017678627002869e+01   -1.234220729233955e+02   
1.006900000000000e+10    -2.014170975188362e+01   -1.231598636984851e+02   
1.007000000000000e+10    -2.010113752799742e+01   -1.230575044617575e+02   
1.007100000000000e+10    -2.005553981529780e+01   -1.229488473720673e+02   
1.007200000000000e+10    -2.001953352001673e+01   -1.226247691688920e+02   
1.007300000000000e+10    -2.000208944187347e+01   -1.225969289477804e+02   
1.007400000000000e+10    -1.993261611896944e+01   -1.222950327787424e+02   
1.007500000000000e+10    -1.992914533459250e+01   -1.220747082712777e+02   
1.007600000000000e+10    -1.990553948535531e+01   -1.218748758217600e+02   
1.007700000000000e+10    -1.983845143992893e+01   -1.216944754802323e+02   
1.007800000000000e+10    -1.980093613352570e+01   -1.214305857210545e+02   
1.007900000000000e+10    -1.977154160332805e+01   -1.213695048645690e+02   
1.008000000000000e+10    -1.976702933955305e+01   -1.210644839988097e+02   
1.008100000000000e+10    -1.970039802161471e+01   -1.209128052974007e+02   
1.008200000000000e+10    -1.964664526232122e+01   -1.206747430774371e+02   
1.008300000000000e+10    -1.963156486429221e+01   -1.205852863607558e+02   
1.008400000000000e+10    -1.962010272498838e+01   -1.203523096196238e+02   
1.008500000000000e+10    -1.956044027240083e+01   -1.202664771503580e+02   
1.008600000000000e+10    -1.952458544905465e+01   -1.200645346671247e+02   
1.008700000000000e+10    -1.949086504212718e+01   -1.200001757309940e+02   
1.008800000000000e+10    -1.946014033622613e+01   -1.198777659468688e+02   
1.008900000000000e+10    -1.944328082403474e+01   -1.196255777748666e+02   
1.009000000000000e+10    -1.941018332952464e+01   -1.195755929025691e+02   
1.009100000000000e+10    -1.938069182149786e+01   -1.192687056643779e+02   
1.009200000000000e+10    -1.936235222003093e+01   -1.193187732586855e+02   
1.009300000000000e+10    -1.930810946642733e+01   -1.192965287386700e+02   
1.009400000000000e+10    -1.929537950150354e+01   -1.191319087402606e+02   
1.009500000000000e+10    -1.925223445133364e+01   -1.189023325943001e+02   
1.009600000000000e+10    -1.921437929300368e+01   -1.188739383319746e+02   
1.009700000000000e+10    -1.919835190065615e+01   -1.187988035527043e+02   
1.009800000000000e+10    -1.915628117309631e+01   -1.188137600796756e+02   
1.009900000000000e+10    -1.912967569896242e+01   -1.185069170136736e+02   
1.010000000000000e+10    -1.911278183961570e+01   -1.186408150971700e+02   
1.010100000000000e+10    -1.909150610379702e+01   -1.184467165801413e+02   
1.010200000000000e+10    -1.904772935749310e+01   -1.184799374697489e+02   
1.010300000000000e+10    -1.902190198804470e+01   -1.182611599070541e+02   
1.010400000000000e+10    -1.898973302046082e+01   -1.183151110364153e+02   
1.010500000000000e+10    -1.896582077176987e+01   -1.184592513050786e+02   
1.010600000000000e+10    -1.893937465550166e+01   -1.182371419609937e+02   
1.010700000000000e+10    -1.890089139345057e+01   -1.182148884612987e+02   
1.010800000000000e+10    -1.886638857211916e+01   -1.183977106570062e+02   
1.010900000000000e+10    -1.883284299236904e+01   -1.183043549979290e+02   
1.011000000000000e+10    -1.880329477765984e+01   -1.183607198334584e+02   
1.011100000000000e+10    -1.877669417047571e+01   -1.182887583154794e+02   
1.011200000000000e+10    -1.875221574317797e+01   -1.184267269150385e+02   
1.011300000000000e+10    -1.872370060597832e+01   -1.182548458937289e+02   
1.011400000000000e+10    -1.865901721493298e+01   -1.183052483418476e+02   
1.011500000000000e+10    -1.864823870263969e+01   -1.183357679222825e+02   
1.011600000000000e+10    -1.862818343593161e+01   -1.185028223698023e+02   
1.011700000000000e+10    -1.857144485176205e+01   -1.184029538249062e+02   
1.011800000000000e+10    -1.855776584077517e+01   -1.185281611234458e+02   
1.011900000000000e+10    -1.850381809411554e+01   -1.186693754018300e+02   
1.012000000000000e+10    -1.846107846735804e+01   -1.186868638085808e+02   
1.012100000000000e+10    -1.844830821251422e+01   -1.187729632129584e+02   
1.012200000000000e+10    -1.839804304249771e+01   -1.188298553912385e+02   
1.012300000000000e+10    -1.837077138927544e+01   -1.189879662097746e+02   
1.012400000000000e+10    -1.832219238475606e+01   -1.189151021447747e+02   
1.012500000000000e+10    -1.829246601502781e+01   -1.189338364700695e+02   
1.012600000000000e+10    -1.825561056975001e+01   -1.190429598204862e+02   
1.012700000000000e+10    -1.821288476459863e+01   -1.192299677635868e+02   
1.012800000000000e+10    -1.818008289861929e+01   -1.192332777856677e+02   
1.012900000000000e+10    -1.812767580158301e+01   -1.193408980792045e+02   
1.013000000000000e+10    -1.811765970124334e+01   -1.194725286665413e+02   
1.013100000000000e+10    -1.805091124908879e+01   -1.194183819557580e+02   
1.013200000000000e+10    -1.801329079055279e+01   -1.196852908768091e+02   
1.013300000000000e+10    -1.796484077256141e+01   -1.196786262619667e+02   
1.013400000000000e+10    -1.794084604308222e+01   -1.198609871150482e+02   
1.013500000000000e+10    -1.789540935921913e+01   -1.199369136216349e+02   
1.013600000000000e+10    -1.785440880009041e+01   -1.201095102972622e+02   
1.013700000000000e+10    -1.781016650151028e+01   -1.200722631127495e+02   
1.013800000000000e+10    -1.777675550040103e+01   -1.203541673803192e+02   
1.013900000000000e+10    -1.772346446774397e+01   -1.204406992173892e+02   
1.014000000000000e+10    -1.771165668538450e+01   -1.205014955737434e+02   
1.014100000000000e+10    -1.766708260080117e+01   -1.206062342525831e+02   
1.014200000000000e+10    -1.763576976439288e+01   -1.207625223910339e+02   
1.014300000000000e+10    -1.758400296628176e+01   -1.208588135077235e+02   
1.014400000000000e+10    -1.756598287051460e+01   -1.210203317575099e+02   
1.014500000000000e+10    -1.750666903247381e+01   -1.211268190720778e+02   
1.014600000000000e+10    -1.746641858745504e+01   -1.212298608550669e+02   
1.014700000000000e+10    -1.743258232705585e+01   -1.213444818299541e+02   
1.014800000000000e+10    -1.740422223633144e+01   -1.215541710855224e+02   
1.014900000000000e+10    -1.734199377434303e+01   -1.215631732960928e+02   
1.015000000000000e+10    -1.732064112966648e+01   -1.217485502288396e+02   
1.015100000000000e+10    -1.727622681451846e+01   -1.218087651466783e+02   
1.015200000000000e+10    -1.724012767906307e+01   -1.219482192885410e+02   
1.015300000000000e+10    -1.719242094904340e+01   -1.221918717183028e+02   
1.015400000000000e+10    -1.717634020906264e+01   -1.222708125525089e+02   
1.015500000000000e+10    -1.713080737067911e+01   -1.223756051713677e+02   
1.015600000000000e+10    -1.709475466315927e+01   -1.223913351540386e+02   
1.015700000000000e+10    -1.704738710631512e+01   -1.225336717191727e+02   
1.015800000000000e+10    -1.700458964474304e+01   -1.226501661096650e+02   
1.015900000000000e+10    -1.696818567106826e+01   -1.229129236511807e+02   
1.016000000000000e+10    -1.695276319027390e+01   -1.230704300603252e+02   
1.016100000000000e+10    -1.692393557173731e+01   -1.231356129204764e+02   
1.016200000000000e+10    -1.688919872205032e+01   -1.232717414647095e+02   
1.016300000000000e+10    -1.684347710836384e+01   -1.234026340929295e+02   
1.016400000000000e+10    -1.681564800061642e+01   -1.234809323486292e+02   
1.016500000000000e+10    -1.677059913033646e+01   -1.235898813586601e+02   
1.016600000000000e+10    -1.675251174679658e+01   -1.237139084989917e+02   
1.016700000000000e+10    -1.672197082007677e+01   -1.239099479019617e+02   
1.016800000000000e+10    -1.667847801660643e+01   -1.239851647782630e+02   
1.016900000000000e+10    -1.666211208303682e+01   -1.241876941251192e+02   
1.017000000000000e+10    -1.662295847696681e+01   -1.243393483396348e+02   
1.017100000000000e+10    -1.661058972185911e+01   -1.245433959984491e+02   
1.017200000000000e+10    -1.656537780427367e+01   -1.245560824108032e+02   
1.017300000000000e+10    -1.653535540672452e+01   -1.246689149588490e+02   
1.017400000000000e+10    -1.650173770263779e+01   -1.248452646107053e+02   
1.017500000000000e+10    -1.650258857706205e+01   -1.249236672240976e+02   
1.017600000000000e+10    -1.644551787476572e+01   -1.252311886122183e+02   
1.017700000000000e+10    -1.643436848614983e+01   -1.253504362823026e+02   
1.017800000000000e+10    -1.640139548720197e+01   -1.254475645146497e+02   
1.017900000000000e+10    -1.636397048074183e+01   -1.256451629996702e+02   
1.018000000000000e+10    -1.636533403550115e+01   -1.256944772630394e+02   
1.018100000000000e+10    -1.632489973586949e+01   -1.259387476887037e+02   
1.018200000000000e+10    -1.632309614553355e+01   -1.260598645939599e+02   
1.018300000000000e+10    -1.628995578783595e+01   -1.262981484925412e+02   
1.018400000000000e+10    -1.625416210898017e+01   -1.265107217337919e+02   
1.018500000000000e+10    -1.624329762986121e+01   -1.267146907976384e+02   
1.018600000000000e+10    -1.621679727485214e+01   -1.268656090812505e+02   
1.018700000000000e+10    -1.620676846552322e+01   -1.270238489967761e+02   
1.018800000000000e+10    -1.618023138244076e+01   -1.271224572815275e+02   
1.018900000000000e+10    -1.615370898430912e+01   -1.273161146731801e+02   
1.019000000000000e+10    -1.613587900498491e+01   -1.275414791933149e+02   
1.019100000000000e+10    -1.611760753281433e+01   -1.277824169471013e+02   
1.019200000000000e+10    -1.608261916304856e+01   -1.280068310914216e+02   
1.019300000000000e+10    -1.605760351952624e+01   -1.281852238807950e+02   
1.019400000000000e+10    -1.605073099746672e+01   -1.283919810077775e+02   
1.019500000000000e+10    -1.602473113899762e+01   -1.285586474444947e+02   
1.019600000000000e+10    -1.601536197302546e+01   -1.288178029107380e+02   
1.019700000000000e+10    -1.598756330549408e+01   -1.290277034280203e+02   
1.019800000000000e+10    -1.596554131573043e+01   -1.293216309733829e+02   
1.019900000000000e+10    -1.594281967282213e+01   -1.294807009126033e+02   
1.020000000000000e+10    -1.593885193305962e+01   -1.297232986143009e+02   
1.020100000000000e+10    -1.590375257165885e+01   -1.298812791796691e+02   
1.020200000000000e+10    -1.589386389814090e+01   -1.301321663453795e+02   
1.020300000000000e+10    -1.586216227905734e+01   -1.302691090185956e+02   
1.020400000000000e+10    -1.585407571296848e+01   -1.304921453280220e+02   
1.020500000000000e+10    -1.583859004688981e+01   -1.308016654353332e+02   
1.020600000000000e+10    -1.580909566335667e+01   -1.310504981153401e+02   
1.020700000000000e+10    -1.578558895235733e+01   -1.313543869661189e+02   
1.020800000000000e+10    -1.577208996628828e+01   -1.315181547657783e+02   
1.020900000000000e+10    -1.577400935158431e+01   -1.317711552332895e+02   
1.021000000000000e+10    -1.575223122901482e+01   -1.320013136525829e+02   
1.021100000000000e+10    -1.572751321411755e+01   -1.322470301102128e+02   
1.021200000000000e+10    -1.572606653418800e+01   -1.324398556577264e+02   
1.021300000000000e+10    -1.570792640105301e+01   -1.327079859003615e+02   
1.021400000000000e+10    -1.569118128787727e+01   -1.329340191479556e+02   
1.021500000000000e+10    -1.567132256497453e+01   -1.331269740681234e+02   
1.021600000000000e+10    -1.565958990028867e+01   -1.334563857372487e+02   
1.021700000000000e+10    -1.564727611469352e+01   -1.336917823740010e+02   
1.021800000000000e+10    -1.563142023770601e+01   -1.339039729209769e+02   
1.021900000000000e+10    -1.562764639516206e+01   -1.340723035846677e+02   
1.022000000000000e+10    -1.561397196014080e+01   -1.343623735875934e+02   
1.022100000000000e+10    -1.559084866065172e+01   -1.346636000553062e+02   
1.022200000000000e+10    -1.559922523211462e+01   -1.347707397585048e+02   
1.022300000000000e+10    -1.558248026790569e+01   -1.350274834335524e+02   
1.022400000000000e+10    -1.557722442330363e+01   -1.353028206067484e+02   
1.022500000000000e+10    -1.555609954177478e+01   -1.355065731280300e+02   
1.022600000000000e+10    -1.557081623392251e+01   -1.358231931074356e+02   
1.022700000000000e+10    -1.555271078323405e+01   -1.360535493112850e+02   
1.022800000000000e+10    -1.554462206085664e+01   -1.363005415024051e+02   
1.022900000000000e+10    -1.554347076443401e+01   -1.366078376392186e+02   
1.023000000000000e+10    -1.552239130982714e+01   -1.368680512975762e+02   
1.023100000000000e+10    -1.551377285851642e+01   -1.371302571203489e+02   
1.023200000000000e+10    -1.552008487177961e+01   -1.373973705715619e+02   
1.023300000000000e+10    -1.551461177675629e+01   -1.375827117539762e+02   
1.023400000000000e+10    -1.550949830820565e+01   -1.378862262235174e+02   
1.023500000000000e+10    -1.552359731113190e+01   -1.379948959819910e+02   
1.023600000000000e+10    -1.549120927593126e+01   -1.383060144263567e+02   
1.023700000000000e+10    -1.550248057734696e+01   -1.386130458924374e+02   
1.023800000000000e+10    -1.549201944660360e+01   -1.387904395079838e+02   
1.023900000000000e+10    -1.549308374178448e+01   -1.391674438438214e+02   
1.024000000000000e+10    -1.550191915610513e+01   -1.393013900341613e+02   
1.024100000000000e+10    -1.547547672871834e+01   -1.395086121966262e+02   
1.024200000000000e+10    -1.548230744993494e+01   -1.398357214045719e+02   
1.024300000000000e+10    -1.549172375477725e+01   -1.400566798771202e+02   
1.024400000000000e+10    -1.549230168794755e+01   -1.403300330325501e+02   
1.024500000000000e+10    -1.547912061981571e+01   -1.405849134854852e+02   
1.024600000000000e+10    -1.548473546573709e+01   -1.408991885084666e+02   
1.024700000000000e+10    -1.548488959918605e+01   -1.411349193996116e+02   
1.024800000000000e+10    -1.548598785048057e+01   -1.413062184435155e+02   
1.024900000000000e+10    -1.550862847047835e+01   -1.416050249108659e+02   
1.025000000000000e+10    -1.549554716286859e+01   -1.419132750644805e+02   
1.025100000000000e+10    -1.548786707925059e+01   -1.420053823417802e+02   
1.025200000000000e+10    -1.550444670902314e+01   -1.423675306838540e+02   
1.025300000000000e+10    -1.548940964867266e+01   -1.425663533660770e+02   
1.025400000000000e+10    -1.550048903269320e+01   -1.427966643525155e+02   
1.025500000000000e+10    -1.552271386940421e+01   -1.430275986698437e+02   
1.025600000000000e+10    -1.552324894756340e+01   -1.432816587540408e+02   
