[Version] 2.0
! Rohde & Schwarz Vector Network Analyzer
! Rohde-Schwarz,ZNL20-2Port,1323001220200009,1.71.1.10-23.02.1.238
! 
! Port Assignments:
! Nominal Port -> Actual Test Port
! --------------------------------
!   1 -> 1

! Created: GMT 2024-08-27 13:55:34

# Hz S DB R 50

[Number of Ports] 1
[Number of Frequencies] 2001

[Network Data] 
! freq[Hz]               S11[mag dB]              S11[ang]                 
1.000000000000000e+10    -2.045619366545314e+01   -1.396259586834018e+02   
1.000100000000000e+10    -2.051007096370081e+01   -1.392675924265513e+02   
1.000200000000000e+10    -2.054416037704400e+01   -1.388306157967758e+02   
1.000300000000000e+10    -2.059952884310397e+01   -1.387012053167334e+02   
1.000400000000000e+10    -2.063296113042478e+01   -1.386033010571170e+02   
1.000500000000000e+10    -2.065942980501362e+01   -1.383446293877275e+02   
1.000600000000000e+10    -2.071321969472885e+01   -1.380512490078461e+02   
1.000700000000000e+10    -2.074632778388909e+01   -1.376785491471488e+02   
1.000800000000000e+10    -2.078953482495872e+01   -1.374880927491578e+02   
1.000900000000000e+10    -2.083732888708940e+01   -1.374277955279679e+02   
1.001000000000000e+10    -2.086983206493983e+01   -1.369077667879369e+02   
1.001100000000000e+10    -2.091222411262125e+01   -1.367468065715695e+02   
1.001200000000000e+10    -2.092637572707770e+01   -1.364960461493818e+02   
1.001300000000000e+10    -2.100289779284822e+01   -1.362754248447291e+02   
1.001400000000000e+10    -2.101019299161186e+01   -1.361237270831207e+02   
1.001500000000000e+10    -2.104282283193185e+01   -1.357902749863664e+02   
1.001600000000000e+10    -2.104417047677219e+01   -1.354681145002322e+02   
1.001700000000000e+10    -2.110440687704616e+01   -1.353635303484937e+02   
1.001800000000000e+10    -2.111247939265644e+01   -1.351238244746677e+02   
1.001900000000000e+10    -2.113661672479382e+01   -1.348070440881953e+02   
1.002000000000000e+10    -2.116942007097591e+01   -1.346929889997527e+02   
1.002100000000000e+10    -2.118358183176170e+01   -1.344271853225910e+02   
1.002200000000000e+10    -2.119135478305556e+01   -1.340909027777554e+02   
1.002300000000000e+10    -2.119070758056936e+01   -1.338927256953027e+02   
1.002400000000000e+10    -2.118930914245557e+01   -1.337056942879239e+02   
1.002500000000000e+10    -2.122890521121696e+01   -1.333159027767547e+02   
1.002600000000000e+10    -2.124301763105347e+01   -1.333797636041254e+02   
1.002700000000000e+10    -2.124250043866440e+01   -1.331705315092617e+02   
1.002800000000000e+10    -2.125463414590964e+01   -1.327855083043805e+02   
1.002900000000000e+10    -2.124508500992327e+01   -1.324610057413643e+02   
1.003000000000000e+10    -2.127679489477677e+01   -1.320987901608981e+02   
1.003100000000000e+10    -2.124259790892353e+01   -1.321388658657465e+02   
1.003200000000000e+10    -2.125766732341119e+01   -1.319203961430966e+02   
1.003300000000000e+10    -2.122460862351083e+01   -1.316865275197631e+02   
1.003400000000000e+10    -2.121786042639186e+01   -1.313109489234740e+02   
1.003500000000000e+10    -2.123949900176333e+01   -1.310854255455006e+02   
1.003600000000000e+10    -2.117603614192488e+01   -1.307153075695198e+02   
1.003700000000000e+10    -2.119931007779719e+01   -1.305615531539924e+02   
1.003800000000000e+10    -2.118932260091853e+01   -1.303952123610307e+02   
1.003900000000000e+10    -2.119147268241094e+01   -1.301497067088393e+02   
1.004000000000000e+10    -2.114346817954429e+01   -1.300289671902366e+02   
1.004100000000000e+10    -2.114729695443590e+01   -1.296928582355083e+02   
1.004200000000000e+10    -2.109617568835955e+01   -1.294762404810298e+02   
1.004300000000000e+10    -2.109012680811635e+01   -1.292236589618783e+02   
1.004400000000000e+10    -2.108069530719810e+01   -1.290791208100129e+02   
1.004500000000000e+10    -2.102616211815904e+01   -1.287742340800192e+02   
1.004600000000000e+10    -2.101998146947740e+01   -1.284779295062324e+02   
1.004700000000000e+10    -2.099317541333998e+01   -1.283021392521446e+02   
1.004800000000000e+10    -2.095280498878562e+01   -1.280365166871808e+02   
1.004900000000000e+10    -2.091812216333090e+01   -1.278491690625485e+02   
1.005000000000000e+10    -2.090509052348324e+01   -1.277572160633308e+02   
1.005100000000000e+10    -2.082883115820220e+01   -1.275353871212304e+02   
1.005200000000000e+10    -2.080739966784600e+01   -1.270628775876170e+02   
1.005300000000000e+10    -2.077797955442712e+01   -1.269785815198429e+02   
1.005400000000000e+10    -2.074397022672951e+01   -1.268146258046737e+02   
1.005500000000000e+10    -2.070329345500063e+01   -1.265174725171075e+02   
1.005600000000000e+10    -2.069944346012713e+01   -1.262639977043792e+02   
1.005700000000000e+10    -2.062980612322126e+01   -1.260351404333471e+02   
1.005800000000000e+10    -2.059857334858636e+01   -1.259051130012367e+02   
1.005900000000000e+10    -2.057350736409632e+01   -1.257811320378003e+02   
1.006000000000000e+10    -2.051153219625851e+01   -1.255051727223217e+02   
1.006100000000000e+10    -2.049168206794805e+01   -1.251746334986217e+02   
1.006200000000000e+10    -2.045696073817877e+01   -1.250188651191761e+02   
1.006300000000000e+10    -2.042114458386379e+01   -1.247562697289380e+02   
1.006400000000000e+10    -2.036574023784230e+01   -1.246386377317138e+02   
1.006500000000000e+10    -2.034130897062248e+01   -1.244100854179883e+02   
1.006600000000000e+10    -2.030342104423829e+01   -1.240953063777874e+02   
1.006700000000000e+10    -2.027820851808983e+01   -1.240513448115596e+02   
1.006800000000000e+10    -2.021770326987303e+01   -1.236890084708153e+02   
1.006900000000000e+10    -2.018128283272760e+01   -1.234018676079784e+02   
1.007000000000000e+10    -2.014413911251783e+01   -1.233043159574307e+02   
1.007100000000000e+10    -2.010032549878929e+01   -1.231902088099158e+02   
1.007200000000000e+10    -2.006072057183115e+01   -1.228436158182937e+02   
1.007300000000000e+10    -2.004601396653517e+01   -1.228088440402502e+02   
1.007400000000000e+10    -1.997770445352880e+01   -1.224879443676710e+02   
1.007500000000000e+10    -1.997284145656742e+01   -1.222546178079237e+02   
1.007600000000000e+10    -1.994659957255425e+01   -1.220571669567258e+02   
1.007700000000000e+10    -1.988030508124834e+01   -1.218789103038070e+02   
1.007800000000000e+10    -1.983831964533057e+01   -1.215962877893844e+02   
1.007900000000000e+10    -1.981029972753070e+01   -1.215439532979998e+02   
1.008000000000000e+10    -1.980382771965265e+01   -1.212381883467980e+02   
1.008100000000000e+10    -1.973647796324186e+01   -1.210560963341533e+02   
1.008200000000000e+10    -1.968172828982804e+01   -1.208288941096605e+02   
1.008300000000000e+10    -1.966572063383811e+01   -1.207312721383581e+02   
1.008400000000000e+10    -1.965497532946285e+01   -1.205143302978195e+02   
1.008500000000000e+10    -1.959629510274143e+01   -1.204152343342537e+02   
1.008600000000000e+10    -1.955891953505391e+01   -1.202203561656416e+02   
1.008700000000000e+10    -1.952793340510309e+01   -1.201290860390043e+02   
1.008800000000000e+10    -1.949417317969951e+01   -1.200420374903645e+02   
1.008900000000000e+10    -1.947829980462785e+01   -1.197734423558457e+02   
1.009000000000000e+10    -1.944518227811890e+01   -1.197305187699406e+02   
1.009100000000000e+10    -1.941517393235758e+01   -1.194175164542647e+02   
1.009200000000000e+10    -1.939857288240659e+01   -1.194670048860006e+02   
1.009300000000000e+10    -1.934298702946739e+01   -1.194365758677624e+02   
1.009400000000000e+10    -1.933111728285730e+01   -1.192574518382057e+02   
1.009500000000000e+10    -1.928750104773548e+01   -1.190408855194653e+02   
1.009600000000000e+10    -1.924925786777596e+01   -1.190241331781381e+02   
1.009700000000000e+10    -1.923369138034250e+01   -1.189492143528644e+02   
1.009800000000000e+10    -1.919196264414911e+01   -1.189488072001658e+02   
1.009900000000000e+10    -1.916657737592768e+01   -1.186582047779515e+02   
1.010000000000000e+10    -1.915088837490888e+01   -1.187874730448683e+02   
1.010100000000000e+10    -1.912963673822791e+01   -1.185984538658397e+02   
1.010200000000000e+10    -1.908642458192052e+01   -1.186140743000877e+02   
1.010300000000000e+10    -1.906049298197714e+01   -1.184106500799373e+02   
1.010400000000000e+10    -1.903068470114317e+01   -1.184599548659799e+02   
1.010500000000000e+10    -1.900479475839022e+01   -1.185909117947011e+02   
1.010600000000000e+10    -1.898180769631039e+01   -1.183691084096814e+02   
1.010700000000000e+10    -1.894385822202527e+01   -1.183482748168349e+02   
1.010800000000000e+10    -1.890805079075917e+01   -1.185423758892135e+02   
1.010900000000000e+10    -1.887433738983085e+01   -1.184412495306139e+02   
1.011000000000000e+10    -1.884705080266835e+01   -1.184989807631112e+02   
1.011100000000000e+10    -1.881893794771344e+01   -1.184283889909801e+02   
1.011200000000000e+10    -1.879624267768611e+01   -1.185561058397045e+02   
1.011300000000000e+10    -1.877092576947186e+01   -1.183844466940498e+02   
1.011400000000000e+10    -1.870874010049116e+01   -1.184383731030740e+02   
1.011500000000000e+10    -1.869159378022145e+01   -1.184526967312908e+02   
1.011600000000000e+10    -1.867315735975292e+01   -1.186205316830082e+02   
1.011700000000000e+10    -1.861446459107829e+01   -1.185124867737399e+02   
1.011800000000000e+10    -1.860564044497367e+01   -1.186314914154444e+02   
1.011900000000000e+10    -1.855197111486135e+01   -1.187655092192494e+02   
1.012000000000000e+10    -1.850582174308234e+01   -1.187747542035827e+02   
1.012100000000000e+10    -1.849659822966847e+01   -1.188593531127392e+02   
1.012200000000000e+10    -1.844555992313568e+01   -1.189059489456730e+02   
1.012300000000000e+10    -1.841869821719131e+01   -1.190840471651675e+02   
1.012400000000000e+10    -1.836921097331648e+01   -1.190014154330135e+02   
1.012500000000000e+10    -1.834158458016817e+01   -1.190150195205841e+02   
1.012600000000000e+10    -1.830208374907148e+01   -1.191249112653083e+02   
1.012700000000000e+10    -1.826158081077426e+01   -1.193066161833084e+02   
1.012800000000000e+10    -1.822852561956351e+01   -1.193054058106811e+02   
1.012900000000000e+10    -1.817744930265235e+01   -1.194152609450805e+02   
1.013000000000000e+10    -1.816880887007001e+01   -1.195431872998360e+02   
1.013100000000000e+10    -1.810058203872446e+01   -1.194705803245770e+02   
1.013200000000000e+10    -1.806283794070424e+01   -1.197455424274801e+02   
1.013300000000000e+10    -1.801512229742310e+01   -1.197404948588291e+02   
1.013400000000000e+10    -1.799068516430355e+01   -1.199074874197160e+02   
1.013500000000000e+10    -1.794724147853653e+01   -1.199880995154642e+02   
1.013600000000000e+10    -1.790605974154783e+01   -1.201588996732395e+02   
1.013700000000000e+10    -1.785929648980465e+01   -1.201232568039710e+02   
1.013800000000000e+10    -1.782606234981705e+01   -1.204047628643050e+02   
1.013900000000000e+10    -1.777470371424507e+01   -1.204566471612116e+02   
1.014000000000000e+10    -1.776391464935951e+01   -1.205336198218995e+02   
1.014100000000000e+10    -1.771850017627212e+01   -1.206230989654649e+02   
1.014200000000000e+10    -1.769032384632826e+01   -1.207780798576016e+02   
1.014300000000000e+10    -1.763679241949241e+01   -1.208686554853191e+02   
1.014400000000000e+10    -1.761884130930142e+01   -1.210084203164673e+02   
1.014500000000000e+10    -1.755991937531897e+01   -1.211289764045535e+02   
1.014600000000000e+10    -1.752162009370035e+01   -1.212364424481259e+02   
1.014700000000000e+10    -1.748620643494700e+01   -1.213415976966757e+02   
1.014800000000000e+10    -1.745663757173530e+01   -1.215254434242277e+02   
1.014900000000000e+10    -1.739572389316431e+01   -1.215333337292425e+02   
1.015000000000000e+10    -1.737479141660885e+01   -1.217169115469922e+02   
1.015100000000000e+10    -1.732875374641668e+01   -1.217559459909205e+02   
1.015200000000000e+10    -1.729593090993046e+01   -1.218923847790469e+02   
1.015300000000000e+10    -1.724427607114981e+01   -1.221350699919731e+02   
1.015400000000000e+10    -1.722771984858739e+01   -1.222049683284565e+02   
1.015500000000000e+10    -1.718435553134299e+01   -1.223047262154015e+02   
1.015600000000000e+10    -1.714508888960052e+01   -1.223077890338741e+02   
1.015700000000000e+10    -1.709846752231033e+01   -1.224410791857345e+02   
1.015800000000000e+10    -1.705596239032559e+01   -1.225455314009191e+02   
1.015900000000000e+10    -1.701911253010687e+01   -1.228084337022286e+02   
1.016000000000000e+10    -1.700191168825749e+01   -1.229622485885643e+02   
1.016100000000000e+10    -1.697601175645525e+01   -1.230104339663471e+02   
1.016200000000000e+10    -1.693757844992919e+01   -1.231418920531178e+02   
1.016300000000000e+10    -1.689091916223361e+01   -1.232545807093014e+02   
1.016400000000000e+10    -1.685990192905071e+01   -1.233394278018164e+02   
1.016500000000000e+10    -1.681725389432419e+01   -1.234368237403361e+02   
1.016600000000000e+10    -1.679820746943501e+01   -1.235650472111244e+02   
1.016700000000000e+10    -1.676543490872741e+01   -1.237521784621909e+02   
1.016800000000000e+10    -1.672146850974668e+01   -1.238257331269034e+02   
1.016900000000000e+10    -1.670381454953459e+01   -1.240273423381476e+02   
1.017000000000000e+10    -1.666270423452823e+01   -1.241698618186888e+02   
1.017100000000000e+10    -1.664771047133272e+01   -1.243523678680876e+02   
1.017200000000000e+10    -1.660614432460898e+01   -1.243749328891929e+02   
1.017300000000000e+10    -1.657190635450811e+01   -1.244983487022916e+02   
1.017400000000000e+10    -1.653933903495341e+01   -1.246554819754157e+02   
1.017500000000000e+10    -1.653984706844209e+01   -1.247414972074379e+02   
1.017600000000000e+10    -1.648135581903372e+01   -1.250525497313647e+02   
1.017700000000000e+10    -1.646821756620434e+01   -1.251643192832867e+02   
1.017800000000000e+10    -1.643793118789776e+01   -1.252611465500282e+02   
1.017900000000000e+10    -1.639586840841489e+01   -1.254576362363870e+02   
1.018000000000000e+10    -1.639711453147780e+01   -1.255088951543649e+02   
1.018100000000000e+10    -1.635863450758134e+01   -1.257516509326827e+02   
1.018200000000000e+10    -1.635654422792747e+01   -1.258699812924431e+02   
1.018300000000000e+10    -1.632244005962701e+01   -1.261086532376761e+02   
1.018400000000000e+10    -1.628450532254033e+01   -1.263093433880087e+02   
1.018500000000000e+10    -1.627445537168479e+01   -1.265187054597938e+02   
1.018600000000000e+10    -1.624455485667028e+01   -1.266629835683453e+02   
1.018700000000000e+10    -1.623797150448193e+01   -1.268445168349205e+02   
1.018800000000000e+10    -1.620965750617443e+01   -1.269295831906699e+02   
1.018900000000000e+10    -1.618220407153935e+01   -1.271174018514473e+02   
1.019000000000000e+10    -1.616669153000171e+01   -1.273389795088961e+02   
1.019100000000000e+10    -1.614578574923788e+01   -1.275771301541189e+02   
1.019200000000000e+10    -1.611326691594770e+01   -1.278003679838055e+02   
1.019300000000000e+10    -1.608400074564139e+01   -1.279673920252039e+02   
1.019400000000000e+10    -1.607939070787152e+01   -1.281938706704735e+02   
1.019500000000000e+10    -1.605121161579380e+01   -1.283326313676500e+02   
1.019600000000000e+10    -1.604043045258929e+01   -1.285905912501766e+02   
1.019700000000000e+10    -1.601298553603941e+01   -1.288178180503104e+02   
1.019800000000000e+10    -1.598944886055095e+01   -1.291116186422102e+02   
1.019900000000000e+10    -1.596957370863692e+01   -1.292625446680742e+02   
1.020000000000000e+10    -1.596478112735291e+01   -1.295172078217796e+02   
1.020100000000000e+10    -1.592966216731717e+01   -1.296553900283171e+02   
1.020200000000000e+10    -1.591729748108438e+01   -1.299181538543503e+02   
1.020300000000000e+10    -1.588494233245107e+01   -1.300396471860080e+02   
1.020400000000000e+10    -1.587731806349131e+01   -1.302681828882151e+02   
1.020500000000000e+10    -1.586086373994828e+01   -1.305638600635509e+02   
1.020600000000000e+10    -1.583104766779563e+01   -1.308138001661806e+02   
1.020700000000000e+10    -1.580803888153430e+01   -1.311146444313924e+02   
1.020800000000000e+10    -1.579123746487495e+01   -1.312860118193160e+02   
1.020900000000000e+10    -1.579439468593494e+01   -1.315295687472398e+02   
1.021000000000000e+10    -1.577336564674443e+01   -1.317693534457661e+02   
1.021100000000000e+10    -1.574732834514641e+01   -1.320029122909190e+02   
1.021200000000000e+10    -1.574512055108904e+01   -1.322004100098276e+02   
1.021300000000000e+10    -1.572238605615357e+01   -1.324715993709202e+02   
1.021400000000000e+10    -1.570874821708493e+01   -1.326967461636929e+02   
1.021500000000000e+10    -1.568818471617309e+01   -1.328969948989737e+02   
1.021600000000000e+10    -1.567586799849264e+01   -1.332224814772152e+02   
1.021700000000000e+10    -1.566129820138423e+01   -1.334665999852946e+02   
1.021800000000000e+10    -1.564532328436575e+01   -1.336586048820089e+02   
1.021900000000000e+10    -1.563870883188743e+01   -1.338368614280390e+02   
1.022000000000000e+10    -1.562568890137125e+01   -1.341267748365643e+02   
1.022100000000000e+10    -1.560328513770587e+01   -1.344215313033188e+02   
1.022200000000000e+10    -1.560961129786912e+01   -1.345354093732677e+02   
1.022300000000000e+10    -1.559332484173517e+01   -1.348051175401374e+02   
1.022400000000000e+10    -1.558699888146124e+01   -1.350774877804270e+02   
1.022500000000000e+10    -1.556694535272640e+01   -1.352716102565909e+02   
1.022600000000000e+10    -1.557890994233805e+01   -1.356062995136202e+02   
1.022700000000000e+10    -1.556213622292441e+01   -1.358323360892099e+02   
1.022800000000000e+10    -1.555270497846003e+01   -1.360782823942784e+02   
1.022900000000000e+10    -1.555323610432344e+01   -1.363816939906417e+02   
1.023000000000000e+10    -1.553275001486287e+01   -1.366383082435266e+02   
1.023100000000000e+10    -1.552236551108671e+01   -1.369278741220662e+02   
1.023200000000000e+10    -1.552900742936142e+01   -1.371806788327937e+02   
1.023300000000000e+10    -1.552218613663358e+01   -1.373779385947876e+02   
1.023400000000000e+10    -1.551846348375516e+01   -1.376818274069116e+02   
1.023500000000000e+10    -1.553327687585222e+01   -1.377924868285251e+02   
1.023600000000000e+10    -1.549809099031511e+01   -1.380947633322459e+02   
1.023700000000000e+10    -1.550748186708955e+01   -1.384115782737874e+02   
1.023800000000000e+10    -1.549856551103063e+01   -1.385901896964634e+02   
1.023900000000000e+10    -1.550006727560046e+01   -1.389577427136398e+02   
1.024000000000000e+10    -1.550901481135659e+01   -1.391040201569160e+02   
1.024100000000000e+10    -1.548499744447813e+01   -1.393210699162776e+02   
1.024200000000000e+10    -1.548972715271256e+01   -1.396417464000121e+02   
1.024300000000000e+10    -1.549877100119822e+01   -1.398602363439140e+02   
1.024400000000000e+10    -1.550088976271981e+01   -1.401261983885453e+02   
1.024500000000000e+10    -1.548650435458870e+01   -1.403759396671817e+02   
1.024600000000000e+10    -1.549409792198864e+01   -1.406997630122979e+02   
1.024700000000000e+10    -1.549357157489294e+01   -1.409209696656271e+02   
1.024800000000000e+10    -1.549375533106083e+01   -1.410889505176345e+02   
1.024900000000000e+10    -1.551744044134511e+01   -1.413797243562967e+02   
1.025000000000000e+10    -1.550071664308665e+01   -1.416805098011928e+02   
1.025100000000000e+10    -1.549574155861881e+01   -1.417798489924164e+02   
1.025200000000000e+10    -1.551288391672191e+01   -1.421374593081188e+02   
1.025300000000000e+10    -1.549746785338495e+01   -1.423269156897269e+02   
1.025400000000000e+10    -1.550610226762541e+01   -1.425524092080617e+02   
1.025500000000000e+10    -1.552803929135900e+01   -1.427814521806096e+02   
1.025600000000000e+10    -1.552672847610967e+01   -1.430342148178089e+02   
