[Version] 2.0
! Rohde & Schwarz Vector Network Analyzer
! Rohde-Schwarz,ZNL20-2Port,1323001220200009,1.71.1.10-23.02.1.238
! 
! Port Assignments:
! Nominal Port -> Actual Test Port
! --------------------------------
!   1 -> 1

! Created: GMT 2024-08-27 13:55:58

# Hz S DB R 50

[Number of Ports] 1
[Number of Frequencies] 2001

[Network Data] 
! freq[Hz]               S11[mag dB]              S11[ang]                 
1.000000000000000e+10    -2.041229026811678e+01   -1.399175296640010e+02   
1.000100000000000e+10    -2.046836796673119e+01   -1.395715699434590e+02   
1.000200000000000e+10    -2.050289035437596e+01   -1.391326436134502e+02   
1.000300000000000e+10    -2.056125729184355e+01   -1.390172924938125e+02   
1.000400000000000e+10    -2.058946595258571e+01   -1.389406126825155e+02   
1.000500000000000e+10    -2.061578086859846e+01   -1.386932564940230e+02   
1.000600000000000e+10    -2.067371759508893e+01   -1.384051922562379e+02   
1.000700000000000e+10    -2.071084943907710e+01   -1.380693366401422e+02   
1.000800000000000e+10    -2.074869984573321e+01   -1.379008135735938e+02   
1.000900000000000e+10    -2.080350911371185e+01   -1.378090128794309e+02   
1.001000000000000e+10    -2.083651217065174e+01   -1.373312928894996e+02   
1.001100000000000e+10    -2.088070113544223e+01   -1.371620844004265e+02   
1.001200000000000e+10    -2.090070993586859e+01   -1.369061187281148e+02   
1.001300000000000e+10    -2.097349244519520e+01   -1.367128532703570e+02   
1.001400000000000e+10    -2.098646637250940e+01   -1.365570022860415e+02   
1.001500000000000e+10    -2.102203610592113e+01   -1.362217644948162e+02   
1.001600000000000e+10    -2.102535700940893e+01   -1.359281993488993e+02   
1.001700000000000e+10    -2.108296978444401e+01   -1.358035662866321e+02   
1.001800000000000e+10    -2.109851996090207e+01   -1.355689362643512e+02   
1.001900000000000e+10    -2.112171497667516e+01   -1.352682679864312e+02   
1.002000000000000e+10    -2.115590319776958e+01   -1.351449936378532e+02   
1.002100000000000e+10    -2.117322334424535e+01   -1.348908946790945e+02   
1.002200000000000e+10    -2.118346696366893e+01   -1.345444845543381e+02   
1.002300000000000e+10    -2.118241072987490e+01   -1.343519671418558e+02   
1.002400000000000e+10    -2.118587757464264e+01   -1.341584485735168e+02   
1.002500000000000e+10    -2.122756547831018e+01   -1.337790868902037e+02   
1.002600000000000e+10    -2.124320678283482e+01   -1.338332997718728e+02   
1.002700000000000e+10    -2.124470643438970e+01   -1.336208572542349e+02   
1.002800000000000e+10    -2.125550995912842e+01   -1.332301102086616e+02   
1.002900000000000e+10    -2.124755251576754e+01   -1.328908267027173e+02   
1.003000000000000e+10    -2.128422222808791e+01   -1.325558205953809e+02   
1.003100000000000e+10    -2.125086676591031e+01   -1.326000773091050e+02   
1.003200000000000e+10    -2.126922791130833e+01   -1.323681584858211e+02   
1.003300000000000e+10    -2.123412490052040e+01   -1.321274452884280e+02   
1.003400000000000e+10    -2.122915011039540e+01   -1.317589897314372e+02   
1.003500000000000e+10    -2.125213391215167e+01   -1.315311957270522e+02   
1.003600000000000e+10    -2.119149308786203e+01   -1.311496671706897e+02   
1.003700000000000e+10    -2.121474491127029e+01   -1.309557445409839e+02   
1.003800000000000e+10    -2.120265222056194e+01   -1.307887507186512e+02   
1.003900000000000e+10    -2.120525171938975e+01   -1.305473329762116e+02   
1.004000000000000e+10    -2.115813649373708e+01   -1.304452448067387e+02   
1.004100000000000e+10    -2.116264096129405e+01   -1.301123538936382e+02   
1.004200000000000e+10    -2.111236185335286e+01   -1.298830474846808e+02   
1.004300000000000e+10    -2.111235360979446e+01   -1.296247984132401e+02   
1.004400000000000e+10    -2.110265698444321e+01   -1.294521046733697e+02   
1.004500000000000e+10    -2.104635759948931e+01   -1.291761299782563e+02   
1.004600000000000e+10    -2.104150797797730e+01   -1.288559882427928e+02   
1.004700000000000e+10    -2.101690495440528e+01   -1.287143329506845e+02   
1.004800000000000e+10    -2.097657962270557e+01   -1.284219626898049e+02   
1.004900000000000e+10    -2.094171150224631e+01   -1.282268725829660e+02   
1.005000000000000e+10    -2.093190135509168e+01   -1.281487563550545e+02   
1.005100000000000e+10    -2.085247848589002e+01   -1.279214028574678e+02   
1.005200000000000e+10    -2.083535989150004e+01   -1.274511569272219e+02   
1.005300000000000e+10    -2.081109083443651e+01   -1.273273867192866e+02   
1.005400000000000e+10    -2.077284897062028e+01   -1.271537809896979e+02   
1.005500000000000e+10    -2.073916120396927e+01   -1.268577890849909e+02   
1.005600000000000e+10    -2.073450258806349e+01   -1.265818569261081e+02   
1.005700000000000e+10    -2.066239337692787e+01   -1.263551803060957e+02   
1.005800000000000e+10    -2.063323008527545e+01   -1.262208208018011e+02   
1.005900000000000e+10    -2.060731167068280e+01   -1.261168872496227e+02   
1.006000000000000e+10    -2.054820606389743e+01   -1.258322387569787e+02   
1.006100000000000e+10    -2.052702092630408e+01   -1.254554507885901e+02   
1.006200000000000e+10    -2.049054443892638e+01   -1.253225678691177e+02   
1.006300000000000e+10    -2.046072178461935e+01   -1.250461298663898e+02   
1.006400000000000e+10    -2.040169565266768e+01   -1.249238883913551e+02   
1.006500000000000e+10    -2.037770500590050e+01   -1.246663433093477e+02   
1.006600000000000e+10    -2.034215839851280e+01   -1.243288827666302e+02   
1.006700000000000e+10    -2.031907030194375e+01   -1.242944799737827e+02   
1.006800000000000e+10    -2.025684178778860e+01   -1.239322709075109e+02   
1.006900000000000e+10    -2.022158680467434e+01   -1.236139128509323e+02   
1.007000000000000e+10    -2.018126740998163e+01   -1.235138729482692e+02   
1.007100000000000e+10    -2.013907175480229e+01   -1.234069357102643e+02   
1.007200000000000e+10    -2.010005606280816e+01   -1.230317387976865e+02   
1.007300000000000e+10    -2.008506998357903e+01   -1.230272865936850e+02   
1.007400000000000e+10    -2.001590227088174e+01   -1.226609674039950e+02   
1.007500000000000e+10    -2.000678344261882e+01   -1.224425978956675e+02   
1.007600000000000e+10    -1.998146183479767e+01   -1.222248698090141e+02   
1.007700000000000e+10    -1.991487386293078e+01   -1.220529225963890e+02   
1.007800000000000e+10    -1.987350774269031e+01   -1.217734554135571e+02   
1.007900000000000e+10    -1.984275140194712e+01   -1.217236452991976e+02   
1.008000000000000e+10    -1.983957609107643e+01   -1.213943002043030e+02   
1.008100000000000e+10    -1.977208545555486e+01   -1.212254512293532e+02   
1.008200000000000e+10    -1.971592939442483e+01   -1.209992101162188e+02   
1.008300000000000e+10    -1.969983941176385e+01   -1.209097551519923e+02   
1.008400000000000e+10    -1.968940864221832e+01   -1.206792659796655e+02   
1.008500000000000e+10    -1.963012630605517e+01   -1.205896729493160e+02   
1.008600000000000e+10    -1.959541667040372e+01   -1.203765973166595e+02   
1.008700000000000e+10    -1.956238816200237e+01   -1.202927869205077e+02   
1.008800000000000e+10    -1.952829666338877e+01   -1.201885358067570e+02   
1.008900000000000e+10    -1.951297285055233e+01   -1.199149979170805e+02   
1.009000000000000e+10    -1.948090903268649e+01   -1.198663943953374e+02   
1.009100000000000e+10    -1.945196898028508e+01   -1.195631006074379e+02   
1.009200000000000e+10    -1.943376698415597e+01   -1.196086782716113e+02   
1.009300000000000e+10    -1.937722935931304e+01   -1.195853101549086e+02   
1.009400000000000e+10    -1.936690492783359e+01   -1.194103354662616e+02   
1.009500000000000e+10    -1.932379455299137e+01   -1.191968682868375e+02   
1.009600000000000e+10    -1.928635440253193e+01   -1.191749600788920e+02   
1.009700000000000e+10    -1.927156348556975e+01   -1.190777316934397e+02   
1.009800000000000e+10    -1.923056461813209e+01   -1.190813744741953e+02   
1.009900000000000e+10    -1.920524443301843e+01   -1.187796900444624e+02   
1.010000000000000e+10    -1.918912787039753e+01   -1.189200478716425e+02   
1.010100000000000e+10    -1.916643347677621e+01   -1.187237259110561e+02   
1.010200000000000e+10    -1.912424613691886e+01   -1.187475949176478e+02   
1.010300000000000e+10    -1.909999182126070e+01   -1.185177050758056e+02   
1.010400000000000e+10    -1.907006909787363e+01   -1.185709335175797e+02   
1.010500000000000e+10    -1.904482644038917e+01   -1.187014675944083e+02   
1.010600000000000e+10    -1.901979399321280e+01   -1.184877423235778e+02   
1.010700000000000e+10    -1.898508711476630e+01   -1.184448203465725e+02   
1.010800000000000e+10    -1.894761630068298e+01   -1.186318230671132e+02   
1.010900000000000e+10    -1.891663703969930e+01   -1.185484611796660e+02   
1.011000000000000e+10    -1.888775410153101e+01   -1.185873165587712e+02   
1.011100000000000e+10    -1.886087505739022e+01   -1.185099735268087e+02   
1.011200000000000e+10    -1.884062455296294e+01   -1.186469566873356e+02   
1.011300000000000e+10    -1.881134688794768e+01   -1.184836966113801e+02   
1.011400000000000e+10    -1.874690939966453e+01   -1.185191519447049e+02   
1.011500000000000e+10    -1.873476491740578e+01   -1.185231894321930e+02   
1.011600000000000e+10    -1.871563150794543e+01   -1.186949503606995e+02   
1.011700000000000e+10    -1.866037333823330e+01   -1.185801159022768e+02   
1.011800000000000e+10    -1.864864608980593e+01   -1.186979314051473e+02   
1.011900000000000e+10    -1.859554711759203e+01   -1.188233105868152e+02   
1.012000000000000e+10    -1.854879454038116e+01   -1.188386652179772e+02   
1.012100000000000e+10    -1.854003102236556e+01   -1.189142032953931e+02   
1.012200000000000e+10    -1.848862668513028e+01   -1.189700323753886e+02   
1.012300000000000e+10    -1.846167440039220e+01   -1.191215316273663e+02   
1.012400000000000e+10    -1.841326358408498e+01   -1.190556139361895e+02   
1.012500000000000e+10    -1.838525757859402e+01   -1.190700492807077e+02   
1.012600000000000e+10    -1.834493278611336e+01   -1.191678902903090e+02   
1.012700000000000e+10    -1.830588951838471e+01   -1.193425805564115e+02   
1.012800000000000e+10    -1.827524015146923e+01   -1.193463673603931e+02   
1.012900000000000e+10    -1.822128193171283e+01   -1.194436134838862e+02   
1.013000000000000e+10    -1.821299158344949e+01   -1.195676776151972e+02   
1.013100000000000e+10    -1.814271855315060e+01   -1.195013075414848e+02   
1.013200000000000e+10    -1.810794704014666e+01   -1.197698334809139e+02   
1.013300000000000e+10    -1.806129233904229e+01   -1.197612674600640e+02   
1.013400000000000e+10    -1.803539220944782e+01   -1.199194557460943e+02   
1.013500000000000e+10    -1.799072522197262e+01   -1.199853509832233e+02   
1.013600000000000e+10    -1.795223933514897e+01   -1.201654548473916e+02   
1.013700000000000e+10    -1.790552273946556e+01   -1.201143799311194e+02   
1.013800000000000e+10    -1.787134682922659e+01   -1.203772841755755e+02   
1.013900000000000e+10    -1.782068073925615e+01   -1.204418563053106e+02   
1.014000000000000e+10    -1.780981678817481e+01   -1.205192369886376e+02   
1.014100000000000e+10    -1.776132679613305e+01   -1.206126529102959e+02   
1.014200000000000e+10    -1.773352049562590e+01   -1.207539015961312e+02   
1.014300000000000e+10    -1.767913534332678e+01   -1.208406816789762e+02   
1.014400000000000e+10    -1.766136358800625e+01   -1.209842517940053e+02   
1.014500000000000e+10    -1.760346337438484e+01   -1.210851694373859e+02   
1.014600000000000e+10    -1.756463234972460e+01   -1.211860012589389e+02   
1.014700000000000e+10    -1.752825316227743e+01   -1.212909360788454e+02   
1.014800000000000e+10    -1.749926058233525e+01   -1.214829475591026e+02   
1.014900000000000e+10    -1.743910987533613e+01   -1.214812671575108e+02   
1.015000000000000e+10    -1.741757881485594e+01   -1.216673980040865e+02   
1.015100000000000e+10    -1.737180935867827e+01   -1.216989844462160e+02   
1.015200000000000e+10    -1.733471659727272e+01   -1.218278895651871e+02   
1.015300000000000e+10    -1.728704962906767e+01   -1.220671029918410e+02   
1.015400000000000e+10    -1.726961905592228e+01   -1.221345168772979e+02   
1.015500000000000e+10    -1.722166738607655e+01   -1.222230963133244e+02   
1.015600000000000e+10    -1.718554993509243e+01   -1.222236439733705e+02   
1.015700000000000e+10    -1.713615625907618e+01   -1.223623124275302e+02   
1.015800000000000e+10    -1.709383829248031e+01   -1.224678787088003e+02   
1.015900000000000e+10    -1.705463285657937e+01   -1.227220009561912e+02   
1.016000000000000e+10    -1.703968386446743e+01   -1.228641605515016e+02   
1.016100000000000e+10    -1.701102455293323e+01   -1.229329177022839e+02   
1.016200000000000e+10    -1.697355365040772e+01   -1.230595408805415e+02   
1.016300000000000e+10    -1.692691542241202e+01   -1.231608381940544e+02   
1.016400000000000e+10    -1.689775205154679e+01   -1.232441015686135e+02   
1.016500000000000e+10    -1.685333560119984e+01   -1.233488406392990e+02   
1.016600000000000e+10    -1.683435330802293e+01   -1.234645668033798e+02   
1.016700000000000e+10    -1.680137687167552e+01   -1.236601902530934e+02   
1.016800000000000e+10    -1.675667293337191e+01   -1.236986723110655e+02   
1.016900000000000e+10    -1.673629368099028e+01   -1.238989391370750e+02   
1.017000000000000e+10    -1.669837329837040e+01   -1.240424368058174e+02   
1.017100000000000e+10    -1.668519296553857e+01   -1.242309451427666e+02   
1.017200000000000e+10    -1.663904997796803e+01   -1.242525001246768e+02   
1.017300000000000e+10    -1.660626061695864e+01   -1.243654277501257e+02   
1.017400000000000e+10    -1.657304831483906e+01   -1.245247476378513e+02   
1.017500000000000e+10    -1.657242343568477e+01   -1.246126907553220e+02   
1.017600000000000e+10    -1.651677748415371e+01   -1.249097931610406e+02   
1.017700000000000e+10    -1.650108816803051e+01   -1.250238371800571e+02   
1.017800000000000e+10    -1.646914638747256e+01   -1.251095148874057e+02   
1.017900000000000e+10    -1.642875282946780e+01   -1.253201947212968e+02   
1.018000000000000e+10    -1.642851681161229e+01   -1.253499619193355e+02   
1.018100000000000e+10    -1.638872527091829e+01   -1.255847795264616e+02   
1.018200000000000e+10    -1.638657980371821e+01   -1.257186245375617e+02   
1.018300000000000e+10    -1.635103468897232e+01   -1.259501230230644e+02   
1.018400000000000e+10    -1.631391055744799e+01   -1.261536189634668e+02   
1.018500000000000e+10    -1.630140530950553e+01   -1.263734153662027e+02   
1.018600000000000e+10    -1.627305356355306e+01   -1.265106685872765e+02   
1.018700000000000e+10    -1.626245284359722e+01   -1.266707489326779e+02   
1.018800000000000e+10    -1.623594837695027e+01   -1.267601293948183e+02   
1.018900000000000e+10    -1.620697248813187e+01   -1.269584348218910e+02   
1.019000000000000e+10    -1.619180259737592e+01   -1.271960070531844e+02   
1.019100000000000e+10    -1.617145348478359e+01   -1.274189450377501e+02   
1.019200000000000e+10    -1.613810620432638e+01   -1.276440075301906e+02   
1.019300000000000e+10    -1.610974709742472e+01   -1.278247555106379e+02   
1.019400000000000e+10    -1.610331473374675e+01   -1.280298499443182e+02   
1.019500000000000e+10    -1.607607567188444e+01   -1.281883438177430e+02   
1.019600000000000e+10    -1.606646509225641e+01   -1.284317559447590e+02   
1.019700000000000e+10    -1.603780089842930e+01   -1.286707505178499e+02   
1.019800000000000e+10    -1.601535762150002e+01   -1.289576935385139e+02   
1.019900000000000e+10    -1.599199792413836e+01   -1.291023397662026e+02   
1.020000000000000e+10    -1.598802744571949e+01   -1.293534614237000e+02   
1.020100000000000e+10    -1.595424325277574e+01   -1.294818212165860e+02   
1.020200000000000e+10    -1.594331514569063e+01   -1.297467923620719e+02   
1.020300000000000e+10    -1.590875812735501e+01   -1.298719515670797e+02   
1.020400000000000e+10    -1.590117098755737e+01   -1.300962396868066e+02   
1.020500000000000e+10    -1.588672422758689e+01   -1.303960941503855e+02   
1.020600000000000e+10    -1.585474437479195e+01   -1.306388427755623e+02   
1.020700000000000e+10    -1.583115411832012e+01   -1.309478058236880e+02   
1.020800000000000e+10    -1.581566914039785e+01   -1.311042884059115e+02   
1.020900000000000e+10    -1.581952535724524e+01   -1.313514620076072e+02   
1.021000000000000e+10    -1.579601978513657e+01   -1.315875844190379e+02   
1.021100000000000e+10    -1.576979455482585e+01   -1.318221896689726e+02   
1.021200000000000e+10    -1.576656805706682e+01   -1.320103268502988e+02   
1.021300000000000e+10    -1.574558589554226e+01   -1.322722029392470e+02   
1.021400000000000e+10    -1.573039601197589e+01   -1.324828312095512e+02   
1.021500000000000e+10    -1.570764255265601e+01   -1.326820331906593e+02   
1.021600000000000e+10    -1.569663860940382e+01   -1.330094477397176e+02   
1.021700000000000e+10    -1.568161513811942e+01   -1.332609716120203e+02   
1.021800000000000e+10    -1.566420500114138e+01   -1.334416741081367e+02   
1.021900000000000e+10    -1.565855625094468e+01   -1.336223983561003e+02   
1.022000000000000e+10    -1.564330956699780e+01   -1.339080978352718e+02   
1.022100000000000e+10    -1.561850414397888e+01   -1.342086076959767e+02   
1.022200000000000e+10    -1.562477023968757e+01   -1.343154708245638e+02   
1.022300000000000e+10    -1.560855965007859e+01   -1.345783905105903e+02   
1.022400000000000e+10    -1.560240870110447e+01   -1.348498921137129e+02   
1.022500000000000e+10    -1.557918542937792e+01   -1.350477650831918e+02   
1.022600000000000e+10    -1.559151645777504e+01   -1.353779453540034e+02   
1.022700000000000e+10    -1.557516240286831e+01   -1.355992712013998e+02   
1.022800000000000e+10    -1.556382274678531e+01   -1.358417522345157e+02   
1.022900000000000e+10    -1.556402116773360e+01   -1.361537368821432e+02   
1.023000000000000e+10    -1.554174525976504e+01   -1.364095736991193e+02   
1.023100000000000e+10    -1.553157462806059e+01   -1.367002402566392e+02   
1.023200000000000e+10    -1.553759884475994e+01   -1.369584280549030e+02   
1.023300000000000e+10    -1.553154647859955e+01   -1.371544749567031e+02   
1.023400000000000e+10    -1.552453125532613e+01   -1.374610925214629e+02   
1.023500000000000e+10    -1.554089029893197e+01   -1.375679023632972e+02   
1.023600000000000e+10    -1.550424400470796e+01   -1.378763493506621e+02   
1.023700000000000e+10    -1.551449373851619e+01   -1.381893682287880e+02   
1.023800000000000e+10    -1.550408980854182e+01   -1.383672262011420e+02   
1.023900000000000e+10    -1.550633028758254e+01   -1.387409658023237e+02   
1.024000000000000e+10    -1.551531066195420e+01   -1.388739532359804e+02   
1.024100000000000e+10    -1.548932592879770e+01   -1.390907044952594e+02   
1.024200000000000e+10    -1.549228681918827e+01   -1.394081804761888e+02   
1.024300000000000e+10    -1.550446720252254e+01   -1.396232212816285e+02   
1.024400000000000e+10    -1.550382489546020e+01   -1.399057488758384e+02   
1.024500000000000e+10    -1.548953637093976e+01   -1.401525596520375e+02   
1.024600000000000e+10    -1.549514089124976e+01   -1.404629697568978e+02   
1.024700000000000e+10    -1.549376549220663e+01   -1.406964118622496e+02   
1.024800000000000e+10    -1.549607448985575e+01   -1.408603209469482e+02   
1.024900000000000e+10    -1.551678217773534e+01   -1.411590088039494e+02   
1.025000000000000e+10    -1.550163070692439e+01   -1.414651048824171e+02   
1.025100000000000e+10    -1.549356731346029e+01   -1.415604100578541e+02   
1.025200000000000e+10    -1.551170997059499e+01   -1.419211142477521e+02   
1.025300000000000e+10    -1.549503588691766e+01   -1.421170955752561e+02   
1.025400000000000e+10    -1.550347978384353e+01   -1.423352583567304e+02   
1.025500000000000e+10    -1.552570949371485e+01   -1.425677621416303e+02   
1.025600000000000e+10    -1.552421823300324e+01   -1.428281480562275e+02   
