[Version] 2.0
! Rohde & Schwarz Vector Network Analyzer
! Rohde-Schwarz,ZNL20-2Port,1323001220200009,1.71.1.10-23.02.1.238
! 
! Port Assignments:
! Nominal Port -> Actual Test Port
! --------------------------------
!   1 -> 1

! Created: GMT 2024-08-27 13:49:41

# Hz S DB R 50

[Number of Ports] 1
[Number of Frequencies] 2001

[Network Data] 
! freq[Hz]               S11[mag dB]              S11[ang]                 
1.000000000000000e+10    -2.043011140103865e+01   -1.251663231442118e+02   
1.000100000000000e+10    -2.042804072839694e+01   -1.247999075126575e+02   
1.000200000000000e+10    -2.040640239861142e+01   -1.243710680694060e+02   
1.000300000000000e+10    -2.041422111499154e+01   -1.242053530805078e+02   
1.000400000000000e+10    -2.040010572344471e+01   -1.241113804487161e+02   
1.000500000000000e+10    -2.038083838240180e+01   -1.239055795109318e+02   
1.000600000000000e+10    -2.037749687752505e+01   -1.236267350474799e+02   
1.000700000000000e+10    -2.036121097347950e+01   -1.233165540619043e+02   
1.000800000000000e+10    -2.035229598879868e+01   -1.231393950209837e+02   
1.000900000000000e+10    -2.036129625362641e+01   -1.230740750741199e+02   
1.001000000000000e+10    -2.033516262281143e+01   -1.226775763807104e+02   
1.001100000000000e+10    -2.033247271368994e+01   -1.225614790183635e+02   
1.001200000000000e+10    -2.030452013823735e+01   -1.224154566222724e+02   
1.001300000000000e+10    -2.032347319818029e+01   -1.222603047484775e+02   
1.001400000000000e+10    -2.029632539837213e+01   -1.222074843700186e+02   
1.001500000000000e+10    -2.028211160166822e+01   -1.219880956904865e+02   
1.001600000000000e+10    -2.024238379179513e+01   -1.218137662203488e+02   
1.001700000000000e+10    -2.025773903077727e+01   -1.217884437781212e+02   
1.001800000000000e+10    -2.023086181654186e+01   -1.216772674922293e+02   
1.001900000000000e+10    -2.021001884576516e+01   -1.215082569254823e+02   
1.002000000000000e+10    -2.020381255020711e+01   -1.215250730424955e+02   
1.002100000000000e+10    -2.018170763359175e+01   -1.214253292728256e+02   
1.002200000000000e+10    -2.014785875730059e+01   -1.212608902685123e+02   
1.002300000000000e+10    -2.011598324127121e+01   -1.212451474112280e+02   
1.002400000000000e+10    -2.008144453213674e+01   -1.212320236016549e+02   
1.002500000000000e+10    -2.008433338855736e+01   -1.210069361781300e+02   
1.002600000000000e+10    -2.007069953483704e+01   -1.211846638782325e+02   
1.002700000000000e+10    -2.004154166387572e+01   -1.211843217351192e+02   
1.002800000000000e+10    -2.001629715081776e+01   -1.209841048093068e+02   
1.002900000000000e+10    -1.997703490583589e+01   -1.208673986445331e+02   
1.003000000000000e+10    -1.997637738918604e+01   -1.207094238599059e+02   
1.003100000000000e+10    -1.992981974659521e+01   -1.209404662912312e+02   
1.003200000000000e+10    -1.991564803413811e+01   -1.208627490078610e+02   
1.003300000000000e+10    -1.986082730508835e+01   -1.209084355042118e+02   
1.003400000000000e+10    -1.982967432869209e+01   -1.207445625562937e+02   
1.003500000000000e+10    -1.982433143870141e+01   -1.207036279604166e+02   
1.003600000000000e+10    -1.974510149256485e+01   -1.206360888911842e+02   
1.003700000000000e+10    -1.974546018767212e+01   -1.206205230109554e+02   
1.003800000000000e+10    -1.971310987587798e+01   -1.206557603880167e+02   
1.003900000000000e+10    -1.969285472764051e+01   -1.206020795999163e+02   
1.004000000000000e+10    -1.963664279535553e+01   -1.207299748761418e+02   
1.004100000000000e+10    -1.962049422854236e+01   -1.206252722861392e+02   
1.004200000000000e+10    -1.955955267035376e+01   -1.206114867317787e+02   
1.004300000000000e+10    -1.953879465085200e+01   -1.205745253327992e+02   
1.004400000000000e+10    -1.951505237558561e+01   -1.206127790418663e+02   
1.004500000000000e+10    -1.945147532104909e+01   -1.205654976021822e+02   
1.004600000000000e+10    -1.942371875664350e+01   -1.204799365946194e+02   
1.004700000000000e+10    -1.939099216099829e+01   -1.205058604000098e+02   
1.004800000000000e+10    -1.934129502701170e+01   -1.204845341115677e+02   
1.004900000000000e+10    -1.929763569649005e+01   -1.205003122183769e+02   
1.005000000000000e+10    -1.927516972324678e+01   -1.205920812927914e+02   
1.005100000000000e+10    -1.920241044482709e+01   -1.205762046105478e+02   
1.005200000000000e+10    -1.916708931407122e+01   -1.203603389896686e+02   
1.005300000000000e+10    -1.913537103378665e+01   -1.204414615438151e+02   
1.005400000000000e+10    -1.909221531150941e+01   -1.204598361835080e+02   
1.005500000000000e+10    -1.904744385626681e+01   -1.203836654351247e+02   
1.005600000000000e+10    -1.903236388764387e+01   -1.203321010665862e+02   
1.005700000000000e+10    -1.896357812790358e+01   -1.203041725270798e+02   
1.005800000000000e+10    -1.892983192357735e+01   -1.203679278108441e+02   
1.005900000000000e+10    -1.889957236884641e+01   -1.204028438447653e+02   
1.006000000000000e+10    -1.883868940392837e+01   -1.203501453955482e+02   
1.006100000000000e+10    -1.880802858729809e+01   -1.202147359758774e+02   
1.006200000000000e+10    -1.877103004482932e+01   -1.202510073322183e+02   
1.006300000000000e+10    -1.873379560692146e+01   -1.201880493264673e+02   
1.006400000000000e+10    -1.868206602643275e+01   -1.202293474363806e+02   
1.006500000000000e+10    -1.864966461449491e+01   -1.202019468774573e+02   
1.006600000000000e+10    -1.861165169620084e+01   -1.200631856851331e+02   
1.006700000000000e+10    -1.858526457570232e+01   -1.201732742936802e+02   
1.006800000000000e+10    -1.852455868540057e+01   -1.200481530109966e+02   
1.006900000000000e+10    -1.848731145314449e+01   -1.199617786414873e+02   
1.007000000000000e+10    -1.845016593602302e+01   -1.200424258927873e+02   
1.007100000000000e+10    -1.840888396946544e+01   -1.200944420462308e+02   
1.007200000000000e+10    -1.837013754829363e+01   -1.199504856821492e+02   
1.007300000000000e+10    -1.835297545599912e+01   -1.200798858254075e+02   
1.007400000000000e+10    -1.828869564560407e+01   -1.199660851828476e+02   
1.007500000000000e+10    -1.827724214218662e+01   -1.199041699996949e+02   
1.007600000000000e+10    -1.825202423336819e+01   -1.198834518897436e+02   
1.007700000000000e+10    -1.819310797964545e+01   -1.199026196985141e+02   
1.007800000000000e+10    -1.815409831319915e+01   -1.198128241723617e+02   
1.007900000000000e+10    -1.812649091595312e+01   -1.199049639879879e+02   
1.008000000000000e+10    -1.811724154286986e+01   -1.197887992740935e+02   
1.008100000000000e+10    -1.806062935015797e+01   -1.198069609510666e+02   
1.008200000000000e+10    -1.801180230437923e+01   -1.197505386626667e+02   
1.008300000000000e+10    -1.799620293937540e+01   -1.198319866085323e+02   
1.008400000000000e+10    -1.798340934573578e+01   -1.197584442384602e+02   
1.008500000000000e+10    -1.793444832446322e+01   -1.198227169487534e+02   
1.008600000000000e+10    -1.789921144597064e+01   -1.198042082558390e+02   
1.008700000000000e+10    -1.787018925055867e+01   -1.198794585114041e+02   
1.008800000000000e+10    -1.784301484644536e+01   -1.199288239086968e+02   
1.008900000000000e+10    -1.782870000467740e+01   -1.198475494969332e+02   
1.009000000000000e+10    -1.779975370586182e+01   -1.199339263968724e+02   
1.009100000000000e+10    -1.777596735711315e+01   -1.198283058600126e+02   
1.009200000000000e+10    -1.776000743147294e+01   -1.199926388272098e+02   
1.009300000000000e+10    -1.771257282311674e+01   -1.201130576286697e+02   
1.009400000000000e+10    -1.770389169289470e+01   -1.201041398823782e+02   
1.009500000000000e+10    -1.766934870316094e+01   -1.200501434959302e+02   
1.009600000000000e+10    -1.764037637774269e+01   -1.201624817699018e+02   
1.009700000000000e+10    -1.762526519408294e+01   -1.202243143934387e+02   
1.009800000000000e+10    -1.759020477833724e+01   -1.203367423153242e+02   
1.009900000000000e+10    -1.757199818397438e+01   -1.202402996183058e+02   
1.010000000000000e+10    -1.755648573088437e+01   -1.204944282775238e+02   
1.010100000000000e+10    -1.754335865602684e+01   -1.204384296057866e+02   
1.010200000000000e+10    -1.750547930954614e+01   -1.205987070358384e+02   
1.010300000000000e+10    -1.748808553432316e+01   -1.205527291313450e+02   
1.010400000000000e+10    -1.746487257815541e+01   -1.207200755322910e+02   
1.010500000000000e+10    -1.744365513694262e+01   -1.209621072617426e+02   
1.010600000000000e+10    -1.742904601521680e+01   -1.209086220686598e+02   
1.010700000000000e+10    -1.739771892287522e+01   -1.210104064557080e+02   
1.010800000000000e+10    -1.737162969869910e+01   -1.213084122728414e+02   
1.010900000000000e+10    -1.734600494821128e+01   -1.213601582827341e+02   
1.011000000000000e+10    -1.732312440214046e+01   -1.215261149872471e+02   
1.011100000000000e+10    -1.730537574347573e+01   -1.215885251585662e+02   
1.011200000000000e+10    -1.728781348711808e+01   -1.218443196415904e+02   
1.011300000000000e+10    -1.726798996775404e+01   -1.218371702750495e+02   
1.011400000000000e+10    -1.721942705891171e+01   -1.219821785129239e+02   
1.011500000000000e+10    -1.721056923540788e+01   -1.221362642856899e+02   
1.011600000000000e+10    -1.719749117422596e+01   -1.224037146981627e+02   
1.011700000000000e+10    -1.715447012469929e+01   -1.224402945940427e+02   
1.011800000000000e+10    -1.714983556043546e+01   -1.226775739611159e+02   
1.011900000000000e+10    -1.710662837014812e+01   -1.229078253231143e+02   
1.012000000000000e+10    -1.707385026836754e+01   -1.230395788543924e+02   
1.012100000000000e+10    -1.706938808799777e+01   -1.232562061818102e+02   
1.012200000000000e+10    -1.703058560546674e+01   -1.234061949777806e+02   
1.012300000000000e+10    -1.701281369013095e+01   -1.236758370183275e+02   
1.012400000000000e+10    -1.697848584920440e+01   -1.237349397958325e+02   
1.012500000000000e+10    -1.696013585554317e+01   -1.238558822823421e+02   
1.012600000000000e+10    -1.693260628801149e+01   -1.240743347520735e+02   
1.012700000000000e+10    -1.690264919249771e+01   -1.243517226939171e+02   
1.012800000000000e+10    -1.688285840182586e+01   -1.244718476627829e+02   
1.012900000000000e+10    -1.684322836083591e+01   -1.246771369555490e+02   
1.013000000000000e+10    -1.684325150125262e+01   -1.249129119282399e+02   
1.013100000000000e+10    -1.679347430290018e+01   -1.249685865152928e+02   
1.013200000000000e+10    -1.676507247769077e+01   -1.253043250181201e+02   
1.013300000000000e+10    -1.673358213122803e+01   -1.254198317694345e+02   
1.013400000000000e+10    -1.672093659744273e+01   -1.256836195503167e+02   
1.013500000000000e+10    -1.669095662874179e+01   -1.258463889299329e+02   
1.013600000000000e+10    -1.666161384092767e+01   -1.261038354581069e+02   
1.013700000000000e+10    -1.663528375673063e+01   -1.261817000589323e+02   
1.013800000000000e+10    -1.661169035944839e+01   -1.265333439412786e+02   
1.013900000000000e+10    -1.657505897860782e+01   -1.266839188756040e+02   
1.014000000000000e+10    -1.657703484318699e+01   -1.268815485936094e+02   
1.014100000000000e+10    -1.654803901010889e+01   -1.270524849965041e+02   
1.014200000000000e+10    -1.653141652430702e+01   -1.273105098317186e+02   
1.014300000000000e+10    -1.649349852507679e+01   -1.274737255937915e+02   
1.014400000000000e+10    -1.648759313341199e+01   -1.277101648087782e+02   
1.014500000000000e+10    -1.644600388382844e+01   -1.278856298961984e+02   
1.014600000000000e+10    -1.642239828730452e+01   -1.280878379142572e+02   
1.014700000000000e+10    -1.640591220102488e+01   -1.282758254088532e+02   
1.014800000000000e+10    -1.638797877383567e+01   -1.285582102405790e+02   
1.014900000000000e+10    -1.634702891538805e+01   -1.286405334750655e+02   
1.015000000000000e+10    -1.634143037812509e+01   -1.289233414973069e+02   
1.015100000000000e+10    -1.631012095566964e+01   -1.290390562731099e+02   
1.015200000000000e+10    -1.629395326999222e+01   -1.292769824578233e+02   
1.015300000000000e+10    -1.625901874946381e+01   -1.295401366874082e+02   
1.015400000000000e+10    -1.625910196955601e+01   -1.297273344877405e+02   
1.015500000000000e+10    -1.623055687124132e+01   -1.299023002212658e+02   
1.015600000000000e+10    -1.621259559886085e+01   -1.299824088205301e+02   
1.015700000000000e+10    -1.618292713661096e+01   -1.301951899204679e+02   
1.015800000000000e+10    -1.615844108430784e+01   -1.303734983612692e+02   
1.015900000000000e+10    -1.613606770616904e+01   -1.306776038713021e+02   
1.016000000000000e+10    -1.613414856746636e+01   -1.309252485928242e+02   
1.016100000000000e+10    -1.612437683688012e+01   -1.310624457525802e+02   
1.016200000000000e+10    -1.610601872365897e+01   -1.312613454529481e+02   
1.016300000000000e+10    -1.607863063811084e+01   -1.314321948412139e+02   
1.016400000000000e+10    -1.606549466313068e+01   -1.315974495150246e+02   
1.016500000000000e+10    -1.604264150840993e+01   -1.317526862409666e+02   
1.016600000000000e+10    -1.604094252918335e+01   -1.319634310507218e+02   
1.016700000000000e+10    -1.602564618131322e+01   -1.322191435405836e+02   
1.016800000000000e+10    -1.600449349985236e+01   -1.323358315965810e+02   
1.016900000000000e+10    -1.600217149180680e+01   -1.326200685884615e+02   
1.017000000000000e+10    -1.598339758830098e+01   -1.328172775097414e+02   
1.017100000000000e+10    -1.598642728300425e+01   -1.330746596351322e+02   
1.017200000000000e+10    -1.596694144891136e+01   -1.331412076123250e+02   
1.017300000000000e+10    -1.595462833369490e+01   -1.333168312806002e+02   
1.017400000000000e+10    -1.594143185098597e+01   -1.335461231711191e+02   
1.017500000000000e+10    -1.596208158354779e+01   -1.336948937488078e+02   
1.017600000000000e+10    -1.592578452334325e+01   -1.340260924444876e+02   
1.017700000000000e+10    -1.593156033573390e+01   -1.342069211526309e+02   
1.017800000000000e+10    -1.592203805215365e+01   -1.343474670660972e+02   
1.017900000000000e+10    -1.590315082597017e+01   -1.345789466092821e+02   
1.018000000000000e+10    -1.592890346352609e+01   -1.347020070529064e+02   
1.018100000000000e+10    -1.590811482732809e+01   -1.349688855890497e+02   
1.018200000000000e+10    -1.592892455223301e+01   -1.351569136256800e+02   
1.018300000000000e+10    -1.591643818377101e+01   -1.354035594415944e+02   
1.018400000000000e+10    -1.590162961134009e+01   -1.356385819917130e+02   
1.018500000000000e+10    -1.590822042320960e+01   -1.358915497063827e+02   
1.018600000000000e+10    -1.590559176243027e+01   -1.360465921361588e+02   
1.018700000000000e+10    -1.591876899320610e+01   -1.362742230130430e+02   
1.018800000000000e+10    -1.591465815733684e+01   -1.363808718389537e+02   
1.018900000000000e+10    -1.590993044603760e+01   -1.365915322980522e+02   
1.019000000000000e+10    -1.591462681639611e+01   -1.368528778769798e+02   
1.019100000000000e+10    -1.591665350411075e+01   -1.370814224693661e+02   
1.019200000000000e+10    -1.590478659061144e+01   -1.373119122011660e+02   
1.019300000000000e+10    -1.590046237467770e+01   -1.374860827413463e+02   
1.019400000000000e+10    -1.591397868925138e+01   -1.377249467395970e+02   
1.019500000000000e+10    -1.590996342274740e+01   -1.378818666260759e+02   
1.019600000000000e+10    -1.592038396498327e+01   -1.381456710722485e+02   
1.019700000000000e+10    -1.591445736870084e+01   -1.383649474104215e+02   
1.019800000000000e+10    -1.590917329334233e+01   -1.386604315114607e+02   
1.019900000000000e+10    -1.591072802058297e+01   -1.388011754947650e+02   
1.020000000000000e+10    -1.593019213916405e+01   -1.390745752576328e+02   
1.020100000000000e+10    -1.591482594405137e+01   -1.391934690849588e+02   
1.020200000000000e+10    -1.592663790130512e+01   -1.394346712682040e+02   
1.020300000000000e+10    -1.591679601674658e+01   -1.395534776152599e+02   
1.020400000000000e+10    -1.593105132681546e+01   -1.397820566353788e+02   
1.020500000000000e+10    -1.593779156121487e+01   -1.400651304910460e+02   
1.020600000000000e+10    -1.593025249312666e+01   -1.402706671035102e+02   
1.020700000000000e+10    -1.592583284115100e+01   -1.405331597935791e+02   
1.020800000000000e+10    -1.593268709178664e+01   -1.406877486491834e+02   
1.020900000000000e+10    -1.595774467310311e+01   -1.409230870144786e+02   
1.021000000000000e+10    -1.595809835990703e+01   -1.411119116015516e+02   
1.021100000000000e+10    -1.595296907964046e+01   -1.413184410960182e+02   
1.021200000000000e+10    -1.597258555580207e+01   -1.414894803902645e+02   
1.021300000000000e+10    -1.597247900364141e+01   -1.417065181457208e+02   
1.021400000000000e+10    -1.597958714397101e+01   -1.418893421421638e+02   
1.021500000000000e+10    -1.597901027592717e+01   -1.420335815860446e+02   
1.021600000000000e+10    -1.598736678758027e+01   -1.423166236605840e+02   
1.021700000000000e+10    -1.599139466695574e+01   -1.425133284674591e+02   
1.021800000000000e+10    -1.599661544202428e+01   -1.426514192292137e+02   
1.021900000000000e+10    -1.601373507148453e+01   -1.427786147452099e+02   
1.022000000000000e+10    -1.601791272951456e+01   -1.430208732006982e+02   
1.022100000000000e+10    -1.601136470083043e+01   -1.432567278077369e+02   
1.022200000000000e+10    -1.604399660752327e+01   -1.433171535722680e+02   
1.022300000000000e+10    -1.604570070869802e+01   -1.435150916439659e+02   
1.022400000000000e+10    -1.605774284957104e+01   -1.437425355195787e+02   
1.022500000000000e+10    -1.605657458042585e+01   -1.438682578791912e+02   
1.022600000000000e+10    -1.608717510782843e+01   -1.441558488681126e+02   
1.022700000000000e+10    -1.608856625213221e+01   -1.442915789391726e+02   
1.022800000000000e+10    -1.609626484882062e+01   -1.444761200673160e+02   
1.022900000000000e+10    -1.611313091945042e+01   -1.447118688756347e+02   
1.023000000000000e+10    -1.610660018239948e+01   -1.448806913777928e+02   
1.023100000000000e+10    -1.611325324276051e+01   -1.451016601159204e+02   
1.023200000000000e+10    -1.613600762560856e+01   -1.452936809783454e+02   
1.023300000000000e+10    -1.614696015400272e+01   -1.454200146693213e+02   
1.023400000000000e+10    -1.615764898938076e+01   -1.456428237801535e+02   
1.023500000000000e+10    -1.619216925879108e+01   -1.456819858691923e+02   
1.023600000000000e+10    -1.617007573290700e+01   -1.458776719098044e+02   
1.023700000000000e+10    -1.619411025620345e+01   -1.461406151536562e+02   
1.023800000000000e+10    -1.619812407783470e+01   -1.462174721306736e+02   
1.023900000000000e+10    -1.621493853905834e+01   -1.465379880895673e+02   
1.024000000000000e+10    -1.624038632064936e+01   -1.465836592696907e+02   
1.024100000000000e+10    -1.622510697973567e+01   -1.466816498024938e+02   
1.024200000000000e+10    -1.624394567925239e+01   -1.469364187750325e+02   
1.024300000000000e+10    -1.626718200597125e+01   -1.470716036266062e+02   
1.024400000000000e+10    -1.627950688447061e+01   -1.472707978243570e+02   
1.024500000000000e+10    -1.627618588813274e+01   -1.474217918295935e+02   
1.024600000000000e+10    -1.629578290966696e+01   -1.476554316898387e+02   
1.024700000000000e+10    -1.630631629749474e+01   -1.478111149146185e+02   
1.024800000000000e+10    -1.632128807903664e+01   -1.478807873892235e+02   
1.024900000000000e+10    -1.635526362025321e+01   -1.481151318110632e+02   
1.025000000000000e+10    -1.634876363794345e+01   -1.483276069438460e+02   
1.025100000000000e+10    -1.635056992891068e+01   -1.483153331220919e+02   
1.025200000000000e+10    -1.637993348259438e+01   -1.486241951475328e+02   
1.025300000000000e+10    -1.637279373214654e+01   -1.487046274070265e+02   
1.025400000000000e+10    -1.639316402814434e+01   -1.488548822107665e+02   
1.025500000000000e+10    -1.642548391466287e+01   -1.490098801754904e+02   
1.025600000000000e+10    -1.643421459476379e+01   -1.491723731073364e+02   
