[Version] 2.0
! Rohde & Schwarz Vector Network Analyzer
! Rohde-Schwarz,ZNL20-2Port,1323001220200009,1.71.1.10-23.02.1.238
! 
! Port Assignments:
! Nominal Port -> Actual Test Port
! --------------------------------
!   1 -> 1

! Created: GMT 2024-08-27 13:50:32

# Hz S DB R 50

[Number of Ports] 1
[Number of Frequencies] 2001

[Network Data] 
! freq[Hz]               S11[mag dB]              S11[ang]                 
1.000000000000000e+10    -2.066424963592429e+01   -1.276935698983244e+02   
1.000100000000000e+10    -2.067535934252173e+01   -1.272693688563408e+02   
1.000200000000000e+10    -2.065733448588389e+01   -1.267988967727775e+02   
1.000300000000000e+10    -2.067711680471051e+01   -1.266139964440508e+02   
1.000400000000000e+10    -2.066835654953126e+01   -1.264733155389794e+02   
1.000500000000000e+10    -2.065329569029394e+01   -1.262389505995656e+02   
1.000600000000000e+10    -2.065857041217019e+01   -1.258753063141855e+02   
1.000700000000000e+10    -2.064691470070458e+01   -1.255466816419124e+02   
1.000800000000000e+10    -2.064544031626316e+01   -1.253486820310319e+02   
1.000900000000000e+10    -2.065972485140226e+01   -1.252611187061095e+02   
1.001000000000000e+10    -2.064451312116588e+01   -1.248020995664960e+02   
1.001100000000000e+10    -2.064647345486594e+01   -1.246476843809078e+02   
1.001200000000000e+10    -2.062414662032511e+01   -1.244395507807931e+02   
1.001300000000000e+10    -2.065304323119759e+01   -1.242520380179197e+02   
1.001400000000000e+10    -2.062781849743713e+01   -1.241574010538049e+02   
1.001500000000000e+10    -2.061820613713895e+01   -1.238648609313921e+02   
1.001600000000000e+10    -2.057917925834818e+01   -1.236603045130870e+02   
1.001700000000000e+10    -2.059990840938711e+01   -1.235858397211092e+02   
1.001800000000000e+10    -2.057397483187097e+01   -1.234443325113595e+02   
1.001900000000000e+10    -2.056205126768001e+01   -1.232303519151953e+02   
1.002000000000000e+10    -2.055801861240286e+01   -1.231847521149100e+02   
1.002100000000000e+10    -2.053945627373381e+01   -1.230567947078556e+02   
1.002200000000000e+10    -2.050897089371637e+01   -1.228283570105988e+02   
1.002300000000000e+10    -2.047865128375715e+01   -1.227696664674593e+02   
1.002400000000000e+10    -2.045076259917627e+01   -1.227174775927790e+02   
1.002500000000000e+10    -2.045319373421936e+01   -1.224428590603051e+02   
1.002600000000000e+10    -2.044456892478620e+01   -1.225982484339232e+02   
1.002700000000000e+10    -2.041446521608279e+01   -1.225351769477707e+02   
1.002800000000000e+10    -2.039283059342372e+01   -1.223018875140226e+02   
1.002900000000000e+10    -2.035801563316999e+01   -1.221392751456056e+02   
1.003000000000000e+10    -2.035736542942177e+01   -1.219189452558151e+02   
1.003100000000000e+10    -2.031216201706565e+01   -1.221123343311388e+02   
1.003200000000000e+10    -2.029929487626753e+01   -1.220296942779687e+02   
1.003300000000000e+10    -2.024653798643645e+01   -1.219805336258408e+02   
1.003400000000000e+10    -2.021556234736634e+01   -1.218004231352849e+02   
1.003500000000000e+10    -2.020895415774104e+01   -1.216957362093661e+02   
1.003600000000000e+10    -2.012805271305518e+01   -1.215910935903537e+02   
1.003700000000000e+10    -2.013213654700291e+01   -1.215515321669374e+02   
1.003800000000000e+10    -2.009923376199124e+01   -1.215371320466463e+02   
1.003900000000000e+10    -2.008287499580849e+01   -1.214767383028708e+02   
1.004000000000000e+10    -2.002683540140850e+01   -1.215573164209958e+02   
1.004100000000000e+10    -2.001292627923575e+01   -1.213746387336316e+02   
1.004200000000000e+10    -1.995166754031386e+01   -1.213521886671551e+02   
1.004300000000000e+10    -1.992768041712477e+01   -1.212618216848629e+02   
1.004400000000000e+10    -1.990660138171312e+01   -1.212791668026700e+02   
1.004500000000000e+10    -1.984155917116765e+01   -1.211685462494781e+02   
1.004600000000000e+10    -1.981656724885114e+01   -1.210393053209883e+02   
1.004700000000000e+10    -1.978444301485038e+01   -1.210452937136217e+02   
1.004800000000000e+10    -1.973377296781300e+01   -1.209621475167085e+02   
1.004900000000000e+10    -1.968880047913735e+01   -1.209434106378088e+02   
1.005000000000000e+10    -1.966616146541818e+01   -1.209983293400486e+02   
1.005100000000000e+10    -1.958968701972329e+01   -1.209598110116274e+02   
1.005200000000000e+10    -1.955485199925263e+01   -1.206914857601388e+02   
1.005300000000000e+10    -1.952033876463687e+01   -1.207282315268372e+02   
1.005400000000000e+10    -1.947880842376601e+01   -1.207199735075095e+02   
1.005500000000000e+10    -1.943594815032048e+01   -1.206250141271637e+02   
1.005600000000000e+10    -1.941971122257511e+01   -1.204980527997548e+02   
1.005700000000000e+10    -1.934902659765642e+01   -1.204525672176409e+02   
1.005800000000000e+10    -1.931235991172289e+01   -1.204829148880480e+02   
1.005900000000000e+10    -1.928381487775165e+01   -1.204879962260266e+02   
1.006000000000000e+10    -1.922269900974626e+01   -1.203881375640662e+02   
1.006100000000000e+10    -1.919073305496626e+01   -1.202047281310761e+02   
1.006200000000000e+10    -1.915116412771606e+01   -1.201909323018957e+02   
1.006300000000000e+10    -1.911289542941768e+01   -1.200809485288862e+02   
1.006400000000000e+10    -1.905826266482368e+01   -1.201055284754388e+02   
1.006500000000000e+10    -1.902725091856104e+01   -1.200315409796815e+02   
1.006600000000000e+10    -1.898765896013564e+01   -1.198565150369526e+02   
1.006700000000000e+10    -1.895865371945760e+01   -1.199370814685460e+02   
1.006800000000000e+10    -1.889613704153132e+01   -1.197541923429823e+02   
1.006900000000000e+10    -1.885883265011296e+01   -1.196392479953913e+02   
1.007000000000000e+10    -1.881635739081144e+01   -1.196753988561952e+02   
1.007100000000000e+10    -1.877349625499520e+01   -1.197039016045602e+02   
1.007200000000000e+10    -1.873095413914992e+01   -1.195016463971288e+02   
1.007300000000000e+10    -1.871270498489297e+01   -1.196095211826697e+02   
1.007400000000000e+10    -1.864457088752785e+01   -1.194428273582014e+02   
1.007500000000000e+10    -1.863280757121640e+01   -1.193466181212873e+02   
1.007600000000000e+10    -1.860534129127084e+01   -1.192826535434072e+02   
1.007700000000000e+10    -1.854071147960376e+01   -1.192749251251599e+02   
1.007800000000000e+10    -1.850103616744758e+01   -1.191569175208596e+02   
1.007900000000000e+10    -1.846934901844634e+01   -1.192087436139404e+02   
1.008000000000000e+10    -1.845866622005957e+01   -1.190684265697480e+02   
1.008100000000000e+10    -1.839860910868212e+01   -1.190385335119043e+02   
1.008200000000000e+10    -1.834612615975961e+01   -1.189750141734619e+02   
1.008300000000000e+10    -1.832671680094533e+01   -1.190171196494889e+02   
1.008400000000000e+10    -1.831325255673758e+01   -1.189098876617043e+02   
1.008500000000000e+10    -1.826108132969493e+01   -1.189365773714679e+02   
1.008600000000000e+10    -1.822302497475373e+01   -1.188875942927535e+02   
1.008700000000000e+10    -1.819345387561608e+01   -1.189325318688263e+02   
1.008800000000000e+10    -1.816162478474801e+01   -1.189364039841880e+02   
1.008900000000000e+10    -1.814259160644015e+01   -1.188184787497964e+02   
1.009000000000000e+10    -1.811094824719261e+01   -1.188982767313981e+02   
1.009100000000000e+10    -1.808185427340140e+01   -1.187514941610086e+02   
1.009200000000000e+10    -1.806521835125821e+01   -1.189007578148702e+02   
1.009300000000000e+10    -1.801478735675584e+01   -1.189950831382785e+02   
1.009400000000000e+10    -1.800322952921216e+01   -1.189517229614559e+02   
1.009500000000000e+10    -1.796709144993746e+01   -1.188631810064446e+02   
1.009600000000000e+10    -1.793281846210893e+01   -1.189658526841417e+02   
1.009700000000000e+10    -1.791711643468937e+01   -1.190022942792759e+02   
1.009800000000000e+10    -1.787835630925770e+01   -1.191108300119427e+02   
1.009900000000000e+10    -1.785577706132500e+01   -1.189556806839977e+02   
1.010000000000000e+10    -1.783967902956551e+01   -1.191943295017247e+02   
1.010100000000000e+10    -1.782159823510680e+01   -1.190982710111413e+02   
1.010200000000000e+10    -1.778192983917177e+01   -1.192423681137344e+02   
1.010300000000000e+10    -1.775875714899377e+01   -1.191673907045786e+02   
1.010400000000000e+10    -1.773040973967929e+01   -1.192978340801797e+02   
1.010500000000000e+10    -1.771227538616104e+01   -1.195334112572596e+02   
1.010600000000000e+10    -1.768953609205559e+01   -1.194615862006229e+02   
1.010700000000000e+10    -1.765672552615265e+01   -1.195360262905027e+02   
1.010800000000000e+10    -1.762499027226242e+01   -1.198078000948720e+02   
1.010900000000000e+10    -1.759475691200225e+01   -1.198399614862531e+02   
1.011000000000000e+10    -1.757035487099071e+01   -1.199912757524938e+02   
1.011100000000000e+10    -1.754987658598242e+01   -1.200378210085731e+02   
1.011200000000000e+10    -1.752945591874133e+01   -1.202807364990949e+02   
1.011300000000000e+10    -1.750710448601836e+01   -1.202457064362365e+02   
1.011400000000000e+10    -1.745261763708555e+01   -1.203898609075361e+02   
1.011500000000000e+10    -1.744205237225300e+01   -1.205106049824436e+02   
1.011600000000000e+10    -1.742834203649696e+01   -1.207673599860138e+02   
1.011700000000000e+10    -1.738158275967148e+01   -1.207849822462885e+02   
1.011800000000000e+10    -1.737223903487276e+01   -1.210035465509347e+02   
1.011900000000000e+10    -1.732729968714127e+01   -1.212261815537266e+02   
1.012000000000000e+10    -1.729077939472102e+01   -1.213338995145555e+02   
1.012100000000000e+10    -1.728327918910838e+01   -1.215252698290037e+02   
1.012200000000000e+10    -1.724101993466885e+01   -1.216754260746502e+02   
1.012300000000000e+10    -1.721850714958333e+01   -1.219151477644048e+02   
1.012400000000000e+10    -1.718106347881491e+01   -1.219705928369939e+02   
1.012500000000000e+10    -1.715829370974812e+01   -1.220781907708965e+02   
1.012600000000000e+10    -1.712871877130926e+01   -1.222822422591184e+02   
1.012700000000000e+10    -1.709540126786353e+01   -1.225209409598326e+02   
1.012800000000000e+10    -1.707245612749191e+01   -1.226517280014782e+02   
1.012900000000000e+10    -1.703039909413238e+01   -1.228398335151126e+02   
1.013000000000000e+10    -1.702657605575723e+01   -1.230529095772979e+02   
1.013100000000000e+10    -1.697246814281115e+01   -1.231040165604358e+02   
1.013200000000000e+10    -1.694173583757498e+01   -1.234344615888426e+02   
1.013300000000000e+10    -1.690707865077199e+01   -1.235180222610082e+02   
1.013400000000000e+10    -1.688992262067670e+01   -1.237661885681990e+02   
1.013500000000000e+10    -1.685743389050101e+01   -1.239343531685151e+02   
1.013600000000000e+10    -1.682609473602330e+01   -1.241755842783049e+02   
1.013700000000000e+10    -1.679085156436639e+01   -1.242408532613580e+02   
1.013800000000000e+10    -1.676659603991792e+01   -1.245705936808375e+02   
1.013900000000000e+10    -1.672614814248559e+01   -1.247177753642762e+02   
1.014000000000000e+10    -1.672397248157318e+01   -1.248994294699144e+02   
1.014100000000000e+10    -1.668966603023909e+01   -1.250463779922561e+02   
1.014200000000000e+10    -1.666946814993463e+01   -1.252981210884679e+02   
1.014300000000000e+10    -1.662858239802293e+01   -1.254533652596577e+02   
1.014400000000000e+10    -1.662035840842280e+01   -1.256810899519550e+02   
1.014500000000000e+10    -1.657435138895877e+01   -1.258589446300314e+02   
1.014600000000000e+10    -1.654628254016656e+01   -1.260375066068727e+02   
1.014700000000000e+10    -1.652627227666992e+01   -1.262237664353097e+02   
1.014800000000000e+10    -1.650515127752114e+01   -1.264902708654735e+02   
1.014900000000000e+10    -1.645909772924301e+01   -1.265650754460046e+02   
1.015000000000000e+10    -1.644714480570751e+01   -1.268271207164414e+02   
1.015100000000000e+10    -1.641311481324944e+01   -1.269338400349256e+02   
1.015200000000000e+10    -1.639327104826713e+01   -1.271509003863434e+02   
1.015300000000000e+10    -1.635648944057515e+01   -1.274371218486940e+02   
1.015400000000000e+10    -1.634999976492730e+01   -1.275836421360931e+02   
1.015500000000000e+10    -1.631651622810616e+01   -1.277442879690436e+02   
1.015600000000000e+10    -1.629359082098848e+01   -1.278345893837462e+02   
1.015700000000000e+10    -1.626071461462832e+01   -1.280370525864759e+02   
1.015800000000000e+10    -1.623025630994367e+01   -1.282023011847038e+02   
1.015900000000000e+10    -1.620412382878790e+01   -1.285243243045756e+02   
1.016000000000000e+10    -1.619691657046929e+01   -1.287463792144130e+02   
1.016100000000000e+10    -1.618298745941636e+01   -1.288660776534223e+02   
1.016200000000000e+10    -1.616124671862199e+01   -1.290717975343073e+02   
1.016300000000000e+10    -1.612794124062738e+01   -1.292444069107349e+02   
1.016400000000000e+10    -1.611281205473516e+01   -1.293918936742979e+02   
1.016500000000000e+10    -1.608394405112087e+01   -1.295466305072651e+02   
1.016600000000000e+10    -1.607874152266427e+01   -1.297507723150414e+02   
1.016700000000000e+10    -1.605802807836971e+01   -1.299937247900863e+02   
1.016800000000000e+10    -1.602987554879745e+01   -1.301082828795408e+02   
1.016900000000000e+10    -1.602565336478076e+01   -1.303800353198987e+02   
1.017000000000000e+10    -1.599942709388256e+01   -1.305764570993198e+02   
1.017100000000000e+10    -1.599974455512695e+01   -1.308221475567961e+02   
1.017200000000000e+10    -1.597377342883798e+01   -1.308970916254107e+02   
1.017300000000000e+10    -1.595672794874917e+01   -1.310681815943526e+02   
1.017400000000000e+10    -1.593837506410222e+01   -1.312735878434673e+02   
1.017500000000000e+10    -1.595331134867625e+01   -1.314344150405275e+02   
1.017600000000000e+10    -1.591170939745865e+01   -1.317573785844911e+02   
1.017700000000000e+10    -1.591234542550559e+01   -1.319221495145428e+02   
1.017800000000000e+10    -1.589784391102201e+01   -1.320788610150003e+02   
1.017900000000000e+10    -1.587468835281766e+01   -1.323135396548283e+02   
1.018000000000000e+10    -1.589145124593959e+01   -1.324218372019382e+02   
1.018100000000000e+10    -1.586553080060717e+01   -1.326801834761014e+02   
1.018200000000000e+10    -1.588023706420380e+01   -1.328783474161777e+02   
1.018300000000000e+10    -1.586267567922142e+01   -1.331476154909373e+02   
1.018400000000000e+10    -1.584053642274188e+01   -1.333700771545705e+02   
1.018500000000000e+10    -1.584635129419171e+01   -1.336200444847321e+02   
1.018600000000000e+10    -1.583536525182122e+01   -1.338063620242977e+02   
1.018700000000000e+10    -1.584186895696624e+01   -1.339919645870993e+02   
1.018800000000000e+10    -1.583307878606969e+01   -1.341252793590716e+02   
1.018900000000000e+10    -1.582371929093589e+01   -1.343517041911366e+02   
1.019000000000000e+10    -1.582199708767856e+01   -1.346102198962275e+02   
1.019100000000000e+10    -1.581755959842292e+01   -1.348406446460184e+02   
1.019200000000000e+10    -1.580192413025158e+01   -1.350970165231421e+02   
1.019300000000000e+10    -1.578994363695928e+01   -1.352909700963476e+02   
1.019400000000000e+10    -1.580008956802676e+01   -1.355397147173601e+02   
1.019500000000000e+10    -1.579212979251862e+01   -1.357120350983048e+02   
1.019600000000000e+10    -1.579718991014209e+01   -1.359702696025633e+02   
1.019700000000000e+10    -1.578580893388908e+01   -1.362097518730566e+02   
1.019800000000000e+10    -1.577805617393626e+01   -1.364932697253800e+02   
1.019900000000000e+10    -1.577389208385819e+01   -1.366734569246151e+02   
1.020000000000000e+10    -1.578742096034156e+01   -1.369600716348083e+02   
1.020100000000000e+10    -1.576889039102373e+01   -1.370803863216319e+02   
1.020200000000000e+10    -1.577345673904962e+01   -1.373548475666298e+02   
1.020300000000000e+10    -1.576062797726830e+01   -1.374638441787850e+02   
1.020400000000000e+10    -1.577087138180869e+01   -1.377167440091954e+02   
1.020500000000000e+10    -1.577022080035369e+01   -1.380282622165892e+02   
1.020600000000000e+10    -1.575838328884627e+01   -1.382469169705759e+02   
1.020700000000000e+10    -1.574794992872635e+01   -1.385494038470028e+02   
1.020800000000000e+10    -1.575113433769837e+01   -1.387077261288724e+02   
1.020900000000000e+10    -1.577261081535017e+01   -1.389468292849876e+02   
1.021000000000000e+10    -1.576711023814885e+01   -1.391783151691961e+02   
1.021100000000000e+10    -1.575927886457786e+01   -1.393895278264223e+02   
1.021200000000000e+10    -1.577337484872405e+01   -1.395863211507538e+02   
1.021300000000000e+10    -1.577048918962053e+01   -1.398185217333650e+02   
1.021400000000000e+10    -1.577273238653569e+01   -1.400171252864965e+02   
1.021500000000000e+10    -1.576699983301991e+01   -1.401847910421581e+02   
1.021600000000000e+10    -1.577072261237193e+01   -1.404927457467741e+02   
1.021700000000000e+10    -1.577003287357525e+01   -1.407192700319329e+02   
1.021800000000000e+10    -1.577235829349258e+01   -1.408724904417359e+02   
1.021900000000000e+10    -1.578431682448750e+01   -1.410350897807819e+02   
1.022000000000000e+10    -1.578630676714827e+01   -1.412930000226112e+02   
1.022100000000000e+10    -1.577657772404663e+01   -1.415458904814287e+02   
1.022200000000000e+10    -1.580332022408528e+01   -1.416436280982409e+02   
1.022300000000000e+10    -1.580057822350567e+01   -1.418668262467161e+02   
1.022400000000000e+10    -1.580941703395706e+01   -1.421128344362918e+02   
1.022500000000000e+10    -1.580314386688895e+01   -1.422613265330436e+02   
1.022600000000000e+10    -1.582984588617196e+01   -1.425780534475146e+02   
1.022700000000000e+10    -1.582909031775476e+01   -1.427457669509042e+02   
1.022800000000000e+10    -1.583281992195879e+01   -1.429475963727258e+02   
1.022900000000000e+10    -1.584649734664572e+01   -1.432178802688600e+02   
1.023000000000000e+10    -1.583771730862841e+01   -1.434318268390920e+02   
1.023100000000000e+10    -1.584276429847799e+01   -1.436588750110050e+02   
1.023200000000000e+10    -1.586088951868574e+01   -1.438874726577919e+02   
1.023300000000000e+10    -1.586982761715054e+01   -1.440425966080565e+02   
1.023400000000000e+10    -1.587549498967813e+01   -1.442959821173064e+02   
1.023500000000000e+10    -1.590797175795769e+01   -1.443764004900962e+02   
1.023600000000000e+10    -1.588286562718609e+01   -1.445989030282160e+02   
1.023700000000000e+10    -1.590787745655047e+01   -1.448866260635741e+02   
1.023800000000000e+10    -1.590822340620734e+01   -1.449920384014289e+02   
1.023900000000000e+10    -1.592196309007789e+01   -1.453372246192320e+02   
1.024000000000000e+10    -1.594564449689285e+01   -1.454177097521082e+02   
1.024100000000000e+10    -1.593240935244781e+01   -1.455508392085364e+02   
1.024200000000000e+10    -1.594771105048912e+01   -1.458304924806223e+02   
1.024300000000000e+10    -1.596897020285925e+01   -1.459830511841989e+02   
1.024400000000000e+10    -1.598048502967895e+01   -1.462217174261915e+02   
1.024500000000000e+10    -1.597704670638291e+01   -1.463995257836162e+02   
1.024600000000000e+10    -1.599480666660515e+01   -1.466652155759894e+02   
1.024700000000000e+10    -1.600281288703842e+01   -1.468386904561205e+02   
1.024800000000000e+10    -1.601732784294746e+01   -1.469318674842456e+02   
1.024900000000000e+10    -1.604910775158042e+01   -1.471913985246226e+02   
1.025000000000000e+10    -1.604278002128515e+01   -1.474301638287548e+02   
1.025100000000000e+10    -1.604416185513774e+01   -1.474622949807925e+02   
1.025200000000000e+10    -1.606982423492043e+01   -1.477642604588646e+02   
1.025300000000000e+10    -1.606346153151392e+01   -1.478811201469805e+02   
1.025400000000000e+10    -1.608218541238851e+01   -1.480599357097872e+02   
1.025500000000000e+10    -1.611500058984970e+01   -1.482307115670417e+02   
1.025600000000000e+10    -1.612079467389029e+01   -1.484302139185590e+02   
