[Version] 2.0
! Rohde & Schwarz Vector Network Analyzer
! Rohde-Schwarz,ZNL20-2Port,1323001220200009,1.71.1.10-23.02.1.238
! 
! Port Assignments:
! Nominal Port -> Actual Test Port
! --------------------------------
!   1 -> 1

! Created: GMT 2024-08-27 13:51:12

# Hz S DB R 50

[Number of Ports] 1
[Number of Frequencies] 2001

[Network Data] 
! freq[Hz]               S11[mag dB]              S11[ang]                 
1.000000000000000e+10    -2.072509072675161e+01   -1.296325332889816e+02   
1.000100000000000e+10    -2.074004957656879e+01   -1.292005480788372e+02   
1.000200000000000e+10    -2.073313698107856e+01   -1.287197469911456e+02   
1.000300000000000e+10    -2.075671769134321e+01   -1.285258919878936e+02   
1.000400000000000e+10    -2.075291128957475e+01   -1.284109761519879e+02   
1.000500000000000e+10    -2.074316011855336e+01   -1.281839698173011e+02   
1.000600000000000e+10    -2.075919680995718e+01   -1.278166974197437e+02   
1.000700000000000e+10    -2.075595500858810e+01   -1.274662616927971e+02   
1.000800000000000e+10    -2.076210258643275e+01   -1.272453161932113e+02   
1.000900000000000e+10    -2.078141355193496e+01   -1.271484998327498e+02   
1.001000000000000e+10    -2.077427593302659e+01   -1.266781193806244e+02   
1.001100000000000e+10    -2.077858036706444e+01   -1.265065829757796e+02   
1.001200000000000e+10    -2.076701535643145e+01   -1.262946455682076e+02   
1.001300000000000e+10    -2.079904496692154e+01   -1.260651696725017e+02   
1.001400000000000e+10    -2.077870832245659e+01   -1.259851393940295e+02   
1.001500000000000e+10    -2.077731085388723e+01   -1.256876646616791e+02   
1.001600000000000e+10    -2.074432754067096e+01   -1.254490855335089e+02   
1.001700000000000e+10    -2.076959763280836e+01   -1.253568739291846e+02   
1.001800000000000e+10    -2.075367331606521e+01   -1.251869586343923e+02   
1.001900000000000e+10    -2.074273009688145e+01   -1.249656243533291e+02   
1.002000000000000e+10    -2.074654899732144e+01   -1.249095239102632e+02   
1.002100000000000e+10    -2.072864296440994e+01   -1.247364369992610e+02   
1.002200000000000e+10    -2.071169762605804e+01   -1.244733224778215e+02   
1.002300000000000e+10    -2.068144632070975e+01   -1.243960348678998e+02   
1.002400000000000e+10    -2.065946635231465e+01   -1.243177696806155e+02   
1.002500000000000e+10    -2.066765797392754e+01   -1.239977454043521e+02   
1.002600000000000e+10    -2.065958198648145e+01   -1.241533349937793e+02   
1.002700000000000e+10    -2.063509412218471e+01   -1.240490204731685e+02   
1.002800000000000e+10    -2.062120492075567e+01   -1.237665311836332e+02   
1.002900000000000e+10    -2.058810006057662e+01   -1.235698597169135e+02   
1.003000000000000e+10    -2.059285017740856e+01   -1.233273844832489e+02   
1.003100000000000e+10    -2.054564034123366e+01   -1.234967051470590e+02   
1.003200000000000e+10    -2.053816935430227e+01   -1.233846358107098e+02   
1.003300000000000e+10    -2.048775238327806e+01   -1.232874585927509e+02   
1.003400000000000e+10    -2.046061422456480e+01   -1.230748348875010e+02   
1.003500000000000e+10    -2.045758416667507e+01   -1.229273089871935e+02   
1.003600000000000e+10    -2.037822330502080e+01   -1.227615036779802e+02   
1.003700000000000e+10    -2.038505335409611e+01   -1.227129083155855e+02   
1.003800000000000e+10    -2.035703327805471e+01   -1.226491190280039e+02   
1.003900000000000e+10    -2.034251193560635e+01   -1.225139086765056e+02   
1.004000000000000e+10    -2.028330670278806e+01   -1.225953004376562e+02   
1.004100000000000e+10    -2.027168058433892e+01   -1.223825182942403e+02   
1.004200000000000e+10    -2.020965694743866e+01   -1.223013523650502e+02   
1.004300000000000e+10    -2.019095631004102e+01   -1.221748569583729e+02   
1.004400000000000e+10    -2.017096342239302e+01   -1.221514055160025e+02   
1.004500000000000e+10    -2.010401093086499e+01   -1.220272666688192e+02   
1.004600000000000e+10    -2.007827730833812e+01   -1.218550863485899e+02   
1.004700000000000e+10    -2.004720261524790e+01   -1.217993507475037e+02   
1.004800000000000e+10    -1.999598664740842e+01   -1.216960111664961e+02   
1.004900000000000e+10    -1.995240460990492e+01   -1.216506482877717e+02   
1.005000000000000e+10    -1.993202184509012e+01   -1.216995152254850e+02   
1.005100000000000e+10    -1.985367179084300e+01   -1.216150874182546e+02   
1.005200000000000e+10    -1.981866063307698e+01   -1.212813814767807e+02   
1.005300000000000e+10    -1.978825362066739e+01   -1.213165752607958e+02   
1.005400000000000e+10    -1.974679698418061e+01   -1.212578657987790e+02   
1.005500000000000e+10    -1.970024891177288e+01   -1.211092130424569e+02   
1.005600000000000e+10    -1.968466588813689e+01   -1.209743921211620e+02   
1.005700000000000e+10    -1.961242575606753e+01   -1.208811920164120e+02   
1.005800000000000e+10    -1.957528537137402e+01   -1.208674886323995e+02   
1.005900000000000e+10    -1.955019237688826e+01   -1.208448580195419e+02   
1.006000000000000e+10    -1.948243152642781e+01   -1.207052507227581e+02   
1.006100000000000e+10    -1.945049579323343e+01   -1.204950564199132e+02   
1.006200000000000e+10    -1.941355268570615e+01   -1.204502238217795e+02   
1.006300000000000e+10    -1.937228566924315e+01   -1.203010246837492e+02   
1.006400000000000e+10    -1.931776556972253e+01   -1.203031462163294e+02   
1.006500000000000e+10    -1.928390607461868e+01   -1.201788015053928e+02   
1.006600000000000e+10    -1.924220810384065e+01   -1.199622535522527e+02   
1.006700000000000e+10    -1.921304912839833e+01   -1.200301007507700e+02   
1.006800000000000e+10    -1.914871608857741e+01   -1.198163637509663e+02   
1.006900000000000e+10    -1.910858941111142e+01   -1.196606720003686e+02   
1.007000000000000e+10    -1.906690451028354e+01   -1.196787753525037e+02   
1.007100000000000e+10    -1.902001246698452e+01   -1.196650670986159e+02   
1.007200000000000e+10    -1.897569125054982e+01   -1.194430255332650e+02   
1.007300000000000e+10    -1.895726819623426e+01   -1.195008082651140e+02   
1.007400000000000e+10    -1.888492949217440e+01   -1.193283151943820e+02   
1.007500000000000e+10    -1.887167569787483e+01   -1.192202803667174e+02   
1.007600000000000e+10    -1.884325700277221e+01   -1.191219468960635e+02   
1.007700000000000e+10    -1.877888827510179e+01   -1.190732696939316e+02   
1.007800000000000e+10    -1.873426264069855e+01   -1.189376731095861e+02   
1.007900000000000e+10    -1.870299453029147e+01   -1.189691661693929e+02   
1.008000000000000e+10    -1.868888127285670e+01   -1.187887564602297e+02   
1.008100000000000e+10    -1.862587875732513e+01   -1.187488251151393e+02   
1.008200000000000e+10    -1.857030491024496e+01   -1.186495148924536e+02   
1.008300000000000e+10    -1.855123812277392e+01   -1.186602541220679e+02   
1.008400000000000e+10    -1.853688413803823e+01   -1.185455038739213e+02   
1.008500000000000e+10    -1.848168920301631e+01   -1.185737824012450e+02   
1.008600000000000e+10    -1.844203072416101e+01   -1.185053464271475e+02   
1.008700000000000e+10    -1.840896957651686e+01   -1.185199690637164e+02   
1.008800000000000e+10    -1.837656703065944e+01   -1.185211966851849e+02   
1.008900000000000e+10    -1.835929523522232e+01   -1.183814929416924e+02   
1.009000000000000e+10    -1.832506124692819e+01   -1.184369450518221e+02   
1.009100000000000e+10    -1.829546044423452e+01   -1.182660661705840e+02   
1.009200000000000e+10    -1.827852717244166e+01   -1.184018321490899e+02   
1.009300000000000e+10    -1.822451456029734e+01   -1.184876006133122e+02   
1.009400000000000e+10    -1.821170882041989e+01   -1.184108696737560e+02   
1.009500000000000e+10    -1.817113109051048e+01   -1.183143478043273e+02   
1.009600000000000e+10    -1.813722684766515e+01   -1.183834938152284e+02   
1.009700000000000e+10    -1.811969477563682e+01   -1.184018890110243e+02   
1.009800000000000e+10    -1.807883454469975e+01   -1.184894292856589e+02   
1.009900000000000e+10    -1.805512807170992e+01   -1.183207715041462e+02   
1.010000000000000e+10    -1.803352327724049e+01   -1.185519930303022e+02   
1.010100000000000e+10    -1.801502457370915e+01   -1.184375297162474e+02   
1.010200000000000e+10    -1.797403078633714e+01   -1.185756074542690e+02   
1.010300000000000e+10    -1.794760432990065e+01   -1.184788159790900e+02   
1.010400000000000e+10    -1.791928657446834e+01   -1.186238813588120e+02   
1.010500000000000e+10    -1.789682943186021e+01   -1.188486498744877e+02   
1.010600000000000e+10    -1.787458139193479e+01   -1.187563382788823e+02   
1.010700000000000e+10    -1.783896173126045e+01   -1.188279911102526e+02   
1.010800000000000e+10    -1.780690353705634e+01   -1.190760150633541e+02   
1.010900000000000e+10    -1.777420088690568e+01   -1.190991122611839e+02   
1.011000000000000e+10    -1.774967883229876e+01   -1.192570662891925e+02   
1.011100000000000e+10    -1.772636658562365e+01   -1.193037758731503e+02   
1.011200000000000e+10    -1.770602202111020e+01   -1.195218095094492e+02   
1.011300000000000e+10    -1.768319959493503e+01   -1.194654089635831e+02   
1.011400000000000e+10    -1.762775121205905e+01   -1.196098016666868e+02   
1.011500000000000e+10    -1.761689487106115e+01   -1.197303445909053e+02   
1.011600000000000e+10    -1.760105823097859e+01   -1.199731572775917e+02   
1.011700000000000e+10    -1.754960365653282e+01   -1.199759634500128e+02   
1.011800000000000e+10    -1.754076043443630e+01   -1.201757634729653e+02   
1.011900000000000e+10    -1.749556436952924e+01   -1.203959488934541e+02   
1.012000000000000e+10    -1.745636515081764e+01   -1.205020654364205e+02   
1.012100000000000e+10    -1.744906019798290e+01   -1.206871370060950e+02   
1.012200000000000e+10    -1.740480473748843e+01   -1.208133194926178e+02   
1.012300000000000e+10    -1.738312183292808e+01   -1.210582241467154e+02   
1.012400000000000e+10    -1.734474268232150e+01   -1.210943651705894e+02   
1.012500000000000e+10    -1.731974986611865e+01   -1.211932234754464e+02   
1.012600000000000e+10    -1.728866104956360e+01   -1.213748523129137e+02   
1.012700000000000e+10    -1.725378225830623e+01   -1.216464585778844e+02   
1.012800000000000e+10    -1.722993322770918e+01   -1.217441887847470e+02   
1.012900000000000e+10    -1.718790791366612e+01   -1.219179021492557e+02   
1.013000000000000e+10    -1.718112899973922e+01   -1.221341782513545e+02   
1.013100000000000e+10    -1.712520078535344e+01   -1.221595426159437e+02   
1.013200000000000e+10    -1.709362280498729e+01   -1.224786694486149e+02   
1.013300000000000e+10    -1.705554078282361e+01   -1.225571251418331e+02   
1.013400000000000e+10    -1.703893680194899e+01   -1.228003546801520e+02   
1.013500000000000e+10    -1.700324446534494e+01   -1.229445427713889e+02   
1.013600000000000e+10    -1.697020220394780e+01   -1.231794520768491e+02   
1.013700000000000e+10    -1.693228299518398e+01   -1.232202798002647e+02   
1.013800000000000e+10    -1.690664967495192e+01   -1.235671623686831e+02   
1.013900000000000e+10    -1.686478072112823e+01   -1.237012054340996e+02   
1.014000000000000e+10    -1.686250481979051e+01   -1.238650562050382e+02   
1.014100000000000e+10    -1.682596118693650e+01   -1.240219534200700e+02   
1.014200000000000e+10    -1.680417539200347e+01   -1.242497980235616e+02   
1.014300000000000e+10    -1.676191493989186e+01   -1.243913542827205e+02   
1.014400000000000e+10    -1.675189417808469e+01   -1.246127320345912e+02   
1.014500000000000e+10    -1.670516085625665e+01   -1.247693649697160e+02   
1.014600000000000e+10    -1.667446428930597e+01   -1.249415916117994e+02   
1.014700000000000e+10    -1.665123345948533e+01   -1.251102262397908e+02   
1.014800000000000e+10    -1.662989828349210e+01   -1.253657394758760e+02   
1.014900000000000e+10    -1.658057972747162e+01   -1.254339110339179e+02   
1.015000000000000e+10    -1.656720360501371e+01   -1.256901051943414e+02   
1.015100000000000e+10    -1.653173000319715e+01   -1.257790519461871e+02   
1.015200000000000e+10    -1.650876679037168e+01   -1.259752830432548e+02   
1.015300000000000e+10    -1.646850828549441e+01   -1.262511336825604e+02   
1.015400000000000e+10    -1.646175793431592e+01   -1.263887420165297e+02   
1.015500000000000e+10    -1.642560012575593e+01   -1.265433699245813e+02   
1.015600000000000e+10    -1.640173521846812e+01   -1.266106208063617e+02   
1.015700000000000e+10    -1.636413331454442e+01   -1.267931048001904e+02   
1.015800000000000e+10    -1.633310638335575e+01   -1.269577593421394e+02   
1.015900000000000e+10    -1.630616796390338e+01   -1.272568482527223e+02   
1.016000000000000e+10    -1.629457305124405e+01   -1.274671435780757e+02   
1.016100000000000e+10    -1.627737776855787e+01   -1.275756224220659e+02   
1.016200000000000e+10    -1.625145500080412e+01   -1.277648933937378e+02   
1.016300000000000e+10    -1.621618667613490e+01   -1.279265323554449e+02   
1.016400000000000e+10    -1.619554822009747e+01   -1.280595008333158e+02   
1.016500000000000e+10    -1.616511192430450e+01   -1.282090448738042e+02   
1.016600000000000e+10    -1.615601042895109e+01   -1.283911245541576e+02   
1.016700000000000e+10    -1.613337588414319e+01   -1.286234312639901e+02   
1.016800000000000e+10    -1.610249477349888e+01   -1.287307502122549e+02   
1.016900000000000e+10    -1.609460208568121e+01   -1.289942717367065e+02   
1.017000000000000e+10    -1.606662852772800e+01   -1.291698554682887e+02   
1.017100000000000e+10    -1.606297925104926e+01   -1.294180687822713e+02   
1.017200000000000e+10    -1.603445131238686e+01   -1.294765320524656e+02   
1.017300000000000e+10    -1.601358482339303e+01   -1.296470502389354e+02   
1.017400000000000e+10    -1.599351635515383e+01   -1.298468315754239e+02   
1.017500000000000e+10    -1.600399915358443e+01   -1.299877869738239e+02   
1.017600000000000e+10    -1.595804627985204e+01   -1.303070361827169e+02   
1.017700000000000e+10    -1.595596721954357e+01   -1.304568991238047e+02   
1.017800000000000e+10    -1.593835996256242e+01   -1.305971526147878e+02   
1.017900000000000e+10    -1.591108012774817e+01   -1.308303815432594e+02   
1.018000000000000e+10    -1.592592023798393e+01   -1.309349437622393e+02   
1.018100000000000e+10    -1.589774526272983e+01   -1.311959926169575e+02   
1.018200000000000e+10    -1.590715099541528e+01   -1.313657520114189e+02   
1.018300000000000e+10    -1.588578361981943e+01   -1.316192391695880e+02   
1.018400000000000e+10    -1.586313022340684e+01   -1.318564673177763e+02   
1.018500000000000e+10    -1.586225937140569e+01   -1.321039361327821e+02   
1.018600000000000e+10    -1.584840205618060e+01   -1.322747085189878e+02   
1.018700000000000e+10    -1.585243298201014e+01   -1.324792306432100e+02   
1.018800000000000e+10    -1.583726152511894e+01   -1.326031222266143e+02   
1.018900000000000e+10    -1.582520619833167e+01   -1.328145783868576e+02   
1.019000000000000e+10    -1.582132338375271e+01   -1.330646920306972e+02   
1.019100000000000e+10    -1.581234925990398e+01   -1.333137040600483e+02   
1.019200000000000e+10    -1.579273364017740e+01   -1.335535531334480e+02   
1.019300000000000e+10    -1.577872470756202e+01   -1.337518883072235e+02   
1.019400000000000e+10    -1.578567155308692e+01   -1.339752609010111e+02   
1.019500000000000e+10    -1.577165738225375e+01   -1.341534228916426e+02   
1.019600000000000e+10    -1.577416573074161e+01   -1.344262636165505e+02   
1.019700000000000e+10    -1.575968181041262e+01   -1.346690777736479e+02   
1.019800000000000e+10    -1.574817570594504e+01   -1.349616332420595e+02   
1.019900000000000e+10    -1.574135407122751e+01   -1.351347656441153e+02   
1.020000000000000e+10    -1.575048890039188e+01   -1.354017835905871e+02   
1.020100000000000e+10    -1.572632970972488e+01   -1.355417154064085e+02   
1.020200000000000e+10    -1.572914551400065e+01   -1.358129507606739e+02   
1.020300000000000e+10    -1.571110860920735e+01   -1.359597428997071e+02   
1.020400000000000e+10    -1.571814309303838e+01   -1.361853925182361e+02   
1.020500000000000e+10    -1.571336749201723e+01   -1.364939116577707e+02   
1.020600000000000e+10    -1.569622440969333e+01   -1.367351783892218e+02   
1.020700000000000e+10    -1.568377916587113e+01   -1.370302167839134e+02   
1.020800000000000e+10    -1.568381723179449e+01   -1.372087338815368e+02   
1.020900000000000e+10    -1.570178410704769e+01   -1.374556201550882e+02   
1.021000000000000e+10    -1.569231385875434e+01   -1.376966718561568e+02   
1.021100000000000e+10    -1.568008566561958e+01   -1.379262359719215e+02   
1.021200000000000e+10    -1.569229315168939e+01   -1.381172613401127e+02   
1.021300000000000e+10    -1.568379313677980e+01   -1.383785562530766e+02   
1.021400000000000e+10    -1.568264226701054e+01   -1.385986410014771e+02   
1.021500000000000e+10    -1.567507594572494e+01   -1.387684646903322e+02   
1.021600000000000e+10    -1.567587324575767e+01   -1.390844869519291e+02   
1.021700000000000e+10    -1.567234504800943e+01   -1.393356608427131e+02   
1.021800000000000e+10    -1.567007884192856e+01   -1.395029819412383e+02   
1.021900000000000e+10    -1.567922172939884e+01   -1.396700391233158e+02   
1.022000000000000e+10    -1.567865767286380e+01   -1.399580134008064e+02   
1.022100000000000e+10    -1.566617299917601e+01   -1.402262383798941e+02   
1.022200000000000e+10    -1.568877432209239e+01   -1.403236550030105e+02   
1.022300000000000e+10    -1.568195191580740e+01   -1.405678465191743e+02   
1.022400000000000e+10    -1.568967630756240e+01   -1.408393190723191e+02   
1.022500000000000e+10    -1.568227546736840e+01   -1.409960543200598e+02   
1.022600000000000e+10    -1.570489623266312e+01   -1.413253698117023e+02   
1.022700000000000e+10    -1.570140927516317e+01   -1.415211004334341e+02   
1.022800000000000e+10    -1.570293476066562e+01   -1.417507725054638e+02   
1.022900000000000e+10    -1.571490171833830e+01   -1.420314267807672e+02   
1.023000000000000e+10    -1.570401732790444e+01   -1.422528679090893e+02   
1.023100000000000e+10    -1.570642943378030e+01   -1.425032955913526e+02   
1.023200000000000e+10    -1.572480042098761e+01   -1.427470181449773e+02   
1.023300000000000e+10    -1.572996596702111e+01   -1.429061273018073e+02   
1.023400000000000e+10    -1.573470815739144e+01   -1.431768226944052e+02   
1.023500000000000e+10    -1.576394505731169e+01   -1.432754460128180e+02   
1.023600000000000e+10    -1.573838599680117e+01   -1.435299091693456e+02   
1.023700000000000e+10    -1.575795582520048e+01   -1.438277980819928e+02   
1.023800000000000e+10    -1.575987899909624e+01   -1.439612308436795e+02   
1.023900000000000e+10    -1.577025625791360e+01   -1.443084255858465e+02   
1.024000000000000e+10    -1.579079278176619e+01   -1.444140741433591e+02   
1.024100000000000e+10    -1.577581263667770e+01   -1.445803281131977e+02   
1.024200000000000e+10    -1.579058136113345e+01   -1.448700572294200e+02   
1.024300000000000e+10    -1.581147356585456e+01   -1.450467107318175e+02   
1.024400000000000e+10    -1.582126757102699e+01   -1.452836147363243e+02   
1.024500000000000e+10    -1.581672276337299e+01   -1.454951219171906e+02   
1.024600000000000e+10    -1.583245713344159e+01   -1.457640769971388e+02   
1.024700000000000e+10    -1.583993534353746e+01   -1.459578547113180e+02   
1.024800000000000e+10    -1.585231910986686e+01   -1.460789379524616e+02   
1.024900000000000e+10    -1.588105373256217e+01   -1.463394985227959e+02   
1.025000000000000e+10    -1.587466935420220e+01   -1.466071833048966e+02   
1.025100000000000e+10    -1.587370755804178e+01   -1.466427992260712e+02   
1.025200000000000e+10    -1.590026606591926e+01   -1.469852911324882e+02   
1.025300000000000e+10    -1.589231665789091e+01   -1.471098496248393e+02   
1.025400000000000e+10    -1.591129027889480e+01   -1.473031825990903e+02   
1.025500000000000e+10    -1.594091663949862e+01   -1.474899772995621e+02   
1.025600000000000e+10    -1.594791622209295e+01   -1.477002404761880e+02   
