[Version] 2.0
! Rohde & Schwarz Vector Network Analyzer
! Rohde-Schwarz,ZNL20-2Port,1323001220200009,1.71.1.10-23.02.1.238
! 
! Port Assignments:
! Nominal Port -> Actual Test Port
! --------------------------------
!   1 -> 1

! Created: GMT 2024-08-27 13:52:17

# Hz S DB R 50

[Number of Ports] 1
[Number of Frequencies] 2001

[Network Data] 
! freq[Hz]               S11[mag dB]              S11[ang]                 
1.000000000000000e+10    -2.076826849814103e+01   -1.332672405926612e+02   
1.000100000000000e+10    -2.079674262533258e+01   -1.328157416216341e+02   
1.000200000000000e+10    -2.080408857715816e+01   -1.323298904569627e+02   
1.000300000000000e+10    -2.083970721876086e+01   -1.321458426175343e+02   
1.000400000000000e+10    -2.085202173316052e+01   -1.319975327630856e+02   
1.000500000000000e+10    -2.085242611157314e+01   -1.317108886077092e+02   
1.000600000000000e+10    -2.088194899695896e+01   -1.313384717332257e+02   
1.000700000000000e+10    -2.089181376956676e+01   -1.309709694518079e+02   
1.000800000000000e+10    -2.090935449651623e+01   -1.307304255400628e+02   
1.000900000000000e+10    -2.093874042120947e+01   -1.306045416743479e+02   
1.001000000000000e+10    -2.094440124955361e+01   -1.300877002601839e+02   
1.001100000000000e+10    -2.096418354048052e+01   -1.298938609823440e+02   
1.001200000000000e+10    -2.095833437414464e+01   -1.296314334110715e+02   
1.001300000000000e+10    -2.100352223493735e+01   -1.293690096731387e+02   
1.001400000000000e+10    -2.099248581300476e+01   -1.292421673162451e+02   
1.001500000000000e+10    -2.099788556673579e+01   -1.288995827447808e+02   
1.001600000000000e+10    -2.097963053101868e+01   -1.286376286996190e+02   
1.001700000000000e+10    -2.101298939140874e+01   -1.284961524677246e+02   
1.001800000000000e+10    -2.100403887288054e+01   -1.282959696500598e+02   
1.001900000000000e+10    -2.100406590884092e+01   -1.280045640962856e+02   
1.002000000000000e+10    -2.101431582105467e+01   -1.279054636220446e+02   
1.002100000000000e+10    -2.100909873030331e+01   -1.276945453356000e+02   
1.002200000000000e+10    -2.099120280370187e+01   -1.273694024749416e+02   
1.002300000000000e+10    -2.097187057103456e+01   -1.272178037294555e+02   
1.002400000000000e+10    -2.094974148659574e+01   -1.271058315967961e+02   
1.002500000000000e+10    -2.097126397925774e+01   -1.267300829680653e+02   
1.002600000000000e+10    -2.096714401754446e+01   -1.268482334464578e+02   
1.002700000000000e+10    -2.094962208008412e+01   -1.266882691826766e+02   
1.002800000000000e+10    -2.093889436835278e+01   -1.263588242166547e+02   
1.002900000000000e+10    -2.091131617166276e+01   -1.261242225632203e+02   
1.003000000000000e+10    -2.092078967634202e+01   -1.258252032863546e+02   
1.003100000000000e+10    -2.087851955160972e+01   -1.259346131869923e+02   
1.003200000000000e+10    -2.087700956940555e+01   -1.257706144127276e+02   
1.003300000000000e+10    -2.082755781900176e+01   -1.256553994984807e+02   
1.003400000000000e+10    -2.080288419950460e+01   -1.253361874809740e+02   
1.003500000000000e+10    -2.080774144539572e+01   -1.251699954012394e+02   
1.003600000000000e+10    -2.073194625951555e+01   -1.249576060811995e+02   
1.003700000000000e+10    -2.073934426960377e+01   -1.248537820277422e+02   
1.003800000000000e+10    -2.071271548106222e+01   -1.247491707662727e+02   
1.003900000000000e+10    -2.070432942598264e+01   -1.245736416998739e+02   
1.004000000000000e+10    -2.064575994056717e+01   -1.245686031533149e+02   
1.004100000000000e+10    -2.063853630433410e+01   -1.243333216961568e+02   
1.004200000000000e+10    -2.057700065713210e+01   -1.242253173479457e+02   
1.004300000000000e+10    -2.055835594197504e+01   -1.240450046698858e+02   
1.004400000000000e+10    -2.054084598583021e+01   -1.239808685352191e+02   
1.004500000000000e+10    -2.047690062115985e+01   -1.237996428959820e+02   
1.004600000000000e+10    -2.045287346133799e+01   -1.235907599704745e+02   
1.004700000000000e+10    -2.042304112309610e+01   -1.235106108015708e+02   
1.004800000000000e+10    -2.037631596678589e+01   -1.233437310724097e+02   
1.004900000000000e+10    -2.033011555244993e+01   -1.232547475437940e+02   
1.005000000000000e+10    -2.031162425358091e+01   -1.232607589786134e+02   
1.005100000000000e+10    -2.023243265652905e+01   -1.231286641028672e+02   
1.005200000000000e+10    -2.020177389039153e+01   -1.227759878187125e+02   
1.005300000000000e+10    -2.017233907551624e+01   -1.227497267844378e+02   
1.005400000000000e+10    -2.012679526241600e+01   -1.226684996537524e+02   
1.005500000000000e+10    -2.008625283728534e+01   -1.224647635543153e+02   
1.005600000000000e+10    -2.006930833009981e+01   -1.222842904048474e+02   
1.005700000000000e+10    -1.999629158751536e+01   -1.221461288686007e+02   
1.005800000000000e+10    -1.996165187179112e+01   -1.221143951915072e+02   
1.005900000000000e+10    -1.993291035955971e+01   -1.220566166604899e+02   
1.006000000000000e+10    -1.986541902649419e+01   -1.218818379944794e+02   
1.006100000000000e+10    -1.983632033766681e+01   -1.216139883123052e+02   
1.006200000000000e+10    -1.979956515247509e+01   -1.215555648773034e+02   
1.006300000000000e+10    -1.976153976562073e+01   -1.213841820321687e+02   
1.006400000000000e+10    -1.970542022332427e+01   -1.213436852187307e+02   
1.006500000000000e+10    -1.967442155423993e+01   -1.211877994609862e+02   
1.006600000000000e+10    -1.963385423963047e+01   -1.209550718999587e+02   
1.006700000000000e+10    -1.960451085945111e+01   -1.209559969300671e+02   
1.006800000000000e+10    -1.954004489990500e+01   -1.207000061736479e+02   
1.006900000000000e+10    -1.950177129244705e+01   -1.205143686754254e+02   
1.007000000000000e+10    -1.945976465818945e+01   -1.204954483553310e+02   
1.007100000000000e+10    -1.941426412702751e+01   -1.204569772798711e+02   
1.007200000000000e+10    -1.937055389265450e+01   -1.202005856929937e+02   
1.007300000000000e+10    -1.935044129070355e+01   -1.202341397025371e+02   
1.007400000000000e+10    -1.928416679151721e+01   -1.200142219470162e+02   
1.007500000000000e+10    -1.927001708185110e+01   -1.198541429032123e+02   
1.007600000000000e+10    -1.924056189348875e+01   -1.197284563596600e+02   
1.007700000000000e+10    -1.917620357141119e+01   -1.196477250626853e+02   
1.007800000000000e+10    -1.913232503916494e+01   -1.194462470098615e+02   
1.007900000000000e+10    -1.910163983123745e+01   -1.194705302492474e+02   
1.008000000000000e+10    -1.909051071420042e+01   -1.192487382749778e+02   
1.008100000000000e+10    -1.902452799329880e+01   -1.191420626551633e+02   
1.008200000000000e+10    -1.896933123838478e+01   -1.190148349025050e+02   
1.008300000000000e+10    -1.894940118409032e+01   -1.189897260731747e+02   
1.008400000000000e+10    -1.893597627104361e+01   -1.188348077888313e+02   
1.008500000000000e+10    -1.888062796660722e+01   -1.188216095287962e+02   
1.008600000000000e+10    -1.884134891331950e+01   -1.186989292563637e+02   
1.008700000000000e+10    -1.880830282392872e+01   -1.186904283833730e+02   
1.008800000000000e+10    -1.877462300863175e+01   -1.186603473221049e+02   
1.008900000000000e+10    -1.875428302915151e+01   -1.184668273557382e+02   
1.009000000000000e+10    -1.872290919717057e+01   -1.184944067803512e+02   
1.009100000000000e+10    -1.869210694619210e+01   -1.182644932668138e+02   
1.009200000000000e+10    -1.867220027070768e+01   -1.183837101583819e+02   
1.009300000000000e+10    -1.861817220752898e+01   -1.184196880666575e+02   
1.009400000000000e+10    -1.860643775015956e+01   -1.183298162580942e+02   
1.009500000000000e+10    -1.856550386536546e+01   -1.181896215228060e+02   
1.009600000000000e+10    -1.853016268827730e+01   -1.182267284153594e+02   
1.009700000000000e+10    -1.851282954081017e+01   -1.182270959093953e+02   
1.009800000000000e+10    -1.847210465808777e+01   -1.182667944841798e+02   
1.009900000000000e+10    -1.844543938416194e+01   -1.180602709777667e+02   
1.010000000000000e+10    -1.842570883378253e+01   -1.182371143547579e+02   
1.010100000000000e+10    -1.840870582073193e+01   -1.181066907566240e+02   
1.010200000000000e+10    -1.836170970642788e+01   -1.181996968999955e+02   
1.010300000000000e+10    -1.834161767983007e+01   -1.180619952467797e+02   
1.010400000000000e+10    -1.830827837148768e+01   -1.181711158609357e+02   
1.010500000000000e+10    -1.828370582325378e+01   -1.183512110018568e+02   
1.010600000000000e+10    -1.826072060067868e+01   -1.182227353309108e+02   
1.010700000000000e+10    -1.822577800535300e+01   -1.182482341137526e+02   
1.010800000000000e+10    -1.819050481513145e+01   -1.184945521615258e+02   
1.010900000000000e+10    -1.815813750731843e+01   -1.184749466850178e+02   
1.011000000000000e+10    -1.812994665820951e+01   -1.185734332510631e+02   
1.011100000000000e+10    -1.810432236804306e+01   -1.185801480367876e+02   
1.011200000000000e+10    -1.808322551336612e+01   -1.187745709971413e+02   
1.011300000000000e+10    -1.805722473241985e+01   -1.186870285589006e+02   
1.011400000000000e+10    -1.799865562932449e+01   -1.187999956292663e+02   
1.011500000000000e+10    -1.798603988006395e+01   -1.188503421228972e+02   
1.011600000000000e+10    -1.796940046878821e+01   -1.190781393977369e+02   
1.011700000000000e+10    -1.791557866877647e+01   -1.190340664869182e+02   
1.011800000000000e+10    -1.790566395080545e+01   -1.192039271517957e+02   
1.011900000000000e+10    -1.785554551449627e+01   -1.193998455469500e+02   
1.012000000000000e+10    -1.781404873101287e+01   -1.194557851853191e+02   
1.012100000000000e+10    -1.780460652564471e+01   -1.196013633937704e+02   
1.012200000000000e+10    -1.775780948193289e+01   -1.196971525359280e+02   
1.012300000000000e+10    -1.773300709860601e+01   -1.199176328816200e+02   
1.012400000000000e+10    -1.768969353231439e+01   -1.199262966259582e+02   
1.012500000000000e+10    -1.766326817166487e+01   -1.199872490838398e+02   
1.012600000000000e+10    -1.762934307218887e+01   -1.201552717274218e+02   
1.012700000000000e+10    -1.759057476164612e+01   -1.203736097939442e+02   
1.012800000000000e+10    -1.756300609636212e+01   -1.204368956914541e+02   
1.012900000000000e+10    -1.751675084363483e+01   -1.205895160488969e+02   
1.013000000000000e+10    -1.750909645686991e+01   -1.207747893680862e+02   
1.013100000000000e+10    -1.744715305920032e+01   -1.207711589573713e+02   
1.013200000000000e+10    -1.741367967818869e+01   -1.210646006908490e+02   
1.013300000000000e+10    -1.737272436621434e+01   -1.211260157431976e+02   
1.013400000000000e+10    -1.735065635409405e+01   -1.213298469282332e+02   
1.013500000000000e+10    -1.731250136113986e+01   -1.214551610058715e+02   
1.013600000000000e+10    -1.727729981362590e+01   -1.216707689779917e+02   
1.013700000000000e+10    -1.723529340096769e+01   -1.216851162044144e+02   
1.013800000000000e+10    -1.720498596035470e+01   -1.220005440941437e+02   
1.013900000000000e+10    -1.715959525958679e+01   -1.221261831195305e+02   
1.014000000000000e+10    -1.715169922197162e+01   -1.222360078468670e+02   
1.014100000000000e+10    -1.711246901556549e+01   -1.223745460567011e+02   
1.014200000000000e+10    -1.708746874396387e+01   -1.225687823646706e+02   
1.014300000000000e+10    -1.704092434656890e+01   -1.227047604394489e+02   
1.014400000000000e+10    -1.702833357405857e+01   -1.229011846184564e+02   
1.014500000000000e+10    -1.697441950062943e+01   -1.230448486839836e+02   
1.014600000000000e+10    -1.694121994052406e+01   -1.231862832440590e+02   
1.014700000000000e+10    -1.691193175594582e+01   -1.233451402398677e+02   
1.014800000000000e+10    -1.688704178871619e+01   -1.235784803120170e+02   
1.014900000000000e+10    -1.683225669118105e+01   -1.236230924023408e+02   
1.015000000000000e+10    -1.681639591321101e+01   -1.238554688996800e+02   
1.015100000000000e+10    -1.677756479117886e+01   -1.239273626494239e+02   
1.015200000000000e+10    -1.675012422583404e+01   -1.241086383117200e+02   
1.015300000000000e+10    -1.670302177530059e+01   -1.243740797089051e+02   
1.015400000000000e+10    -1.669188699314125e+01   -1.244893935422109e+02   
1.015500000000000e+10    -1.665322105332691e+01   -1.246236435564159e+02   
1.015600000000000e+10    -1.662318494426792e+01   -1.246732275830136e+02   
1.015700000000000e+10    -1.658222860954933e+01   -1.248533450683928e+02   
1.015800000000000e+10    -1.654424526576460e+01   -1.249965345453420e+02   
1.015900000000000e+10    -1.651203435968966e+01   -1.252829396375546e+02   
1.016000000000000e+10    -1.650118597957464e+01   -1.254755229351086e+02   
1.016100000000000e+10    -1.647770467420720e+01   -1.255856427547681e+02   
1.016200000000000e+10    -1.644813630045867e+01   -1.257512513832861e+02   
1.016300000000000e+10    -1.641006871935667e+01   -1.259045347204642e+02   
1.016400000000000e+10    -1.638563824130412e+01   -1.260329248275332e+02   
1.016500000000000e+10    -1.634960535464174e+01   -1.261580616197393e+02   
1.016600000000000e+10    -1.633674321504729e+01   -1.263380690388840e+02   
1.016700000000000e+10    -1.630826626798250e+01   -1.265515533929127e+02   
1.016800000000000e+10    -1.627375087639769e+01   -1.266634903355268e+02   
1.016900000000000e+10    -1.626070628045052e+01   -1.268914042298917e+02   
1.017000000000000e+10    -1.622874022481606e+01   -1.270719641167432e+02   
1.017100000000000e+10    -1.621993654087409e+01   -1.272904926037555e+02   
1.017200000000000e+10    -1.618605823124553e+01   -1.273504150479532e+02   
1.017300000000000e+10    -1.615923339183002e+01   -1.274963953951258e+02   
1.017400000000000e+10    -1.613371832160737e+01   -1.277104294491529e+02   
1.017500000000000e+10    -1.614007360363042e+01   -1.278320636243336e+02   
1.017600000000000e+10    -1.609045027605632e+01   -1.281410813314618e+02   
1.017700000000000e+10    -1.608328055762895e+01   -1.282934088464647e+02   
1.017800000000000e+10    -1.605966549582740e+01   -1.284327949491590e+02   
1.017900000000000e+10    -1.602630720020104e+01   -1.286445612850911e+02   
1.018000000000000e+10    -1.603599262634296e+01   -1.287367293571940e+02   
1.018100000000000e+10    -1.600321668218247e+01   -1.289949157872537e+02   
1.018200000000000e+10    -1.600820691265976e+01   -1.291627579436973e+02   
1.018300000000000e+10    -1.598254912966306e+01   -1.294179956744451e+02   
1.018400000000000e+10    -1.595272419646509e+01   -1.296549545958279e+02   
1.018500000000000e+10    -1.594961543132957e+01   -1.298981672481045e+02   
1.018600000000000e+10    -1.592927540096920e+01   -1.300641557830551e+02   
1.018700000000000e+10    -1.592709241334298e+01   -1.302456874658390e+02   
1.018800000000000e+10    -1.590989203481886e+01   -1.303608279555987e+02   
1.018900000000000e+10    -1.588909683052653e+01   -1.305887799439228e+02   
1.019000000000000e+10    -1.588020490982608e+01   -1.308426109158908e+02   
1.019100000000000e+10    -1.586864934937881e+01   -1.310860738774344e+02   
1.019200000000000e+10    -1.584344194300592e+01   -1.313131082355880e+02   
1.019300000000000e+10    -1.582254426460578e+01   -1.315270709618686e+02   
1.019400000000000e+10    -1.582497327186269e+01   -1.317466407909857e+02   
1.019500000000000e+10    -1.580868801697474e+01   -1.319403906774618e+02   
1.019600000000000e+10    -1.580415347899648e+01   -1.321995683807416e+02   
1.019700000000000e+10    -1.578437536330976e+01   -1.324430641729881e+02   
1.019800000000000e+10    -1.576906216621104e+01   -1.327243810359335e+02   
1.019900000000000e+10    -1.575674119940261e+01   -1.329082335665118e+02   
1.020000000000000e+10    -1.576095003599429e+01   -1.331814295799280e+02   
1.020100000000000e+10    -1.573367071443266e+01   -1.333253704066235e+02   
1.020200000000000e+10    -1.573079096260318e+01   -1.335979393892064e+02   
1.020300000000000e+10    -1.570750003204069e+01   -1.337272007662953e+02   
1.020400000000000e+10    -1.570875891141546e+01   -1.339695395628017e+02   
1.020500000000000e+10    -1.570008755751719e+01   -1.342907015965648e+02   
1.020600000000000e+10    -1.567952307933045e+01   -1.345248582061717e+02   
1.020700000000000e+10    -1.566315942040507e+01   -1.348318157257451e+02   
1.020800000000000e+10    -1.565678322422557e+01   -1.350104604989060e+02   
1.020900000000000e+10    -1.566954599939326e+01   -1.352669779651623e+02   
1.021000000000000e+10    -1.565385409444631e+01   -1.355153398673361e+02   
1.021100000000000e+10    -1.563842217144955e+01   -1.357406794557283e+02   
1.021200000000000e+10    -1.564552001658656e+01   -1.359444496543144e+02   
1.021300000000000e+10    -1.563345056830219e+01   -1.362023417668325e+02   
1.021400000000000e+10    -1.562817818494396e+01   -1.364386160000145e+02   
1.021500000000000e+10    -1.561398333836337e+01   -1.366254967569176e+02   
1.021600000000000e+10    -1.560997304338557e+01   -1.369449564598249e+02   
1.021700000000000e+10    -1.560523363474425e+01   -1.371856338925537e+02   
1.021800000000000e+10    -1.559710751243070e+01   -1.373752882495636e+02   
1.021900000000000e+10    -1.560058716040996e+01   -1.375407639491121e+02   
1.022000000000000e+10    -1.559543382958580e+01   -1.378389902047868e+02   
1.022100000000000e+10    -1.557900613059083e+01   -1.381218097888582e+02   
1.022200000000000e+10    -1.559705802338704e+01   -1.382332823367397e+02   
1.022300000000000e+10    -1.558812504602237e+01   -1.384797038943512e+02   
1.022400000000000e+10    -1.558947684141865e+01   -1.387563101137241e+02   
1.022500000000000e+10    -1.557809088558155e+01   -1.389299551895730e+02   
1.022600000000000e+10    -1.559657682963210e+01   -1.392612992863294e+02   
1.022700000000000e+10    -1.558749803158031e+01   -1.394625710225372e+02   
1.022800000000000e+10    -1.558538789679592e+01   -1.396984697502496e+02   
1.022900000000000e+10    -1.559415818251263e+01   -1.399951338904257e+02   
1.023000000000000e+10    -1.557960818939139e+01   -1.402315776019576e+02   
1.023100000000000e+10    -1.557897820848165e+01   -1.404914585438794e+02   
1.023200000000000e+10    -1.559072140050696e+01   -1.407473667379067e+02   
1.023300000000000e+10    -1.559285889513807e+01   -1.409313002433518e+02   
1.023400000000000e+10    -1.559518422679162e+01   -1.412163926961870e+02   
1.023500000000000e+10    -1.561926525278681e+01   -1.413190941379742e+02   
1.023600000000000e+10    -1.559060413104785e+01   -1.415847614169857e+02   
1.023700000000000e+10    -1.560810754376298e+01   -1.418975495968957e+02   
1.023800000000000e+10    -1.560410510913682e+01   -1.420508271847540e+02   
1.023900000000000e+10    -1.561495061511137e+01   -1.424231509076765e+02   
1.024000000000000e+10    -1.563143230965551e+01   -1.425188556954797e+02   
1.024100000000000e+10    -1.561326377051732e+01   -1.427083546966895e+02   
1.024200000000000e+10    -1.562440276772564e+01   -1.430094626644715e+02   
1.024300000000000e+10    -1.564027928334706e+01   -1.432132360010579e+02   
1.024400000000000e+10    -1.564782279464246e+01   -1.434597334664380e+02   
1.024500000000000e+10    -1.564156808728035e+01   -1.436790256331945e+02   
1.024600000000000e+10    -1.565299107174884e+01   -1.439706078666549e+02   
1.024700000000000e+10    -1.565880027283548e+01   -1.441742418780155e+02   
1.024800000000000e+10    -1.566679916013782e+01   -1.443140756628192e+02   
1.024900000000000e+10    -1.569545398453774e+01   -1.446001951998793e+02   
1.025000000000000e+10    -1.568622537386538e+01   -1.448766344720173e+02   
1.025100000000000e+10    -1.568317597071900e+01   -1.449385277340784e+02   
1.025200000000000e+10    -1.570568195379750e+01   -1.452601690201586e+02   
1.025300000000000e+10    -1.569630188313081e+01   -1.454247394616803e+02   
1.025400000000000e+10    -1.571056037399021e+01   -1.456252730771739e+02   
1.025500000000000e+10    -1.573848207230560e+01   -1.458370192632175e+02   
1.025600000000000e+10    -1.573990743911104e+01   -1.460635331464392e+02   
