[Version] 2.0
! Rohde & Schwarz Vector Network Analyzer
! Rohde-Schwarz,ZNL20-2Port,1323001220200009,1.71.1.10-23.02.1.238
! 
! Port Assignments:
! Nominal Port -> Actual Test Port
! --------------------------------
!   1 -> 1

! Created: GMT 2024-08-27 14:01:02

# Hz S DB R 50

[Number of Ports] 1
[Number of Frequencies] 2001

[Network Data] 
! freq[Hz]               S11[mag dB]              S11[ang]                 
1.000000000000000e+10    -1.952574973297380e+01   -1.430852967036940e+02   
1.000100000000000e+10    -1.958334332719556e+01   -1.428860185535354e+02   
1.000200000000000e+10    -1.962777593746816e+01   -1.426342945799279e+02   
1.000300000000000e+10    -1.968378280372659e+01   -1.426420997043398e+02   
1.000400000000000e+10    -1.972044171633803e+01   -1.426901049294566e+02   
1.000500000000000e+10    -1.975685555077927e+01   -1.425956263989195e+02   
1.000600000000000e+10    -1.981200475341354e+01   -1.424534011442760e+02   
1.000700000000000e+10    -1.985872531250784e+01   -1.422624608571374e+02   
1.000800000000000e+10    -1.990695693039027e+01   -1.422073820685648e+02   
1.000900000000000e+10    -1.996417697207472e+01   -1.422675445242658e+02   
1.001000000000000e+10    -2.000927954504562e+01   -1.419611110830098e+02   
1.001100000000000e+10    -2.006085740278237e+01   -1.419496327427145e+02   
1.001200000000000e+10    -2.009051411482000e+01   -1.418142133278612e+02   
1.001300000000000e+10    -2.016982925632547e+01   -1.418028061897754e+02   
1.001400000000000e+10    -2.019238475852426e+01   -1.417723227330123e+02   
1.001500000000000e+10    -2.024293716146470e+01   -1.415937598337828e+02   
1.001600000000000e+10    -2.026123699620545e+01   -1.414047841650993e+02   
1.001700000000000e+10    -2.032689172998066e+01   -1.414499587569183e+02   
1.001800000000000e+10    -2.035805915319459e+01   -1.413388757032718e+02   
1.001900000000000e+10    -2.039965083323278e+01   -1.411801086886380e+02   
1.002000000000000e+10    -2.044446443803451e+01   -1.412058007257101e+02   
1.002100000000000e+10    -2.048005474702470e+01   -1.410995260915921e+02   
1.002200000000000e+10    -2.051052030305588e+01   -1.408826606797452e+02   
1.002300000000000e+10    -2.052947903716049e+01   -1.407866180717329e+02   
1.002400000000000e+10    -2.054932762169004e+01   -1.407052798968441e+02   
1.002500000000000e+10    -2.061030115598952e+01   -1.404620211120005e+02   
1.002600000000000e+10    -2.064057267218860e+01   -1.405885099898702e+02   
1.002700000000000e+10    -2.066112732158839e+01   -1.404855613502813e+02   
1.002800000000000e+10    -2.069604100060901e+01   -1.402164265661005e+02   
1.002900000000000e+10    -2.071542851535637e+01   -1.399806258861311e+02   
1.003000000000000e+10    -2.077374095385311e+01   -1.397290335332304e+02   
1.003100000000000e+10    -2.075886648959174e+01   -1.398305296488685e+02   
1.003200000000000e+10    -2.079800577111357e+01   -1.396951626061319e+02   
1.003300000000000e+10    -2.079117958820628e+01   -1.395027174763531e+02   
1.003400000000000e+10    -2.081287118338125e+01   -1.392051713330505e+02   
1.003500000000000e+10    -2.085523832833425e+01   -1.390613904779326e+02   
1.003600000000000e+10    -2.082057929090771e+01   -1.387125860915383e+02   
1.003700000000000e+10    -2.086707777143691e+01   -1.386298750896788e+02   
1.003800000000000e+10    -2.087637648588744e+01   -1.384819304105670e+02   
1.003900000000000e+10    -2.090281615872917e+01   -1.383020169261807e+02   
1.004000000000000e+10    -2.087908423990383e+01   -1.381879086314331e+02   
1.004100000000000e+10    -2.091231052250954e+01   -1.379075847739801e+02   
1.004200000000000e+10    -2.088766619134312e+01   -1.376763412508754e+02   
1.004300000000000e+10    -2.091044975720226e+01   -1.374513588142123e+02   
1.004400000000000e+10    -2.092437778117763e+01   -1.373239064156810e+02   
1.004500000000000e+10    -2.089609888562833e+01   -1.370041852422095e+02   
1.004600000000000e+10    -2.091331979863256e+01   -1.367226099327262e+02   
1.004700000000000e+10    -2.091570415320577e+01   -1.365416591637799e+02   
1.004800000000000e+10    -2.090096614371969e+01   -1.362609795768593e+02   
1.004900000000000e+10    -2.088633399217671e+01   -1.360729909021077e+02   
1.005000000000000e+10    -2.089378082397383e+01   -1.359372211782406e+02   
1.005100000000000e+10    -2.084019451963942e+01   -1.356706951381676e+02   
1.005200000000000e+10    -2.085057637168857e+01   -1.351744746142092e+02   
1.005300000000000e+10    -2.084646107103836e+01   -1.350574666512623e+02   
1.005400000000000e+10    -2.083034835408706e+01   -1.348495378186232e+02   
1.005500000000000e+10    -2.081864586075037e+01   -1.345247854104909e+02   
1.005600000000000e+10    -2.083937598630704e+01   -1.342588920824530e+02   
1.005700000000000e+10    -2.078965880456627e+01   -1.339432371378693e+02   
1.005800000000000e+10    -2.078015881099170e+01   -1.337507141457454e+02   
1.005900000000000e+10    -2.077503356054351e+01   -1.335758611743332e+02   
1.006000000000000e+10    -2.073611648346390e+01   -1.332314763984282e+02   
1.006100000000000e+10    -2.073873146467598e+01   -1.328318048192164e+02   
1.006200000000000e+10    -2.072067979996416e+01   -1.326155699718862e+02   
1.006300000000000e+10    -2.071115080632225e+01   -1.322819824478842e+02   
1.006400000000000e+10    -2.067247773815034e+01   -1.320759512227314e+02   
1.006500000000000e+10    -2.066532298063751e+01   -1.318061808643732e+02   
1.006600000000000e+10    -2.065023090378298e+01   -1.313734222958243e+02   
1.006700000000000e+10    -2.064179363351026e+01   -1.312722555303332e+02   
1.006800000000000e+10    -2.060059082954172e+01   -1.308188133353427e+02   
1.006900000000000e+10    -2.058713294327158e+01   -1.304491395766138e+02   
1.007000000000000e+10    -2.056177290446721e+01   -1.302561248858722e+02   
1.007100000000000e+10    -2.053227178229565e+01   -1.300695190632744e+02   
1.007200000000000e+10    -2.051663755575738e+01   -1.296111217141508e+02   
1.007300000000000e+10    -2.051373486745673e+01   -1.295397630051096e+02   
1.007400000000000e+10    -2.046007236631203e+01   -1.290789894805843e+02   
1.007500000000000e+10    -2.047169526480595e+01   -1.287710833704626e+02   
1.007600000000000e+10    -2.046492566706795e+01   -1.284857051377076e+02   
1.007700000000000e+10    -2.040786965203100e+01   -1.282064451774433e+02   
1.007800000000000e+10    -2.038591343907866e+01   -1.278236374551070e+02   
1.007900000000000e+10    -2.036608640832267e+01   -1.276839353790885e+02   
1.008000000000000e+10    -2.038042996982455e+01   -1.272860604618146e+02   
1.008100000000000e+10    -2.032312217387479e+01   -1.269925874776651e+02   
1.008200000000000e+10    -2.028137892468069e+01   -1.266718761051730e+02   
1.008300000000000e+10    -2.027867886749016e+01   -1.265169970047767e+02   
1.008400000000000e+10    -2.028097970084890e+01   -1.262199880601689e+02   
1.008500000000000e+10    -2.023222428482799e+01   -1.260183653062572e+02   
1.008600000000000e+10    -2.020897486253159e+01   -1.257117011630295e+02   
1.008700000000000e+10    -2.019041571606629e+01   -1.255597509359606e+02   
1.008800000000000e+10    -2.017061613326359e+01   -1.253480787547301e+02   
1.008900000000000e+10    -2.016892664011555e+01   -1.249779951323436e+02   
1.009000000000000e+10    -2.014412747638107e+01   -1.248650989385823e+02   
1.009100000000000e+10    -2.012942907749245e+01   -1.244388862741584e+02   
1.009200000000000e+10    -2.012114255023489e+01   -1.243884562678182e+02   
1.009300000000000e+10    -2.007661757784773e+01   -1.242870833142109e+02   
1.009400000000000e+10    -2.007390431805302e+01   -1.240185559635886e+02   
1.009500000000000e+10    -2.004628395407529e+01   -1.236829934516831e+02   
1.009600000000000e+10    -2.001339125459403e+01   -1.235497011753098e+02   
1.009700000000000e+10    -2.000674556569373e+01   -1.233910540097467e+02   
1.009800000000000e+10    -1.997195005111784e+01   -1.232931423858589e+02   
1.009900000000000e+10    -1.995789412390863e+01   -1.229007673443475e+02   
1.010000000000000e+10    -1.994624823174637e+01   -1.229576087072959e+02   
1.010100000000000e+10    -1.993881185765857e+01   -1.226876128506274e+02   
1.010200000000000e+10    -1.989819742675441e+01   -1.226078118720234e+02   
1.010300000000000e+10    -1.988722055532866e+01   -1.223183647652085e+02   
1.010400000000000e+10    -1.986400298125738e+01   -1.222707826299027e+02   
1.010500000000000e+10    -1.984219430686938e+01   -1.223299749256841e+02   
1.010600000000000e+10    -1.982949374798766e+01   -1.220012948880250e+02   
1.010700000000000e+10    -1.979683864390410e+01   -1.218791790018847e+02   
1.010800000000000e+10    -1.976621692578834e+01   -1.219899399957486e+02   
1.010900000000000e+10    -1.974089466116381e+01   -1.218049928300769e+02   
1.011000000000000e+10    -1.971831596583130e+01   -1.217651067618804e+02   
1.011100000000000e+10    -1.969820182516371e+01   -1.216228448443223e+02   
1.011200000000000e+10    -1.968284906464336e+01   -1.216665499086301e+02   
1.011300000000000e+10    -1.965965880579051e+01   -1.213974559527390e+02   
1.011400000000000e+10    -1.959562092513575e+01   -1.213521007659094e+02   
1.011500000000000e+10    -1.958917743698503e+01   -1.212855481269560e+02   
1.011600000000000e+10    -1.957520485823494e+01   -1.213830948534546e+02   
1.011700000000000e+10    -1.952030516552781e+01   -1.211744223898626e+02   
1.011800000000000e+10    -1.951492319758109e+01   -1.212282699063423e+02   
1.011900000000000e+10    -1.946137712754817e+01   -1.212784837684059e+02   
1.012000000000000e+10    -1.941957740148868e+01   -1.211913061835185e+02   
1.012100000000000e+10    -1.941695635393085e+01   -1.212130650143390e+02   
1.012200000000000e+10    -1.936562784832921e+01   -1.211613513852233e+02   
1.012300000000000e+10    -1.934197445759909e+01   -1.212682150680428e+02   
1.012400000000000e+10    -1.929389111113719e+01   -1.211012837539331e+02   
1.012500000000000e+10    -1.926872378328157e+01   -1.210060410352185e+02   
1.012600000000000e+10    -1.923299912118593e+01   -1.210570050018156e+02   
1.012700000000000e+10    -1.919453099501090e+01   -1.211506861753104e+02   
1.012800000000000e+10    -1.916340095006723e+01   -1.210611938573455e+02   
1.012900000000000e+10    -1.910954695816369e+01   -1.210870920541414e+02   
1.013000000000000e+10    -1.910439644125091e+01   -1.211452987237882e+02   
1.013100000000000e+10    -1.903577882029608e+01   -1.209541374572655e+02   
1.013200000000000e+10    -1.899759461527593e+01   -1.211864831278696e+02   
1.013300000000000e+10    -1.894882410184184e+01   -1.210874735525699e+02   
1.013400000000000e+10    -1.892601230151996e+01   -1.211929384956381e+02   
1.013500000000000e+10    -1.888125590381887e+01   -1.211883119418470e+02   
1.013600000000000e+10    -1.883924340687299e+01   -1.212933949083150e+02   
1.013700000000000e+10    -1.879359581700581e+01   -1.211487782391503e+02   
1.013800000000000e+10    -1.875737878245132e+01   -1.213675427206398e+02   
1.013900000000000e+10    -1.870550689595021e+01   -1.213418277054047e+02   
1.014000000000000e+10    -1.869790478707916e+01   -1.213199279194452e+02   
1.014100000000000e+10    -1.864962267704413e+01   -1.213424797774996e+02   
1.014200000000000e+10    -1.861997840793944e+01   -1.214088573893866e+02   
1.014300000000000e+10    -1.856253682791604e+01   -1.214102668669368e+02   
1.014400000000000e+10    -1.854474958166662e+01   -1.214824670467217e+02   
1.014500000000000e+10    -1.848230817170464e+01   -1.215076058567220e+02   
1.014600000000000e+10    -1.843703743535321e+01   -1.215506601587339e+02   
1.014700000000000e+10    -1.840274237337692e+01   -1.215717637944309e+02   
1.014800000000000e+10    -1.837109892956392e+01   -1.217123708559272e+02   
1.014900000000000e+10    -1.830242025662234e+01   -1.216141175316772e+02   
1.015000000000000e+10    -1.828287595273132e+01   -1.217266372590604e+02   
1.015100000000000e+10    -1.823269304811980e+01   -1.216942679145818e+02   
1.015200000000000e+10    -1.819765708477856e+01   -1.217416108711322e+02   
1.015300000000000e+10    -1.814256890347813e+01   -1.219112775085103e+02   
1.015400000000000e+10    -1.812419278071336e+01   -1.218867958179452e+02   
1.015500000000000e+10    -1.807284528301328e+01   -1.218996504109376e+02   
1.015600000000000e+10    -1.803115018262159e+01   -1.218261157263821e+02   
1.015700000000000e+10    -1.798042697302027e+01   -1.218837483486450e+02   
1.015800000000000e+10    -1.793030685256811e+01   -1.219151907534783e+02   
1.015900000000000e+10    -1.788797430226762e+01   -1.221091524567357e+02   
1.016000000000000e+10    -1.786823357405626e+01   -1.221868686898416e+02   
1.016100000000000e+10    -1.783567896359641e+01   -1.221724559666256e+02   
1.016200000000000e+10    -1.779800068663571e+01   -1.222187746427389e+02   
1.016300000000000e+10    -1.774637218365146e+01   -1.222628734964175e+02   
1.016400000000000e+10    -1.771053899343833e+01   -1.222579974075949e+02   
1.016500000000000e+10    -1.766312746351694e+01   -1.222722086119127e+02   
1.016600000000000e+10    -1.764010659597868e+01   -1.223340851854539e+02   
1.016700000000000e+10    -1.760249913582210e+01   -1.224577581069462e+02   
1.016800000000000e+10    -1.755311890119981e+01   -1.224275316197294e+02   
1.016900000000000e+10    -1.753258281804282e+01   -1.225621828501356e+02   
1.017000000000000e+10    -1.748497611007698e+01   -1.226368708062805e+02   
1.017100000000000e+10    -1.747003964991676e+01   -1.227439280595152e+02   
1.017200000000000e+10    -1.741650228753315e+01   -1.226803639849115e+02   
1.017300000000000e+10    -1.737952237903935e+01   -1.227323861555177e+02   
1.017400000000000e+10    -1.733984606511687e+01   -1.228209130121296e+02   
1.017500000000000e+10    -1.733674567093897e+01   -1.228030924384728e+02   
1.017600000000000e+10    -1.727239412751381e+01   -1.230717855864521e+02   
1.017700000000000e+10    -1.725553901035309e+01   -1.231170910585130e+02   
1.017800000000000e+10    -1.721366926472103e+01   -1.231333498911034e+02   
1.017900000000000e+10    -1.716937841289670e+01   -1.232863461939638e+02   
1.018000000000000e+10    -1.716592702995084e+01   -1.232349236299410e+02   
1.018100000000000e+10    -1.712156682077785e+01   -1.234076206894545e+02   
1.018200000000000e+10    -1.711353795831706e+01   -1.234707066042959e+02   
1.018300000000000e+10    -1.707432265362655e+01   -1.236498138725504e+02   
1.018400000000000e+10    -1.702967404663637e+01   -1.237834729459996e+02   
1.018500000000000e+10    -1.701369830410118e+01   -1.239249294322805e+02   
1.018600000000000e+10    -1.698118133688366e+01   -1.239968563004456e+02   
1.018700000000000e+10    -1.696569865532730e+01   -1.240923444414766e+02   
1.018800000000000e+10    -1.693014910726541e+01   -1.240984507850459e+02   
1.018900000000000e+10    -1.689640386331777e+01   -1.242465852002584e+02   
1.019000000000000e+10    -1.687410209000056e+01   -1.244079435101312e+02   
1.019100000000000e+10    -1.684709324539226e+01   -1.245676694806510e+02   
1.019200000000000e+10    -1.680677137090608e+01   -1.247561876209678e+02   
1.019300000000000e+10    -1.676936617374746e+01   -1.248670769854352e+02   
1.019400000000000e+10    -1.675596083847200e+01   -1.250015223503137e+02   
1.019500000000000e+10    -1.672299738764338e+01   -1.251247054319052e+02   
1.019600000000000e+10    -1.670551392254931e+01   -1.253019050840083e+02   
1.019700000000000e+10    -1.666982629451688e+01   -1.254827668230845e+02   
1.019800000000000e+10    -1.663873623138053e+01   -1.257323916228141e+02   
1.019900000000000e+10    -1.660935888512322e+01   -1.258363130790160e+02   
1.020000000000000e+10    -1.659829833705196e+01   -1.260235171753750e+02   
1.020100000000000e+10    -1.655768485224917e+01   -1.261194907125828e+02   
1.020200000000000e+10    -1.653738065386820e+01   -1.263303031487967e+02   
1.020300000000000e+10    -1.649580242391363e+01   -1.264059623895356e+02   
1.020400000000000e+10    -1.648227280469045e+01   -1.265624805172744e+02   
1.020500000000000e+10    -1.645790382689908e+01   -1.268300272802316e+02   
1.020600000000000e+10    -1.641868215288919e+01   -1.270249658563078e+02   
1.020700000000000e+10    -1.638697563222401e+01   -1.272803808997719e+02   
1.020800000000000e+10    -1.636186135036873e+01   -1.273861523337676e+02   
1.020900000000000e+10    -1.635694187387026e+01   -1.275770578102785e+02   
1.021000000000000e+10    -1.632349314446657e+01   -1.277840420927666e+02   
1.021100000000000e+10    -1.628939642001121e+01   -1.280006321611426e+02   
1.021200000000000e+10    -1.627854155700522e+01   -1.281395207768108e+02   
1.021300000000000e+10    -1.624939073245477e+01   -1.283679875215521e+02   
1.021400000000000e+10    -1.622420418823594e+01   -1.285420504486270e+02   
1.021500000000000e+10    -1.619120756050668e+01   -1.287159009431523e+02   
1.021600000000000e+10    -1.617014360837931e+01   -1.289998324972805e+02   
1.021700000000000e+10    -1.614677697226325e+01   -1.292229900892455e+02   
1.021800000000000e+10    -1.612060029452338e+01   -1.293846003232750e+02   
1.021900000000000e+10    -1.610279580801206e+01   -1.295174222854328e+02   
1.022000000000000e+10    -1.607998376897466e+01   -1.297828429511388e+02   
1.022100000000000e+10    -1.604664763074941e+01   -1.300621020272891e+02   
1.022200000000000e+10    -1.604376656918607e+01   -1.301202027325509e+02   
1.022300000000000e+10    -1.601600018135468e+01   -1.303679029107550e+02   
1.022400000000000e+10    -1.600074030423637e+01   -1.306144733709054e+02   
1.022500000000000e+10    -1.596693752523430e+01   -1.307920866893989e+02   
1.022600000000000e+10    -1.597044587675840e+01   -1.310836961710818e+02   
1.022700000000000e+10    -1.594175928084629e+01   -1.312934473294722e+02   
1.022800000000000e+10    -1.592097002569957e+01   -1.315228695570569e+02   
1.022900000000000e+10    -1.591155343971046e+01   -1.318077509040996e+02   
1.023000000000000e+10    -1.587746967228250e+01   -1.320536025544723e+02   
1.023100000000000e+10    -1.585923037946707e+01   -1.323188982253096e+02   
1.023200000000000e+10    -1.585397550287506e+01   -1.325700834703071e+02   
1.023300000000000e+10    -1.583680239114690e+01   -1.327468229741199e+02   
1.023400000000000e+10    -1.582024668001284e+01   -1.330464016467832e+02   
1.023500000000000e+10    -1.582620165818185e+01   -1.331467910442588e+02   
1.023600000000000e+10    -1.577981013303675e+01   -1.334447787915642e+02   
1.023700000000000e+10    -1.578104726933270e+01   -1.337537329371510e+02   
1.023800000000000e+10    -1.576069407491999e+01   -1.339200533579248e+02   
1.023900000000000e+10    -1.575554922011110e+01   -1.342905996778509e+02   
1.024000000000000e+10    -1.575318231107934e+01   -1.344038428857835e+02   
1.024100000000000e+10    -1.571716580290565e+01   -1.346209148395792e+02   
1.024200000000000e+10    -1.571169924409350e+01   -1.349310071147986e+02   
1.024300000000000e+10    -1.571193879311011e+01   -1.351291143235843e+02   
1.024400000000000e+10    -1.570244874587171e+01   -1.354025672387085e+02   
1.024500000000000e+10    -1.567945998001288e+01   -1.356558414142314e+02   
1.024600000000000e+10    -1.567657464663893e+01   -1.359618672803717e+02   
1.024700000000000e+10    -1.566412423887566e+01   -1.361841398636612e+02   
1.024800000000000e+10    -1.565494315941829e+01   -1.363543191884556e+02   
1.024900000000000e+10    -1.566910139337805e+01   -1.366403422240252e+02   
1.025000000000000e+10    -1.564324441944160e+01   -1.369637901866476e+02   
1.025100000000000e+10    -1.562658930054957e+01   -1.370587719415449e+02   
1.025200000000000e+10    -1.563482074813319e+01   -1.374218038506675e+02   
1.025300000000000e+10    -1.561089679191187e+01   -1.376306221330467e+02   
1.025400000000000e+10    -1.560981433289341e+01   -1.378667894083883e+02   
1.025500000000000e+10    -1.562349900241009e+01   -1.380769026290800e+02   
1.025600000000000e+10    -1.561380612616629e+01   -1.383404728668561e+02   
